DIgSILENT PowerFactory,21000900,2000
6,06A,00D
1,TTPP_200000_100:Secondary Voltage A,,,V,0.010000000,-67.868713,0.000000,-86352,99998,1,1,P
2,TTPP_200000_100:Secondary Voltage B,,,V,0.010000000,-58.129864,0.000000,-99861,99998,1,1,P
3,TTPP_200000_100:Secondary Voltage C,,,V,0.10000000,-9015.823242,0.000000,79731,99998,1,1,P
4,TTCC_500_5:Secondary Current A,,,A,0.0010000000,-85.857628,0.000000,65018,99998,1,1,P
5,TTCC_500_5:Secondary Current B,,,A,0.0010000000,-84.981926,0.000000,69990,99998,1,1,P
6,TTCC_500_5:Secondary Current C,,,A,0.0010000000,-84.650719,0.000000,69280,99998,1,1,P
50
1
1000.000000,1101
30/06/2023,06:04:55.000000
30/06/2023,06:04:55.000000
ASCII
1.000000
0000000001,0000000000,061912,042212,081006,091774,089661,074056
0000000002,0000001000,036430,066549,081120,088758,092377,074354
0000000003,0000002000,007910,085108,082118,085459,094372,075659
0000000004,0000003000,-20537,095715,083900,082204,095442,077845
0000000005,0000004000,-46370,097539,086302,079300,095492,080699
0000000006,0000005000,-67108,090486,089080,077038,094513,083939
0000000007,0000006000,-80575,075190,091956,075645,092600,087245
0000000008,0000007000,-85297,052868,094661,075249,089941,090300
0000000009,0000008000,-81196,026071,096930,075890,086797,092803
0000000010,0000009000,-68562,-02556,098531,077508,083476,094507
0000000011,0000010000,-48354,-30565,099310,079946,080300,095244
0000000012,0000011000,-22726,-55055,099197,082960,077585,094946
0000000013,0000012000,005572,-73385,098200,086258,075592,093641
0000000014,0000013000,034052,-84036,096416,089517,074518,091455
0000000015,0000014000,060070,-86034,094015,092419,074470,088601
0000000016,0000015000,080667,-78855,091236,094678,075451,085361
0000000017,0000016000,094024,-63440,088360,096074,077361,082055
0000000018,0000017000,098967,-41335,085655,096471,080020,079000
0000000019,0000018000,094832,-14512,083386,095826,083167,076497
0000000020,0000019000,082010,014319,081786,094210,086487,074794
0000000021,0000020000,061952,042163,081006,091775,089660,074056
0000000022,0000021000,036402,066579,081120,088757,092378,074354
0000000023,0000022000,007921,085092,082117,085459,094372,075660
0000000024,0000023000,-20528,095713,083900,082203,095442,077845
0000000025,0000024000,-46380,097544,086302,079299,095492,080699
0000000026,0000025000,-67136,090518,089080,077039,094513,083939
0000000027,0000026000,-80518,075145,091956,075644,092601,087245
0000000028,0000027000,-85313,052879,094661,075248,089942,090300
0000000029,0000028000,-81245,026119,096931,075890,086797,092803
0000000030,0000029000,-68531,-02594,098531,077508,083475,094507
0000000031,0000030000,-48322,-30596,099310,079944,080302,095244
0000000032,0000031000,-22780,-55004,099197,082959,077585,094946
0000000033,0000032000,005556,-73373,098200,086258,075591,093641
0000000034,0000033000,034122,-84099,096416,089516,074519,091455
0000000035,0000034000,060038,-86006,094015,092418,074471,088601
0000000036,0000035000,080633,-78820,091237,094678,075451,085362
0000000037,0000036000,094058,-63480,088361,096075,077360,082055
0000000038,0000037000,098990,-41360,085655,096469,080021,079000
0000000039,0000038000,094786,-14463,083386,095826,083167,076497
0000000040,0000039000,082026,014300,081785,094210,086486,074794
0000000041,0000040000,061982,042138,081006,091774,089659,074056
0000000042,0000041000,036382,066602,081120,088757,092379,074355
0000000043,0000042000,007922,085099,082116,085460,094371,075660
0000000044,0000043000,-20506,095689,083900,082203,095442,077845
0000000045,0000044000,-46397,097560,086302,079299,095492,080699
0000000046,0000045000,-67141,090531,089079,077039,094513,083939
0000000047,0000046000,-80494,075121,091955,075644,092601,087245
0000000048,0000047000,-85334,052902,094661,075248,089942,090300
0000000049,0000048000,-81260,026137,096930,075890,086797,092803
0000000050,0000049000,-68503,-02620,098530,077508,083476,094506
0000000051,0000050000,-48331,-30590,099311,079943,080303,095244
0000000052,0000051000,-22822,-54969,099197,082959,077586,094946
0000000053,0000052000,005582,-73401,098200,086258,075592,093641
0000000054,0000053000,034137,-84121,096416,089515,074520,091456
0000000055,0000054000,059995,-85968,094015,092416,074472,088602
0000000056,0000055000,080636,-78827,091237,094678,075450,085362
0000000057,0000056000,094097,-63524,088361,096073,077361,082056
0000000058,0000057000,098969,-41342,085656,096468,080022,079001
0000000059,0000058000,094766,-14446,083386,095826,083167,076498
0000000060,0000059000,082069,014257,081786,094210,086485,074795
0000000061,0000060000,061986,042135,081006,091773,089660,074057
0000000062,0000061000,036359,066631,081119,088757,092378,074355
0000000063,0000062000,007946,085081,082116,085460,094370,075660
0000000064,0000063000,-20486,095674,083900,082203,095442,077845
0000000065,0000064000,-46418,097592,086301,079299,095492,080699
0000000066,0000065000,-67133,090531,089078,077040,094512,083938
0000000067,0000066000,-80478,075109,091955,075645,092601,087245
0000000068,0000067000,-85359,052929,094661,075248,089943,090299
0000000069,0000068000,-81267,026148,096930,075891,086797,092802
0000000070,0000069000,-68489,-02634,098531,077508,083477,094505
0000000071,0000070000,-48357,-30570,099311,079942,080305,095243
0000000072,0000071000,-22842,-54953,099198,082959,077587,094945
0000000073,0000072000,005601,-73427,098201,086257,075593,093640
0000000074,0000073000,034121,-84117,096418,089513,074521,091456
0000000075,0000074000,059967,-85950,094016,092415,074473,088602
0000000076,0000075000,080658,-78857,091238,094677,075450,085363
0000000077,0000076000,094109,-63544,088362,096071,077362,082057
0000000078,0000077000,098943,-41322,085656,096466,080021,079003
0000000079,0000078000,094783,-14464,083387,095825,083166,076499
0000000080,0000079000,082104,014223,081785,094209,086485,074796
0000000081,0000080000,061975,042150,081005,091773,089659,074058
0000000082,0000081000,036362,066637,081118,088758,092376,074356
0000000083,0000082000,007984,085053,082115,085461,094368,075661
0000000084,0000083000,-20485,095685,083898,082203,095441,077846
0000000085,0000084000,-46432,097621,086300,079301,095491,080699
0000000086,0000085000,-67111,090522,089077,077041,094511,083937
0000000087,0000086000,-80476,075117,091954,075646,092601,087243
0000000088,0000087000,-85386,052965,094660,075249,089943,090298
0000000089,0000088000,-81266,026152,096929,075892,086798,092801
0000000090,0000089000,-68491,-02635,098531,077508,083479,094504
0000000091,0000090000,-48391,-30541,099312,079942,080306,095242
0000000092,0000091000,-22854,-54949,099199,082958,077588,094944
0000000093,0000092000,005603,-73444,098202,086255,075595,093640
0000000094,0000093000,034094,-84107,096419,089511,074524,091455
0000000095,0000094000,059954,-85952,094018,092414,074474,088603
0000000096,0000095000,080677,-78892,091240,094674,075452,085364
0000000097,0000096000,094103,-63554,088363,096069,077363,082059
0000000098,0000097000,098936,-41324,085657,096465,080021,079005
0000000099,0000098000,094816,-14501,083387,095824,083165,076502
0000000100,0000099000,082124,014203,081785,094208,086484,074799
0000000101,0000100000,061972,042160,081005,091773,089657,074060
0000000102,0000101000,036392,066620,081117,088759,092374,074358
0000000103,0000102000,008016,085036,082113,085462,094366,075662
0000000104,0000103000,-20491,095711,083896,082205,095440,077846
0000000105,0000104000,-46425,097635,086297,079304,095489,080698
0000000106,0000105000,-67088,090518,089075,077044,094510,083936
0000000107,0000106000,-80491,075148,091952,075648,092601,087241
0000000108,0000107000,-85408,053000,094659,075252,089943,090295
0000000109,0000108000,-81265,026156,096929,075893,086799,092798
0000000110,0000109000,-68513,-02616,098531,077508,083481,094501
0000000111,0000110000,-48430,-30510,099312,079942,080309,095240
0000000112,0000111000,-22865,-54953,099200,082957,077591,094942
0000000113,0000112000,005588,-73451,098205,086253,075598,093639
0000000114,0000113000,034060,-84097,096422,089509,074526,091455
0000000115,0000114000,059949,-85971,094020,092411,074476,088603
0000000116,0000115000,080685,-78925,091242,094671,075453,085366
0000000117,0000116000,094093,-63564,088366,096066,077363,082061
0000000118,0000117000,098947,-41347,085659,096463,080020,079008
0000000119,0000118000,094852,-14544,083388,095822,083163,076505
0000000120,0000119000,082139,014189,081785,094207,086482,074802
0000000121,0000120000,061990,042154,081004,091773,089654,074063
0000000122,0000121000,036437,066594,081115,088760,092370,074360
0000000123,0000122000,008041,085035,082111,085464,094363,075663
0000000124,0000123000,-20486,095736,083893,082208,095436,077846
0000000125,0000124000,-46400,097642,086294,079307,095486,080697
0000000126,0000125000,-67076,090533,089073,077047,094509,083934
0000000127,0000126000,-80513,075194,091950,075651,092601,087239
0000000128,0000127000,-85420,053031,094657,075255,089944,090292
0000000129,0000128000,-81274,026172,096928,075895,086801,092794
0000000130,0000129000,-68555,-02578,098532,077509,083484,094497
0000000131,0000130000,-48469,-30483,099314,079942,080312,095236
0000000132,0000131000,-22883,-54957,099202,082956,077595,094940
0000000133,0000132000,005553,-73447,098208,086250,075603,093637
0000000134,0000133000,034025,-84095,096425,089505,074530,091455
0000000135,0000134000,059946,-86003,094024,092407,074479,088604
0000000136,0000135000,080683,-78958,091246,094666,075456,085368
0000000137,0000136000,094087,-63585,088368,096062,077364,082064
0000000138,0000137000,098972,-41391,085660,096459,080020,079012
0000000139,0000138000,094888,-14589,083389,095819,083162,076510
0000000140,0000139000,082161,014170,081785,094205,086479,074806
0000000141,0000140000,062030,042131,081002,091774,089649,074067
0000000142,0000141000,036488,066569,081112,088761,092366,074363
0000000143,0000142000,008066,085044,082107,085467,094359,075665
0000000144,0000143000,-20464,095755,083889,082212,095432,077846
0000000145,0000144000,-46369,097652,086290,079312,095482,080696
0000000146,0000145000,-67075,090569,089069,077052,094507,083932
0000000147,0000146000,-80533,075246,091947,075656,092600,087235
0000000148,0000147000,-85430,053064,094655,075259,089944,090287
0000000149,0000148000,-81303,026209,096927,075898,086803,092789
0000000150,0000149000,-68608,-02528,098532,077511,083487,094492
0000000151,0000150000,-48509,-30460,099315,079942,080317,095232
0000000152,0000151000,-22919,-54952,099206,082954,077600,094936
0000000153,0000152000,005502,-73436,098212,086247,075608,093635
0000000154,0000153000,033992,-84107,096429,089501,074535,091455
0000000155,0000154000,059937,-86042,094028,092401,074483,088606
0000000156,0000155000,080671,-78991,091250,094661,075458,085371
0000000157,0000156000,094090,-63624,088372,096056,077365,082069
0000000158,0000157000,099007,-41451,085663,096455,080019,079017
0000000159,0000158000,094923,-14637,083390,095816,083159,076515
0000000160,0000159000,082197,014139,081785,094204,086475,074812
0000000161,0000160000,062089,042092,081000,091774,089644,074072
0000000162,0000161000,036543,066546,081109,088763,092360,074367
0000000163,0000162000,008101,085054,082103,085470,094353,075667
0000000164,0000163000,-20424,095768,083884,082217,095426,077847
0000000165,0000164000,-46338,097674,086285,079318,095478,080695
0000000166,0000165000,-67078,090621,089064,077058,094504,083928
0000000167,0000166000,-80546,075302,091942,075662,092598,087230
0000000168,0000167000,-85447,053109,094652,075264,089945,090281
0000000169,0000168000,-81349,026267,096926,075902,086806,092782
0000000170,0000169000,-68668,-02474,098532,077513,083492,094486
0000000171,0000170000,-48557,-30434,099318,079942,080322,095226
0000000172,0000171000,-22976,-54935,099210,082951,077607,094932
0000000173,0000172000,005440,-73425,098217,086243,075615,093633
0000000174,0000173000,033957,-84130,096435,089495,074541,091454
0000000175,0000174000,059917,-86084,094035,092394,074488,088608
0000000176,0000175000,080654,-79031,091256,094653,075462,085375
0000000177,0000176000,094104,-63684,088376,096050,077366,082074
0000000178,0000177000,099046,-41524,085666,096449,080018,079024
0000000179,0000178000,094964,-14692,083391,095811,083156,076523
0000000180,0000179000,082253,014091,081784,094202,086469,074819
0000000181,0000180000,062163,042044,080997,091774,089637,074079
0000000182,0000181000,036605,066527,081105,088765,092353,074372
0000000183,0000182000,008153,085061,082097,085475,094345,075670
0000000184,0000183000,-20371,095782,083877,082224,095419,077848
0000000185,0000184000,-46308,097711,086278,079325,095472,080693
0000000186,0000185000,-67079,090686,089058,077066,094500,083924
0000000187,0000186000,-80556,075365,091937,075670,092597,087224
0000000188,0000187000,-85477,053174,094648,075270,089946,090273
0000000189,0000188000,-81410,026343,096925,075906,086810,092774
0000000190,0000189000,-68734,-02414,098533,077515,083498,094478
0000000191,0000190000,-48622,-30398,099321,079942,080330,095219
0000000192,0000191000,-23054,-54906,099214,082948,077616,094926
0000000193,0000192000,005371,-73420,098223,086237,075624,093629
0000000194,0000193000,033914,-84161,096443,089488,074549,091453
0000000195,0000194000,059884,-86128,094042,092386,074495,088610
0000000196,0000195000,080639,-79086,091263,094644,075466,085380
0000000197,0000196000,094126,-63763,088382,096041,077368,082081
0000000198,0000197000,099088,-41606,085670,096441,080017,079032
0000000199,0000198000,095015,-14760,083393,095806,083152,076532
0000000200,0000199000,082329,014024,081783,094199,086463,074828
0000000201,0000200000,062250,041989,080994,091774,089629,074087
0000000202,0000201000,036679,066507,081099,088769,092343,074378
0000000203,0000202000,008223,085063,082090,085481,094335,075674
0000000204,0000203000,-20307,095800,083869,082232,095410,077848
0000000205,0000204000,-46276,097763,086270,079334,095465,080691
0000000206,0000205000,-67073,090759,089050,077076,094495,083919
0000000207,0000206000,-80567,075441,091931,075679,092595,087216
0000000208,0000207000,-85520,053261,094644,075278,089948,090264
0000000209,0000208000,-81481,026433,096923,075912,086814,092764
0000000210,0000209000,-68810,-02345,098534,077518,083505,094468
0000000211,0000210000,-48709,-30349,099324,079941,080339,095210
0000000212,0000211000,-23149,-54871,099220,082945,077626,094920
0000000213,0000212000,005293,-73420,098231,086231,075634,093625
0000000214,0000213000,033857,-84195,096452,089479,074558,091453
0000000215,0000214000,059839,-86177,094052,092375,074503,088612
0000000216,0000215000,080627,-79159,091271,094634,075471,085385
0000000217,0000216000,094151,-63860,088389,096031,077370,082090
0000000218,0000217000,099132,-41701,085675,096432,080015,079043
0000000219,0000218000,095081,-14847,083395,095800,083147,076543
0000000220,0000219000,082424,013939,081782,094196,086455,074839
0000000221,0000220000,062349,041929,080990,091774,089619,074096
0000000222,0000221000,036771,066481,081093,088772,092332,074386
0000000223,0000222000,008314,085060,082081,085488,094324,075678
0000000224,0000223000,-20235,095826,083859,082241,095400,077849
0000000225,0000224000,-46239,097827,086260,079346,095457,080688
0000000226,0000225000,-67062,090843,089040,077088,094490,083913
0000000227,0000226000,-80583,075535,091923,075691,092593,087207
0000000228,0000227000,-85575,053369,094639,075288,089950,090253
0000000229,0000228000,-81561,026537,096920,075919,086820,092752
0000000230,0000229000,-68902,-02264,098535,077521,083513,094456
0000000231,0000230000,-48818,-30283,099329,079941,080350,095200
0000000232,0000231000,-23260,-54831,099228,082940,077638,094912
0000000233,0000232000,005202,-73424,098240,086223,075646,093621
0000000234,0000233000,033783,-84230,096463,089468,074570,091452
0000000235,0000234000,059787,-86236,094063,092363,074512,088615
0000000236,0000235000,080616,-79250,091282,094621,075477,085392
0000000237,0000236000,094178,-63973,088398,096019,077372,082100
0000000238,0000237000,099184,-41811,085681,096422,080014,079055
0000000239,0000238000,095166,-14956,083397,095793,083141,076556
0000000240,0000239000,082535,013839,081781,094192,086446,074852
0000000241,0000240000,062463,041861,080986,091775,089607,074108
0000000242,0000241000,036884,066447,081085,088777,092319,074394
0000000243,0000242000,008422,085055,082071,085497,094310,075683
0000000244,0000243000,-20154,095862,083848,082253,095387,077850
0000000245,0000244000,-46193,097902,086248,079359,095447,080684
0000000246,0000245000,-67044,090938,089029,077102,094483,083905
0000000247,0000246000,-80606,075649,091914,075704,092591,087196
0000000248,0000247000,-85641,053498,094632,075299,089952,090240
0000000249,0000248000,-81652,026656,096918,075927,086826,092738
0000000250,0000249000,-69014,-02165,098536,077525,083523,094442
0000000251,0000250000,-48948,-30204,099334,079940,080363,095187
0000000252,0000251000,-23387,-54788,099236,082935,077653,094902
0000000253,0000252000,005095,-73427,098251,086214,075661,093615
0000000254,0000253000,033692,-84268,096476,089456,074583,091451
0000000255,0000254000,059729,-86308,094076,092349,074522,088619
0000000256,0000255000,080605,-79360,091294,094606,075484,085400
0000000257,0000256000,094205,-64100,088408,096004,077375,082111
0000000258,0000257000,099245,-41941,085688,096410,080011,079069
0000000259,0000258000,095268,-15087,083400,095784,083134,076572
0000000260,0000259000,082661,013725,081779,094188,086435,074867
0000000261,0000260000,062596,041782,080980,091776,089594,074121
0000000262,0000261000,037020,066402,081076,088783,092303,074404
0000000263,0000262000,008547,085049,082059,085506,094295,075689
0000000264,0000263000,-20061,095907,083834,082266,095373,077851
0000000265,0000264000,-46134,097985,086233,079375,095436,080680
0000000266,0000265000,-67024,091049,089016,077118,094476,083897
0000000267,0000266000,-80636,075787,091903,075719,092588,087183
0000000268,0000267000,-85714,053647,094625,075312,089954,090225
0000000269,0000268000,-81756,026792,096914,075936,086833,092721
0000000270,0000269000,-69147,-02047,098538,077529,083535,094426
0000000271,0000270000,-49100,-30111,099339,079939,080378,095173
0000000272,0000271000,-23531,-54741,099246,082930,077669,094892
0000000273,0000272000,004966,-73428,098264,086203,075678,093609
0000000274,0000273000,033586,-84310,096490,089442,074599,091450
0000000275,0000274000,059665,-86395,094091,092332,074535,088623
0000000276,0000275000,080591,-79487,091308,094588,075492,085410
0000000277,0000276000,094233,-64246,088420,095988,077377,082125
0000000278,0000277000,099319,-42095,085696,096396,080009,079085
0000000279,0000278000,095386,-15240,083404,095775,083126,076589
0000000280,0000279000,082804,013596,081778,094183,086422,074884
0000000281,0000280000,062752,041689,080974,091776,089578,074136
0000000282,0000281000,037180,066348,081065,088789,092285,074416
0000000283,0000282000,008689,085046,082045,085518,094277,075696
0000000284,0000283000,-19953,095958,083818,082281,095357,077852
0000000285,0000284000,-46064,098078,086217,079392,095422,080676
0000000286,0000285000,-67002,091177,089001,077136,094467,083887
0000000287,0000286000,-80671,075947,091890,075736,092585,087169
0000000288,0000287000,-85795,053815,094616,075326,089957,090207
0000000289,0000288000,-81875,026950,096911,075946,086842,092702
0000000290,0000289000,-69303,-01907,098539,077534,083548,094407
0000000291,0000290000,-49271,-30005,099346,079938,080395,095157
0000000292,0000291000,-23697,-54688,099257,082923,077688,094879
0000000293,0000292000,004815,-73426,098279,086191,075697,093602
0000000294,0000293000,033464,-84358,096507,089425,074616,091449
0000000295,0000294000,059592,-86496,094108,092313,074549,088628
0000000296,0000295000,080571,-79629,091324,094569,075501,085420
0000000297,0000296000,094264,-64411,088433,095969,077381,082140
0000000298,0000297000,099406,-42274,085705,096381,080005,079104
0000000299,0000298000,095519,-15414,083408,095764,083117,076609
0000000300,0000299000,082966,013450,081776,094178,086408,074904
0000000301,0000300000,062932,041580,080967,091778,089559,074153
