DIgSILENT PowerFactory,21000900,2000
6,06A,00D
1,TTPP_200000_100:Secondary Voltage A,,,V,0.10000000,-8380.433594,0.000000,67161,99998,1,1,P
2,TTPP_200000_100:Secondary Voltage B,,,V,0.10000000,-8080.772461,0.000000,64079,99998,1,1,P
3,TTPP_200000_100:Secondary Voltage C,,,V,0.10000000,-8360.131836,0.000000,66718,99998,1,1,P
4,TTCC_500_5:Secondary Current A,,,A,0.0010000000,-87.422340,0.000000,68970,99998,1,1,P
5,TTCC_500_5:Secondary Current B,,,A,0.0010000000,-85.157150,0.000000,70253,99998,1,1,P
6,TTCC_500_5:Secondary Current C,,,A,0.0010000000,-84.834282,0.000000,69487,99998,1,1,P
50
1
1000.000000,1101
30/06/2023,06:07:56.000000
30/06/2023,06:07:56.000000
ASCII
1.000000
0000000001,0000000000,089317,084448,074449,093338,089836,074239
0000000002,0000001000,086768,086882,074563,090323,092552,074538
0000000003,0000002000,083917,088737,075561,087023,094547,075843
0000000004,0000003000,081071,089798,077344,083768,095617,078029
0000000005,0000004000,078487,089981,079745,080864,095667,080883
0000000006,0000005000,076415,089274,082524,078603,094688,084123
0000000007,0000006000,075069,087744,085399,077209,092775,087429
0000000008,0000007000,074596,085513,088105,076814,090116,090484
0000000009,0000008000,075004,082835,090374,077455,086971,092987
0000000010,0000009000,076272,079968,091974,079073,083650,094690
0000000011,0000010000,078291,077170,092753,081511,080475,095428
0000000012,0000011000,080853,074721,092640,084524,077760,095129
0000000013,0000012000,083681,072890,091643,087823,075766,093824
0000000014,0000013000,086535,071819,089858,091082,074693,091638
0000000015,0000014000,089132,071624,087457,093984,074645,088784
0000000016,0000015000,091191,072343,084679,096242,075627,085545
0000000017,0000016000,092527,073883,081803,097640,077535,082238
0000000018,0000017000,093026,076090,079098,098035,080196,079183
0000000019,0000018000,092607,078778,076829,097391,083343,076680
0000000020,0000019000,091325,081660,075229,095774,086662,074977
0000000021,0000020000,089322,084442,074449,093340,089834,074239
0000000022,0000021000,086767,086883,074563,090321,092555,074538
0000000023,0000022000,083916,088738,075560,087024,094546,075843
0000000024,0000023000,081071,089798,077344,083767,095618,078029
0000000025,0000024000,078490,089979,079746,080864,095667,080883
0000000026,0000025000,076412,089278,082523,078602,094689,084123
0000000027,0000026000,075072,087742,085399,077209,092775,087429
0000000028,0000027000,074594,085514,088105,076813,090116,090484
0000000029,0000028000,075003,082836,090374,077455,086972,092987
0000000030,0000029000,076272,079968,091974,079073,083651,094690
0000000031,0000030000,078293,077167,092754,081509,080477,095428
0000000032,0000031000,080848,074725,092640,084524,077760,095129
0000000033,0000032000,083684,072887,091643,087823,075767,093824
0000000034,0000033000,086537,071817,089859,091081,074694,091639
0000000035,0000034000,089129,071627,087458,093983,074646,088785
0000000036,0000035000,091190,072344,084679,096243,075626,085545
0000000037,0000036000,092533,073878,081803,097639,077536,082239
0000000038,0000037000,093023,076092,079098,098034,080196,079184
0000000039,0000038000,092603,078781,076829,097391,083343,076681
0000000040,0000039000,091330,081655,075228,095775,086661,074978
0000000041,0000040000,089323,084440,074449,093338,089836,074240
0000000042,0000041000,086762,086888,074563,090321,092554,074538
0000000043,0000042000,083918,088736,075560,087024,094546,075844
0000000044,0000043000,081076,089794,077343,083767,095618,078029
0000000045,0000044000,078485,089984,079745,080863,095668,080883
0000000046,0000045000,076411,089280,082523,078604,094688,084122
0000000047,0000046000,075077,087737,085399,077209,092776,087429
0000000048,0000047000,074592,085516,088105,076812,090117,090484
0000000049,0000048000,074999,082841,090374,077455,086972,092987
0000000050,0000049000,076276,079964,091974,079073,083651,094690
0000000051,0000050000,078293,077167,092754,081508,080478,095428
0000000052,0000051000,080843,074730,092640,084524,077761,095129
0000000053,0000052000,083684,072886,091643,087823,075767,093824
0000000054,0000053000,086540,071814,089859,091080,074695,091639
0000000055,0000054000,089125,071630,087458,093981,074647,088785
0000000056,0000055000,091189,072344,084680,096243,075625,085546
0000000057,0000056000,092536,073874,081804,097638,077536,082239
0000000058,0000057000,093022,076093,079098,098032,080197,079184
0000000059,0000058000,092602,078783,076829,097390,083342,076681
0000000060,0000059000,091333,081652,075229,095774,086661,074978
0000000061,0000060000,089324,084440,074449,093338,089835,074241
0000000062,0000061000,086761,086890,074562,090321,092553,074539
0000000063,0000062000,083920,088734,075559,087025,094545,075844
0000000064,0000063000,081077,089794,077343,083767,095618,078029
0000000065,0000064000,078483,089986,079745,080864,095667,080883
0000000066,0000065000,076412,089279,082522,078604,094687,084122
0000000067,0000066000,075078,087737,085398,077209,092776,087428
0000000068,0000067000,074589,085519,088104,076813,090118,090483
0000000069,0000068000,074999,082841,090373,077456,086972,092986
0000000070,0000069000,076277,079962,091974,079073,083652,094689
0000000071,0000070000,078290,077169,092754,081507,080479,095427
0000000072,0000071000,080842,074731,092641,084524,077762,095129
0000000073,0000072000,083686,072883,091644,087822,075768,093824
0000000074,0000073000,086538,071815,089860,091078,074697,091639
0000000075,0000074000,089123,071632,087459,093980,074648,088785
0000000076,0000075000,091192,072340,084681,096241,075626,085546
0000000077,0000076000,092536,073872,081805,097636,077537,082240
0000000078,0000077000,093019,076095,079099,098031,080197,079186
0000000079,0000078000,092604,078780,076829,097390,083341,076683
0000000080,0000079000,091336,081649,075228,095773,086661,074980
0000000081,0000080000,089322,084443,074449,093337,089834,074242
0000000082,0000081000,086762,086890,074561,090322,092552,074540
0000000083,0000082000,083924,088731,075558,087025,094544,075845
0000000084,0000083000,081076,089796,077342,083768,095617,078029
0000000085,0000084000,078482,089989,079743,080866,095666,080883
0000000086,0000085000,076415,089277,082521,078606,094687,084121
0000000087,0000086000,075078,087738,085397,077210,092776,087427
0000000088,0000087000,074586,085524,088103,076814,090118,090482
0000000089,0000088000,075000,082841,090373,077457,086972,092984
0000000090,0000089000,076277,079962,091974,079073,083654,094687
0000000091,0000090000,078286,077173,092755,081507,080481,095426
0000000092,0000091000,080841,074731,092642,084523,077763,095128
0000000093,0000092000,083687,072881,091645,087820,075770,093823
0000000094,0000093000,086535,071816,089862,091076,074699,091639
0000000095,0000094000,089121,071632,087460,093979,074649,088786
0000000096,0000095000,091194,072337,084682,096239,075627,085548
0000000097,0000096000,092536,073871,081806,097634,077538,082242
0000000098,0000097000,093019,076095,079100,098030,080196,079188
0000000099,0000098000,092608,078776,076830,097389,083340,076685
0000000100,0000099000,091338,081647,075229,095772,086659,074982
0000000101,0000100000,089322,084443,074448,093337,089832,074244
0000000102,0000101000,086765,086888,074560,090323,092549,074541
0000000103,0000102000,083927,088730,075556,087026,094542,075846
0000000104,0000103000,081076,089798,077340,083769,095615,078030
0000000105,0000104000,078483,089990,079741,080868,095664,080882
0000000106,0000105000,076417,089277,082519,078608,094686,084120
0000000107,0000106000,075076,087741,085396,077212,092776,087425
0000000108,0000107000,074585,085526,088102,076816,090118,090479
0000000109,0000108000,075000,082841,090372,077458,086974,092982
0000000110,0000109000,076274,079965,091974,079073,083656,094685
0000000111,0000110000,078282,077176,092756,081507,080484,095423
0000000112,0000111000,080840,074730,092643,084522,077766,095126
0000000113,0000112000,083685,072881,091647,087818,075774,093822
0000000114,0000113000,086531,071817,089864,091074,074701,091639
0000000115,0000114000,089121,071629,087463,093976,074651,088787
0000000116,0000115000,091195,072334,084685,096236,075629,085549
0000000117,0000116000,092534,073871,081808,097631,077539,082244
0000000118,0000117000,093020,076092,079101,098027,080196,079191
0000000119,0000118000,092611,078772,076830,097387,083339,076688
0000000120,0000119000,091339,081646,075228,095771,086657,074985
0000000121,0000120000,089324,084443,074447,093338,089829,074247
0000000122,0000121000,086770,086886,074558,090324,092546,074544
0000000123,0000122000,083929,088730,075554,087028,094539,075847
0000000124,0000123000,081076,089801,077337,083772,095612,078030
0000000125,0000124000,078486,089990,079738,080872,095661,080881
0000000126,0000125000,076418,089279,082516,078611,094684,084118
0000000127,0000126000,075074,087746,085393,077216,092776,087422
0000000128,0000127000,074584,085529,088100,076820,090118,090476
0000000129,0000128000,074999,082843,090372,077460,086976,092978
0000000130,0000129000,076270,079969,091975,079074,083659,094681
0000000131,0000130000,078279,077178,092757,081507,080487,095420
0000000132,0000131000,080838,074730,092646,084521,077770,095123
0000000133,0000132000,083681,072882,091651,087815,075778,093821
0000000134,0000133000,086528,071817,089868,091070,074705,091638
0000000135,0000134000,089121,071626,087466,093972,074654,088788
0000000136,0000135000,091194,072331,084688,096231,075631,085551
0000000137,0000136000,092534,073869,081811,097627,077540,082248
0000000138,0000137000,093023,076087,079103,098024,080195,079195
0000000139,0000138000,092615,078768,076831,097384,083337,076693
0000000140,0000139000,091341,081644,075228,095770,086654,074990
0000000141,0000140000,089328,084440,074445,093338,089825,074251
0000000142,0000141000,086774,086883,074556,090325,092541,074547
0000000143,0000142000,083931,088731,075551,087031,094534,075849
0000000144,0000143000,081079,089802,077333,083777,095607,078030
0000000145,0000144000,078489,089991,079734,080876,095658,080880
0000000146,0000145000,076418,089283,082513,078616,094682,084116
0000000147,0000146000,075072,087751,085390,077221,092774,087419
0000000148,0000147000,074583,085532,088098,076824,090119,090471
0000000149,0000148000,074995,082847,090371,077463,086978,092973
0000000150,0000149000,076265,079974,091975,079076,083662,094676
0000000151,0000150000,078276,077180,092758,081507,080491,095415
0000000152,0000151000,080834,074731,092649,084519,077775,095120
0000000153,0000152000,083676,072883,091654,087812,075783,093819
0000000154,0000153000,086525,071816,089872,091066,074710,091638
0000000155,0000154000,089120,071622,087471,093966,074658,088789
0000000156,0000155000,091192,072328,084693,096225,075634,085554
0000000157,0000156000,092535,073865,081814,097621,077540,082252
0000000158,0000157000,093027,076081,079106,098019,080194,079200
0000000159,0000158000,092618,078763,076833,097380,083335,076699
0000000160,0000159000,091345,081641,075227,095768,086650,074995
0000000161,0000160000,089335,084436,074443,093338,089820,074256
0000000162,0000161000,086780,086881,074552,090327,092536,074551
0000000163,0000162000,083935,088733,075546,087035,094528,075851
0000000164,0000163000,081083,089803,077327,083782,095601,078031
0000000165,0000164000,078492,089993,079728,080882,095653,080879
0000000166,0000165000,076417,089289,082507,078622,094679,084112
0000000167,0000166000,075071,087756,085386,077227,092773,087414
0000000168,0000167000,074581,085536,088095,076829,090120,090465
0000000169,0000168000,074990,082853,090370,077466,086981,092966
0000000170,0000169000,076259,079979,091976,079078,083667,094669
0000000171,0000170000,078271,077182,092761,081507,080497,095410
0000000172,0000171000,080828,074733,092653,084516,077782,095115
0000000173,0000172000,083670,072884,091660,087808,075790,093816
0000000174,0000173000,086522,071813,089878,091060,074716,091637
0000000175,0000174000,089118,071618,087477,093959,074664,088791
0000000176,0000175000,091191,072324,084698,096218,075637,085558
0000000177,0000176000,092536,073858,081819,097615,077542,082258
0000000178,0000177000,093031,076074,079109,098013,080193,079207
0000000179,0000178000,092621,078758,076834,097376,083332,076706
0000000180,0000179000,091351,081636,075227,095766,086645,075003
0000000181,0000180000,089342,084431,074440,093338,089813,074262
0000000182,0000181000,086785,086880,074548,090330,092528,074556
0000000183,0000182000,083940,088733,075540,087040,094520,075854
0000000184,0000183000,081089,089804,077321,083788,095594,078031
0000000185,0000184000,078494,089997,079722,080890,095648,080877
0000000186,0000185000,076417,089295,082501,078631,094675,084108
0000000187,0000186000,075070,087762,085381,077235,092772,087408
0000000188,0000187000,074578,085543,088092,076835,090121,090457
0000000189,0000188000,074984,082861,090368,077471,086985,092958
0000000190,0000189000,076253,079985,091976,079080,083672,094661
0000000191,0000190000,078264,077186,092764,081506,080505,095402
0000000192,0000191000,080820,074736,092658,084513,077791,095110
0000000193,0000192000,083663,072884,091666,087802,075799,093813
0000000194,0000193000,086518,071810,089886,091053,074724,091637
0000000195,0000194000,089114,071614,087485,093951,074670,088793
0000000196,0000195000,091189,072318,084705,096209,075641,085563
0000000197,0000196000,092539,073850,081825,097606,077543,082265
0000000198,0000197000,093034,076066,079113,098006,080192,079216
0000000199,0000198000,092627,078751,076836,097371,083328,076715
0000000200,0000199000,091359,081629,075226,095764,086638,075012
0000000201,0000200000,089351,084425,074437,093339,089805,074270
0000000202,0000201000,086793,086878,074543,090333,092519,074562
0000000203,0000202000,083948,088733,075533,087046,094511,075858
0000000204,0000203000,081095,089806,077313,083796,095585,078032
0000000205,0000204000,078497,090003,079713,080899,095641,080874
0000000206,0000205000,076418,089302,082493,078641,094670,084103
0000000207,0000206000,075069,087770,085374,077244,092770,087400
0000000208,0000207000,074573,085552,088087,076843,090123,090448
0000000209,0000208000,074977,082870,090366,077477,086989,092948
0000000210,0000209000,076245,079991,091977,079083,083679,094651
0000000211,0000210000,078255,077191,092767,081506,080514,095394
0000000212,0000211000,080811,074739,092663,084510,077801,095103
0000000213,0000212000,083656,072884,091674,087796,075809,093809
0000000214,0000213000,086512,071807,089895,091044,074734,091636
0000000215,0000214000,089109,071609,087494,093940,074678,088795
0000000216,0000215000,091189,072311,084714,096199,075646,085569
0000000217,0000216000,092541,073840,081832,097596,077545,082273
0000000218,0000217000,093039,076057,079118,097997,080191,079226
0000000219,0000218000,092633,078742,076838,097365,083323,076726
0000000220,0000219000,091368,081620,075225,095761,086630,075023
0000000221,0000220000,089360,084420,074433,093339,089795,074280
0000000222,0000221000,086802,086875,074536,090337,092508,074569
0000000223,0000222000,083957,088732,075524,087053,094499,075862
0000000224,0000223000,081102,089809,077303,083806,095575,078033
0000000225,0000224000,078501,090010,079703,080910,095632,080872
0000000226,0000225000,076419,089310,082484,078652,094665,084097
0000000227,0000226000,075068,087779,085366,077255,092768,087391
0000000228,0000227000,074568,085563,088082,076852,090124,090437
0000000229,0000228000,074970,082880,090364,077484,086994,092936
0000000230,0000229000,076236,079999,091978,079086,083688,094640
0000000231,0000230000,078244,077198,092772,081505,080525,095383
0000000232,0000231000,080800,074743,092671,084506,077813,095095
0000000233,0000232000,083647,072883,091683,087788,075821,093804
0000000234,0000233000,086504,071803,089906,091033,074745,091635
0000000235,0000234000,089104,071603,087505,093928,074687,088799
0000000236,0000235000,091188,072301,084724,096186,075652,085576
0000000237,0000236000,092544,073829,081841,097583,077547,082283
0000000238,0000237000,093044,076046,079124,097987,080189,079238
0000000239,0000238000,092642,078731,076840,097357,083317,076740
0000000240,0000239000,091379,081610,075224,095757,086621,075036
0000000241,0000240000,089371,084413,074429,093339,089783,074291
0000000242,0000241000,086814,086872,074528,090342,092494,074578
0000000243,0000242000,083968,088732,075514,087061,094486,075867
0000000244,0000243000,081110,089813,077291,083817,095563,078034
0000000245,0000244000,078506,090017,079691,080924,095622,080868
0000000246,0000245000,076421,089320,082472,078666,094658,084089
0000000247,0000246000,075065,087791,085357,077268,092766,087380
0000000248,0000247000,074561,085576,088076,076863,090127,090424
0000000249,0000248000,074961,082891,090361,077492,087001,092922
0000000250,0000249000,076225,080009,091980,079090,083698,094626
0000000251,0000250000,078231,077206,092777,081505,080538,095371
0000000252,0000251000,080787,074747,092679,084501,077828,095086
0000000253,0000252000,083636,072883,091694,087779,075836,093799
0000000254,0000253000,086495,071800,089918,091021,074758,091634
0000000255,0000254000,089099,071596,087518,093914,074698,088802
0000000256,0000255000,091187,072290,084736,096171,075659,085584
0000000257,0000256000,092546,073817,081851,097569,077550,082295
0000000258,0000257000,093050,076033,079131,097975,080187,079252
0000000259,0000258000,092653,078718,076843,097349,083310,076755
0000000260,0000259000,091392,081599,075222,095753,086610,075051
0000000261,0000260000,089385,084405,074423,093340,089769,074304
0000000262,0000261000,086827,086867,074519,090347,092479,074588
0000000263,0000262000,083980,088731,075502,087071,094470,075873
0000000264,0000263000,081119,089818,077277,083830,095549,078035
0000000265,0000264000,078512,090025,079677,080939,095611,080864
0000000266,0000265000,076423,089331,082459,078683,094651,084080
0000000267,0000266000,075062,087805,085346,077283,092763,087367
0000000268,0000267000,074554,085591,088068,076876,090129,090408
0000000269,0000268000,074951,082905,090358,077501,087008,092905
0000000270,0000269000,076211,080021,091981,079094,083710,094610
0000000271,0000270000,078216,077215,092783,081504,080553,095357
0000000272,0000271000,080773,074752,092689,084495,077844,095075
0000000273,0000272000,083623,072883,091707,087768,075853,093792
0000000274,0000273000,086484,071796,089933,091007,074774,091633
0000000275,0000274000,089093,071587,087534,093897,074710,088807
0000000276,0000275000,091185,072278,084750,096153,075667,085593
0000000277,0000276000,092549,073802,081862,097553,077553,082308
0000000278,0000277000,093058,076017,079139,097961,080184,079269
0000000279,0000278000,092664,078703,076847,097339,083302,076773
0000000280,0000279000,091406,081587,075221,095748,086598,075068
0000000281,0000280000,089400,084396,074417,093341,089753,074320
0000000282,0000281000,086844,086861,074508,090354,092461,074599
0000000283,0000282000,083994,088731,075488,087082,094452,075879
0000000284,0000283000,081130,089823,077261,083846,095532,078036
0000000285,0000284000,078519,090034,079660,080957,095598,080859
0000000286,0000285000,076425,089344,082444,078701,094642,084070
0000000287,0000286000,075058,087821,085334,077301,092760,087353
0000000288,0000287000,074546,085608,088059,076891,090132,090391
0000000289,0000288000,074938,082921,090354,077511,087017,092886
0000000290,0000289000,076195,080036,091983,079099,083723,094591
0000000291,0000290000,078199,077226,092789,081503,080570,095341
0000000292,0000291000,080757,074757,092700,084488,077863,095063
0000000293,0000292000,083607,072884,091722,087756,075872,093785
0000000294,0000293000,086472,071791,089950,090990,074791,091632
0000000295,0000294000,089085,071577,087551,093878,074724,088812
0000000296,0000295000,091183,072264,084767,096134,075676,085604
0000000297,0000296000,092552,073786,081876,097534,077556,082324
0000000298,0000297000,093066,075999,079148,097946,080181,079287
0000000299,0000298000,092678,078685,076851,097328,083293,076793
0000000300,0000299000,091422,081572,075219,095743,086584,075087
0000000301,0000300000,089419,084385,074410,093342,089735,074337
