DIgSILENT PowerFactory,21000900,2000
6,06A,00D
1,TTPP_200000_100:Secondary Voltage A,,,V,0.10000000,-8421.822266,0.000000,69989,99998,1,1,P
2,TTPP_200000_100:Secondary Voltage B,,,V,0.10000000,-8524.041016,0.000000,71835,99998,1,1,P
3,TTPP_200000_100:Secondary Voltage C,,,V,0.10000000,-8460.727539,0.000000,66588,99998,1,1,P
4,TTCC_300_1:Secondary Current A,,,A,0.00010000000,-5.496001,0.000000,-11209,99998,1,1,P
5,TTCC_300_1:Secondary Current B,,,A,0.00010000000,-4.866012,0.000000,-3582,99998,1,1,P
6,TTCC_300_1:Secondary Current C,,,A,0.00010000000,-5.040079,0.000000,404,99998,1,1,P
50
1
1000.000000,1101
30/06/2023,06:11:58.000000
30/06/2023,06:11:58.000000
ASCII
1.000000
0000000001,0000000000,091324,086716,076026,034030,034671,085320
0000000002,0000001000,089191,089433,075441,043783,025392,084847
0000000003,0000002000,086549,091764,075753,054622,018395,081004
0000000004,0000003000,083693,093442,076930,065502,014351,074169
0000000005,0000004000,080900,094304,078863,075344,013676,064999
0000000006,0000005000,078413,094295,081359,083192,016429,054400
0000000007,0000006000,076490,093410,084166,088278,022323,043419
0000000008,0000007000,075347,091701,087019,090101,030799,033121
0000000009,0000008000,075061,089363,089641,088477,041039,024505
0000000010,0000009000,075659,086641,091766,083579,052014,018427
0000000011,0000010000,077107,083770,093189,075886,062649,015487
0000000012,0000011000,079260,081032,093774,066127,071934,015959
0000000013,0000012000,081882,078724,093462,055278,078941,019802
0000000014,0000013000,084733,077048,092284,044413,082971,026638
0000000015,0000014000,087547,076166,090353,034569,083646,035806
0000000016,0000015000,090027,076183,087856,026710,080906,046405
0000000017,0000016000,091934,077084,085048,021632,075002,057387
0000000018,0000017000,093096,078774,082196,019813,066523,067685
0000000019,0000018000,093381,081111,079574,021429,056291,076301
0000000020,0000019000,092768,083850,077448,026328,045315,082378
0000000021,0000020000,091331,086710,076025,034029,034672,085320
0000000022,0000021000,089184,089440,075442,043780,025395,084846
0000000023,0000022000,086547,091765,075753,054630,018388,081004
0000000024,0000023000,083701,093435,076929,065501,014352,074168
0000000025,0000024000,080898,094306,078862,075341,013679,065000
0000000026,0000025000,078405,094302,081359,083196,016425,054400
0000000027,0000026000,076497,093403,084166,088284,022318,043418
0000000028,0000027000,075349,091699,087018,090098,030802,033121
0000000029,0000028000,075054,089370,089641,088478,041038,024505
0000000030,0000029000,075660,086640,091767,083586,052008,018427
0000000031,0000030000,077113,083764,093189,075886,062649,015486
0000000032,0000031000,079255,081037,093773,066126,071935,015959
0000000033,0000032000,081879,078726,093462,055283,078936,019801
0000000034,0000033000,084738,077042,092285,044416,082968,026637
0000000035,0000034000,087547,076167,090353,034567,083649,035805
0000000036,0000035000,090022,076188,087856,026714,080903,046404
0000000037,0000036000,091937,077080,085048,021636,075000,057385
0000000038,0000037000,093098,078772,082197,019814,066524,067683
0000000039,0000038000,093377,081115,079574,021429,056292,076299
0000000040,0000039000,092769,083849,077448,026331,045312,082377
0000000041,0000040000,091333,086707,076026,034030,034673,085318
0000000042,0000041000,089182,089442,075441,043780,025396,084845
0000000043,0000042000,086547,091766,075753,054631,018387,081003
0000000044,0000043000,083704,093433,076929,065502,014352,074168
0000000045,0000044000,080896,094308,078862,075340,013681,065000
0000000046,0000045000,078405,094303,081359,083197,016423,054400
0000000047,0000046000,076499,093401,084166,088283,022318,043420
0000000048,0000047000,075348,091700,087018,090098,030801,033122
0000000049,0000048000,075053,089372,089641,088480,041036,024506
0000000050,0000049000,075662,086637,091767,083587,052006,018428
0000000051,0000050000,077112,083765,093189,075886,062648,015487
0000000052,0000051000,079253,081040,093774,066130,071931,015960
0000000053,0000052000,081881,078723,093462,055286,078933,019801
0000000054,0000053000,084739,077041,092285,044417,082967,026637
0000000055,0000054000,087543,076170,090353,034571,083647,035804
0000000056,0000055000,090024,076186,087856,026719,080900,046402
0000000057,0000056000,091940,077077,085049,021637,075001,057383
0000000058,0000057000,093094,078775,082197,019815,066525,067680
0000000059,0000058000,093377,081115,079574,021434,056290,076296
0000000060,0000059000,092774,083845,077447,026332,045314,082374
0000000061,0000060000,091331,086709,076026,034028,034677,085316
0000000062,0000061000,089180,089445,075441,043782,025396,084843
0000000063,0000062000,086552,091762,075752,054631,018388,081002
0000000064,0000063000,083705,093432,076929,065497,014356,074167
0000000065,0000064000,080892,094312,078862,075339,013681,065000
0000000066,0000065000,078407,094301,081358,083197,016422,054402
0000000067,0000066000,076502,093399,084165,088279,022320,043422
0000000068,0000067000,075344,091704,087018,090095,030801,033125
0000000069,0000068000,075052,089373,089640,088481,041031,024509
0000000070,0000069000,075665,086634,091767,083587,052003,018431
0000000071,0000070000,077109,083767,093190,075885,062646,015489
0000000072,0000071000,079250,081042,093774,066133,071926,015962
0000000073,0000072000,081884,078720,093462,055290,078928,019802
0000000074,0000073000,084738,077041,092286,044420,082965,026636
0000000075,0000074000,087540,076172,090354,034576,083643,035802
0000000076,0000075000,090026,076184,087856,026725,080896,046400
0000000077,0000076000,091942,077075,085049,021640,075001,057380
0000000078,0000077000,093092,078777,082197,019819,066525,067676
0000000079,0000078000,093378,081114,079574,021439,056290,076291
0000000080,0000079000,092777,083842,077448,026334,045318,082369
0000000081,0000080000,091330,086710,076025,034028,034682,085311
0000000082,0000081000,089180,089445,075440,043782,025400,084839
0000000083,0000082000,086555,091760,075751,054628,018393,081000
0000000084,0000083000,083704,093434,076928,065493,014362,074166
0000000085,0000084000,080892,094314,078860,075335,013684,065001
0000000086,0000085000,078409,094300,081357,083192,016424,054405
0000000087,0000086000,076501,093400,084165,088273,022322,043426
0000000088,0000087000,075341,091707,087017,090092,030800,033130
0000000089,0000088000,075053,089372,089640,088479,041028,024515
0000000090,0000089000,075665,086634,091767,083584,052000,018437
0000000091,0000090000,077106,083770,093190,075886,062640,015494
0000000092,0000091000,079250,081042,093775,066137,071918,015966
0000000093,0000092000,081884,078718,093463,055294,078922,019805
0000000094,0000093000,084735,077043,092288,044425,082959,026637
0000000095,0000094000,087539,076172,090355,034585,083636,035800
0000000096,0000095000,090028,076180,087858,026733,080893,046396
0000000097,0000096000,091940,077075,085051,021647,075000,057374
0000000098,0000097000,093092,078777,082198,019827,066525,067669
0000000099,0000098000,093382,081110,079574,021444,056293,076284
0000000100,0000099000,092778,083841,077448,026335,045325,082362
0000000101,0000100000,091330,086712,076025,034029,034688,085304
0000000102,0000101000,089183,089443,075439,043781,025406,084834
0000000103,0000102000,086557,091758,075750,054623,018402,080996
0000000104,0000103000,083703,093437,076927,065486,014369,074165
0000000105,0000104000,080893,094315,078859,075329,013689,065003
0000000106,0000105000,078411,094299,081356,083183,016429,054409
0000000107,0000106000,076499,093403,084164,088265,022324,043432
0000000108,0000107000,075340,091710,087016,090086,030797,033138
0000000109,0000108000,075054,089372,089640,088474,041023,024524
0000000110,0000109000,075662,086636,091767,083581,051994,018446
0000000111,0000110000,077103,083773,093191,075887,062631,015502
0000000112,0000111000,079250,081040,093776,066141,071907,015972
0000000113,0000112000,081883,078718,093465,055299,078913,019808
0000000114,0000113000,084732,077045,092289,044434,082950,026637
0000000115,0000114000,087539,076170,090356,034596,083627,035798
0000000116,0000115000,090029,076177,087859,026743,080888,046390
0000000117,0000116000,091939,077075,085052,021657,074999,057365
0000000118,0000117000,093093,078775,082199,019837,066525,067658
0000000119,0000118000,093385,081107,079575,021450,056298,076273
0000000120,0000119000,092778,083840,077447,026338,045333,082350
0000000121,0000120000,091331,086711,076024,034030,034697,085294
0000000122,0000121000,089187,089441,075438,043778,025418,084826
0000000123,0000122000,086558,091759,075749,054615,018415,080991
0000000124,0000123000,083703,093439,076924,065477,014380,074164
0000000125,0000124000,080895,094314,078856,075318,013697,065006
0000000126,0000125000,078412,094301,081354,083170,016436,054415
0000000127,0000126000,076497,093407,084162,088253,022326,043442
0000000128,0000127000,075340,091711,087015,090077,030794,033150
0000000129,0000128000,075053,089373,089639,088466,041018,024537
0000000130,0000129000,075658,086640,091768,083577,051985,018459
0000000131,0000130000,077100,083774,093191,075889,062618,015514
0000000132,0000131000,079249,081040,093778,066146,071894,015981
0000000133,0000132000,081880,078719,093468,055307,078900,019814
0000000134,0000133000,084730,077045,092292,044447,082936,026638
0000000135,0000134000,087540,076167,090359,034611,083616,035795
0000000136,0000135000,090028,076175,087862,026757,080882,046383
0000000137,0000136000,091938,077074,085054,021672,074995,057354
0000000138,0000137000,093095,078771,082200,019850,066526,067644
0000000139,0000138000,093387,081103,079575,021458,056305,076257
0000000140,0000139000,092779,083840,077447,026343,045343,082335
0000000141,0000140000,091334,086709,076022,034030,034710,085281
0000000142,0000141000,089191,089439,075436,043772,025434,084815
0000000143,0000142000,086560,091760,075746,054605,018432,080985
0000000144,0000143000,083705,093440,076921,065464,014394,074163
0000000145,0000144000,080898,094315,078853,075302,013709,065010
0000000146,0000145000,078411,094304,081351,083152,016445,054424
0000000147,0000146000,076495,093411,084160,088237,022329,043455
0000000148,0000147000,075339,091713,087013,090063,030792,033166
0000000149,0000148000,075051,089376,089639,088455,041011,024555
0000000150,0000149000,075654,086644,091768,083572,051972,018477
0000000151,0000150000,077098,083775,093193,075890,062601,015530
0000000152,0000151000,079246,081040,093780,066151,071876,015993
0000000153,0000152000,081876,078720,093471,055319,078881,019821
0000000154,0000153000,084728,077043,092295,044464,082918,026640
0000000155,0000154000,087539,076163,090363,034629,083602,035790
0000000156,0000155000,090027,076173,087865,026776,080872,046372
0000000157,0000156000,091939,077071,085056,021691,074991,057339
0000000158,0000157000,093098,078766,082202,019866,066529,067626
0000000159,0000158000,093390,081100,079576,021470,056314,076237
0000000160,0000159000,092782,083837,077447,026349,045357,082315
0000000161,0000160000,091339,086706,076021,034030,034728,085263
0000000162,0000161000,089195,089437,075433,043764,025455,084801
0000000163,0000162000,086562,091761,075742,054592,018453,080976
0000000164,0000163000,083708,093441,076917,065447,014413,074161
0000000165,0000164000,080900,094316,078850,075280,013726,065015
0000000166,0000165000,078410,094308,081348,083130,016455,054436
0000000167,0000166000,076495,093415,084156,088217,022332,043472
0000000168,0000167000,075338,091716,087011,090045,030789,033187
0000000169,0000168000,075047,089381,089638,088442,041002,024578
0000000170,0000169000,075650,086648,091768,083566,051956,018499
0000000171,0000170000,077095,083777,093195,075891,062580,015550
0000000172,0000171000,079242,081042,093783,066159,071853,016009
0000000173,0000172000,081871,078721,093474,055334,078856,019830
0000000174,0000173000,084726,077041,092299,044484,082895,026642
0000000175,0000174000,087538,076161,090367,034652,083585,035784
0000000176,0000175000,090025,076171,087870,026802,080860,046359
0000000177,0000176000,091940,077066,085060,021716,074985,057320
0000000178,0000177000,093101,078760,082204,019886,066532,067602
0000000179,0000178000,093392,081097,079577,021484,056326,076211
0000000180,0000179000,092787,083834,077446,026358,045374,082289
0000000181,0000180000,091345,086702,076019,034030,034752,085240
0000000182,0000181000,089199,089437,075430,043755,025482,084784
0000000183,0000182000,086566,091762,075738,054576,018479,080966
0000000184,0000183000,083712,093441,076912,065425,014437,074159
0000000185,0000184000,080902,094320,078845,075253,013747,065021
0000000186,0000185000,078410,094313,081343,083102,016468,054450
0000000187,0000186000,076494,093419,084152,088191,022337,043493
0000000188,0000187000,075336,091721,087009,090022,030786,033214
0000000189,0000188000,075042,089387,089637,088425,040990,024606
0000000190,0000189000,075645,086652,091769,083558,051935,018528
0000000191,0000190000,077090,083779,093197,075891,062554,015575
0000000192,0000191000,079235,081044,093787,066169,071824,016028
0000000193,0000192000,081866,078721,093479,055353,078826,019842
0000000194,0000193000,084723,077038,092305,044509,082868,026644
0000000195,0000194000,087535,076158,090373,034681,083563,035777
0000000196,0000195000,090024,076167,087875,026833,080845,046343
0000000197,0000196000,091943,077059,085064,021746,074979,057296
0000000198,0000197000,093104,078754,082207,019911,066537,067573
0000000199,0000198000,093396,081092,079578,021503,056339,076179
0000000200,0000199000,092793,083828,077445,026367,045396,082258
0000000201,0000200000,091352,086698,076016,034028,034781,085212
0000000202,0000201000,089204,089436,075426,043744,025515,084762
0000000203,0000202000,086571,091762,075732,054557,018511,080953
0000000204,0000203000,083717,093443,076906,065397,014468,074156
0000000205,0000204000,080904,094324,078838,075220,013771,065029
0000000206,0000205000,078411,094319,081337,083068,016484,054468
0000000207,0000206000,076493,093425,084148,088158,022343,043520
0000000208,0000207000,075332,091728,087006,089994,030782,033246
0000000209,0000208000,075037,089394,089636,088406,040974,024641
0000000210,0000209000,075640,086656,091770,083548,051911,018562
0000000211,0000210000,077083,083783,093200,075892,062523,015606
0000000212,0000211000,079228,081047,093791,066181,071788,016052
0000000213,0000212000,081861,078720,093485,055376,078789,019856
0000000214,0000213000,084719,077036,092312,044539,082835,026647
0000000215,0000214000,087531,076154,090380,034717,083536,035768
0000000216,0000215000,090024,076161,087881,026871,080827,046323
0000000217,0000216000,091945,077052,085069,021781,074973,057267
0000000218,0000217000,093107,078748,082211,019941,066542,067537
0000000219,0000218000,093401,081085,079580,021525,056355,076140
0000000220,0000219000,092800,083822,077444,026378,045423,082220
0000000221,0000220000,091359,086694,076013,034027,034816,085179
0000000222,0000221000,089211,089434,075421,043731,025554,084737
0000000223,0000222000,086578,091761,075726,054532,018551,080938
0000000224,0000223000,083722,093445,076899,065363,014505,074153
0000000225,0000224000,080906,094329,078831,075181,013801,065038
0000000226,0000225000,078412,094325,081330,083028,016504,054489
0000000227,0000226000,076492,093432,084142,088119,022351,043551
0000000228,0000227000,075327,091737,087002,089961,030776,033285
0000000229,0000228000,075031,089401,089634,088383,040955,024683
0000000230,0000229000,075633,086662,091771,083536,051881,018604
0000000231,0000230000,077075,083788,093203,075893,062486,015642
0000000232,0000231000,079220,081050,093797,066196,071745,016079
0000000233,0000232000,081854,078720,093492,055402,078746,019872
0000000234,0000233000,084713,077033,092320,044575,082795,026650
0000000235,0000234000,087528,076150,090388,034760,083504,035758
0000000236,0000235000,090024,076154,087889,026916,080805,046300
0000000237,0000236000,091947,077043,085076,021823,074965,057233
0000000238,0000237000,093111,078740,082215,019977,066548,067495
0000000239,0000238000,093408,081077,079581,021551,056375,076094
0000000240,0000239000,092809,083814,077443,026391,045455,082175
0000000241,0000240000,091367,086689,076010,034025,034857,085139
0000000242,0000241000,089220,089431,075415,043716,025599,084706
0000000243,0000242000,086587,091761,075718,054503,018598,080920
0000000244,0000243000,083728,093448,076890,065324,014548,074150
0000000245,0000244000,080910,094335,078822,075135,013835,065050
0000000246,0000245000,078413,094332,081321,082979,016526,054515
0000000247,0000246000,076490,093441,084135,088073,022360,043589
0000000248,0000247000,075322,091746,086997,089922,030769,033330
0000000249,0000248000,075024,089410,089632,088355,040933,024733
0000000250,0000249000,075625,086670,091772,083522,051847,018652
0000000251,0000250000,077064,083794,093207,075895,062441,015685
0000000252,0000251000,079211,081052,093803,066213,071695,016112
0000000253,0000252000,081846,078719,093501,055433,078696,019892
0000000254,0000253000,084706,077030,092330,044618,082749,026654
0000000255,0000254000,087523,076144,090398,034810,083466,035745
0000000256,0000255000,090023,076145,087898,026968,080781,046272
0000000257,0000256000,091949,077034,085083,021873,074956,057192
0000000258,0000257000,093116,078730,082220,020019,066556,067446
0000000259,0000258000,093416,081067,079584,021581,056398,076041
0000000260,0000259000,092818,083806,077442,026405,045493,082123
0000000261,0000260000,091377,086683,076005,034024,034905,085093
0000000262,0000261000,089230,089428,075408,043697,025653,084671
0000000263,0000262000,086596,091761,075709,054469,018652,080899
0000000264,0000263000,083735,093452,076880,065278,014597,074146
0000000265,0000264000,080914,094341,078811,075082,013875,065063
0000000266,0000265000,078415,094340,081312,082923,016553,054545
0000000267,0000266000,076487,093451,084127,088019,022370,043632
0000000268,0000267000,075317,091758,086991,089878,030761,033383
0000000269,0000268000,075016,089420,089630,088323,040908,024790
0000000270,0000269000,075614,086679,091773,083506,051807,018708
0000000271,0000270000,077053,083801,093212,075897,062390,015734
0000000272,0000271000,079200,081056,093811,066234,071637,016150
0000000273,0000272000,081836,078719,093511,055470,078637,019914
0000000274,0000273000,084698,077027,092341,044667,082696,026658
0000000275,0000274000,087519,076137,090410,034868,083423,035730
0000000276,0000275000,090022,076135,087908,027028,080753,046240
0000000277,0000276000,091951,077023,085092,021929,074946,057146
0000000278,0000277000,093122,078718,082226,020067,066564,067389
0000000279,0000278000,093425,081055,079586,021615,056426,075980
0000000280,0000279000,092829,083796,077441,026422,045536,082063
0000000281,0000280000,091389,086676,076001,034021,034960,085040
0000000282,0000281000,089243,089423,075400,043675,025715,084631
0000000283,0000282000,086606,091761,075699,054430,018715,080876
0000000284,0000283000,083743,093456,076867,065225,014654,074142
0000000285,0000284000,080920,094348,078798,075021,013921,065079
0000000286,0000285000,078416,094350,081300,082859,016583,054579
0000000287,0000286000,076484,093464,084118,087959,022381,043682
0000000288,0000287000,075311,091770,086985,089827,030751,033444
0000000289,0000288000,075007,089432,089627,088286,040879,024856
0000000290,0000289000,075602,086689,091774,083488,051761,018772
0000000291,0000290000,077040,083809,093217,075900,062330,015790
0000000292,0000291000,079188,081060,093819,066257,071571,016192
0000000293,0000292000,081825,078719,093522,055511,078571,019938
0000000294,0000293000,084689,077023,092354,044724,082635,026662
0000000295,0000294000,087514,076129,090423,034934,083374,035713
0000000296,0000295000,090020,076125,087921,027097,080721,046203
0000000297,0000296000,091953,077011,085102,021994,074934,057092
0000000298,0000297000,093129,078704,082233,020122,066574,067325
0000000299,0000298000,093435,081042,079589,021654,056457,075910
0000000300,0000299000,092841,083786,077440,026441,045585,081995
0000000301,0000300000,091403,086668,075995,034018,035022,084981
