DIgSILENT PowerFactory,21000900,2000
6,06A,00D
1,TTPP_200000_100:Secondary Voltage A,,,V,0.10000000,-8743.925781,0.000000,72988,99998,1,1,P
2,TTPP_200000_100:Secondary Voltage B,,,V,0.10000000,-8516.027344,0.000000,71526,99998,1,1,P
3,TTPP_200000_100:Secondary Voltage C,,,V,0.10000000,-8760.040039,0.000000,72201,99998,1,1,P
4,TTCC_300_1:Secondary Current A,,,A,0.00010000000,-5.159604,0.000000,-18730,99998,1,1,P
5,TTCC_300_1:Secondary Current B,,,A,0.00010000000,-4.873644,0.000000,-2570,99998,1,1,P
6,TTCC_300_1:Secondary Current C,,,A,0.00010000000,-4.945210,0.000000,-1197,99998,1,1,P
50
1
1000.000000,1101
30/06/2023,06:12:22.000000
30/06/2023,06:12:22.000000
ASCII
1.000000
0000000001,0000000000,094545,086635,079019,030667,034746,084372
0000000002,0000001000,092411,089353,078434,040420,025468,083898
0000000003,0000002000,089771,091683,078746,051258,018471,080055
0000000004,0000003000,086914,093362,079923,062139,014427,073219
0000000005,0000004000,084121,094224,081856,071979,013754,064050
0000000006,0000005000,081633,094215,084353,079831,016504,053451
0000000007,0000006000,079712,093329,087159,084913,022402,042469
0000000008,0000007000,078568,091621,090012,086739,030874,032172
0000000009,0000008000,078282,089283,092634,085111,041119,023555
0000000010,0000009000,078881,086560,094759,080217,052090,017478
0000000011,0000010000,080328,083690,096182,072519,062728,014538
0000000012,0000011000,082482,080952,096767,062763,072009,015011
0000000013,0000012000,085102,078644,096455,051913,079019,018854
0000000014,0000013000,087955,076967,095277,041048,083046,025690
0000000015,0000014000,090767,076087,093346,031203,083723,034859
0000000016,0000015000,093248,076103,090849,023346,080981,045458
0000000017,0000016000,095155,077004,088041,018268,075078,056439
0000000018,0000017000,096318,078693,085190,016448,066599,066737
0000000019,0000018000,096601,081032,082567,018065,056366,075353
0000000020,0000019000,095990,083770,080441,022964,045391,081430
0000000021,0000020000,094552,086630,079018,030667,034747,084371
0000000022,0000021000,092405,089360,078435,040416,025472,083897
0000000023,0000022000,089768,091686,078746,051268,018463,080054
0000000024,0000023000,086923,093355,079922,062138,014428,073218
0000000025,0000024000,084119,094226,081856,071978,013755,064050
0000000026,0000025000,081626,094222,084353,079832,016502,053450
0000000027,0000026000,079718,093323,087159,084921,022395,042469
0000000028,0000027000,078571,091618,090011,086734,030879,032171
0000000029,0000028000,078275,089290,092634,085114,041116,023555
0000000030,0000029000,078880,086560,094760,080222,052085,017478
0000000031,0000030000,080334,083684,096182,072522,062726,014537
0000000032,0000031000,082477,080957,096767,062761,072013,015011
0000000033,0000032000,085100,078646,096455,051918,079013,018853
0000000034,0000033000,087959,076963,095278,041052,083044,025689
0000000035,0000034000,090768,076086,093346,031203,083725,034857
0000000036,0000035000,093243,076107,090848,023349,080979,045456
0000000037,0000036000,095158,077001,088042,018271,075075,056438
0000000038,0000037000,096319,078691,085190,016450,066599,066735
0000000039,0000038000,096599,081035,082567,018066,056367,075351
0000000040,0000039000,095990,083769,080441,022967,045389,081429
0000000041,0000040000,094553,086627,079019,030667,034748,084370
0000000042,0000041000,092403,089362,078434,040417,025472,083896
0000000043,0000042000,089769,091685,078746,051268,018463,080054
0000000044,0000043000,086924,093353,079923,062138,014428,073218
0000000045,0000044000,084117,094228,081855,071978,013756,064050
0000000046,0000045000,081626,094222,084352,079833,016500,053451
0000000047,0000046000,079720,093321,087159,084919,022395,042470
0000000048,0000047000,078568,091620,090011,086734,030879,032172
0000000049,0000048000,078274,089292,092634,085116,041113,023556
0000000050,0000049000,078884,086557,094760,080222,052083,017479
0000000051,0000050000,080333,083685,096182,072521,062725,014538
0000000052,0000051000,082473,080960,096767,062765,072008,015011
0000000053,0000052000,085103,078642,096455,051922,079010,018853
0000000054,0000053000,087960,076961,095278,041052,083044,025689
0000000055,0000054000,090763,076090,093346,031206,083723,034856
0000000056,0000055000,093245,076106,090849,023355,080975,045455
0000000057,0000056000,095162,076996,088042,018272,075077,056436
0000000058,0000057000,096315,078695,085190,016451,066601,066733
0000000059,0000058000,096598,081035,082567,018071,056365,075348
0000000060,0000059000,095995,083764,080441,022969,045390,081426
0000000061,0000060000,094553,086628,079019,030665,034753,084367
0000000062,0000061000,092400,089365,078434,040419,025472,083894
0000000063,0000062000,089773,091682,078745,051268,018464,080052
0000000064,0000063000,086926,093352,079922,062134,014432,073218
0000000065,0000064000,084113,094232,081855,071975,013758,064051
0000000066,0000065000,081627,094221,084351,079833,016499,053452
0000000067,0000066000,079723,093318,087159,084916,022397,042472
0000000068,0000067000,078565,091624,090011,086731,030879,032175
0000000069,0000068000,078273,089293,092634,085117,041109,023559
0000000070,0000069000,078886,086554,094760,080222,052080,017482
0000000071,0000070000,080331,083687,096183,072521,062723,014540
0000000072,0000071000,082471,080962,096767,062768,072003,015013
0000000073,0000072000,085105,078640,096455,051925,079005,018854
0000000074,0000073000,087959,076961,095279,041055,083041,025688
0000000075,0000074000,090761,076092,093347,031212,083719,034854
0000000076,0000075000,093247,076104,090849,023361,080972,045452
0000000077,0000076000,095162,076995,088043,018276,075076,056432
0000000078,0000077000,096313,078696,085190,016456,066601,066728
0000000079,0000078000,096600,081034,082567,018075,056366,075343
0000000080,0000079000,095997,083762,080441,022970,045393,081421
0000000081,0000080000,094551,086630,079018,030665,034757,084363
0000000082,0000081000,092402,089365,078433,040419,025475,083890
0000000083,0000082000,089776,091679,078745,051265,018469,080050
0000000084,0000083000,086925,093354,079921,062130,014438,073217
0000000085,0000084000,084113,094234,081854,071972,013760,064051
0000000086,0000085000,081630,094219,084350,079828,016501,053455
0000000087,0000086000,079722,093320,087158,084910,022399,042476
0000000088,0000087000,078562,091627,090010,086728,030876,032180
0000000089,0000088000,078275,089292,092633,085115,041105,023565
0000000090,0000089000,078886,086554,094760,080219,052077,017488
0000000091,0000090000,080327,083690,096183,072521,062717,014546
0000000092,0000091000,082471,080961,096768,062772,071995,015017
0000000093,0000092000,085106,078638,096457,051929,078999,018857
0000000094,0000093000,087956,076963,095281,041060,083036,025689
0000000095,0000094000,090760,076092,093348,031220,083712,034853
0000000096,0000095000,093249,076100,090851,023368,080968,045448
0000000097,0000096000,095161,076995,088044,018282,075076,056426
0000000098,0000097000,096312,078697,085191,016463,066600,066721
0000000099,0000098000,096603,081030,082567,018080,056368,075336
0000000100,0000099000,095999,083760,080441,022971,045400,081413
0000000101,0000100000,094551,086632,079018,030665,034764,084356
0000000102,0000101000,092404,089363,078432,040418,025482,083885
0000000103,0000102000,089778,091678,078743,051260,018478,080047
0000000104,0000103000,086924,093357,079920,062123,014445,073216
0000000105,0000104000,084114,094234,081852,071966,013765,064053
0000000106,0000105000,081632,094219,084349,079820,016505,053459
0000000107,0000106000,079720,093323,087157,084901,022401,042483
0000000108,0000107000,078561,091629,090009,086722,030874,032189
0000000109,0000108000,078275,089292,092633,085110,041101,023574
0000000110,0000109000,078883,086556,094760,080216,052071,017497
0000000111,0000110000,080324,083693,096184,072523,062708,014554
0000000112,0000111000,082471,080960,096769,062776,071984,015024
0000000113,0000112000,085104,078638,096458,051934,078990,018860
0000000114,0000113000,087953,076964,095282,041069,083026,025689
0000000115,0000114000,090760,076090,093350,031232,083703,034850
0000000116,0000115000,093250,076097,090853,023378,080964,045443
0000000117,0000116000,095160,076995,088045,018293,075074,056418
0000000118,0000117000,096314,078695,085192,016473,066601,066711
0000000119,0000118000,096606,081026,082568,018086,056373,075325
0000000120,0000119000,095999,083760,080441,022974,045408,081402
0000000121,0000120000,094552,086631,079017,030667,034773,084346
0000000122,0000121000,092408,089361,078431,040414,025493,083877
0000000123,0000122000,089779,091679,078742,051252,018491,080042
0000000124,0000123000,086924,093359,079918,062114,014456,073215
0000000125,0000124000,084116,094234,081850,071955,013773,064056
0000000126,0000125000,081633,094220,084347,079806,016512,053466
0000000127,0000126000,079718,093327,087155,084889,022403,042492
0000000128,0000127000,078561,091631,090008,086713,030871,032200
0000000129,0000128000,078275,089293,092633,085102,041096,023588
0000000130,0000129000,078879,086560,094761,080212,052063,017510
0000000131,0000130000,080321,083694,096184,072524,062695,014565
0000000132,0000131000,082470,080959,096771,062781,071971,015033
0000000133,0000132000,085101,078639,096461,051942,078976,018866
0000000134,0000133000,087951,076965,095285,041082,083012,025690
0000000135,0000134000,090761,076086,093352,031246,083692,034847
0000000136,0000135000,093249,076095,090855,023392,080958,045435
0000000137,0000136000,095159,076994,088047,018308,075071,056406
0000000138,0000137000,096316,078691,085193,016486,066602,066697
0000000139,0000138000,096608,081023,082569,018095,056381,075309
0000000140,0000139000,096000,083759,080440,022979,045419,081386
0000000141,0000140000,094556,086629,079015,030667,034786,084332
0000000142,0000141000,092412,089359,078429,040409,025510,083867
0000000143,0000142000,089781,091680,078739,051242,018507,080036
0000000144,0000143000,086926,093360,079914,062101,014470,073213
0000000145,0000144000,084119,094235,081847,071938,013786,064060
0000000146,0000145000,081632,094224,084344,079789,016521,053474
0000000147,0000146000,079716,093331,087153,084874,022406,042505
0000000148,0000147000,078560,091633,090007,086699,030869,032217
0000000149,0000148000,078272,089296,092632,085091,041089,023605
0000000150,0000149000,078875,086564,094761,080208,052050,017527
0000000151,0000150000,080319,083695,096186,072525,062678,014581
0000000152,0000151000,082467,080960,096773,062786,071953,015045
0000000153,0000152000,085097,078640,096464,051954,078958,018873
0000000154,0000153000,087949,076963,095288,041099,082994,025692
0000000155,0000154000,090761,076083,093356,031264,083679,034842
0000000156,0000155000,093248,076094,090858,023412,080948,045425
0000000157,0000156000,095160,076990,088050,018327,075066,056391
0000000158,0000157000,096319,078686,085195,016502,066604,066678
0000000159,0000158000,096611,081020,082569,018106,056390,075289
0000000160,0000159000,096003,083757,080440,022986,045432,081366
0000000161,0000160000,094561,086625,079014,030667,034804,084314
0000000162,0000161000,092416,089357,078426,040401,025531,083853
0000000163,0000162000,089783,091681,078736,051229,018528,080027
0000000164,0000163000,086929,093360,079910,062084,014489,073211
0000000165,0000164000,084121,094236,081843,071917,013802,064065
0000000166,0000165000,081631,094228,084341,079766,016532,053486
0000000167,0000166000,079716,093335,087149,084853,022409,042522
0000000168,0000167000,078559,091636,090005,086681,030866,032238
0000000169,0000168000,078268,089301,092631,085077,041079,023628
0000000170,0000169000,078871,086567,094761,080202,052033,017550
0000000171,0000170000,080316,083697,096188,072526,062657,014601
0000000172,0000171000,082463,080961,096776,062794,071930,015060
0000000173,0000172000,085092,078641,096467,051969,078933,018882
0000000174,0000173000,087947,076961,095292,041119,082972,025694
0000000175,0000174000,090759,076080,093361,031287,083661,034837
0000000176,0000175000,093246,076091,090863,023437,080936,045412
0000000177,0000176000,095162,076985,088053,018352,075061,056372
0000000178,0000177000,096322,078680,085197,016522,066608,066654
0000000179,0000178000,096613,081017,082570,018121,056401,075263
0000000180,0000179000,096008,083753,080439,022994,045450,081341
0000000181,0000180000,094566,086622,079012,030666,034827,084291
0000000182,0000181000,092420,089357,078423,040392,025558,083835
0000000183,0000182000,089787,091682,078731,051213,018555,080017
0000000184,0000183000,086933,093361,079905,062062,014513,073209
0000000185,0000184000,084123,094240,081838,071890,013823,064071
0000000186,0000185000,081631,094233,084336,079739,016545,053500
0000000187,0000186000,079715,093339,087146,084827,022414,042544
0000000188,0000187000,078557,091641,090002,086658,030863,032264
0000000189,0000188000,078263,089307,092630,085061,041067,023657
0000000190,0000189000,078866,086571,094762,080194,052012,017578
0000000191,0000190000,080311,083699,096190,072526,062632,014626
0000000192,0000191000,082456,080964,096780,062804,071901,015080
0000000193,0000192000,085087,078641,096472,051988,078903,018894
0000000194,0000193000,087944,076958,095298,041144,082944,025696
0000000195,0000194000,090756,076078,093366,031317,083639,034829
0000000196,0000195000,093245,076087,090868,023469,080921,045395
0000000197,0000196000,095164,076979,088057,018381,075055,056348
0000000198,0000197000,096325,078674,085200,016547,066612,066625
0000000199,0000198000,096617,081012,082572,018139,056414,075231
0000000200,0000199000,096014,083748,080438,023004,045471,081309
0000000201,0000200000,094573,086618,079009,030665,034856,084264
0000000202,0000201000,092425,089355,078419,040381,025590,083814
0000000203,0000202000,089792,091682,078726,051194,018587,080004
0000000204,0000203000,086938,093362,079899,062034,014544,073207
0000000205,0000204000,084125,094244,081831,071857,013848,064079
0000000206,0000205000,081632,094239,084330,079705,016561,053518
0000000207,0000206000,079715,093345,087141,084794,022420,042570
0000000208,0000207000,078553,091648,089999,086630,030859,032296
0000000209,0000208000,078258,089313,092629,085042,041051,023692
0000000210,0000209000,078861,086576,094763,080184,051988,017613
0000000211,0000210000,080304,083703,096193,072527,062600,014657
0000000212,0000211000,082449,080967,096784,062816,071865,015103
0000000213,0000212000,085082,078640,096478,052011,078866,018908
0000000214,0000213000,087940,076955,095305,041174,082911,025699
0000000215,0000214000,090752,076074,093373,031352,083612,034821
0000000216,0000215000,093245,076081,090874,023507,080903,045376
0000000217,0000216000,095166,076972,088063,018417,075048,056319
0000000218,0000217000,096328,078668,085204,016577,066618,066589
0000000219,0000218000,096622,081005,082573,018161,056431,075192
0000000220,0000219000,096021,083741,080437,023015,045498,081271
0000000221,0000220000,094580,086614,079006,030664,034891,084230
0000000222,0000221000,092432,089354,078414,040368,025629,083788
0000000223,0000222000,089800,091681,078719,051169,018627,079989
0000000224,0000223000,086943,093365,079892,062000,014581,073204
0000000225,0000224000,084127,094249,081824,071818,013877,064089
0000000226,0000225000,081633,094244,084323,079664,016580,053540
0000000227,0000226000,079713,093352,087135,084755,022428,042602
0000000228,0000227000,078548,091656,089995,086597,030853,032335
0000000229,0000228000,078252,089321,092627,085018,041033,023734
0000000230,0000229000,078854,086582,094764,080172,051959,017654
0000000231,0000230000,080295,083708,096196,072528,062563,014693
0000000232,0000231000,082441,080969,096790,062831,071822,015131
0000000233,0000232000,085075,078639,096485,052037,078823,018924
0000000234,0000233000,087934,076953,095313,041210,082872,025702
0000000235,0000234000,090749,076070,093381,031395,083580,034810
0000000236,0000235000,093245,076073,090882,023552,080881,045352
0000000237,0000236000,095168,076963,088069,018459,075041,056285
0000000238,0000237000,096332,078660,085208,016613,066624,066547
0000000239,0000238000,096629,080997,082575,018187,056450,075146
0000000240,0000239000,096030,083734,080436,023027,045530,081227
0000000241,0000240000,094588,086609,079003,030662,034932,084190
0000000242,0000241000,092441,089351,078408,040353,025675,083757
0000000243,0000242000,089808,091681,078711,051140,018674,079971
0000000244,0000243000,086949,093368,079883,061961,014624,073200
0000000245,0000244000,084131,094255,081815,071772,013912,064100
0000000246,0000245000,081634,094251,084315,079616,016603,053565
0000000247,0000246000,079711,093361,087128,084709,022437,042639
0000000248,0000247000,078543,091666,089990,086558,030846,032381
0000000249,0000248000,078245,089329,092625,084991,041011,023784
0000000250,0000249000,078846,086589,094765,080158,051924,017703
0000000251,0000250000,080285,083714,096200,072530,062518,014736
0000000252,0000251000,082432,080972,096796,062849,071772,015164
0000000253,0000252000,085067,078639,096494,052069,078772,018943
0000000254,0000253000,087927,076950,095323,041253,082826,025706
0000000255,0000254000,090744,076064,093391,031445,083542,034797
0000000256,0000255000,093244,076065,090891,023604,080857,045325
0000000257,0000256000,095170,076954,088076,018508,075032,056244
0000000258,0000257000,096337,078650,085213,016655,066631,066498
0000000259,0000258000,096637,080986,082577,018217,056474,075093
0000000260,0000259000,096039,083726,080435,023042,045568,081174
0000000261,0000260000,094598,086603,078999,030660,034980,084144
0000000262,0000261000,092451,089347,078401,040334,025729,083722
0000000263,0000262000,089817,091681,078702,051106,018728,079950
0000000264,0000263000,086955,093372,079873,061915,014673,073196
0000000265,0000264000,084135,094261,081804,071719,013951,064114
0000000266,0000265000,081636,094260,084305,079560,016629,053595
0000000267,0000266000,079708,093371,087120,084656,022447,042682
0000000268,0000267000,078538,091677,089985,086514,030838,032433
0000000269,0000268000,078237,089339,092623,084959,040985,023841
0000000270,0000269000,078835,086598,094766,080142,051884,017759
0000000271,0000270000,080274,083721,096205,072532,062467,014785
0000000272,0000271000,082421,080976,096804,062869,071714,015201
0000000273,0000272000,085057,078639,096504,052105,078714,018965
0000000274,0000273000,087919,076947,095334,041302,082772,025710
0000000275,0000274000,090740,076057,093403,031503,083499,034783
0000000276,0000275000,093243,076055,090901,023664,080829,045293
0000000277,0000276000,095172,076943,088085,018565,075022,056198
0000000278,0000277000,096343,078638,085219,016703,066640,066441
0000000279,0000278000,096646,080975,082579,018252,056501,075032
0000000280,0000279000,096050,083716,080434,023059,045611,081115
0000000281,0000280000,094610,086596,078994,030658,035035,084092
0000000282,0000281000,092464,089343,078393,040312,025790,083682
0000000283,0000282000,089827,091681,078692,051067,018791,079927
0000000284,0000283000,086964,093376,079861,061862,014730,073192
0000000285,0000284000,084141,094268,081792,071657,013997,064130
0000000286,0000285000,081637,094270,084293,079495,016660,053630
0000000287,0000286000,079705,093384,087111,084595,022457,042732
0000000288,0000287000,078532,091690,089978,086463,030828,032494
0000000289,0000288000,078228,089351,092620,084922,040957,023906
0000000290,0000289000,078823,086609,094767,080124,051838,017823
0000000291,0000290000,080261,083729,096210,072535,062408,014841
0000000292,0000291000,082409,080979,096812,062892,071648,015244
0000000293,0000292000,085046,078639,096515,052146,078648,018990
0000000294,0000293000,087910,076943,095347,041359,082712,025714
0000000295,0000294000,090735,076049,093416,031569,083450,034766
0000000296,0000295000,093241,076045,090914,023732,080797,045256
0000000297,0000296000,095174,076931,088095,018630,075010,056145
0000000298,0000297000,096350,078624,085226,016758,066650,066377
0000000299,0000298000,096656,080962,082582,018290,056532,074962
0000000300,0000299000,096062,083706,080433,023078,045661,081046
0000000301,0000300000,094624,086588,078988,030655,035098,084032
