DIgSILENT PowerFactory,21000900,2000
6,06A,00D
1,TTPP_200000_100:Secondary Voltage A,,,V,0.10000000,-8222.169922,0.000000,63865,99998,1,1,P
2,TTPP_200000_100:Secondary Voltage B,,,V,0.10000000,-8220.304688,0.000000,62762,99998,1,1,P
3,TTPP_200000_100:Secondary Voltage C,,,V,0.10000000,-8196.630859,0.000000,61345,99998,1,1,P
4,TTCC_500_5:Secondary Current A,,,A,0.0010000000,-79.736320,0.000000,66368,99998,1,1,P
5,TTCC_500_5:Secondary Current B,,,A,0.0010000000,-84.134506,0.000000,67268,99998,1,1,P
6,TTCC_500_5:Secondary Current C,,,A,0.0010000000,-84.963875,0.000000,70245,99998,1,1,P
50
1
1000.000000,1101
30/06/2023,06:09:58.000000
30/06/2023,06:09:58.000000
ASCII
1.000000
0000000001,0000000000,087734,085844,072814,085652,088814,074369
0000000002,0000001000,085185,088277,072928,082637,091530,074668
0000000003,0000002000,082334,090133,073926,079337,093525,075973
0000000004,0000003000,079489,091194,075709,076082,094595,078159
0000000005,0000004000,076905,091376,078111,073178,094644,081013
0000000006,0000005000,074832,090670,080889,070917,093666,084253
0000000007,0000006000,073487,089139,083764,069524,091752,087559
0000000008,0000007000,073013,086909,086470,069128,089093,090614
0000000009,0000008000,073422,084229,088739,069769,085948,093117
0000000010,0000009000,074688,081364,090340,071387,082628,094820
0000000011,0000010000,076710,078563,091118,073825,079453,095558
0000000012,0000011000,079269,076117,091005,076839,076737,095259
0000000013,0000012000,082100,074284,090007,080137,074744,093954
0000000014,0000013000,084951,073216,088223,083397,073670,091768
0000000015,0000014000,087551,073019,085822,086298,073623,088914
0000000016,0000015000,089609,073739,083044,088557,074604,085674
0000000017,0000016000,090945,075279,080168,089954,076513,082368
0000000018,0000017000,091443,077486,077463,090349,079173,079313
0000000019,0000018000,091024,080173,075194,089704,082321,076810
0000000020,0000019000,089742,083055,073593,088089,085639,075107
0000000021,0000020000,087738,085838,072814,085654,088812,074369
0000000022,0000021000,085185,088278,072928,082635,091532,074668
0000000023,0000022000,082332,090134,073925,079337,093524,075973
0000000024,0000023000,079489,091193,075709,076081,094595,078159
0000000025,0000024000,076906,091375,078111,073178,094644,081013
0000000026,0000025000,074830,090673,080888,070916,093666,084252
0000000027,0000026000,073489,089137,083764,069523,091752,087559
0000000028,0000027000,073011,086909,086470,069127,089094,090614
0000000029,0000028000,073420,084231,088739,069769,085949,093117
0000000030,0000029000,074690,081362,090339,071387,082628,094820
0000000031,0000030000,076710,078563,091119,073823,079454,095558
0000000032,0000031000,079265,076121,091005,076839,076737,095259
0000000033,0000032000,082101,074282,090007,080137,074744,093954
0000000034,0000033000,084955,073212,088223,083395,073671,091768
0000000035,0000034000,087546,073022,085822,086297,073624,088914
0000000036,0000035000,089607,073739,083044,088557,074603,085674
0000000037,0000036000,090951,075273,080168,089953,076514,082368
0000000038,0000037000,091441,077488,077463,090348,079174,079313
0000000039,0000038000,091020,080177,075194,089705,082320,076810
0000000040,0000039000,089747,083051,073593,088089,085639,075107
0000000041,0000040000,087741,085836,072814,085652,088813,074369
0000000042,0000041000,085179,088284,072928,082635,091532,074668
0000000043,0000042000,082335,090132,073925,079338,093523,075973
0000000044,0000043000,079494,091189,075709,076081,094595,078159
0000000045,0000044000,076902,091379,078111,073177,094645,081013
0000000046,0000045000,074827,090675,080888,070917,093665,084252
0000000047,0000046000,073495,089132,083764,069523,091753,087559
0000000048,0000047000,073010,086911,086470,069126,089095,090614
0000000049,0000048000,073416,084236,088739,069769,085949,093117
0000000050,0000049000,074693,081359,090339,071387,082628,094820
0000000051,0000050000,076711,078561,091119,073822,079455,095557
0000000052,0000051000,079261,076125,091005,076838,076738,095259
0000000053,0000052000,082102,074281,090008,080137,074744,093954
0000000054,0000053000,084958,073209,088224,083394,073672,091768
0000000055,0000054000,087543,073025,085823,086295,073625,088914
0000000056,0000055000,089607,073739,083044,088557,074603,085675
0000000057,0000056000,090953,075270,080168,089952,076514,082369
0000000058,0000057000,091439,077489,077463,090346,079175,079314
0000000059,0000058000,091019,080178,075194,089704,082320,076811
0000000060,0000059000,089750,083048,073593,088088,085639,075108
0000000061,0000060000,087741,085836,072814,085652,088813,074370
0000000062,0000061000,085178,088286,072927,082635,091531,074669
0000000063,0000062000,082337,090130,073924,079339,093522,075974
0000000064,0000063000,079494,091189,075708,076081,094595,078159
0000000065,0000064000,076900,091382,078110,073178,094645,081013
0000000066,0000065000,074830,090674,080887,070918,093665,084252
0000000067,0000066000,073495,089132,083764,069523,091753,087558
0000000068,0000067000,073006,086915,086470,069127,089095,090613
0000000069,0000068000,073417,084236,088738,069770,085949,093116
0000000070,0000069000,074695,081357,090339,071387,082629,094819
0000000071,0000070000,076708,078564,091119,073821,079457,095557
0000000072,0000071000,079259,076126,091006,076838,076739,095258
0000000073,0000072000,082104,074278,090009,080136,074745,093953
0000000074,0000073000,084956,073210,088225,083392,073674,091768
0000000075,0000074000,087540,073027,085824,086295,073625,088915
0000000076,0000075000,089610,073736,083045,088556,074603,085676
0000000077,0000076000,090954,075268,080169,089950,076515,082370
0000000078,0000077000,091437,077491,077464,090345,079174,079315
0000000079,0000078000,091022,080176,075194,089704,082319,076812
0000000080,0000079000,089753,083044,073593,088087,085638,075109
0000000081,0000080000,087739,085838,072814,085651,088812,074371
0000000082,0000081000,085179,088286,072926,082636,091529,074670
0000000083,0000082000,082342,090126,073923,079339,093521,075974
0000000084,0000083000,079493,091191,075707,076081,094594,078159
0000000085,0000084000,076899,091384,078108,073179,094643,081012
0000000086,0000085000,074832,090673,080886,070920,093664,084251
0000000087,0000086000,073495,089133,083763,069524,091754,087557
0000000088,0000087000,073003,086919,086469,069128,089095,090611
0000000089,0000088000,073417,084236,088738,069771,085950,093114
0000000090,0000089000,074695,081357,090339,071387,082631,094817
0000000091,0000090000,076704,078568,091120,073821,079459,095555
0000000092,0000091000,079258,076126,091007,076837,076740,095257
0000000093,0000092000,082105,074276,090010,080134,074748,093953
0000000094,0000093000,084953,073211,088227,083390,073676,091768
0000000095,0000094000,087539,073027,085825,086293,073626,088915
0000000096,0000095000,089612,073732,083047,088553,074604,085677
0000000097,0000096000,090953,075267,080171,089948,076516,082371
0000000098,0000097000,091436,077490,077465,090344,079174,079317
0000000099,0000098000,091025,080172,075194,089703,082318,076815
0000000100,0000099000,089755,083043,073593,088086,085637,075112
0000000101,0000100000,087739,085839,072813,085651,088810,074373
0000000102,0000101000,085182,088284,072925,082637,091527,074671
0000000103,0000102000,082344,090125,073922,079340,093519,075975
0000000104,0000103000,079492,091194,075705,076083,094592,078159
0000000105,0000104000,076900,091385,078106,073182,094641,081012
0000000106,0000105000,074834,090673,080884,070922,093663,084250
0000000107,0000106000,073493,089137,083761,069526,091753,087555
0000000108,0000107000,073002,086921,086467,069130,089095,090609
0000000109,0000108000,073418,084236,088738,069772,085951,093112
0000000110,0000109000,074692,081360,090340,071387,082633,094815
0000000111,0000110000,076700,078571,091121,073821,079461,095553
0000000112,0000111000,079258,076125,091008,076837,076743,095255
0000000113,0000112000,082103,074276,090012,080132,074751,093952
0000000114,0000113000,084949,073213,088229,083388,073679,091768
0000000115,0000114000,087539,073024,085828,086290,073628,088916
0000000116,0000115000,089613,073729,083050,088550,074606,085679
0000000117,0000116000,090952,075267,080173,089945,076516,082374
0000000118,0000117000,091438,077488,077466,090341,079173,079320
0000000119,0000118000,091029,080167,075195,089701,082316,076818
0000000120,0000119000,089756,083042,073593,088085,085635,075115
0000000121,0000120000,087741,085838,072811,085652,088807,074376
0000000122,0000121000,085187,088281,072923,082638,091523,074673
0000000123,0000122000,082346,090126,073919,079342,093516,075977
0000000124,0000123000,079493,091196,075702,076086,094589,078160
0000000125,0000124000,076903,091385,078103,073185,094638,081011
0000000126,0000125000,074835,090675,080882,070925,093661,084248
0000000127,0000126000,073491,089141,083759,069530,091753,087552
0000000128,0000127000,073001,086924,086466,069134,089095,090605
0000000129,0000128000,073416,084238,088737,069774,085953,093108
0000000130,0000129000,074687,081364,090340,071388,082636,094811
0000000131,0000130000,076697,078573,091122,073821,079464,095549
0000000132,0000131000,079256,076125,091010,076835,076747,095253
0000000133,0000132000,082099,074277,090015,080129,074755,093950
0000000134,0000133000,084946,073213,088232,083385,073682,091768
0000000135,0000134000,087539,073021,085831,086286,073631,088917
0000000136,0000135000,089612,073726,083053,088545,074608,085681
0000000137,0000136000,090951,075264,080176,089941,076517,082377
0000000138,0000137000,091441,077483,077468,090338,079173,079324
0000000139,0000138000,091032,080163,075196,089698,082315,076822
0000000140,0000139000,089758,083040,073593,088084,085632,075119
0000000141,0000140000,087746,085835,072810,085652,088802,074380
0000000142,0000141000,085192,088279,072921,082639,091519,074676
0000000143,0000142000,082348,090127,073916,079345,093512,075978
0000000144,0000143000,079496,091198,075698,076090,094584,078160
0000000145,0000144000,076906,091386,078099,073190,094635,081010
0000000146,0000145000,074835,090679,080878,070930,093659,084245
0000000147,0000146000,073489,089146,083755,069535,091752,087548
0000000148,0000147000,073001,086927,086463,069138,089096,090601
0000000149,0000148000,073413,084242,088736,069777,085955,093103
0000000150,0000149000,074682,081369,090340,071390,082639,094806
0000000151,0000150000,076693,078575,091123,073821,079469,095545
0000000152,0000151000,079252,076126,091014,076833,076752,095249
0000000153,0000152000,082093,074279,090019,080126,074761,093948
0000000154,0000153000,084943,073211,088237,083380,073687,091767
0000000155,0000154000,087538,073017,085836,086280,073636,088918
0000000156,0000155000,089610,073723,083057,088539,074611,085684
0000000157,0000156000,090952,075260,080179,089935,076518,082381
0000000158,0000157000,091444,077477,077470,090333,079172,079330
0000000159,0000158000,091035,080159,075197,089694,082312,076828
0000000160,0000159000,089762,083037,073592,088082,085628,075125
0000000161,0000160000,087752,085831,072808,085652,088797,074385
0000000162,0000161000,085197,088277,072917,082641,091513,074680
0000000163,0000162000,082352,090128,073911,079348,093505,075981
0000000164,0000163000,079500,091198,075693,076096,094579,078161
0000000165,0000164000,076909,091389,078094,073196,094631,081008
0000000166,0000165000,074834,090684,080873,070936,093656,084242
0000000167,0000166000,073488,089151,083751,069541,091750,087544
0000000168,0000167000,072999,086931,086461,069143,089097,090595
0000000169,0000168000,073408,084248,088735,069780,085958,093096
0000000170,0000169000,074676,081374,090341,071392,082644,094799
0000000171,0000170000,076689,078577,091126,073821,079475,095539
0000000172,0000171000,079246,076128,091018,076830,076759,095245
0000000173,0000172000,082087,074279,090024,080122,074767,093945
0000000174,0000173000,084940,073208,088243,083374,073693,091767
0000000175,0000174000,087535,073013,085842,086273,073641,088920
0000000176,0000175000,089608,073720,083063,088532,074615,085688
0000000177,0000176000,090954,075254,080184,089929,076519,082387
0000000178,0000177000,091448,077470,077474,090327,079171,079337
0000000179,0000178000,091039,080154,075199,089690,082309,076836
0000000180,0000179000,089768,083032,073591,088080,085622,075132
0000000181,0000180000,087759,085826,072805,085652,088790,074392
0000000182,0000181000,085202,088275,072913,082643,091506,074685
0000000183,0000182000,082357,090129,073905,079353,093498,075984
0000000184,0000183000,079506,091200,075686,076102,094571,078161
0000000185,0000184000,076911,091393,078087,073203,094625,081007
0000000186,0000185000,074834,090691,080866,070944,093652,084238
0000000187,0000186000,073488,089157,083746,069549,091749,087537
0000000188,0000187000,072995,086938,086457,069149,089098,090587
0000000189,0000188000,073402,084256,088733,069785,085962,093088
0000000190,0000189000,074670,081380,090341,071394,082650,094791
0000000191,0000190000,076682,078581,091129,073821,079482,095532
0000000192,0000191000,079238,076131,091023,076827,076768,095239
0000000193,0000192000,082081,074280,090031,080117,074776,093942
0000000194,0000193000,084936,073205,088250,083367,073701,091766
0000000195,0000194000,087532,073009,085850,086265,073648,088922
0000000196,0000195000,089607,073714,083070,088523,074619,085692
0000000197,0000196000,090956,075245,080190,089920,076521,082394
0000000198,0000197000,091452,077462,077478,090320,079170,079345
0000000199,0000198000,091044,080147,075200,089685,082305,076845
0000000200,0000199000,089776,083025,073591,088077,085616,075141
0000000201,0000200000,087768,085821,072802,085652,088782,074400
0000000202,0000201000,085210,088274,072908,082647,091496,074692
0000000203,0000202000,082365,090128,073898,079359,093488,075987
0000000204,0000203000,079512,091201,075678,076110,094563,078162
0000000205,0000204000,076914,091398,078079,073213,094618,081004
0000000206,0000205000,074835,090698,080858,070954,093648,084233
0000000207,0000206000,073487,089165,083739,069558,091747,087530
0000000208,0000207000,072991,086947,086453,069157,089100,090578
0000000209,0000208000,073395,084265,088731,069791,085966,093078
0000000210,0000209000,074663,081386,090342,071397,082657,094781
0000000211,0000210000,076673,078586,091132,073820,079491,095523
0000000212,0000211000,079228,076135,091028,076824,076778,095233
0000000213,0000212000,082073,074279,090039,080110,074786,093938
0000000214,0000213000,084930,073202,088259,083358,073711,091765
0000000215,0000214000,087527,073005,085859,086254,073655,088925
0000000216,0000215000,089606,073706,083079,088513,074624,085698
0000000217,0000216000,090959,075236,080197,089910,076523,082402
0000000218,0000217000,091456,077453,077483,090311,079168,079355
0000000219,0000218000,091051,080138,075202,089679,082300,076856
0000000220,0000219000,089785,083016,073590,088074,085608,075152
0000000221,0000220000,087777,085815,072798,085653,088772,074410
0000000222,0000221000,085219,088271,072901,082651,091485,074699
0000000223,0000222000,082374,090128,073889,079366,093476,075992
0000000224,0000223000,079519,091204,075668,076120,094552,078163
0000000225,0000224000,076918,091405,078068,073224,094609,081001
0000000226,0000225000,074837,090706,080849,070966,093642,084226
0000000227,0000226000,073485,089174,083732,069569,091745,087521
0000000228,0000227000,072985,086958,086447,069166,089102,090567
0000000229,0000228000,073387,084275,088729,069798,085971,093065
0000000230,0000229000,074654,081394,090343,071400,082665,094769
0000000231,0000230000,076662,078593,091137,073820,079502,095513
0000000232,0000231000,079217,076138,091036,076820,076790,095225
0000000233,0000232000,082064,074279,090048,080102,074799,093934
0000000234,0000233000,084922,073199,088270,083348,073722,091765
0000000235,0000234000,087522,072999,085870,086242,073664,088928
0000000236,0000235000,089605,073697,083089,088500,074630,085705
0000000237,0000236000,090961,075225,080205,089897,076525,082412
0000000238,0000237000,091461,077442,077489,090301,079167,079367
0000000239,0000238000,091060,080127,075205,089671,082294,076869
0000000240,0000239000,089796,083006,073589,088071,085599,075165
0000000241,0000240000,087788,085809,072794,085653,088761,074421
0000000242,0000241000,085231,088267,072893,082655,091472,074708
0000000243,0000242000,082385,090127,073879,079375,093463,075997
0000000244,0000243000,079527,091208,075656,076131,094540,078164
0000000245,0000244000,076923,091412,078056,073237,094600,080998
0000000246,0000245000,074838,090715,080838,070980,093636,084219
0000000247,0000246000,073482,089186,083723,069582,091743,087510
0000000248,0000247000,072979,086971,086441,069177,089104,090553
0000000249,0000248000,073378,084286,088726,069806,085978,093051
0000000250,0000249000,074642,081404,090345,071404,082675,094755
0000000251,0000250000,076648,078601,091142,073819,079515,095500
0000000252,0000251000,079205,076142,091044,076815,076805,095215
0000000253,0000252000,082054,074278,090059,080093,074813,093928
0000000254,0000253000,084913,073195,088283,083335,073736,091764
0000000255,0000254000,087516,072991,085883,086228,073675,088932
0000000256,0000255000,089604,073686,083101,088485,074637,085713
0000000257,0000256000,090964,075212,080215,089883,076528,082424
0000000258,0000257000,091467,077429,077495,090289,079164,079382
0000000259,0000258000,091070,080113,075208,089663,082287,076884
0000000260,0000259000,089809,082995,073587,088066,085588,075180
0000000261,0000260000,087802,085801,072788,085654,088747,074434
0000000262,0000261000,085245,088262,072884,082661,091456,074718
0000000263,0000262000,082397,090127,073867,079385,093447,076003
0000000264,0000263000,079536,091213,075642,076144,094526,078165
0000000265,0000264000,076929,091420,078042,073253,094588,080994
0000000266,0000265000,074840,090726,080825,070996,093628,084210
0000000267,0000266000,073479,089200,083712,069597,091740,087497
0000000268,0000267000,072971,086986,086433,069190,089106,090538
0000000269,0000268000,073368,084300,088723,069815,085985,093035
0000000270,0000269000,074629,081416,090346,071408,082687,094739
0000000271,0000270000,076633,078610,091148,073818,079530,095486
0000000272,0000271000,079191,076147,091054,076809,076821,095205
0000000273,0000272000,082040,074278,090072,080083,074830,093922
0000000274,0000273000,084902,073191,088298,083321,073751,091763
0000000275,0000274000,087510,072982,085898,086211,073687,088936
0000000276,0000275000,089603,073673,083115,088467,074645,085722
0000000277,0000276000,090966,075198,080227,089867,076530,082438
0000000278,0000277000,091475,077413,077503,090275,079162,079398
0000000279,0000278000,091082,080098,075211,089653,082280,076902
0000000280,0000279000,089823,082982,073586,088062,085576,075197
0000000281,0000280000,087817,085792,072782,085655,088731,074449
0000000282,0000281000,085261,088257,072873,082667,091438,074729
0000000283,0000282000,082411,090127,073853,079396,093430,076009
0000000284,0000283000,079547,091218,075626,076160,094510,078166
0000000285,0000284000,076936,091429,078026,073271,094575,080989
0000000286,0000285000,074842,090739,080810,071015,093620,084200
0000000287,0000286000,073475,089216,083699,069615,091737,087483
0000000288,0000287000,072964,087003,086425,069205,089109,090521
0000000289,0000288000,073356,084316,088719,069825,085994,093016
0000000290,0000289000,074613,081431,090348,071413,082700,094721
0000000291,0000290000,076616,078621,091154,073817,079547,095470
0000000292,0000291000,079174,076152,091065,076802,076840,095192
0000000293,0000292000,082025,074279,090087,080070,074849,093915
0000000294,0000293000,084890,073186,088315,083305,073768,091762
0000000295,0000294000,087503,072972,085916,086192,073701,088941
0000000296,0000295000,089601,073659,083131,088448,074654,085733
0000000297,0000296000,090969,075181,080240,089848,076533,082453
0000000298,0000297000,091484,077395,077513,090260,079158,079417
0000000299,0000298000,091095,080081,075215,089642,082271,076922
0000000300,0000299000,089839,082968,073584,088056,085561,075217
0000000301,0000300000,087836,085780,072775,085656,088712,074466
