DIgSILENT PowerFactory,21000900,2000
6,06A,00D
1,TTPP_200000_100:Secondary Voltage A,,,V,0.010000000,-67.872803,0.000000,-86352,99998,1,1,P
2,TTPP_200000_100:Secondary Voltage B,,,V,0.010000000,20.767910,0.000000,-96260,99998,1,1,P
3,TTPP_200000_100:Secondary Voltage C,,,V,0.10000000,-8980.354492,0.000000,79555,99998,1,1,P
4,TTCC_500_5:Secondary Current A,,,A,0.0010000000,-78.498795,0.000000,43503,99998,1,1,P
5,TTCC_500_5:Secondary Current B,,,A,0.0010000000,-84.614655,0.000000,69230,99998,1,1,P
6,TTCC_500_5:Secondary Current C,,,A,0.0010000000,-84.771301,0.000000,69561,99998,1,1,P
50
1
1000.000000,1101
30/06/2023,06:04:44.000000
30/06/2023,06:04:44.000000
ASCII
1.000000
0000000001,0000000000,061911,034324,080651,084415,089294,074176
0000000002,0000001000,036425,058664,080765,081400,092010,074475
0000000003,0000002000,007916,077212,081763,078099,094005,075780
0000000004,0000003000,-20547,087834,083546,074845,095074,077966
0000000005,0000004000,-46368,089645,085948,071940,095125,080820
0000000006,0000005000,-67113,082599,088726,069680,094145,084060
0000000007,0000006000,-80568,067291,091601,068285,092233,087366
0000000008,0000007000,-85300,044981,094307,067892,089572,090421
0000000009,0000008000,-81199,018183,096576,068530,086430,092924
0000000010,0000009000,-68556,-10453,098177,070150,083107,094627
0000000011,0000010000,-48349,-38458,098956,072586,079934,095365
0000000012,0000011000,-22724,-62948,098842,075602,077216,095066
0000000013,0000012000,005564,-81266,097845,078898,075226,093761
0000000014,0000013000,034067,-91939,096061,082159,074150,091575
0000000015,0000014000,060070,-93920,093660,085060,074103,088721
0000000016,0000015000,080669,-86743,090882,087320,075083,085482
0000000017,0000016000,094016,-71319,088006,088715,076994,082175
0000000018,0000017000,098981,-49236,085301,089112,079652,079120
0000000019,0000018000,094827,-22395,083031,088467,082801,076617
0000000020,0000019000,082005,006435,081431,086851,086119,074914
0000000021,0000020000,061948,034277,080651,084416,089293,074177
0000000022,0000021000,036410,058682,080765,081399,092011,074475
0000000023,0000022000,007918,077207,081762,078100,094005,075780
0000000024,0000023000,-20537,087830,083546,074844,095075,077966
0000000025,0000024000,-46378,089650,085948,071940,095125,080820
0000000026,0000025000,-67133,082623,088725,069680,094146,084059
0000000027,0000026000,-80519,067255,091601,068285,092233,087366
0000000028,0000027000,-85322,044995,094307,067890,089574,090421
0000000029,0000028000,-81237,018220,096576,068531,086429,092924
0000000030,0000029000,-68524,-10488,098176,070150,083108,094627
0000000031,0000030000,-48322,-38485,098955,072585,079935,095365
0000000032,0000031000,-22786,-62887,098843,075601,077218,095067
0000000033,0000032000,005567,-81274,097845,078899,075224,093761
0000000034,0000033000,034128,-91993,096061,082158,074151,091576
0000000035,0000034000,060033,-93888,093660,085059,074104,088722
0000000036,0000035000,080630,-86705,090882,087319,075083,085482
0000000037,0000036000,094070,-71378,088006,088716,076993,082176
0000000038,0000037000,098991,-49247,085300,089110,079654,079121
0000000039,0000038000,094776,-22341,083032,088467,082800,076618
0000000040,0000039000,082027,006410,081431,086851,086119,074915
0000000041,0000040000,061989,034241,080651,084415,089293,074177
0000000042,0000041000,036376,058719,080765,081397,092012,074475
0000000043,0000042000,007912,077216,081762,078101,094004,075781
0000000044,0000043000,-20502,087794,083546,074844,095075,077966
0000000045,0000044000,-46393,089666,085947,071940,095125,080820
0000000046,0000045000,-67147,082646,088725,069680,094146,084059
0000000047,0000046000,-80497,067232,091601,068286,092233,087366
0000000048,0000047000,-85331,045005,094307,067889,089575,090421
0000000049,0000048000,-81255,018242,096576,068531,086430,092924
0000000050,0000049000,-68506,-10507,098176,070149,083108,094627
0000000051,0000050000,-48331,-38481,098956,072584,079936,095365
0000000052,0000051000,-22816,-62864,098843,075600,077218,095066
0000000053,0000052000,005589,-81295,097845,078899,075225,093761
0000000054,0000053000,034133,-92005,096062,082156,074153,091576
0000000055,0000054000,059995,-93857,093660,085058,074105,088722
0000000056,0000055000,080644,-86721,090882,087319,075083,085483
0000000057,0000056000,094100,-71414,088006,088714,076994,082176
0000000058,0000057000,098961,-49221,085301,089109,079654,079122
0000000059,0000058000,094767,-22335,083032,088467,082799,076618
0000000060,0000059000,082075,006363,081431,086851,086118,074915
0000000061,0000060000,061982,034250,080651,084414,089293,074178
0000000062,0000061000,036350,058749,080764,081398,092011,074476
0000000063,0000062000,007949,077187,081761,078101,094002,075781
0000000064,0000063000,-20483,087781,083545,074843,095075,077966
0000000065,0000064000,-46426,089708,085947,071940,095125,080820
0000000066,0000065000,-67136,082642,088724,069681,094145,084059
0000000067,0000066000,-80472,067212,091600,068286,092233,087365
0000000068,0000067000,-85358,045038,094306,067889,089575,090420
0000000069,0000068000,-81270,018260,096575,068532,086430,092923
0000000070,0000069000,-68486,-10528,098176,070149,083109,094626
0000000071,0000070000,-48351,-38465,098956,072584,079937,095364
0000000072,0000071000,-22840,-62844,098843,075600,077219,095066
0000000073,0000072000,005601,-81316,097846,078898,075226,093761
0000000074,0000073000,034124,-92008,096063,082155,074154,091576
0000000075,0000074000,059972,-93841,093661,085057,074105,088722
0000000076,0000075000,080661,-86746,090883,087318,075083,085484
0000000077,0000076000,094107,-71430,088007,088713,076995,082177
0000000078,0000077000,098943,-49209,085302,089108,079654,079123
0000000079,0000078000,094787,-22356,083032,088466,082799,076620
0000000080,0000079000,082102,006336,081431,086850,086118,074917
0000000081,0000080000,061968,034266,080651,084414,089292,074179
0000000082,0000081000,036362,058747,080763,081399,092009,074477
0000000083,0000082000,007987,077160,081760,078102,094001,075782
0000000084,0000083000,-20491,087800,083544,074844,095074,077966
0000000085,0000084000,-46437,089733,085945,071942,095123,080819
0000000086,0000085000,-67107,082625,088723,069683,094144,084058
0000000087,0000086000,-80475,067225,091599,068287,092234,087364
0000000088,0000087000,-85391,045079,094306,067891,089576,090418
0000000089,0000088000,-81264,018259,096575,068533,086430,092921
0000000090,0000089000,-68485,-10531,098176,070149,083111,094624
0000000091,0000090000,-48392,-38430,098957,072583,079939,095363
0000000092,0000091000,-22853,-62839,098844,075600,077221,095065
0000000093,0000092000,005609,-81338,097848,078897,075228,093760
0000000094,0000093000,034097,-91997,096064,082153,074156,091576
0000000095,0000094000,059954,-93840,093663,085055,074107,088723
0000000096,0000095000,080679,-86781,090885,087316,075084,085485
0000000097,0000096000,094104,-71442,088009,088710,076995,082179
0000000098,0000097000,098936,-49211,085302,089106,079654,079125
0000000099,0000098000,094817,-22389,083032,088465,082797,076622
0000000100,0000099000,082121,006316,081431,086849,086117,074919
0000000101,0000100000,061969,034273,080650,084414,089290,074181
0000000102,0000101000,036393,058730,080762,081400,092007,074478
0000000103,0000102000,008014,077148,081758,078103,093999,075783
0000000104,0000103000,-20496,087824,083542,074846,095072,077967
0000000105,0000104000,-46424,089743,085943,071945,095121,080819
0000000106,0000105000,-67087,082625,088721,069685,094143,084057
0000000107,0000106000,-80495,067260,091598,068289,092234,087362
0000000108,0000107000,-85408,045109,094304,067893,089576,090416
0000000109,0000108000,-81259,018260,096574,068535,086431,092919
0000000110,0000109000,-68512,-10507,098177,070150,083113,094622
0000000111,0000110000,-48431,-38398,098958,072583,079941,095360
0000000112,0000111000,-22859,-62847,098845,075599,077223,095063
0000000113,0000112000,005592,-81344,097850,078894,075231,093759
0000000114,0000113000,034059,-91984,096067,082150,074159,091576
0000000115,0000114000,059951,-93861,093665,085052,074109,088724
0000000116,0000115000,080690,-86817,090887,087312,075086,085486
0000000117,0000116000,094092,-71451,088011,088707,076996,082182
0000000118,0000117000,098946,-49234,085304,089104,079653,079128
0000000119,0000118000,094854,-22434,083033,088463,082796,076625
0000000120,0000119000,082137,006302,081431,086848,086115,074922
0000000121,0000120000,061987,034268,080649,084414,089287,074184
0000000122,0000121000,036436,058705,080760,081401,092003,074481
0000000123,0000122000,008038,077147,081756,078105,093996,075784
0000000124,0000123000,-20489,087848,083539,074849,095069,077967
0000000125,0000124000,-46400,089750,085940,071948,095119,080818
0000000126,0000125000,-67077,082642,088718,069688,094142,084055
0000000127,0000126000,-80516,067304,091596,068292,092233,087359
0000000128,0000127000,-85418,045138,094302,067896,089576,090413
0000000129,0000128000,-81272,018278,096574,068537,086433,092915
0000000130,0000129000,-68556,-10467,098177,070150,083116,094618
0000000131,0000130000,-48467,-38374,098959,072583,079945,095357
0000000132,0000131000,-22877,-62852,098848,075597,077227,095060
0000000133,0000132000,005554,-81336,097853,078892,075235,093758
0000000134,0000133000,034026,-91983,096070,082147,074163,091575
0000000135,0000134000,059951,-93895,093669,085048,074112,088725
0000000136,0000135000,080685,-86847,090891,087308,075088,085489
0000000137,0000136000,094085,-71471,088013,088703,076997,082185
0000000138,0000137000,098974,-49280,085305,089100,079652,079132
0000000139,0000138000,094889,-22479,083034,088460,082795,076630
0000000140,0000139000,082157,006285,081430,086846,086112,074927
0000000141,0000140000,062029,034243,080647,084415,089282,074188
0000000142,0000141000,036488,058679,080758,081402,091999,074484
0000000143,0000142000,008063,077156,081753,078107,093992,075786
0000000144,0000143000,-20467,087866,083535,074853,095065,077967
0000000145,0000144000,-46369,089760,085936,071953,095115,080817
0000000146,0000145000,-67077,082678,088715,069693,094140,084053
0000000147,0000146000,-80534,067356,091592,068297,092232,087356
0000000148,0000147000,-85428,045170,094300,067900,089577,090408
0000000149,0000148000,-81302,018317,096573,068539,086436,092910
0000000150,0000149000,-68608,-10419,098177,070152,083120,094613
0000000151,0000150000,-48505,-38353,098961,072583,079949,095352
0000000152,0000151000,-22915,-62845,098851,075595,077233,095057
0000000153,0000152000,005502,-81325,097857,078888,075241,093756
0000000154,0000153000,033995,-91997,096075,082142,074167,091575
0000000155,0000154000,059942,-93934,093674,085043,074116,088726
0000000156,0000155000,080671,-86878,090895,087302,075091,085492
0000000157,0000156000,094090,-71511,088017,088698,076998,082189
0000000158,0000157000,099010,-49341,085308,089096,079652,079137
0000000159,0000158000,094923,-22524,083035,088457,082792,076636
0000000160,0000159000,082194,006254,081430,086845,086108,074933
0000000161,0000160000,062089,034203,080645,084415,089277,074193
0000000162,0000161000,036542,058658,080754,081404,091993,074488
0000000163,0000162000,008097,077168,081748,078111,093985,075788
0000000164,0000163000,-20425,087878,083529,074858,095059,077968
0000000165,0000164000,-46338,089782,085930,071959,095111,080816
0000000166,0000165000,-67081,082732,088710,069699,094137,084049
0000000167,0000166000,-80546,067411,091588,068303,092231,087351
0000000168,0000167000,-85445,045215,094297,067905,089578,090402
0000000169,0000168000,-81349,018376,096572,068543,086439,092903
0000000170,0000169000,-68667,-10364,098178,070154,083124,094606
0000000171,0000170000,-48553,-38328,098963,072583,079955,095347
0000000172,0000171000,-22974,-62826,098855,075593,077240,095052
0000000173,0000172000,005441,-81314,097862,078884,075248,093753
0000000174,0000173000,033961,-92022,096080,082137,074174,091574
0000000175,0000174000,059920,-93974,093680,085036,074121,088728
0000000176,0000175000,080654,-86918,090901,087295,075095,085495
0000000177,0000176000,094105,-71572,088021,088691,076999,082195
0000000178,0000177000,099048,-49413,085311,089090,079651,079144
0000000179,0000178000,094962,-22578,083036,088452,082789,076643
0000000180,0000179000,082251,006204,081429,086843,086102,074940
0000000181,0000180000,062164,034154,080643,084415,089270,074199
0000000182,0000181000,036602,058640,080750,081406,091986,074493
0000000183,0000182000,008149,077174,081742,078116,093978,075791
0000000184,0000183000,-20371,087891,083523,074865,095052,077968
0000000185,0000184000,-46309,089820,085924,071966,095105,080814
0000000186,0000185000,-67082,082797,088703,069707,094133,084045
0000000187,0000186000,-80555,067473,091583,068311,092229,087344
0000000188,0000187000,-85475,045281,094294,067912,089579,090394
0000000189,0000188000,-81411,018453,096570,068547,086442,092895
0000000190,0000189000,-68731,-10306,098178,070156,083130,094598
0000000191,0000190000,-48618,-38292,098966,072583,079963,095339
0000000192,0000191000,-23053,-62797,098860,075590,077248,095047
0000000193,0000192000,005373,-81310,097868,078879,075256,093750
0000000194,0000193000,033918,-92053,096088,082129,074182,091574
0000000195,0000194000,059885,-94017,093687,085027,074128,088730
0000000196,0000195000,080639,-86973,090908,087286,075099,085500
0000000197,0000196000,094128,-71653,088027,088682,077001,082202
0000000198,0000197000,099088,-49494,085315,089082,079650,079153
0000000199,0000198000,095013,-22646,083038,088447,082785,076652
0000000200,0000199000,082329,006136,081428,086840,086096,074949
0000000201,0000200000,062250,034100,080639,084415,089262,074207
0000000202,0000201000,036675,058621,080745,081409,091976,074499
0000000203,0000202000,008222,077175,081735,078122,093968,075795
0000000204,0000203000,-20307,087909,083515,074873,095043,077969
0000000205,0000204000,-46279,089874,085915,071975,095098,080811
0000000206,0000205000,-67075,082870,088695,069717,094128,084040
0000000207,0000206000,-80565,067548,091576,068320,092227,087337
0000000208,0000207000,-85520,045369,094289,067919,089580,090385
0000000209,0000208000,-81481,018543,096568,068553,086447,092885
0000000210,0000209000,-68807,-10239,098179,070159,083137,094588
0000000211,0000210000,-48706,-38241,098970,072582,079972,095331
0000000212,0000211000,-23148,-62761,098866,075586,077259,095040
0000000213,0000212000,005297,-81312,097876,078872,075267,093746
0000000214,0000213000,033860,-92086,096097,082120,074191,091573
0000000215,0000214000,059840,-94065,093697,085017,074135,088733
0000000216,0000215000,080629,-87047,090916,087275,075104,085506
0000000217,0000216000,094154,-71750,088034,088672,077003,082210
0000000218,0000217000,099132,-49587,085320,089074,079648,079163
0000000219,0000218000,095080,-22733,083040,088441,082780,076664
0000000220,0000219000,082424,006050,081427,086837,086088,074960
0000000221,0000220000,062347,034041,080636,084415,089252,074217
0000000222,0000221000,036767,058595,080738,081413,091965,074506
0000000223,0000222000,008313,077170,081726,078129,093957,075799
0000000224,0000223000,-20236,087936,083505,074882,095033,077970
0000000225,0000224000,-46242,089939,085905,071987,095090,080808
0000000226,0000225000,-67062,082952,088686,069729,094122,084033
0000000227,0000226000,-80582,067642,091568,068332,092225,087328
0000000228,0000227000,-85576,045479,094284,067929,089582,090374
0000000229,0000228000,-81561,018646,096566,068560,086452,092873
0000000230,0000229000,-68899,-10158,098180,070163,083146,094577
0000000231,0000230000,-48816,-38175,098974,072582,079983,095320
0000000232,0000231000,-23259,-62722,098873,075582,077271,095032
0000000233,0000232000,005207,-81316,097886,078865,075279,093741
0000000234,0000233000,033786,-92121,096108,082110,074203,091572
0000000235,0000234000,059788,-94124,093708,085004,074145,088736
0000000236,0000235000,080619,-87140,090927,087262,075110,085513
0000000237,0000236000,094179,-71862,088043,088660,077005,082220
0000000238,0000237000,099183,-49697,085326,089063,079646,079175
0000000239,0000238000,095166,-22843,083042,088434,082774,076677
0000000240,0000239000,082535,005951,081426,086833,086079,074973
0000000241,0000240000,062460,033974,080631,084416,089240,074228
0000000242,0000241000,036881,058560,080730,081418,091952,074515
0000000243,0000242000,008422,077164,081716,078138,093943,075804
0000000244,0000243000,-20156,087973,083493,074894,095020,077971
0000000245,0000244000,-46195,090013,085893,072000,095080,080805
0000000246,0000245000,-67044,083046,088674,069743,094116,084026
0000000247,0000246000,-80606,067757,091559,068345,092223,087317
0000000248,0000247000,-85641,045608,094278,067940,089584,090361
0000000249,0000248000,-81650,018764,096563,068568,086458,092858
0000000250,0000249000,-69011,-10059,098182,070166,083156,094563
0000000251,0000250000,-48947,-38094,098979,072581,079996,095308
0000000252,0000251000,-23384,-62680,098881,075577,077285,095023
0000000253,0000252000,005098,-81320,097897,078855,075294,093736
0000000254,0000253000,033694,-92158,096121,082097,074216,091571
0000000255,0000254000,059731,-94197,093721,084990,074155,088739
0000000256,0000255000,080609,-87251,090939,087247,075117,085521
0000000257,0000256000,094205,-71989,088053,088646,077007,082232
0000000258,0000257000,099244,-49827,085333,089051,079644,079189
0000000259,0000258000,095269,-22975,083045,088425,082767,076692
0000000260,0000259000,082661,005837,081425,086829,086068,074988
0000000261,0000260000,062593,033896,080625,084417,089227,074242
0000000262,0000261000,037019,058514,080721,081424,091936,074525
0000000263,0000262000,008546,077160,081704,078147,093927,075810
0000000264,0000263000,-20064,088019,083479,074907,095006,077972
0000000265,0000264000,-46136,090096,085879,072016,095068,080801
0000000266,0000265000,-67024,083157,088661,069759,094108,084017
0000000267,0000266000,-80636,067896,091548,068360,092221,087304
0000000268,0000267000,-85714,045756,094270,067953,089587,090345
0000000269,0000268000,-81754,018899,096560,068577,086466,092842
0000000270,0000269000,-69145,-09939,098183,070171,083167,094547
0000000271,0000270000,-49098,-38001,098985,072580,080011,095294
0000000272,0000271000,-23528,-62634,098891,075571,077302,095012
0000000273,0000272000,004969,-81320,097910,078845,075310,093730
0000000274,0000273000,033587,-92199,096136,082083,074231,091570
0000000275,0000274000,059668,-94285,093736,084973,074167,088744
0000000276,0000275000,080594,-87377,090953,087230,075125,085530
0000000277,0000276000,094233,-72133,088065,088629,077010,082245
0000000278,0000277000,099319,-49982,085341,089038,079641,079206
0000000279,0000278000,095387,-23129,083049,088416,082759,076710
0000000280,0000279000,082803,005709,081423,086824,086055,075005
0000000281,0000280000,062749,033802,080619,084417,089211,074257
0000000282,0000281000,037179,058459,080711,081430,091918,074536
0000000283,0000282000,008687,077157,081690,078159,093910,075816
0000000284,0000283000,-19956,088070,083463,074922,094990,077973
0000000285,0000284000,-46064,090188,085863,072033,095055,080796
0000000286,0000285000,-67003,083286,088646,069777,094100,084007
0000000287,0000286000,-80672,068056,091536,068377,092218,087290
0000000288,0000287000,-85795,045924,094261,067968,089589,090328
0000000289,0000288000,-81873,019057,096556,068587,086474,092823
0000000290,0000289000,-69302,-09799,098185,070176,083181,094528
0000000291,0000290000,-49269,-37896,098991,072580,080028,095278
0000000292,0000291000,-23693,-62581,098902,075564,077321,095000
0000000293,0000292000,004817,-81317,097925,078833,075330,093723
0000000294,0000293000,033466,-92247,096153,082067,074249,091569
0000000295,0000294000,059595,-94387,093753,084954,074181,088749
0000000296,0000295000,080573,-87518,090969,087210,075134,085541
0000000297,0000296000,094264,-72298,088078,088611,077013,082261
0000000298,0000297000,099407,-50162,085350,089022,079638,079224
0000000299,0000298000,095520,-23302,083053,088405,082750,076730
0000000300,0000299000,082964,005564,081422,086819,086041,075025
0000000301,0000300000,062931,033692,080612,084419,089192,074274
