DIgSILENT PowerFactory,21000900,2000
6,06A,00D
1,TTPP_200000_100:Secondary Voltage A,,,V,0.10000000,-8225.184570,0.000000,63596,99998,1,1,P
2,TTPP_200000_100:Secondary Voltage B,,,V,0.10000000,-8185.738770,0.000000,66084,99998,1,1,P
3,TTPP_200000_100:Secondary Voltage C,,,V,0.10000000,-8356.747070,0.000000,61205,99998,1,1,P
4,TTCC_300_1:Secondary Current A,,,A,0.00010000000,-2.732240,0.000000,-19199,99998,1,1,P
5,TTCC_300_1:Secondary Current B,,,A,0.00010000000,-5.008476,0.000000,124,99998,1,1,P
6,TTCC_300_1:Secondary Current C,,,A,0.00010000000,-4.892231,0.000000,-2144,99998,1,1,P
50
1
1000.000000,1101
30/06/2023,06:08:14.000000
30/06/2023,06:08:14.000000
ASCII
1.000000
0000000001,0000000000,089358,083332,074986,006393,036095,083842
0000000002,0000001000,087224,086050,074402,016146,026816,083368
0000000003,0000002000,084583,088380,074713,026985,019819,079525
0000000004,0000003000,081727,090059,075890,037865,015776,072689
0000000005,0000004000,078934,090921,077823,047706,015101,063521
0000000006,0000005000,076446,090912,080320,055556,017853,052921
0000000007,0000006000,074524,090026,083126,060640,023749,041940
0000000008,0000007000,073381,088318,085979,062464,032224,031642
0000000009,0000008000,073094,085980,088601,060840,042465,023025
0000000010,0000009000,073693,083257,090726,055941,053440,016948
0000000011,0000010000,075141,080387,092149,048248,064074,014008
0000000012,0000011000,077294,077650,092734,038488,073359,014481
0000000013,0000012000,079916,075340,092422,027641,080365,018323
0000000014,0000013000,082767,073665,091245,016774,084396,025160
0000000015,0000014000,085581,072783,089313,006931,085071,034328
0000000016,0000015000,088060,072801,086816,-00927,082330,044928
0000000017,0000016000,089968,073700,084008,-06006,076426,055909
0000000018,0000017000,091130,075391,081157,-07825,067947,066207
0000000019,0000018000,091414,077728,078534,-06209,057715,074823
0000000020,0000019000,090802,080467,076408,-01309,046739,080900
0000000021,0000020000,089364,083326,074986,006392,036096,083842
0000000022,0000021000,087218,086057,074402,016143,026820,083367
0000000023,0000022000,084581,088382,074713,026993,019812,079525
0000000024,0000023000,081735,090052,075889,037864,015776,072689
0000000025,0000024000,078932,090923,077823,047704,015104,063521
0000000026,0000025000,076438,090919,080319,055558,017850,052921
0000000027,0000026000,074531,090020,083126,060647,023743,041939
0000000028,0000027000,073383,088315,085978,062461,032227,031642
0000000029,0000028000,073088,085987,088601,060840,042464,023026
0000000030,0000029000,073693,083257,090727,055948,053433,016948
0000000031,0000030000,075147,080381,092149,048248,064074,014007
0000000032,0000031000,077289,077654,092734,038488,073360,014481
0000000033,0000032000,079912,075343,092422,027645,080362,018323
0000000034,0000033000,082772,073660,091245,016778,084392,025159
0000000035,0000034000,085581,072783,089313,006930,085073,034327
0000000036,0000035000,088056,072805,086816,-00924,082328,044926
0000000037,0000036000,089971,073697,084009,-06002,076424,055908
0000000038,0000037000,091131,075389,081157,-07824,067948,066205
0000000039,0000038000,091411,077732,078534,-06208,057716,074821
0000000040,0000039000,090803,080466,076408,-01306,046737,080899
0000000041,0000040000,089366,083324,074986,006393,036097,083840
0000000042,0000041000,087216,086059,074401,016144,026820,083366
0000000043,0000042000,084581,088382,074713,026994,019812,079524
0000000044,0000043000,081737,090050,075890,037865,015776,072688
0000000045,0000044000,078930,090925,077822,047704,015105,063521
0000000046,0000045000,076439,090919,080319,055560,017848,052921
0000000047,0000046000,074533,090018,083126,060645,023744,041940
0000000048,0000047000,073381,088317,085978,062461,032226,031643
0000000049,0000048000,073087,085989,088601,060842,042461,023027
0000000050,0000049000,073696,083254,090727,055949,053431,016949
0000000051,0000050000,075145,080382,092149,048248,064074,014008
0000000052,0000051000,077286,077657,092734,038492,073356,014481
0000000053,0000052000,079915,075340,092422,027648,080358,018323
0000000054,0000053000,082773,073659,091246,016779,084392,025159
0000000055,0000054000,085576,072787,089313,006933,085071,034326
0000000056,0000055000,088057,072803,086816,-00918,082324,044925
0000000057,0000056000,089974,073694,084009,-06001,076425,055905
0000000058,0000057000,091128,075392,081157,-07822,067949,066203
0000000059,0000058000,091410,077732,078534,-06203,057714,074818
0000000060,0000059000,090808,080461,076408,-01305,046738,080896
0000000061,0000060000,089365,083326,074986,006391,036102,083837
0000000062,0000061000,087213,086062,074401,016145,026821,083364
0000000063,0000062000,084585,088379,074712,026995,019812,079523
0000000064,0000063000,081739,090049,075889,037861,015781,072688
0000000065,0000064000,078926,090929,077822,047702,015106,063521
0000000066,0000065000,076440,090918,080318,055560,017847,052923
0000000067,0000066000,074535,090016,083126,060642,023745,041943
0000000068,0000067000,073378,088321,085978,062458,032227,031646
0000000069,0000068000,073086,085990,088601,060843,042457,023030
0000000070,0000069000,073699,083251,090727,055949,053428,016952
0000000071,0000070000,075143,080384,092150,048247,064071,014011
0000000072,0000071000,077284,077659,092734,038495,073351,014483
0000000073,0000072000,079917,075337,092423,027652,080353,018324
0000000074,0000073000,082772,073658,091246,016781,084390,025158
0000000075,0000074000,085574,072789,089314,006938,085067,034324
0000000076,0000075000,088059,072801,086817,-00913,082320,044922
0000000077,0000076000,089975,073692,084010,-05997,076425,055902
0000000078,0000077000,091126,075393,081158,-07818,067949,066198
0000000079,0000078000,091412,077731,078534,-06199,057715,074813
0000000080,0000079000,090810,080459,076408,-01304,046742,080891
0000000081,0000080000,089364,083327,074986,006391,036106,083833
0000000082,0000081000,087214,086062,074400,016145,026824,083361
0000000083,0000082000,084588,088377,074712,026991,019818,079521
0000000084,0000083000,081737,090051,075888,037856,015786,072687
0000000085,0000084000,078926,090931,077821,047698,015109,063522
0000000086,0000085000,076443,090917,080317,055555,017849,052925
0000000087,0000086000,074534,090017,083125,060636,023747,041947
0000000088,0000087000,073375,088324,085977,062455,032225,031651
0000000089,0000088000,073087,085989,088600,060841,042453,023036
0000000090,0000089000,073698,083251,090727,055946,053425,016958
0000000091,0000090000,075139,080387,092150,048248,064065,014016
0000000092,0000091000,077284,077658,092735,038499,073343,014487
0000000093,0000092000,079918,075335,092424,027656,080347,018327
0000000094,0000093000,082769,073660,091248,016787,084384,025159
0000000095,0000094000,085573,072789,089315,006947,085060,034323
0000000096,0000095000,088062,072797,086818,-00905,082317,044918
0000000097,0000096000,089974,073692,084011,-05991,076425,055896
0000000098,0000097000,091125,075394,081158,-07811,067949,066191
0000000099,0000098000,091415,077727,078534,-06194,057717,074806
0000000100,0000099000,090811,080458,076408,-01302,046748,080883
0000000101,0000100000,089363,083329,074985,006392,036112,083826
0000000102,0000101000,087217,086060,074399,016144,026830,083355
0000000103,0000102000,084591,088375,074710,026986,019827,079517
0000000104,0000103000,081736,090054,075887,037849,015794,072686
0000000105,0000104000,078926,090932,077819,047692,015113,063524
0000000106,0000105000,076445,090916,080316,055546,017854,052930
0000000107,0000106000,074533,090020,083124,060627,023749,041953
0000000108,0000107000,073374,088327,085976,062449,032222,031659
0000000109,0000108000,073088,085989,088600,060836,042449,023045
0000000110,0000109000,073696,083253,090727,055943,053420,016967
0000000111,0000110000,075136,080390,092151,048249,064056,014024
0000000112,0000111000,077284,077657,092736,038503,073332,014494
0000000113,0000112000,079917,075335,092425,027661,080338,018330
0000000114,0000113000,082766,073662,091249,016796,084374,025159
0000000115,0000114000,085573,072787,089317,006958,085052,034320
0000000116,0000115000,088062,072794,086820,-00895,082312,044913
0000000117,0000116000,089973,073692,084012,-05981,076423,055888
0000000118,0000117000,091126,075392,081159,-07801,067949,066181
0000000119,0000118000,091418,077724,078535,-06187,057722,074795
0000000120,0000119000,090812,080457,076408,-01299,046757,080872
0000000121,0000120000,089365,083328,074984,006393,036121,083816
0000000122,0000121000,087221,086058,074398,016141,026842,083347
0000000123,0000122000,084592,088376,074709,026978,019839,079513
0000000124,0000123000,081736,090056,075885,037840,015804,072685
0000000125,0000124000,078929,090931,077817,047681,015122,063527
0000000126,0000125000,076445,090917,080314,055532,017861,052936
0000000127,0000126000,074530,090024,083122,060616,023751,041963
0000000128,0000127000,073373,088328,085975,062439,032220,031671
0000000129,0000128000,073087,085990,088600,060828,042444,023058
0000000130,0000129000,073692,083257,090728,055939,053411,016980
0000000131,0000130000,075134,080391,092152,048251,064043,014035
0000000132,0000131000,077283,077657,092738,038507,073319,014503
0000000133,0000132000,079913,075336,092428,027669,080325,018336
0000000134,0000133000,082763,073662,091252,016809,084360,025160
0000000135,0000134000,085573,072784,089319,006972,085041,034317
0000000136,0000135000,088062,072792,086822,-00881,082306,044905
0000000137,0000136000,089972,073691,084014,-05966,076419,055876
0000000138,0000137000,091129,075388,081160,-07788,067950,066167
0000000139,0000138000,091421,077720,078536,-06179,057729,074779
0000000140,0000139000,090813,080456,076407,-01294,046767,080857
0000000141,0000140000,089368,083326,074983,006393,036134,083802
0000000142,0000141000,087225,086056,074396,016135,026858,083337
0000000143,0000142000,084593,088377,074706,026968,019856,079506
0000000144,0000143000,081738,090057,075881,037827,015818,072684
0000000145,0000144000,078932,090932,077814,047664,015134,063530
0000000146,0000145000,076445,090921,080311,055515,017869,052945
0000000147,0000146000,074529,090028,083120,060600,023754,041976
0000000148,0000147000,073373,088330,085973,062426,032217,031687
0000000149,0000148000,073084,085993,088599,060817,042437,023076
0000000150,0000149000,073688,083261,090728,055934,053398,016998
0000000151,0000150000,075132,080392,092153,048252,064026,014051
0000000152,0000151000,077280,077657,092740,038513,073301,014515
0000000153,0000152000,079909,075337,092431,027681,080306,018343
0000000154,0000153000,082761,073660,091255,016825,084342,025162
0000000155,0000154000,085573,072780,089323,006991,085027,034312
0000000156,0000155000,088060,072791,086826,-00862,082297,044895
0000000157,0000156000,089972,073687,084017,-05946,076415,055861
0000000158,0000157000,091132,075383,081162,-07772,067953,066148
0000000159,0000158000,091423,077717,078537,-06168,057738,074759
0000000160,0000159000,090816,080454,076407,-01288,046781,080836
0000000161,0000160000,089373,083323,074981,006393,036152,083784
0000000162,0000161000,087229,086054,074394,016127,026880,083323
0000000163,0000162000,084596,088378,074703,026955,019877,079498
0000000164,0000163000,081742,090058,075877,037810,015837,072682
0000000165,0000164000,078934,090933,077810,047643,015151,063535
0000000166,0000165000,076444,090925,080308,055493,017880,052956
0000000167,0000166000,074528,090032,083116,060580,023757,041993
0000000168,0000167000,073372,088333,085971,062407,032214,031708
0000000169,0000168000,073080,085998,088598,060804,042427,023099
0000000170,0000169000,073684,083265,090728,055928,053381,017020
0000000171,0000170000,075128,080394,092155,048253,064005,014071
0000000172,0000171000,077275,077659,092743,038520,073278,014530
0000000173,0000172000,079905,075338,092434,027696,080281,018352
0000000174,0000173000,082759,073658,091260,016846,084320,025164
0000000175,0000174000,085571,072778,089328,007014,085009,034307
0000000176,0000175000,088059,072788,086830,-00836,082285,044882
0000000177,0000176000,089974,073683,084020,-05922,076410,055842
0000000178,0000177000,091135,075377,081165,-07752,067956,066124
0000000179,0000178000,091426,077714,078538,-06153,057750,074733
0000000180,0000179000,090820,080450,076406,-01280,046798,080811
0000000181,0000180000,089379,083319,074979,006393,036176,083762
0000000182,0000181000,087233,086053,074390,016118,026906,083305
0000000183,0000182000,084599,088379,074698,026939,019903,079487
0000000184,0000183000,081746,090058,075872,037788,015862,072680
0000000185,0000184000,078936,090937,077805,047616,015171,063542
0000000186,0000185000,076444,090930,080303,055465,017893,052971
0000000187,0000186000,074528,090036,083113,060553,023762,042014
0000000188,0000187000,073369,088338,085969,062384,032211,031735
0000000189,0000188000,073076,086004,088597,060788,042415,023127
0000000190,0000189000,073679,083269,090729,055920,053361,017049
0000000191,0000190000,075123,080396,092157,048253,063980,014097
0000000192,0000191000,077269,077661,092747,038530,073249,014550
0000000193,0000192000,079900,075338,092439,027715,080251,018364
0000000194,0000193000,082756,073655,091265,016871,084292,025167
0000000195,0000194000,085568,072775,089333,007043,084987,034299
0000000196,0000195000,088058,072784,086835,-00805,082269,044865
0000000197,0000196000,089976,073676,084024,-05892,076404,055818
0000000198,0000197000,091138,075371,081168,-07727,067961,066095
0000000199,0000198000,091429,077709,078539,-06135,057763,074701
0000000200,0000199000,090826,080445,076405,-01270,046820,080779
0000000201,0000200000,089385,083315,074977,006391,036205,083734
0000000202,0000201000,087238,086052,074386,016107,026939,083284
0000000203,0000202000,084605,088379,074693,026920,019936,079474
0000000204,0000203000,081751,090060,075866,037760,015892,072677
0000000205,0000204000,078937,090941,077798,047583,015196,063550
0000000206,0000205000,076444,090936,080297,055431,017909,052989
0000000207,0000206000,074527,090042,083108,060521,023768,042041
0000000208,0000207000,073366,088345,085966,062356,032207,031767
0000000209,0000208000,073070,086011,088596,060768,042399,023162
0000000210,0000209000,073674,083273,090730,055910,053336,017083
0000000211,0000210000,075117,080400,092160,048254,063948,014127
0000000212,0000211000,077262,077664,092751,038543,073213,014573
0000000213,0000212000,079894,075337,092445,027737,080214,018378
0000000214,0000213000,082752,073653,091272,016901,084259,025169
0000000215,0000214000,085565,072771,089340,007079,084960,034290
0000000216,0000215000,088057,072778,086841,-00767,082251,044846
0000000217,0000216000,089978,073669,084030,-05857,076397,055789
0000000218,0000217000,091141,075365,081171,-07697,067966,066059
0000000219,0000218000,091435,077702,078540,-06112,057779,074662
0000000220,0000219000,090834,080438,076405,-01259,046847,080742
0000000221,0000220000,089392,083311,074974,006390,036240,083700
0000000222,0000221000,087245,086051,074381,016094,026978,083258
0000000223,0000222000,084612,088378,074686,026895,019975,079459
0000000224,0000223000,081756,090062,075859,037726,015929,072674
0000000225,0000224000,078940,090946,077791,047544,015225,063559
0000000226,0000225000,076445,090942,080290,055390,017928,053010
0000000227,0000226000,074526,090049,083102,060481,023776,042072
0000000228,0000227000,073361,088354,085962,062323,032201,031805
0000000229,0000228000,073064,086018,088594,060745,042381,023204
0000000230,0000229000,073667,083279,090731,055898,053307,017125
0000000231,0000230000,075108,080405,092163,048255,063911,014164
0000000232,0000231000,077253,077667,092757,038558,073170,014601
0000000233,0000232000,079888,075337,092452,027764,080171,018394
0000000234,0000233000,082746,073650,091280,016937,084220,025173
0000000235,0000234000,085561,072767,089349,007122,084928,034280
0000000236,0000235000,088057,072770,086849,-00722,082230,044822
0000000237,0000236000,089980,073660,084036,-05815,076389,055755
0000000238,0000237000,091145,075357,081176,-07661,067972,066017
0000000239,0000238000,091442,077694,078542,-06086,057799,074616
0000000240,0000239000,090842,080431,076404,-01246,046879,080697
0000000241,0000240000,089401,083306,074970,006388,036281,083661
0000000242,0000241000,087254,086048,074375,016079,027023,083228
0000000243,0000242000,084620,088378,074678,026866,020022,079441
0000000244,0000243000,081762,090065,075850,037687,015972,072670
0000000245,0000244000,078943,090952,077782,047498,015260,063571
0000000246,0000245000,076447,090949,080282,055342,017951,053036
0000000247,0000246000,074524,090058,083095,060435,023785,042109
0000000248,0000247000,073356,088363,085957,062285,032194,031851
0000000249,0000248000,073058,086027,088592,060717,042359,023254
0000000250,0000249000,073658,083287,090732,055884,053272,017173
0000000251,0000250000,075098,080412,092167,048257,063866,014206
0000000252,0000251000,077244,077670,092763,038575,073120,014634
0000000253,0000252000,079880,075336,092461,027795,080121,018413
0000000254,0000253000,082739,073647,091290,016980,084174,025176
0000000255,0000254000,085557,072761,089358,007172,084891,034267
0000000256,0000255000,088057,072762,086858,-00670,082205,044795
0000000257,0000256000,089982,073651,084044,-05765,076380,055714
0000000258,0000257000,091149,075347,081181,-07619,067980,065968
0000000259,0000258000,091450,077684,078544,-06056,057822,074563
0000000260,0000259000,090852,080423,076403,-01232,046917,080645
0000000261,0000260000,089411,083300,074966,006386,036329,083615
0000000262,0000261000,087264,086044,074368,016060,027077,083193
0000000263,0000262000,084630,088378,074669,026832,020077,079421
0000000264,0000263000,081768,090069,075840,037641,016022,072667
0000000265,0000264000,078948,090958,077771,047445,015300,063584
0000000266,0000265000,076448,090957,080272,055286,017978,053066
0000000267,0000266000,074521,090068,083087,060382,023795,042153
0000000268,0000267000,073350,088375,085952,062240,032186,031904
0000000269,0000268000,073050,086037,088590,060685,042334,023311
0000000270,0000269000,073648,083296,090733,055868,053232,017229
0000000271,0000270000,075087,080418,092172,048259,063815,014255
0000000272,0000271000,077234,077673,092771,038595,073062,014671
0000000273,0000272000,079870,075336,092471,027831,080062,018435
0000000274,0000273000,082731,073644,091301,017029,084121,025180
0000000275,0000274000,085552,072754,089370,007230,084848,034253
0000000276,0000275000,088055,072752,086869,-00610,082177,044763
0000000277,0000276000,089984,073640,084052,-05708,076370,055668
0000000278,0000277000,091155,075335,081186,-07570,067988,065911
0000000279,0000278000,091459,077672,078546,-06022,057850,074502
0000000280,0000279000,090862,080413,076401,-01215,046960,080585
0000000281,0000280000,089422,083293,074961,006384,036384,083562
0000000282,0000281000,087276,086040,074360,016038,027139,083153
0000000283,0000282000,084640,088378,074659,026793,020139,079397
0000000284,0000283000,081776,090073,075828,037588,016079,072663
0000000285,0000284000,078953,090965,077759,047383,015345,063600
0000000286,0000285000,076450,090967,080260,055221,018008,053100
0000000287,0000286000,074518,090081,083078,060321,023806,042203
0000000288,0000287000,073344,088387,085945,062189,032176,031965
0000000289,0000288000,073041,086049,088587,060648,042305,023377
0000000290,0000289000,073636,083306,090734,055850,053186,017293
0000000291,0000290000,075074,080426,092177,048262,063756,014312
0000000292,0000291000,077221,077677,092779,038619,072996,014714
0000000293,0000292000,079858,075337,092482,027873,079996,018460
0000000294,0000293000,082722,073641,091314,017086,084060,025184
0000000295,0000294000,085547,072746,089383,007296,084799,034236
0000000296,0000295000,088054,072742,086881,-00541,082145,044726
0000000297,0000296000,089987,073628,084062,-05644,076358,055615
0000000298,0000297000,091162,075321,081193,-07516,067998,065847
0000000299,0000298000,091469,077659,078550,-05984,057881,074432
0000000300,0000299000,090874,080402,076400,-01196,047009,080516
0000000301,0000300000,089436,083285,074955,006381,036446,083502
