DIgSILENT PowerFactory,21000900,2000
6,06A,00D
1,TTPP_200000_100:Secondary Voltage A,,,V,0.10000000,-8466.018555,0.000000,70660,99998,1,1,P
2,TTPP_200000_100:Secondary Voltage B,,,V,0.10000000,-8522.742188,0.000000,72012,99998,1,1,P
3,TTPP_200000_100:Secondary Voltage C,,,V,0.10000000,-8458.758789,0.000000,66455,99998,1,1,P
4,TTCC_300_1:Secondary Current A,,,A,0.00010000000,-5.472437,0.000000,-10733,99998,1,1,P
5,TTCC_300_1:Secondary Current B,,,A,0.00010000000,-4.867257,0.000000,-3464,99998,1,1,P
6,TTCC_300_1:Secondary Current C,,,A,0.00010000000,-5.029065,0.000000,303,99998,1,1,P
50
1
1000.000000,1101
30/06/2023,06:10:30.000000
30/06/2023,06:10:30.000000
ASCII
1.000000
0000000001,0000000000,091766,086703,076006,033794,034683,085210
0000000002,0000001000,089633,089420,075422,043547,025405,084737
0000000003,0000002000,086991,091751,075733,054386,018407,080894
0000000004,0000003000,084135,093429,076910,065266,014364,074059
0000000005,0000004000,081342,094291,078843,075108,013689,064889
0000000006,0000005000,078855,094282,081340,082956,016442,054290
0000000007,0000006000,076933,093397,084146,088043,022335,043309
0000000008,0000007000,075789,091688,086999,089866,030811,033011
0000000009,0000008000,075503,089350,089621,088242,041052,024395
0000000010,0000009000,076101,086628,091747,083344,052026,018317
0000000011,0000010000,077549,083757,093169,075650,062661,015377
0000000012,0000011000,079702,081019,093754,065891,071946,015849
0000000013,0000012000,082324,078711,093442,055043,078953,019692
0000000014,0000013000,085175,077035,092265,044177,082983,026528
0000000015,0000014000,087989,076153,090333,034333,083658,035696
0000000016,0000015000,090469,076170,087836,026475,080918,046295
0000000017,0000016000,092376,077071,085028,021396,075015,057277
0000000018,0000017000,093538,078761,082177,019577,066535,067575
0000000019,0000018000,093823,081098,079554,021193,056304,076191
0000000020,0000019000,093211,083837,077428,026092,045328,082268
0000000021,0000020000,091772,086697,076006,033794,034684,085210
0000000022,0000021000,089626,089427,075422,043544,025408,084736
0000000023,0000022000,086990,091752,075734,054394,018400,080893
0000000024,0000023000,084143,093422,076909,065266,014364,074058
0000000025,0000024000,081340,094293,078843,075106,013692,064890
0000000026,0000025000,078847,094289,081340,082960,016437,054290
0000000027,0000026000,076939,093390,084146,088048,022331,043308
0000000028,0000027000,075791,091686,086999,089863,030814,033011
0000000029,0000028000,075496,089357,089621,088243,041051,024395
0000000030,0000029000,076102,086627,091747,083351,052020,018317
0000000031,0000030000,077555,083751,093169,075650,062661,015376
0000000032,0000031000,079697,081024,093754,065891,071947,015849
0000000033,0000032000,082321,078713,093442,055048,078949,019691
0000000034,0000033000,085180,077029,092265,044181,082980,026527
0000000035,0000034000,087989,076154,090333,034332,083661,035695
0000000036,0000035000,090464,076175,087836,026479,080915,046294
0000000037,0000036000,092379,077067,085029,021400,075012,057275
0000000038,0000037000,093540,078759,082177,019578,066537,067573
0000000039,0000038000,093819,081102,079554,021194,056305,076189
0000000040,0000039000,093211,083836,077428,026096,045325,082267
0000000041,0000040000,091775,086694,076006,033794,034686,085208
0000000042,0000041000,089624,089429,075421,043545,025409,084735
0000000043,0000042000,086989,091753,075733,054395,018400,080893
0000000044,0000043000,084146,093420,076910,065266,014364,074057
0000000045,0000044000,081338,094295,078843,075105,013693,064890
0000000046,0000045000,078847,094290,081339,082961,016436,054290
0000000047,0000046000,076941,093388,084146,088048,022331,043309
0000000048,0000047000,075790,091687,086999,089862,030814,033012
0000000049,0000048000,075495,089359,089621,088244,041048,024395
0000000050,0000049000,076104,086624,091747,083352,052018,018318
0000000051,0000050000,077554,083752,093170,075650,062660,015377
0000000052,0000051000,079695,081027,093754,065894,071944,015849
0000000053,0000052000,082323,078710,093442,055051,078946,019691
0000000054,0000053000,085181,077028,092266,044182,082980,026526
0000000055,0000054000,087985,076157,090333,034336,083659,035693
0000000056,0000055000,090466,076173,087836,026484,080912,046292
0000000057,0000056000,092382,077064,085029,021401,075013,057273
0000000058,0000057000,093536,078762,082177,019580,066537,067570
0000000059,0000058000,093819,081102,079554,021198,056303,076186
0000000060,0000059000,093216,083832,077428,026097,045327,082264
0000000061,0000060000,091773,086696,076006,033792,034690,085206
0000000062,0000061000,089622,089432,075421,043546,025409,084733
0000000063,0000062000,086994,091749,075732,054395,018401,080892
0000000064,0000063000,084147,093419,076909,065262,014369,074057
0000000065,0000064000,081334,094299,078842,075103,013694,064890
0000000066,0000065000,078849,094288,081338,082961,016435,054292
0000000067,0000066000,076944,093386,084146,088044,022332,043312
0000000068,0000067000,075786,091691,086998,089860,030814,033015
0000000069,0000068000,075494,089360,089621,088246,041044,024399
0000000070,0000069000,076107,086621,091747,083351,052015,018321
0000000071,0000070000,077551,083754,093170,075650,062658,015379
0000000072,0000071000,079692,081029,093754,065898,071938,015851
0000000073,0000072000,082326,078707,093443,055055,078940,019692
0000000074,0000073000,085180,077028,092266,044184,082978,026526
0000000075,0000074000,087982,076159,090334,034341,083655,035692
0000000076,0000075000,090468,076171,087837,026490,080908,046290
0000000077,0000076000,092384,077062,085030,021405,075013,057269
0000000078,0000077000,093534,078764,082178,019584,066538,067566
0000000079,0000078000,093820,081101,079554,021203,056303,076181
0000000080,0000079000,093219,083829,077428,026098,045331,082259
0000000081,0000080000,091772,086697,076006,033792,034695,085201
0000000082,0000081000,089622,089432,075420,043546,025412,084729
0000000083,0000082000,086997,091747,075732,054393,018406,080889
0000000084,0000083000,084146,093421,076908,065257,014374,074056
0000000085,0000084000,081334,094301,078841,075100,013697,064891
0000000086,0000085000,078851,094287,081338,082956,016437,054295
0000000087,0000086000,076943,093387,084145,088038,022334,043316
0000000088,0000087000,075783,091694,086998,089856,030812,033020
0000000089,0000088000,075495,089359,089620,088243,041040,024404
0000000090,0000089000,076107,086621,091747,083349,052012,018327
0000000091,0000090000,077548,083757,093170,075651,062652,015384
0000000092,0000091000,079692,081029,093755,065901,071930,015855
0000000093,0000092000,082326,078705,093444,055058,078934,019695
0000000094,0000093000,085177,077030,092268,044190,082972,026526
0000000095,0000094000,087981,076159,090335,034349,083648,035690
0000000096,0000095000,090470,076167,087838,026497,080905,046286
0000000097,0000096000,092382,077062,085031,021411,075013,057264
0000000098,0000097000,093534,078764,082178,019591,066537,067558
0000000099,0000098000,093824,081097,079554,021208,056306,076174
0000000100,0000099000,093220,083828,077428,026099,045337,082251
0000000101,0000100000,091772,086699,076005,033793,034701,085194
0000000102,0000101000,089625,089430,075419,043545,025419,084724
0000000103,0000102000,086999,091745,075731,054387,018415,080886
0000000104,0000103000,084144,093424,076907,065250,014382,074055
0000000105,0000104000,081335,094302,078839,075093,013701,064893
0000000106,0000105000,078853,094286,081336,082947,016441,054299
0000000107,0000106000,076941,093390,084144,088029,022336,043322
0000000108,0000107000,075782,091697,086997,089851,030809,033028
0000000109,0000108000,075496,089359,089620,088238,041036,024414
0000000110,0000109000,076104,086623,091748,083345,052007,018336
0000000111,0000110000,077545,083760,093171,075652,062643,015392
0000000112,0000111000,079692,081027,093756,065906,071920,015862
0000000113,0000112000,082325,078705,093446,055064,078925,019698
0000000114,0000113000,085174,077032,092270,044199,082962,026527
0000000115,0000114000,087981,076157,090337,034361,083640,035688
0000000116,0000115000,090471,076164,087840,026507,080900,046280
0000000117,0000116000,092381,077062,085032,021421,075011,057255
0000000118,0000117000,093535,078762,082179,019601,066538,067548
0000000119,0000118000,093827,081094,079555,021214,056310,076162
0000000120,0000119000,093220,083827,077428,026102,045345,082240
0000000121,0000120000,091773,086698,076004,033794,034710,085184
0000000122,0000121000,089629,089428,075418,043542,025430,084716
0000000123,0000122000,087000,091746,075729,054379,018427,080881
0000000124,0000123000,084145,093426,076905,065241,014392,074054
0000000125,0000124000,081337,094302,078837,075082,013710,064896
0000000126,0000125000,078854,094288,081334,082934,016448,054305
0000000127,0000126000,076939,093394,084142,088017,022339,043332
0000000128,0000127000,075781,091698,086995,089841,030807,033040
0000000129,0000128000,075495,089360,089620,088230,041031,024427
0000000130,0000129000,076100,086627,091748,083341,051998,018349
0000000131,0000130000,077542,083761,093172,075653,062630,015404
0000000132,0000131000,079691,081027,093758,065910,071906,015871
0000000133,0000132000,082322,078706,093448,055072,078912,019704
0000000134,0000133000,085172,077032,092272,044212,082948,026528
0000000135,0000134000,087982,076154,090339,034375,083629,035684
0000000136,0000135000,090470,076162,087842,026521,080894,046272
0000000137,0000136000,092380,077061,085034,021436,075008,057244
0000000138,0000137000,093537,078758,082180,019614,066539,067534
0000000139,0000138000,093829,081090,079556,021223,056318,076147
0000000140,0000139000,093221,083826,077427,026107,045356,082225
0000000141,0000140000,091776,086696,076003,033795,034723,085170
0000000142,0000141000,089633,089426,075416,043536,025447,084705
0000000143,0000142000,087002,091747,075726,054369,018444,080875
0000000144,0000143000,084147,093427,076902,065229,014406,074053
0000000145,0000144000,081340,094302,078834,075066,013722,064899
0000000146,0000145000,078853,094291,081332,082916,016457,054314
0000000147,0000146000,076937,093398,084140,088002,022341,043345
0000000148,0000147000,075781,091700,086994,089828,030804,033056
0000000149,0000148000,075493,089363,089619,088220,041024,024445
0000000150,0000149000,076096,086631,091748,083336,051985,018366
0000000151,0000150000,077540,083762,093173,075655,062613,015420
0000000152,0000151000,079688,081027,093760,065916,071888,015883
0000000153,0000152000,082318,078707,093451,055083,078893,019711
0000000154,0000153000,085170,077030,092275,044228,082930,026530
0000000155,0000154000,087981,076150,090343,034393,083615,035680
0000000156,0000155000,090469,076160,087846,026541,080885,046262
0000000157,0000156000,092381,077058,085037,021456,075003,057229
0000000158,0000157000,093540,078753,082182,019630,066541,067516
0000000159,0000158000,093832,081087,079557,021234,056327,076126
0000000160,0000159000,093224,083824,077427,026114,045370,082204
0000000161,0000160000,091781,086693,076001,033795,034741,085152
0000000162,0000161000,089637,089424,075414,043529,025468,084691
0000000163,0000162000,087004,091748,075723,054356,018465,080866
0000000164,0000163000,084150,093428,076898,065211,014425,074051
0000000165,0000164000,081342,094304,078830,075044,013738,064904
0000000166,0000165000,078852,094295,081328,082894,016468,054325
0000000167,0000166000,076937,093402,084137,087981,022345,043362
0000000168,0000167000,075780,091703,086992,089809,030801,033077
0000000169,0000168000,075489,089368,089618,088206,041014,024467
0000000170,0000169000,076092,086635,091749,083330,051968,018389
0000000171,0000170000,077537,083764,093175,075655,062592,015440
0000000172,0000171000,079684,081029,093763,065923,071865,015899
0000000173,0000172000,082313,078708,093455,055098,078869,019720
0000000174,0000173000,085168,077028,092280,044249,082907,026532
0000000175,0000174000,087980,076148,090348,034417,083597,035674
0000000176,0000175000,090467,076158,087850,026566,080873,046249
0000000177,0000176000,092382,077053,085040,021480,074998,057209
0000000178,0000177000,093543,078747,082185,019650,066545,067492
0000000179,0000178000,093834,081084,079558,021249,056338,076100
0000000180,0000179000,093229,083821,077426,026122,045387,082179
0000000181,0000180000,091787,086689,075999,033794,034764,085130
0000000182,0000181000,089641,089424,075410,043519,025495,084674
0000000183,0000182000,087008,091749,075718,054341,018491,080856
0000000184,0000183000,084154,093428,076893,065189,014450,074049
0000000185,0000184000,081344,094307,078825,075017,013759,064911
0000000186,0000185000,078852,094300,081323,082866,016481,054340
0000000187,0000186000,076936,093406,084133,087955,022349,043383
0000000188,0000187000,075778,091708,086989,089786,030798,033104
0000000189,0000188000,075484,089374,089617,088190,041002,024496
0000000190,0000189000,076087,086639,091749,083323,051948,018417
0000000191,0000190000,077532,083766,093177,075656,062567,015465
0000000192,0000191000,079677,081031,093767,065933,071836,015918
0000000193,0000192000,082308,078708,093459,055117,078838,019732
0000000194,0000193000,085165,077025,092285,044274,082880,026534
0000000195,0000194000,087977,076145,090353,034446,083575,035667
0000000196,0000195000,090466,076154,087855,026598,080857,046233
0000000197,0000196000,092385,077046,085044,021510,074992,057186
0000000198,0000197000,093546,078742,082188,019675,066549,067463
0000000199,0000198000,093838,081079,079559,021267,056352,076068
0000000200,0000199000,093235,083815,077425,026131,045409,082147
0000000201,0000200000,091794,086685,075997,033793,034793,085102
0000000202,0000201000,089646,089423,075406,043509,025527,084652
0000000203,0000202000,087013,091749,075713,054321,018524,080843
0000000204,0000203000,084159,093430,076886,065161,014480,074046
0000000205,0000204000,081346,094311,078819,074985,013784,064919
0000000206,0000205000,078853,094306,081317,082833,016497,054358
0000000207,0000206000,076935,093412,084128,087922,022356,043410
0000000208,0000207000,075774,091715,086986,089758,030794,033136
0000000209,0000208000,075478,089381,089616,088170,040986,024531
0000000210,0000209000,076082,086643,091750,083313,051923,018452
0000000211,0000210000,077525,083770,093180,075656,062535,015496
0000000212,0000211000,079670,081034,093772,065945,071800,015941
0000000213,0000212000,082303,078707,093465,055140,078802,019746
0000000214,0000213000,085160,077023,092292,044304,082847,026537
0000000215,0000214000,087973,076141,090360,034482,083548,035658
0000000216,0000215000,090466,076148,087861,026636,080839,046213
0000000217,0000216000,092387,077039,085050,021546,074985,057157
0000000218,0000217000,093549,078735,082191,019705,066555,067427
0000000219,0000218000,093843,081072,079560,021289,056368,076030
0000000220,0000219000,093242,083809,077425,026142,045436,082110
0000000221,0000220000,091801,086681,075994,033791,034828,085068
0000000222,0000221000,089653,089421,075401,043496,025566,084626
0000000223,0000222000,087020,091748,075706,054297,018563,080828
0000000224,0000223000,084164,093432,076879,065127,014517,074043
0000000225,0000224000,081348,094316,078811,074946,013813,064928
0000000226,0000225000,078854,094312,081310,082792,016516,054379
0000000227,0000226000,076934,093419,084122,087883,022363,043441
0000000228,0000227000,075769,091724,086982,089725,030788,033175
0000000229,0000228000,075473,089388,089614,088147,040968,024573
0000000230,0000229000,076075,086649,091751,083301,051894,018493
0000000231,0000230000,077516,083775,093184,075657,062498,015532
0000000232,0000231000,079662,081037,093777,065960,071757,015969
0000000233,0000232000,082296,078707,093472,055167,078758,019762
0000000234,0000233000,085155,077020,092300,044340,082808,026540
0000000235,0000234000,087970,076137,090369,034524,083516,035647
0000000236,0000235000,090466,076141,087869,026681,080818,046190
0000000237,0000236000,092389,077030,085056,021588,074977,057122
0000000238,0000237000,093553,078727,082196,019741,066561,067385
0000000239,0000238000,093850,081064,079562,021315,056388,075984
0000000240,0000239000,093251,083801,077424,026155,045468,082065
0000000241,0000240000,091809,086676,075990,033790,034869,085029
0000000242,0000241000,089662,089418,075395,043480,025612,084596
0000000243,0000242000,087029,091748,075698,054268,018610,080810
0000000244,0000243000,084170,093435,076870,065088,014560,074039
0000000245,0000244000,081352,094322,078802,074900,013848,064940
0000000246,0000245000,078855,094319,081302,082744,016539,054405
0000000247,0000246000,076932,093428,084116,087837,022372,043479
0000000248,0000247000,075764,091733,086977,089686,030781,033220
0000000249,0000248000,075466,089397,089612,088119,040946,024623
0000000250,0000249000,076066,086657,091752,083287,051859,018542
0000000251,0000250000,077506,083781,093187,075659,062454,015575
0000000252,0000251000,079653,081040,093783,065978,071707,016002
0000000253,0000252000,082288,078706,093481,055198,078708,019781
0000000254,0000253000,085148,077017,092310,044382,082762,026544
0000000255,0000254000,087965,076131,090378,034575,083478,035635
0000000256,0000255000,090465,076132,087878,026733,080793,046162
0000000257,0000256000,092391,077021,085064,021637,074969,057082
0000000258,0000257000,093558,078717,082201,019783,066568,067336
0000000259,0000258000,093858,081054,079564,021345,056411,075931
0000000260,0000259000,093260,083793,077423,026170,045505,082013
0000000261,0000260000,091819,086670,075986,033788,034917,084983
0000000262,0000261000,089672,089415,075388,043461,025665,084561
0000000263,0000262000,087038,091748,075689,054233,018665,080789
0000000264,0000263000,084176,093439,076860,065042,014610,074036
0000000265,0000264000,081356,094328,078791,074846,013887,064953
0000000266,0000265000,078857,094327,081292,082687,016565,054435
0000000267,0000266000,076929,093438,084108,087784,022382,043522
0000000268,0000267000,075759,091745,086972,089642,030773,033273
0000000269,0000268000,075458,089407,089610,088087,040921,024680
0000000270,0000269000,076056,086666,091753,083271,051819,018598
0000000271,0000270000,077495,083788,093192,075662,062402,015624
0000000272,0000271000,079642,081043,093791,065998,071649,016040
0000000273,0000272000,082278,078706,093491,055234,078650,019803
0000000274,0000273000,085140,077014,092321,044432,082708,026548
0000000275,0000274000,087961,076124,090390,034632,083435,035620
0000000276,0000275000,090464,076122,087889,026793,080765,046130
0000000277,0000276000,092393,077010,085072,021694,074958,057035
0000000278,0000277000,093564,078705,082207,019832,066577,067279
0000000279,0000278000,093867,081042,079566,021380,056438,075870
0000000280,0000279000,093271,083783,077421,026186,045549,081953
0000000281,0000280000,091831,086663,075981,033786,034972,084930
0000000282,0000281000,089685,089410,075380,043440,025727,084521
0000000283,0000282000,087048,091748,075679,054194,018728,080766
0000000284,0000283000,084185,093443,076848,064989,014667,074032
0000000285,0000284000,081362,094335,078779,074785,013933,064969
0000000286,0000285000,078858,094337,081281,082623,016595,054469
0000000287,0000286000,076926,093451,084098,087723,022393,043572
0000000288,0000287000,075753,091757,086965,089591,030763,033334
0000000289,0000288000,075449,089419,089607,088051,040892,024746
0000000290,0000289000,076044,086676,091755,083253,051773,018662
0000000291,0000290000,077482,083796,093197,075665,062343,015680
0000000292,0000291000,079629,081047,093799,066021,071583,016082
0000000293,0000292000,082267,078706,093502,055276,078583,019828
0000000294,0000293000,085131,077010,092334,044488,082648,026552
0000000295,0000294000,087956,076116,090403,034698,083387,035603
0000000296,0000295000,090462,076112,087901,026861,080734,046093
0000000297,0000296000,092395,076998,085082,021759,074947,056982
0000000298,0000297000,093571,078691,082213,019886,066587,067214
0000000299,0000298000,093877,081029,079570,021418,056469,075800
0000000300,0000299000,093283,083773,077420,026205,045598,081884
0000000301,0000300000,091845,086655,075975,033783,035035,084871
