DIgSILENT PowerFactory,21000900,2000
6,06A,00D
1,TTPP_200000_100:Secondary Voltage A,,,V,0.010000000,-71.430717,0.000000,-85628,99998,1,1,P
2,TTPP_200000_100:Secondary Voltage B,,,V,0.010000000,-67.599777,0.000000,-86793,99998,1,1,P
3,TTPP_200000_100:Secondary Voltage C,,,V,0.10000000,-8988.072266,0.000000,79293,99998,1,1,P
4,TTCC_300_1:Secondary Current A,,,A,0.00010000000,-4.910636,0.000000,-24928,99998,1,1,P
5,TTCC_300_1:Secondary Current B,,,A,0.00010000000,-4.900495,0.000000,-2113,99998,1,1,P
6,TTCC_300_1:Secondary Current C,,,A,0.00010000000,-4.914167,0.000000,-1781,99998,1,1,P
50
1
1000.000000,1101
30/06/2023,06:05:01.000000
30/06/2023,06:05:01.000000
ASCII
1.000000
0000000001,0000000000,078207,021512,081299,028172,035020,084060
0000000002,0000001000,056862,048692,080715,037926,025740,083588
0000000003,0000002000,030476,071974,081026,048762,018744,079747
0000000004,0000003000,001892,088780,082202,059642,014699,072913
0000000005,0000004000,-26062,097415,084136,069485,014021,063746
0000000006,0000005000,-50936,097312,086633,077338,016769,053146
0000000007,0000006000,-70096,088415,089439,082424,022664,042165
0000000008,0000007000,-81571,071370,092291,084244,031143,031867
0000000009,0000008000,-84458,048019,094915,082625,041378,023250
0000000010,0000009000,-78456,020766,097041,077731,052352,017170
0000000011,0000010000,-63938,-07975,098462,070038,062988,014228
0000000012,0000011000,-42429,-35322,099047,060275,072277,014700
0000000013,0000012000,-16255,-58391,098735,049429,079283,018541
0000000014,0000013000,012286,-75163,097558,038567,083311,025375
0000000015,0000014000,040460,-84012,095626,028720,083992,034542
0000000016,0000015000,065233,-83818,093129,020859,081253,045141
0000000017,0000016000,084282,-74786,090322,015778,075352,056122
0000000018,0000017000,095916,-57905,087470,013962,066869,066421
0000000019,0000018000,098794,-34552,084848,015573,056642,075038
0000000020,0000019000,092645,-07140,082721,020470,045666,081117
0000000021,0000020000,078258,021469,081299,028172,035022,084060
0000000022,0000021000,056810,048752,080715,037922,025744,083588
0000000023,0000022000,030436,072007,081026,048771,018735,079747
0000000024,0000023000,001967,088718,082203,059643,014698,072912
0000000025,0000024000,-26052,097406,084135,069483,014024,063746
0000000026,0000025000,-50986,097371,086633,077338,016769,053146
0000000027,0000026000,-70097,088409,089439,082428,022660,042165
0000000028,0000027000,-81543,071334,092292,084247,031140,031867
0000000029,0000028000,-84471,048036,094914,082625,041380,023249
0000000030,0000029000,-78460,020766,097040,077734,052349,017170
0000000031,0000030000,-63932,-07981,098463,070038,062987,014228
0000000032,0000031000,-42462,-35298,099047,060279,072274,014699
0000000033,0000032000,-16235,-58404,098735,049433,079280,018539
0000000034,0000033000,012322,-75196,097558,038567,083312,025374
0000000035,0000034000,040424,-83978,095626,028720,083992,034541
0000000036,0000035000,065202,-83787,093129,020864,081250,045140
0000000037,0000036000,084332,-74839,090321,015783,075349,056121
0000000038,0000037000,095934,-57919,087470,013960,066873,066419
0000000039,0000038000,098744,-34507,084847,015575,056642,075036
0000000040,0000039000,092653,-07150,082721,020475,045663,081115
0000000041,0000040000,078288,021435,081299,028172,035023,084058
0000000042,0000041000,056796,048767,080715,037922,025745,083586
0000000043,0000042000,030434,072017,081026,048771,018736,079746
0000000044,0000043000,001981,088703,082203,059643,014697,072912
0000000045,0000044000,-26067,097425,084136,069483,014024,063745
0000000046,0000045000,-50985,097374,086632,077339,016767,053146
0000000047,0000046000,-70064,088384,089439,082427,022660,042166
0000000048,0000047000,-81567,071357,092292,084245,031141,031868
0000000049,0000048000,-84503,048065,094915,082628,041375,023250
0000000050,0000049000,-78426,020733,097040,077736,052346,017171
0000000051,0000050000,-63921,-07995,098463,070037,062987,014228
0000000052,0000051000,-42506,-35256,099048,060280,072272,014700
0000000053,0000052000,-16236,-58408,098736,049438,079275,018540
0000000054,0000053000,012351,-75228,097559,038570,083310,025374
0000000055,0000054000,040406,-83963,095626,028722,083992,034540
0000000056,0000055000,065193,-83778,093129,020868,081247,045138
0000000057,0000056000,084351,-74862,090322,015786,075348,056119
0000000058,0000057000,095924,-57915,087470,013963,066873,066417
0000000059,0000058000,098741,-34501,084847,015578,056642,075033
0000000060,0000059000,092682,-07178,082721,020476,045665,081113
0000000061,0000060000,078283,021440,081299,028171,035026,084056
0000000062,0000061000,056774,048791,080714,037923,025746,083584
0000000063,0000062000,030464,071992,081025,048772,018737,079745
0000000064,0000063000,002001,088689,082202,059640,014701,072912
0000000065,0000064000,-26099,097460,084135,069481,014026,063746
0000000066,0000065000,-50983,097379,086632,077339,016766,053148
0000000067,0000066000,-70037,088360,089439,082425,022660,042168
0000000068,0000067000,-81583,071377,092291,084242,031141,031870
0000000069,0000068000,-84520,048086,094914,082627,041372,023254
0000000070,0000069000,-78413,020719,097040,077736,052342,017175
0000000071,0000070000,-63933,-07987,098463,070037,062985,014231
0000000072,0000071000,-42525,-35240,099048,060283,072267,014702
0000000073,0000072000,-16223,-58426,098736,049442,079270,018541
0000000074,0000073000,012343,-75231,097560,038572,083307,025374
0000000075,0000074000,040380,-83945,095627,028727,083988,034538
0000000076,0000075000,065209,-83800,093130,020874,081244,045135
0000000077,0000076000,084369,-74886,090323,015789,075348,056115
0000000078,0000077000,095902,-57897,087471,013966,066874,066412
0000000079,0000078000,098744,-34505,084847,015583,056641,075028
0000000080,0000079000,092715,-07210,082721,020478,045668,081108
0000000081,0000080000,078281,021444,081298,028171,035031,084051
0000000082,0000081000,056769,048804,080714,037923,025750,083581
0000000083,0000082000,030489,071974,081024,048769,018741,079743
0000000084,0000083000,002007,088690,082201,059635,014707,072911
0000000085,0000084000,-26109,097482,084134,069476,014029,063747
0000000086,0000085000,-50968,097374,086631,077334,016768,053151
0000000087,0000086000,-70035,088364,089438,082419,022662,042172
0000000088,0000087000,-81609,071407,092291,084238,031140,031876
0000000089,0000088000,-84519,048089,094914,082626,041368,023259
0000000090,0000089000,-78407,020711,097040,077734,052338,017180
0000000091,0000090000,-63964,-07962,098464,070037,062979,014236
0000000092,0000091000,-42543,-35229,099048,060287,072259,014706
0000000093,0000092000,-16211,-58448,098737,049446,079263,018543
0000000094,0000093000,012329,-75228,097561,038577,083302,025374
0000000095,0000094000,040359,-83935,095628,028735,083982,034537
0000000096,0000095000,065222,-83825,093131,020882,081239,045132
0000000097,0000096000,084375,-74903,090324,015796,075348,056109
0000000098,0000097000,095894,-57894,087471,013973,066875,066405
0000000099,0000098000,098763,-34526,084848,015588,056644,075021
0000000100,0000099000,092736,-07231,082721,020480,045673,081100
0000000101,0000100000,078279,021452,081298,028171,035038,084044
0000000102,0000101000,056786,048797,080712,037921,025757,083575
0000000103,0000102000,030519,071958,081023,048764,018749,079739
0000000104,0000103000,002003,088708,082200,059628,014715,072910
0000000105,0000104000,-26111,097500,084132,069470,014034,063749
0000000106,0000105000,-50947,097368,086629,077326,016771,053155
0000000107,0000106000,-70041,088381,089437,082410,022665,042179
0000000108,0000107000,-81632,071440,092290,084231,031138,031884
0000000109,0000108000,-84519,048093,094913,082622,041363,023268
0000000110,0000109000,-78416,020717,097041,077731,052333,017189
0000000111,0000110000,-63996,-07936,098464,070038,062971,014244
0000000112,0000111000,-42555,-35227,099050,060292,072249,014712
0000000113,0000112000,-16216,-58459,098739,049452,079254,018547
0000000114,0000113000,012303,-75222,097563,038586,083293,025374
0000000115,0000114000,040350,-83944,095630,028746,083973,034534
0000000116,0000115000,065235,-83855,093133,020893,081234,045126
0000000117,0000116000,084369,-74914,090325,015806,075346,056101
0000000118,0000117000,095894,-57904,087472,013983,066875,066395
0000000119,0000118000,098793,-34560,084848,015595,056648,075009
0000000120,0000119000,092755,-07249,082721,020482,045682,081089
0000000121,0000120000,078285,021454,081297,028171,035048,084034
0000000122,0000121000,056816,048783,080711,037919,025767,083568
0000000123,0000122000,030545,071949,081021,048757,018762,079735
0000000124,0000123000,002005,088728,082198,059618,014726,072909
0000000125,0000124000,-26100,097512,084130,069459,014043,063751
0000000126,0000125000,-50934,097375,086627,077313,016778,053162
0000000127,0000126000,-70056,088413,089435,082398,022667,042188
0000000128,0000127000,-81648,071469,092289,084222,031136,031896
0000000129,0000128000,-84524,048103,094913,082614,041358,023282
0000000130,0000129000,-78444,020741,097041,077727,052324,017203
0000000131,0000130000,-64031,-07911,098465,070039,062958,014256
0000000132,0000131000,-42567,-35231,099051,060297,072234,014721
0000000133,0000132000,-16236,-58463,098741,049460,079240,018552
0000000134,0000133000,012272,-75216,097565,038598,083280,025376
0000000135,0000134000,040345,-83964,095633,028761,083962,034531
0000000136,0000135000,065241,-83887,093135,020908,081227,045118
0000000137,0000136000,084364,-74929,090327,015820,075343,056090
0000000138,0000137000,095907,-57929,087473,013996,066876,066380
0000000139,0000138000,098825,-34598,084849,015604,056654,074994
0000000140,0000139000,092775,-07266,082720,020487,045693,081073
0000000141,0000140000,078308,021444,081296,028172,035061,084020
0000000142,0000141000,056856,048763,080709,037914,025783,083557
0000000143,0000142000,030569,071950,081019,048746,018779,079728
0000000144,0000143000,002015,088748,082195,059605,014741,072907
0000000145,0000144000,-26078,097523,084127,069443,014054,063755
0000000146,0000145000,-50926,097395,086624,077296,016786,053170
0000000147,0000146000,-70074,088454,089433,082381,022671,042201
0000000148,0000147000,-81661,071499,092287,084209,031133,031912
0000000149,0000148000,-84539,048124,094912,082604,041350,023299
0000000150,0000149000,-78483,020775,097042,077721,052312,017220
0000000151,0000150000,-64068,-07887,098467,070040,062941,014271
0000000152,0000151000,-42590,-35231,099053,060303,072216,014733
0000000153,0000152000,-16269,-58461,098744,049471,079222,018560
0000000154,0000153000,012242,-75220,097569,038614,083262,025377
0000000155,0000154000,040340,-83994,095636,028780,083947,034526
0000000156,0000155000,065238,-83918,093139,020927,081218,045108
0000000157,0000156000,084363,-74954,090330,015839,075339,056074
0000000158,0000157000,095931,-57971,087475,014012,066878,066362
0000000159,0000158000,098859,-34640,084849,015616,056663,074974
0000000160,0000159000,092800,-07287,082720,020493,045707,081053
0000000161,0000160000,078347,021422,081294,028172,035079,084003
0000000162,0000161000,056903,048741,080706,037907,025804,083543
0000000163,0000162000,030596,071956,081016,048733,018800,079720
0000000164,0000163000,002037,088766,082191,059587,014760,072906
0000000165,0000164000,-26053,097538,084123,069422,014070,063760
0000000166,0000165000,-50925,097429,086621,077273,016798,053182
0000000167,0000166000,-70091,088502,089430,082360,022674,042218
0000000168,0000167000,-81675,071535,092285,084191,031129,031933
0000000169,0000168000,-84568,048160,094912,082590,041341,023322
0000000170,0000169000,-78531,020819,097042,077715,052296,017243
0000000171,0000170000,-64108,-07864,098468,070041,062920,014292
0000000172,0000171000,-42627,-35225,099056,060311,072193,014749
0000000173,0000172000,-16315,-58454,098748,049486,079198,018569
0000000174,0000173000,012211,-75232,097573,038635,083239,025379
0000000175,0000174000,040330,-84029,095641,028804,083929,034520
0000000176,0000175000,065230,-83952,093143,020952,081207,045095
0000000177,0000176000,084368,-74993,090333,015863,075334,056055
0000000178,0000177000,095963,-58026,087478,014033,066881,066338
0000000179,0000178000,098895,-34687,084850,015630,056675,074948
0000000180,0000179000,092837,-07318,082719,020500,045725,081027
0000000181,0000180000,078401,021390,081292,028172,035102,083980
0000000182,0000181000,056955,048722,080703,037897,025830,083526
0000000183,0000182000,030632,071964,081011,048717,018827,079709
0000000184,0000183000,002072,088782,082186,059565,014784,072903
0000000185,0000184000,-26026,097561,084118,069396,014090,063767
0000000186,0000185000,-50926,097476,086616,077245,016811,053196
0000000187,0000186000,-70105,088556,089426,082334,022679,042240
0000000188,0000187000,-81695,071581,092282,084168,031126,031959
0000000189,0000188000,-84610,048213,094911,082573,041329,023351
0000000190,0000189000,-78586,020868,097043,077707,052275,017271
0000000191,0000190000,-64156,-07838,098471,070042,062894,014317
0000000192,0000191000,-42679,-35210,099060,060321,072164,014768
0000000193,0000192000,-16370,-58448,098753,049504,079168,018580
0000000194,0000193000,012177,-75253,097579,038660,083211,025381
0000000195,0000194000,040311,-84068,095646,028833,083907,034513
0000000196,0000195000,065218,-83993,093148,020983,081192,045079
0000000197,0000196000,084381,-75048,090338,015893,075328,056031
0000000198,0000197000,095999,-58092,087481,014058,066886,066309
0000000199,0000198000,098935,-34740,084852,015648,056689,074916
0000000200,0000199000,092889,-07362,082718,020510,045747,080996
0000000201,0000200000,078468,021348,081289,028171,035130,083952
0000000202,0000201000,057014,048703,080699,037886,025863,083504
0000000203,0000202000,030679,071971,081006,048697,018860,079696
0000000204,0000203000,002118,088798,082179,059538,014814,072901
0000000205,0000204000,-25998,097595,084112,069363,014115,063774
0000000206,0000205000,-50926,097534,086610,077211,016828,053214
0000000207,0000206000,-70118,088617,089421,082302,022685,042266
0000000208,0000207000,-81723,071641,092279,084141,031121,031992
0000000209,0000208000,-84664,048279,094909,082553,041314,023386
0000000210,0000209000,-78649,020924,097043,077697,052251,017306
0000000211,0000210000,-64218,-07804,098473,070043,062862,014347
0000000212,0000211000,-42748,-35188,099065,060332,072128,014792
0000000213,0000212000,-16433,-58444,098759,049527,079132,018594
0000000214,0000213000,012136,-75280,097585,038691,083178,025384
0000000215,0000214000,040284,-84111,095654,028869,083880,034505
0000000216,0000215000,065206,-84045,093155,021020,081174,045059
0000000217,0000216000,084400,-75118,090343,015930,075321,056002
0000000218,0000217000,096038,-58168,087484,014088,066891,066273
0000000219,0000218000,098984,-34804,084853,015670,056706,074877
0000000220,0000219000,092957,-07420,082718,020521,045774,080958
0000000221,0000220000,078547,021300,081286,028170,035165,083919
0000000222,0000221000,057084,048683,080694,037873,025902,083478
0000000223,0000222000,030742,071975,080999,048673,018899,079681
0000000224,0000223000,002174,088818,082172,059505,014850,072898
0000000225,0000224000,-25968,097641,084104,069323,014145,063784
0000000226,0000225000,-50922,097602,086603,077170,016847,053236
0000000227,0000226000,-70131,088688,089415,082263,022692,042297
0000000228,0000227000,-81761,071718,092275,084107,031116,032030
0000000229,0000228000,-84729,048360,094908,082530,041295,023428
0000000230,0000229000,-78721,020987,097044,077685,052221,017347
0000000231,0000230000,-64295,-07761,098477,070044,062825,014384
0000000232,0000231000,-42832,-35159,099070,060347,072086,014820
0000000233,0000232000,-16505,-58444,098766,049554,079088,018611
0000000234,0000233000,012085,-75311,097594,038727,083138,025388
0000000235,0000234000,040247,-84159,095662,028911,083848,034494
0000000236,0000235000,065195,-84110,093162,021065,081152,045036
0000000237,0000236000,084422,-75204,090349,015972,075313,055968
0000000238,0000237000,096081,-58255,087489,014124,066897,066231
0000000239,0000238000,099045,-34882,084855,015696,056726,074831
0000000240,0000239000,093040,-07493,082716,020534,045805,080913
0000000241,0000240000,078637,021245,081283,028168,035206,083879
0000000242,0000241000,057166,048660,080688,037857,025949,083448
0000000243,0000242000,030820,071976,080991,048644,018946,079663
0000000244,0000243000,002238,088842,082163,059465,014893,072894
0000000245,0000244000,-25934,097697,084095,069277,014180,063796
0000000246,0000245000,-50915,097678,086595,077122,016870,053261
0000000247,0000246000,-70147,088773,089409,082217,022701,042335
0000000248,0000247000,-81809,071812,092271,084068,031109,032076
0000000249,0000248000,-84802,048453,094906,082502,041274,023478
0000000250,0000249000,-78805,021061,097045,077672,052186,017395
0000000251,0000250000,-64390,-07706,098481,070046,062780,014427
0000000252,0000251000,-42930,-35125,099077,060364,072036,014852
0000000253,0000252000,-16587,-58445,098774,049585,079038,018630
0000000254,0000253000,012022,-75344,097603,038770,083092,025391
0000000255,0000254000,040203,-84213,095672,028961,083811,034481
0000000256,0000255000,065185,-84190,093171,021118,081128,045008
0000000257,0000256000,084447,-75303,090357,016021,075304,055928
0000000258,0000257000,096130,-58354,087494,014166,066905,066182
0000000259,0000258000,099118,-34976,084857,015726,056749,074778
0000000260,0000259000,093137,-07579,082715,020549,045843,080861
0000000261,0000260000,078740,021184,081279,028166,035254,083833
0000000262,0000261000,057265,048630,080681,037838,026002,083413
0000000263,0000262000,030913,071974,080982,048610,019000,079643
0000000264,0000263000,002311,088873,082153,059419,014943,072890
0000000265,0000264000,-25893,097762,084084,069223,014220,063809
0000000266,0000265000,-50903,097765,086585,077066,016896,053291
0000000267,0000266000,-70167,088873,089400,082164,022711,042378
0000000268,0000267000,-81866,071924,092265,084023,031101,032129
0000000269,0000268000,-84884,048559,094903,082470,041248,023535
0000000270,0000269000,-78903,021147,097047,077656,052146,017451
0000000271,0000270000,-64503,-07639,098485,070048,062729,014476
0000000272,0000271000,-43043,-35087,099084,060385,071978,014890
0000000273,0000272000,-16682,-58448,098784,049622,078979,018652
0000000274,0000273000,011945,-75380,097615,038819,083039,025395
0000000275,0000274000,040152,-84277,095683,029019,083768,034467
0000000276,0000275000,065174,-84284,093182,021178,081099,044976
0000000277,0000276000,084473,-75417,090365,016078,075294,055881
0000000278,0000277000,096185,-58470,087500,014214,066914,066125
0000000279,0000278000,099206,-35088,084860,015760,056776,074717
0000000280,0000279000,093249,-07679,082714,020566,045886,080801
0000000281,0000280000,078858,021113,081274,028163,035310,083780
0000000282,0000281000,057383,048593,080673,037816,026064,083373
0000000283,0000282000,031022,071971,080972,048571,019063,079619
0000000284,0000283000,002393,088910,082141,059366,015000,072886
0000000285,0000284000,-25843,097836,084072,069162,014266,063825
0000000286,0000285000,-50886,097863,086574,077002,016926,053325
0000000287,0000286000,-70192,088991,089391,082103,022722,042428
0000000288,0000287000,-81930,072053,092259,083972,031092,032189
0000000289,0000288000,-84976,048679,094900,082434,041219,023601
0000000290,0000289000,-79018,021249,097048,077638,052100,017515
0000000291,0000290000,-64633,-07559,098490,070050,062670,014532
0000000292,0000291000,-43170,-35044,099093,060408,071912,014933
0000000293,0000292000,-16793,-58449,098795,049663,078912,018677
0000000294,0000293000,011854,-75419,097627,038875,082979,025399
0000000295,0000294000,040094,-84351,095696,029084,083720,034450
0000000296,0000295000,065161,-84393,093194,021247,081067,044939
0000000297,0000296000,084500,-75545,090375,016143,075282,055828
0000000298,0000297000,096248,-58603,087507,014268,066924,066061
0000000299,0000298000,099307,-35219,084863,015799,056807,074647
0000000300,0000299000,093375,-07792,082713,020585,045935,080733
0000000301,0000300000,078993,021032,081268,028160,035372,083721
