DIgSILENT PowerFactory,21000900,2000
6,06A,00D
1,TTPP_200000_100:Secondary Voltage A,,,V,0.10000000,-8576.046875,0.000000,72928,99998,1,1,P
2,TTPP_200000_100:Secondary Voltage B,,,V,0.10000000,-8611.003906,0.000000,74440,99998,1,1,P
3,TTPP_200000_100:Secondary Voltage C,,,V,0.10000000,-8558.765625,0.000000,69175,99998,1,1,P
4,TTCC_300_1:Secondary Current A,,,A,0.00010000000,-5.295872,0.000000,-15787,99998,1,1,P
5,TTCC_300_1:Secondary Current B,,,A,0.00010000000,-4.869761,0.000000,-2856,99998,1,1,P
6,TTCC_300_1:Secondary Current C,,,A,0.00010000000,-4.970318,0.000000,-704,99998,1,1,P
50
1
1000.000000,1101
30/06/2023,06:11:03.000000
30/06/2023,06:11:03.000000
ASCII
1.000000
0000000001,0000000000,092867,087585,077006,032029,034708,084623
0000000002,0000001000,090733,090302,076422,041781,025430,084149
0000000003,0000002000,088091,092634,076733,052621,018432,080306
0000000004,0000003000,085236,094311,077910,063500,014389,073471
0000000005,0000004000,082442,095174,079843,073343,013713,064302
0000000006,0000005000,079954,095165,082340,081191,016467,053702
0000000007,0000006000,078033,094279,085146,086277,022361,042721
0000000008,0000007000,076889,092570,087999,088100,030837,032424
0000000009,0000008000,076603,090233,090621,086476,041077,023807
0000000010,0000009000,077201,087510,092747,081578,052052,017729
0000000011,0000010000,078649,084640,094169,073885,062686,014789
0000000012,0000011000,080803,081902,094754,064125,071971,015262
0000000013,0000012000,083424,079593,094442,053277,078979,019104
0000000014,0000013000,086275,077918,093265,042411,083008,025940
0000000015,0000014000,089090,077036,091333,032568,083684,035109
0000000016,0000015000,091569,077053,088836,024709,080943,045708
0000000017,0000016000,093476,077953,086028,019630,075040,056689
0000000018,0000017000,094638,079643,083177,017812,066560,066987
0000000019,0000018000,094923,081981,080555,019427,056328,075603
0000000020,0000019000,094311,084720,078428,024326,045353,081680
0000000021,0000020000,092873,087580,077006,032028,034709,084622
0000000022,0000021000,090726,090309,076422,041779,025433,084148
0000000023,0000022000,088090,092635,076734,052629,018425,080306
0000000024,0000023000,085243,094305,077909,063500,014389,073470
0000000025,0000024000,082440,095176,079843,073340,013717,064302
0000000026,0000025000,079947,095171,082340,081195,016462,053702
0000000027,0000026000,078039,094273,085146,086283,022356,042721
0000000028,0000027000,076892,092568,087999,088097,030839,032424
0000000029,0000028000,076597,090240,090621,086477,041076,023807
0000000030,0000029000,077202,087509,092747,081585,052045,017729
0000000031,0000030000,078655,084633,094169,073885,062687,014788
0000000032,0000031000,080798,081907,094754,064125,071973,015262
0000000033,0000032000,083421,079595,094442,053282,078974,019104
0000000034,0000033000,086281,077912,093265,042415,083005,025939
0000000035,0000034000,089089,077036,091333,032566,083686,035107
0000000036,0000035000,091564,077058,088836,024713,080940,045707
0000000037,0000036000,093480,077950,086029,019634,075037,056688
0000000038,0000037000,094640,079641,083177,017812,066561,066986
0000000039,0000038000,094920,081984,080554,019428,056330,075602
0000000040,0000039000,094312,084719,078428,024330,045350,081679
0000000041,0000040000,092875,087577,077006,032028,034711,084621
0000000042,0000041000,090724,090312,076422,041779,025434,084147
0000000043,0000042000,088090,092635,076733,052630,018425,080305
0000000044,0000043000,085246,094303,077910,063500,014389,073470
0000000045,0000044000,082438,095177,079843,073339,013718,064302
0000000046,0000045000,079947,095172,082339,081196,016461,053703
0000000047,0000046000,078041,094271,085146,086282,022356,042722
0000000048,0000047000,076890,092570,087999,088097,030839,032424
0000000049,0000048000,076595,090242,090621,086479,041073,023808
0000000050,0000049000,077204,087507,092747,081586,052043,017731
0000000051,0000050000,078654,084634,094170,073885,062686,014789
0000000052,0000051000,080795,081909,094754,064128,071969,015262
0000000053,0000052000,083424,079593,094442,053285,078971,019104
0000000054,0000053000,086281,077911,093266,042416,083005,025939
0000000055,0000054000,089085,077040,091333,032570,083684,035106
0000000056,0000055000,091566,077056,088836,024718,080937,045705
0000000057,0000056000,093483,077947,086029,019635,075038,056686
0000000058,0000057000,094637,079644,083177,017814,066562,066983
0000000059,0000058000,094919,081985,080554,019433,056328,075599
0000000060,0000059000,094316,084714,078428,024331,045352,081677
0000000061,0000060000,092874,087578,077006,032027,034715,084618
0000000062,0000061000,090722,090315,076421,041781,025434,084145
0000000063,0000062000,088094,092632,076732,052630,018426,080304
0000000064,0000063000,085247,094302,077909,063496,014394,073469
0000000065,0000064000,082435,095182,079842,073338,013719,064302
0000000066,0000065000,079949,095171,082339,081195,016460,053704
0000000067,0000066000,078044,094268,085146,086278,022357,042724
0000000068,0000067000,076886,092574,087998,088094,030839,032427
0000000069,0000068000,076594,090243,090621,086480,041069,023811
0000000070,0000069000,077207,087504,092747,081585,052041,017734
0000000071,0000070000,078652,084637,094170,073884,062684,014792
0000000072,0000071000,080792,081912,094754,064132,071963,015264
0000000073,0000072000,083426,079590,094443,053289,078965,019105
0000000074,0000073000,086281,077911,093267,042418,083003,025939
0000000075,0000074000,089082,077042,091334,032575,083680,035105
0000000076,0000075000,091568,077053,088837,024724,080933,045702
0000000077,0000076000,093484,077945,086030,019639,075038,056682
0000000078,0000077000,094635,079646,083178,017818,066563,066978
0000000079,0000078000,094921,081984,080554,019437,056328,075594
0000000080,0000079000,094319,084712,078428,024332,045355,081672
0000000081,0000080000,092873,087580,077006,032027,034719,084614
0000000082,0000081000,090723,090315,076420,041781,025437,084142
0000000083,0000082000,088097,092629,076732,052627,018431,080302
0000000084,0000083000,085246,094304,077909,063492,014399,073469
0000000085,0000084000,082434,095184,079841,073334,013722,064303
0000000086,0000085000,079951,095170,082338,081191,016462,053707
0000000087,0000086000,078043,094270,085145,086272,022359,042728
0000000088,0000087000,076884,092577,087998,088091,030837,032432
0000000089,0000088000,076596,090242,090620,086478,041065,023817
0000000090,0000089000,077207,087504,092747,081583,052037,017739
0000000091,0000090000,078648,084640,094170,073885,062678,014797
0000000092,0000091000,080792,081911,094755,064136,071955,015268
0000000093,0000092000,083427,079588,094444,053293,078960,019107
0000000094,0000093000,086278,077913,093268,042424,082997,025939
0000000095,0000094000,089081,077041,091335,032584,083673,035103
0000000096,0000095000,091570,077050,088838,024731,080930,045699
0000000097,0000096000,093483,077945,086031,019645,075038,056676
0000000098,0000097000,094634,079646,083178,017826,066562,066971
0000000099,0000098000,094924,081980,080555,019443,056330,075586
0000000100,0000099000,094320,084710,078428,024334,045362,081664
0000000101,0000100000,092872,087581,077005,032028,034726,084607
0000000102,0000101000,090726,090313,076419,041780,025444,084136
0000000103,0000102000,088099,092628,076731,052621,018440,080299
0000000104,0000103000,085245,094306,077907,063485,014407,073468
0000000105,0000104000,082435,095184,079839,073328,013726,064305
0000000106,0000105000,079953,095169,082336,081182,016466,053711
0000000107,0000106000,078041,094273,085144,086263,022362,042735
0000000108,0000107000,076882,092579,087997,088085,030835,032440
0000000109,0000108000,076596,090241,090620,086473,041061,023826
0000000110,0000109000,077205,087506,092748,081579,052032,017748
0000000111,0000110000,078645,084642,094171,073886,062668,014805
0000000112,0000111000,080792,081910,094756,064140,071945,015274
0000000113,0000112000,083425,079587,094446,053298,078950,019111
0000000114,0000113000,086274,077914,093270,042433,082987,025940
0000000115,0000114000,089082,077040,091337,032595,083665,035100
0000000116,0000115000,091571,077047,088840,024741,080925,045693
0000000117,0000116000,093481,077944,086032,019656,075036,056668
0000000118,0000117000,094635,079644,083179,017836,066563,066961
0000000119,0000118000,094927,081976,080555,019449,056335,075575
0000000120,0000119000,094321,084710,078428,024337,045370,081653
0000000121,0000120000,092873,087581,077004,032028,034735,084597
0000000122,0000121000,090729,090311,076418,041776,025455,084128
0000000123,0000122000,088101,092628,076729,052614,018452,080294
0000000124,0000123000,085245,094308,077905,063476,014417,073467
0000000125,0000124000,082437,095184,079837,073316,013735,064308
0000000126,0000125000,079954,095170,082334,081168,016473,053718
0000000127,0000126000,078039,094277,085142,086252,022364,042744
0000000128,0000127000,076882,092581,087995,088076,030832,032452
0000000129,0000128000,076596,090243,090620,086465,041056,023839
0000000130,0000129000,077201,087509,092748,081575,052023,017761
0000000131,0000130000,078643,084644,094172,073888,062655,014816
0000000132,0000131000,080791,081909,094758,064144,071931,015284
0000000133,0000132000,083422,079588,094448,053306,078937,019116
0000000134,0000133000,086272,077914,093272,042446,082973,025941
0000000135,0000134000,089082,077036,091339,032609,083654,035097
0000000136,0000135000,091570,077045,088842,024756,080919,045685
0000000137,0000136000,093481,077943,086034,019670,075033,056656
0000000138,0000137000,094638,079640,083180,017849,066564,066947
0000000139,0000138000,094930,081973,080556,019457,056343,075559
0000000140,0000139000,094322,084709,078428,024341,045381,081637
0000000141,0000140000,092877,087579,077003,032029,034748,084583
0000000142,0000141000,090733,090308,076416,041771,025472,084118
0000000143,0000142000,088102,092630,076726,052603,018469,080287
0000000144,0000143000,085247,094310,077902,063463,014431,073465
0000000145,0000144000,082440,095184,079834,073300,013747,064312
0000000146,0000145000,079953,095173,082332,081151,016482,053726
0000000147,0000146000,078038,094281,085140,086236,022366,042757
0000000148,0000147000,076881,092583,087994,088062,030829,032469
0000000149,0000148000,076593,090245,090619,086454,041049,023857
0000000150,0000149000,077196,087513,092748,081571,052010,017779
0000000151,0000150000,078640,084645,094173,073889,062638,014832
0000000152,0000151000,080788,081910,094760,064150,071913,015296
0000000153,0000152000,083418,079590,094451,053317,078918,019123
0000000154,0000153000,086270,077913,093275,042462,082955,025942
0000000155,0000154000,089082,077033,091343,032628,083640,035093
0000000156,0000155000,091569,077043,088846,024775,080910,045675
0000000157,0000156000,093481,077940,086037,019690,075028,056641
0000000158,0000157000,094641,079636,083182,017865,066566,066928
0000000159,0000158000,094932,081970,080557,019468,056352,075539
0000000160,0000159000,094324,084707,078427,024348,045394,081617
0000000161,0000160000,092882,087575,077001,032029,034766,084565
0000000162,0000161000,090737,090307,076414,041763,025493,084104
0000000163,0000162000,088104,092631,076723,052591,018490,080279
0000000164,0000163000,085250,094310,077898,063446,014450,073463
0000000165,0000164000,082442,095186,079830,073279,013763,064317
0000000166,0000165000,079953,095178,082328,081129,016493,053738
0000000167,0000166000,078037,094285,085137,086216,022370,042774
0000000168,0000167000,076880,092586,087992,088044,030827,032490
0000000169,0000168000,076589,090250,090619,086440,041040,023880
0000000170,0000169000,077192,087517,092749,081565,051993,017802
0000000171,0000170000,078637,084646,094175,073889,062617,014852
0000000172,0000171000,080784,081911,094763,064157,071890,015311
0000000173,0000172000,083413,079590,094455,053333,078894,019133
0000000174,0000173000,086268,077910,093280,042483,082933,025944
0000000175,0000174000,089080,077030,091348,032651,083622,035087
0000000176,0000175000,091568,077040,088850,024800,080898,045662
0000000177,0000176000,093483,077935,086040,019715,075023,056622
0000000178,0000177000,094644,079630,083185,017885,066570,066905
0000000179,0000178000,094934,081966,080558,019483,056363,075513
0000000180,0000179000,094329,084703,078426,024356,045412,081591
0000000181,0000180000,092887,087572,076999,032028,034789,084542
0000000182,0000181000,090741,090306,076410,041754,025520,084086
0000000183,0000182000,088108,092632,076718,052575,018516,080268
0000000184,0000183000,085255,094311,077893,063424,014475,073461
0000000185,0000184000,082444,095189,079825,073252,013784,064323
0000000186,0000185000,079952,095183,082323,081101,016506,053752
0000000187,0000186000,078036,094289,085133,086189,022375,042796
0000000188,0000187000,076878,092591,087989,088021,030823,032516
0000000189,0000188000,076584,090256,090617,086424,041027,023909
0000000190,0000189000,077188,087521,092749,081557,051973,017830
0000000191,0000190000,078632,084649,094177,073890,062592,014878
0000000192,0000191000,080778,081914,094767,064167,071861,015331
0000000193,0000192000,083408,079590,094459,053352,078864,019144
0000000194,0000193000,086265,077908,093285,042508,082905,025947
0000000195,0000194000,089077,077027,091354,032680,083600,035080
0000000196,0000195000,091567,077036,088855,024832,080882,045646
0000000197,0000196000,093485,077929,086044,019744,075017,056598
0000000198,0000197000,094647,079624,083188,017910,066574,066875
0000000199,0000198000,094938,081961,080559,019502,056377,075481
0000000200,0000199000,094335,084698,078425,024366,045434,081560
0000000201,0000200000,092894,087568,076997,032027,034818,084515
0000000202,0000201000,090747,090305,076406,041743,025552,084065
0000000203,0000202000,088114,092632,076713,052555,018549,080255
0000000204,0000203000,085259,094312,077887,063396,014505,073458
0000000205,0000204000,082446,095194,079819,073219,013809,064331
0000000206,0000205000,079953,095188,082317,081067,016522,053770
0000000207,0000206000,078036,094294,085128,086157,022381,042822
0000000208,0000207000,076874,092598,087986,087993,030819,032548
0000000209,0000208000,076579,090263,090616,086405,041012,023944
0000000210,0000209000,077182,087526,092750,081547,051948,017865
0000000211,0000210000,078625,084653,094180,073890,062561,014908
0000000212,0000211000,080770,081916,094772,064180,071826,015354
0000000213,0000212000,083403,079590,094465,053374,078827,019158
0000000214,0000213000,086261,077905,093292,042538,082872,025950
0000000215,0000214000,089074,077024,091360,032716,083573,035071
0000000216,0000215000,091566,077030,088861,024870,080864,045626
0000000217,0000216000,093487,077921,086050,019780,075010,056569
0000000218,0000217000,094650,079617,083191,017940,066580,066840
0000000219,0000218000,094943,081955,080560,019524,056393,075442
0000000220,0000219000,094342,084691,078425,024377,045460,081522
0000000221,0000220000,092901,087563,076994,032026,034853,084481
0000000222,0000221000,090753,090303,076401,041730,025591,084039
0000000223,0000222000,088121,092631,076706,052531,018588,080240
0000000224,0000223000,085264,094315,077879,063362,014542,073455
0000000225,0000224000,082448,095199,079811,073180,013838,064341
0000000226,0000225000,079954,095194,082310,081026,016541,053792
0000000227,0000226000,078034,094301,085122,086117,022388,042854
0000000228,0000227000,076870,092606,087982,087959,030814,032587
0000000229,0000228000,076573,090271,090614,086381,040993,023986
0000000230,0000229000,077175,087532,092751,081535,051919,017906
0000000231,0000230000,078617,084658,094184,073892,062523,014945
0000000232,0000231000,080762,081919,094777,064195,071783,015382
0000000233,0000232000,083397,079589,094473,053401,078784,019175
0000000234,0000233000,086255,077903,093300,042574,082833,025953
0000000235,0000234000,089070,077019,091369,032759,083541,035060
0000000236,0000235000,091566,077023,088869,024915,080843,045602
0000000237,0000236000,093489,077913,086056,019822,075002,056535
0000000238,0000237000,094653,079609,083196,017976,066586,066798
0000000239,0000238000,094950,081946,080562,019550,056413,075397
0000000240,0000239000,094351,084684,078424,024390,045493,081477
0000000241,0000240000,092909,087559,076990,032024,034894,084441
0000000242,0000241000,090762,090301,076395,041714,025637,084009
0000000243,0000242000,088129,092631,076698,052502,018635,080222
0000000244,0000243000,085270,094318,077870,063322,014585,073452
0000000245,0000244000,082452,095205,079802,073134,013873,064352
0000000246,0000245000,079955,095201,082302,080978,016564,053817
0000000247,0000246000,078032,094310,085116,086071,022397,042891
0000000248,0000247000,076865,092616,087977,087921,030807,032632
0000000249,0000248000,076566,090279,090612,086354,040971,024035
0000000250,0000249000,077167,087539,092752,081521,051884,017954
0000000251,0000250000,078607,084664,094187,073893,062479,014987
0000000252,0000251000,080753,081922,094783,064212,071732,015415
0000000253,0000252000,083388,079589,094481,053432,078733,019194
0000000254,0000253000,086248,077900,093310,042617,082787,025956
0000000255,0000254000,089066,077014,091379,032809,083504,035048
0000000256,0000255000,091565,077015,088878,024967,080818,045575
0000000257,0000256000,093491,077904,086064,019871,074994,056495
0000000258,0000257000,094658,079600,083201,018018,066593,066748
0000000259,0000258000,094958,081936,080564,019580,056436,075343
0000000260,0000259000,094360,084675,078423,024404,045530,081425
0000000261,0000260000,092919,087553,076986,032022,034942,084395
0000000262,0000261000,090773,090297,076388,041696,025690,083974
0000000263,0000262000,088138,092630,076689,052468,018690,080202
0000000264,0000263000,085277,094321,077860,063276,014635,073448
0000000265,0000264000,082456,095211,079791,073081,013912,064366
0000000266,0000265000,079957,095210,082292,080922,016590,053847
0000000267,0000266000,078030,094321,085108,086018,022407,042934
0000000268,0000267000,076859,092627,087972,087876,030798,032685
0000000269,0000268000,076559,090289,090610,086322,040946,024093
0000000270,0000269000,077156,087548,092753,081505,051844,018010
0000000271,0000270000,078595,084671,094192,073896,062427,015036
0000000272,0000271000,080742,081925,094791,064232,071674,015452
0000000273,0000272000,083379,079589,094491,053468,078675,019216
0000000274,0000273000,086240,077897,093321,042666,082733,025960
0000000275,0000274000,089061,077007,091390,032867,083460,035033
0000000276,0000275000,091564,077005,088889,025027,080790,045543
0000000277,0000276000,093493,077893,086072,019928,074983,056448
0000000278,0000277000,094664,079588,083207,018066,066602,066692
0000000279,0000278000,094967,081925,080567,019614,056463,075282
0000000280,0000279000,094371,084666,078421,024421,045573,081365
0000000281,0000280000,092931,087546,076981,032020,034997,084343
0000000282,0000281000,090785,090293,076380,041674,025752,083934
0000000283,0000282000,088149,092630,076679,052429,018753,080178
0000000284,0000283000,085285,094326,077848,063224,014692,073444
0000000285,0000284000,082462,095218,079779,073019,013958,064382
0000000286,0000285000,079958,095219,082281,080857,016620,053882
0000000287,0000286000,078027,094333,085098,085957,022418,042984
0000000288,0000287000,076853,092640,087965,087825,030789,032746
0000000289,0000288000,076549,090301,090607,086285,040917,024158
0000000290,0000289000,077144,087559,092755,081487,051798,018074
0000000291,0000290000,078582,084679,094197,073899,062368,015092
0000000292,0000291000,080730,081929,094799,064256,071609,015495
0000000293,0000292000,083367,079589,094502,053510,078609,019241
0000000294,0000293000,086231,077893,093334,042723,082673,025965
0000000295,0000294000,089056,076999,091403,032932,083412,035016
0000000296,0000295000,091563,076994,088901,025095,080758,045506
0000000297,0000296000,093495,077880,086082,019993,074972,056395
0000000298,0000297000,094671,079574,083214,018120,066612,066627
0000000299,0000298000,094977,081912,080570,019652,056494,075212
0000000300,0000299000,094383,084655,078420,024440,045623,081297
0000000301,0000300000,092945,087538,076975,032017,035060,084283
