DIgSILENT PowerFactory,21000900,2000
6,06A,00D
1,TTPP_200000_100:Secondary Voltage A,,,V,0.10000000,-8429.741211,0.000000,70493,99998,1,1,P
2,TTPP_200000_100:Secondary Voltage B,,,V,0.10000000,-8385.985352,0.000000,69157,99998,1,1,P
3,TTPP_200000_100:Secondary Voltage C,,,V,0.10000000,-8537.606445,0.000000,67790,99998,1,1,P
4,TTCC_500_5:Secondary Current A,,,A,0.0010000000,-78.600395,0.000000,64180,99998,1,1,P
5,TTCC_500_5:Secondary Current B,,,A,0.0010000000,-84.543091,0.000000,69138,99998,1,1,P
6,TTCC_500_5:Secondary Current C,,,A,0.0010000000,-84.832329,0.000000,69685,99998,1,1,P
50
1
1000.000000,1101
30/06/2023,06:12:18.000000
30/06/2023,06:12:18.000000
ASCII
1.000000
0000000001,0000000000,089809,087500,076224,084516,089223,074237
0000000002,0000001000,087262,089933,076338,081500,091940,074536
0000000003,0000002000,084410,091789,077336,078203,093931,075841
0000000004,0000003000,081562,092852,079119,074944,095005,078027
0000000005,0000004000,078983,093030,081520,072043,095052,080881
0000000006,0000005000,076905,092329,084299,069781,094074,084121
0000000007,0000006000,075564,090795,087174,068386,092162,087427
0000000008,0000007000,075089,088565,089880,067993,089500,090482
0000000009,0000008000,075497,085887,092149,068633,086357,092985
0000000010,0000009000,076765,083020,093749,070251,083037,094688
0000000011,0000010000,078785,080220,094528,072689,079861,095426
0000000012,0000011000,081344,077774,094414,075702,077146,095127
0000000013,0000012000,084176,075940,093417,079001,075153,093822
0000000014,0000013000,087027,074872,091633,082261,074078,091636
0000000015,0000014000,089626,074676,089232,085161,074032,088782
0000000016,0000015000,091685,075394,086454,087421,075012,085543
0000000017,0000016000,093020,076936,083578,088818,076921,082236
0000000018,0000017000,093519,079143,080873,089213,079582,079181
0000000019,0000018000,093100,081829,078603,088569,082729,076678
0000000020,0000019000,091817,084713,077003,086953,086048,074975
0000000021,0000020000,089815,087494,076224,084517,089221,074238
0000000022,0000021000,087260,089935,076338,081499,091940,074536
0000000023,0000022000,084408,091791,077335,078201,093933,075842
0000000024,0000023000,081564,092850,079119,074945,095003,078027
0000000025,0000024000,078982,093031,081521,072042,095053,080881
0000000026,0000025000,076905,092330,084298,069780,094075,084121
0000000027,0000026000,075565,090794,087174,068387,092161,087427
0000000028,0000027000,075087,088566,089880,067992,089502,090482
0000000029,0000028000,075496,085888,092149,068633,086358,092985
0000000030,0000029000,076766,083019,093749,070251,083036,094688
0000000031,0000030000,078785,080220,094528,072687,079862,095426
0000000032,0000031000,081342,077777,094415,075703,077146,095127
0000000033,0000032000,084177,075939,093417,079001,075153,093822
0000000034,0000033000,087031,074869,091633,082259,074080,091637
0000000035,0000034000,089622,074679,089232,085161,074032,088783
0000000036,0000035000,091683,075396,086454,087421,075011,085543
0000000037,0000036000,093026,076930,083578,088817,076922,082236
0000000038,0000037000,093517,079144,080873,089212,079583,079182
0000000039,0000038000,093096,081834,078604,088569,082729,076678
0000000040,0000039000,091823,084708,077003,086953,086048,074976
0000000041,0000040000,089817,087493,076224,084516,089221,074238
0000000042,0000041000,087254,089941,076338,081499,091940,074536
0000000043,0000042000,084410,091788,077334,078202,093932,075842
0000000044,0000043000,081569,092846,079118,074945,095004,078027
0000000045,0000044000,078977,093036,081520,072041,095054,080881
0000000046,0000045000,076903,092332,084298,069781,094074,084121
0000000047,0000046000,075570,090789,087174,068387,092161,087427
0000000048,0000047000,075085,088568,089880,067990,089503,090482
0000000049,0000048000,075492,085893,092149,068633,086358,092985
0000000050,0000049000,076769,083016,093749,070251,083036,094688
0000000051,0000050000,078787,080218,094529,072686,079864,095426
0000000052,0000051000,081337,077782,094415,075702,077147,095127
0000000053,0000052000,084177,075938,093418,079001,075153,093822
0000000054,0000053000,087033,074866,091634,082258,074081,091637
0000000055,0000054000,089619,074682,089232,085160,074033,088783
0000000056,0000055000,091683,075396,086454,087421,075011,085543
0000000057,0000056000,093029,076926,083578,088816,076923,082237
0000000058,0000057000,093515,079145,080873,089210,079583,079182
0000000059,0000058000,093095,081835,078604,088568,082728,076679
0000000060,0000059000,091826,084704,077003,086952,086047,074976
0000000061,0000060000,089816,087493,076224,084516,089221,074239
0000000062,0000061000,087254,089943,076337,081499,091940,074537
0000000063,0000062000,084413,091786,077334,078203,093931,075842
0000000064,0000063000,081570,092846,079118,074945,095004,078027
0000000065,0000064000,078976,093038,081520,072042,095053,080881
0000000066,0000065000,076905,092331,084297,069782,094073,084120
0000000067,0000066000,075571,090789,087173,068387,092162,087427
0000000068,0000067000,075082,088571,089879,067991,089504,090481
0000000069,0000068000,075492,085893,092148,068634,086358,092984
0000000070,0000069000,076771,083014,093749,070251,083038,094687
0000000071,0000070000,078783,080221,094529,072686,079865,095425
0000000072,0000071000,081335,077783,094416,075702,077147,095127
0000000073,0000072000,084180,075935,093418,079000,075154,093822
0000000074,0000073000,087031,074867,091635,082256,074083,091637
0000000075,0000074000,089616,074684,089233,085159,074034,088783
0000000076,0000075000,091686,075393,086455,087420,075012,085544
0000000077,0000076000,093030,076925,083579,088814,076923,082238
0000000078,0000077000,093512,079148,080874,089209,079583,079184
0000000079,0000078000,093098,081832,078604,088568,082727,076681
0000000080,0000079000,091829,084701,077003,086951,086047,074978
0000000081,0000080000,089815,087495,076223,084515,089220,074240
0000000082,0000081000,087254,089943,076336,081500,091938,074538
0000000083,0000082000,084417,091783,077333,078203,093930,075843
0000000084,0000083000,081569,092848,079117,074945,095003,078028
0000000085,0000084000,078974,093041,081518,072043,095052,080881
0000000086,0000085000,076908,092330,084296,069784,094072,084120
0000000087,0000086000,075571,090790,087173,068388,092162,087425
0000000088,0000087000,075079,088575,089878,067992,089504,090480
0000000089,0000088000,075493,085893,092148,068635,086358,092983
0000000090,0000089000,076771,083014,093749,070251,083039,094686
0000000091,0000090000,078779,080225,094530,072685,079867,095424
0000000092,0000091000,081334,077783,094416,075702,077149,095126
0000000093,0000092000,084180,075933,093420,078998,075156,093821
0000000094,0000093000,087028,074868,091637,082254,074085,091637
0000000095,0000094000,089614,074684,089235,085157,074035,088784
0000000096,0000095000,091687,075389,086457,087417,075013,085545
0000000097,0000096000,093029,076924,083581,088812,076924,082240
0000000098,0000097000,093512,079147,080874,089208,079583,079186
0000000099,0000098000,093101,081829,078604,088567,082726,076683
0000000100,0000099000,091831,084700,077003,086950,086045,074980
0000000101,0000100000,089815,087496,076222,084515,089218,074242
0000000102,0000101000,087258,089941,076335,081501,091935,074540
0000000103,0000102000,084420,091782,077331,078204,093928,075844
0000000104,0000103000,081568,092850,079115,074947,095001,078028
0000000105,0000104000,078976,093042,081516,072046,095050,080880
0000000106,0000105000,076910,092330,084294,069786,094071,084118
0000000107,0000106000,075569,090793,087171,068390,092162,087423
0000000108,0000107000,075078,088578,089877,067995,089504,090477
0000000109,0000108000,075493,085893,092147,068636,086360,092980
0000000110,0000109000,076767,083017,093749,070251,083042,094683
0000000111,0000110000,078776,080228,094530,072685,079869,095421
0000000112,0000111000,081334,077782,094418,075701,077152,095124
0000000113,0000112000,084178,075933,093422,078996,075160,093820
0000000114,0000113000,087025,074869,091639,082252,074087,091636
0000000115,0000114000,089615,074681,089237,085154,074037,088785
0000000116,0000115000,091688,075386,086459,087414,075015,085547
0000000117,0000116000,093028,076923,083583,088809,076925,082242
0000000118,0000117000,093513,079145,080876,089205,079582,079189
0000000119,0000118000,093104,081824,078605,088565,082725,076686
0000000120,0000119000,091832,084699,077003,086949,086044,074983
0000000121,0000120000,089817,087495,076221,084516,089215,074245
0000000122,0000121000,087262,089938,076333,081502,091932,074542
0000000123,0000122000,084422,091783,077329,078206,093925,075845
0000000124,0000123000,081569,092853,079112,074950,094997,078028
0000000125,0000124000,078979,093042,081513,072050,095047,080879
0000000126,0000125000,076911,092331,084291,069789,094070,084116
0000000127,0000126000,075566,090798,087169,068394,092161,087421
0000000128,0000127000,075077,088581,089875,067998,089504,090474
0000000129,0000128000,075492,085895,092147,068638,086361,092976
0000000130,0000129000,076763,083021,093750,070252,083044,094679
0000000131,0000130000,078772,080230,094532,072685,079873,095418
0000000132,0000131000,081332,077782,094420,075699,077156,095121
0000000133,0000132000,084174,075934,093425,078993,075164,093819
0000000134,0000133000,087022,074869,091642,082249,074091,091636
0000000135,0000134000,089615,074678,089241,085150,074040,088786
0000000136,0000135000,091687,075383,086463,087409,075017,085549
0000000137,0000136000,093027,076921,083585,088805,076926,082246
0000000138,0000137000,093516,079140,080877,089202,079581,079193
0000000139,0000138000,093108,081820,078606,088562,082723,076691
0000000140,0000139000,091834,084697,077003,086948,086040,074988
0000000141,0000140000,089821,087492,076220,084516,089211,074249
0000000142,0000141000,087267,089936,076330,081503,091927,074545
0000000143,0000142000,084424,091784,077325,078209,093920,075847
0000000144,0000143000,081572,092854,079108,074954,094993,078028
0000000145,0000144000,078982,093043,081509,072054,095044,080878
0000000146,0000145000,076910,092335,084288,069794,094068,084114
0000000147,0000146000,075565,090803,087165,068399,092160,087417
0000000148,0000147000,075076,088584,089873,068002,089505,090469
0000000149,0000148000,075489,085899,092146,068641,086364,092971
0000000150,0000149000,076758,083026,093750,070254,083048,094674
0000000151,0000150000,078769,080232,094533,072685,079877,095413
0000000152,0000151000,081328,077782,094423,075697,077161,095118
0000000153,0000152000,084169,075935,093429,078990,075169,093817
0000000154,0000153000,087019,074868,091647,082244,074096,091636
0000000155,0000154000,089614,074674,089246,085144,074044,088787
0000000156,0000155000,091686,075380,086467,087403,075020,085552
0000000157,0000156000,093028,076917,083589,088799,076926,082250
0000000158,0000157000,093520,079133,080880,089197,079580,079198
0000000159,0000158000,093111,081816,078607,088558,082721,076697
0000000160,0000159000,091838,084694,077002,086946,086036,074993
0000000161,0000160000,089828,087488,076218,084516,089206,074254
0000000162,0000161000,087272,089934,076327,081505,091922,074549
0000000163,0000162000,084428,091785,077321,078213,093914,075849
0000000164,0000163000,081576,092855,079102,074960,094987,078029
0000000165,0000164000,078985,093045,081503,072060,095039,080877
0000000166,0000165000,076910,092341,084283,069800,094065,084110
0000000167,0000166000,075564,090808,087161,068405,092159,087412
0000000168,0000167000,075074,088588,089870,068007,089506,090463
0000000169,0000168000,075484,085905,092145,068644,086367,092964
0000000170,0000169000,076752,083031,093751,070256,083052,094668
0000000171,0000170000,078764,080234,094536,072685,079883,095408
0000000172,0000171000,081322,077785,094427,075694,077168,095113
0000000173,0000172000,084163,075936,093434,078986,075176,093814
0000000174,0000173000,087016,074865,091653,082238,074102,091635
0000000175,0000174000,089611,074670,089252,085137,074050,088789
0000000176,0000175000,091684,075376,086473,087396,075023,085556
0000000177,0000176000,093030,076910,083593,088793,076928,082256
0000000178,0000177000,093524,079126,080883,089191,079580,079205
0000000179,0000178000,093114,081811,078609,088554,082718,076704
0000000180,0000179000,091844,084688,077001,086944,086031,075001
0000000181,0000180000,089835,087483,076215,084516,089199,074260
0000000182,0000181000,087278,089932,076323,081508,091914,074554
0000000183,0000182000,084433,091785,077315,078217,093906,075852
0000000184,0000183000,081581,092856,079096,074966,094980,078030
0000000185,0000184000,078987,093050,081497,072067,095034,080875
0000000186,0000185000,076910,092347,084276,069809,094061,084106
0000000187,0000186000,075563,090814,087156,068413,092157,087406
0000000188,0000187000,075071,088595,089867,068013,089507,090456
0000000189,0000188000,075477,085913,092143,068649,086371,092956
0000000190,0000189000,076746,083036,093751,070258,083058,094659
0000000191,0000190000,078757,080238,094539,072685,079891,095400
0000000192,0000191000,081314,077788,094432,075691,077177,095108
0000000193,0000192000,084156,075936,093441,078981,075185,093811
0000000194,0000193000,087011,074862,091660,082231,074110,091635
0000000195,0000194000,089607,074666,089260,085129,074056,088791
0000000196,0000195000,091683,075371,086480,087387,075027,085561
0000000197,0000196000,093032,076902,083599,088784,076929,082263
0000000198,0000197000,093528,079119,080888,089184,079578,079214
0000000199,0000198000,093120,081804,078610,088549,082714,076713
0000000200,0000199000,091852,084681,077000,086942,086024,075010
0000000201,0000200000,089843,087478,076212,084516,089191,074268
0000000202,0000201000,087285,089930,076317,081511,091905,074560
0000000203,0000202000,084440,091785,077308,078223,093897,075856
0000000204,0000203000,081588,092858,079088,074974,094971,078030
0000000205,0000204000,078990,093055,081488,072077,095027,080873
0000000206,0000205000,076911,092354,084268,069819,094056,084101
0000000207,0000206000,075562,090822,087149,068422,092156,087398
0000000208,0000207000,075066,088604,089862,068021,089509,090446
0000000209,0000208000,075470,085922,092141,068655,086375,092946
0000000210,0000209000,076739,083043,093752,070261,083065,094650
0000000211,0000210000,078748,080243,094542,072684,079900,095392
0000000212,0000211000,081304,077791,094438,075688,077187,095101
0000000213,0000212000,084149,075936,093448,078974,075195,093807
0000000214,0000213000,087005,074859,091669,082222,074120,091634
0000000215,0000214000,089603,074661,089269,085118,074064,088793
0000000216,0000215000,091682,075363,086488,087377,075032,085567
0000000217,0000216000,093034,076893,083606,088774,076931,082271
0000000218,0000217000,093532,079109,080892,089175,079577,079224
0000000219,0000218000,093127,081795,078612,088543,082709,076724
0000000220,0000219000,091861,084673,076999,086938,086017,075021
0000000221,0000220000,089853,087472,076208,084517,089181,074278
0000000222,0000221000,087295,089928,076311,081515,091894,074567
0000000223,0000222000,084450,091785,077299,078231,093885,075860
0000000224,0000223000,081595,092861,079078,074984,094961,078031
0000000225,0000224000,078994,093062,081478,072088,095018,080870
0000000226,0000225000,076912,092362,084259,069830,094051,084095
0000000227,0000226000,075561,090831,087141,068433,092154,087389
0000000228,0000227000,075061,088615,089857,068030,089510,090435
0000000229,0000228000,075463,085932,092139,068662,086380,092934
0000000230,0000229000,076729,083051,093753,070264,083074,094638
0000000231,0000230000,078737,080250,094547,072684,079911,095381
0000000232,0000231000,081293,077795,094445,075684,077199,095093
0000000233,0000232000,084140,075935,093458,078966,075207,093802
0000000234,0000233000,086998,074855,091680,082212,074131,091633
0000000235,0000234000,089598,074655,089280,085106,074073,088797
0000000236,0000235000,091681,075353,086499,087364,075038,085573
0000000237,0000236000,093037,076882,083615,088761,076933,082281
0000000238,0000237000,093537,079099,080898,089165,079575,079236
0000000239,0000238000,093135,081784,078615,088535,082703,076738
0000000240,0000239000,091872,084663,076998,086935,086007,075034
0000000241,0000240000,089864,087466,076203,084517,089169,074289
0000000242,0000241000,087306,089924,076303,081520,091880,074576
0000000243,0000242000,084461,091784,077289,078239,093872,075865
0000000244,0000243000,081602,092865,079066,074995,094949,078032
0000000245,0000244000,078999,093069,081466,072102,095008,080866
0000000246,0000245000,076914,092372,084248,069844,094044,084087
0000000247,0000246000,075558,090843,087132,068446,092151,087378
0000000248,0000247000,075054,088628,089851,068042,089512,090422
0000000249,0000248000,075454,085943,092136,068670,086386,092920
0000000250,0000249000,076718,083061,093754,070268,083084,094624
0000000251,0000250000,078724,080258,094552,072683,079924,095369
0000000252,0000251000,081281,077799,094454,075679,077213,095084
0000000253,0000252000,084129,075935,093469,078957,075222,093797
0000000254,0000253000,086988,074852,091693,082199,074144,091632
0000000255,0000254000,089592,074648,089293,085092,074084,088800
0000000256,0000255000,091680,075342,086511,087349,075045,085581
0000000257,0000256000,093039,076869,083625,088747,076936,082293
0000000258,0000257000,093543,079085,080905,089153,079573,079250
0000000259,0000258000,093146,081770,078618,088527,082696,076753
0000000260,0000259000,091884,084652,076997,086931,085997,075049
0000000261,0000260000,089877,087458,076198,084518,089155,074303
0000000262,0000261000,087320,089919,076294,081525,091865,074586
0000000263,0000262000,084473,091784,077277,078249,093856,075871
0000000264,0000263000,081612,092870,079052,075008,094935,078033
0000000265,0000264000,079005,093077,081452,072117,094997,080862
0000000266,0000265000,076916,092383,084234,069860,094037,084079
0000000267,0000266000,075555,090857,087121,068461,092149,087366
0000000268,0000267000,075047,088643,089843,068054,089515,090407
0000000269,0000268000,075444,085957,092133,068679,086394,092903
0000000270,0000269000,076704,083073,093756,070272,083096,094608
0000000271,0000270000,078709,080267,094557,072682,079939,095355
0000000272,0000271000,081267,077804,094463,075673,077230,095073
0000000273,0000272000,084116,075935,093482,078947,075239,093790
0000000274,0000273000,086978,074848,091708,082185,074160,091631
0000000275,0000274000,089586,074639,089308,085075,074096,088805
0000000276,0000275000,091679,075330,086525,087331,075053,085591
0000000277,0000276000,093042,076855,083637,088731,076939,082306
0000000278,0000277000,093551,079070,080913,089139,079570,079267
0000000279,0000278000,093157,081755,078621,088517,082688,076771
0000000280,0000279000,091899,084639,076996,086926,085984,075066
0000000281,0000280000,089893,087448,076192,084519,089139,074318
0000000282,0000281000,087336,089914,076283,081531,091847,074597
0000000283,0000282000,084487,091784,077263,078260,093838,075878
0000000284,0000283000,081622,092875,079036,075024,094918,078034
0000000285,0000284000,079012,093086,081435,072135,094983,080858
0000000286,0000285000,076918,092396,084219,069879,094028,084069
0000000287,0000286000,075551,090873,087109,068479,092146,087351
0000000288,0000287000,075039,088659,089834,068069,089517,090389
0000000289,0000288000,075432,085973,092129,068689,086402,092884
0000000290,0000289000,076689,083087,093757,070277,083109,094589
0000000291,0000290000,078692,080277,094564,072681,079956,095339
0000000292,0000291000,081250,077809,094475,075666,077249,095061
0000000293,0000292000,084101,075936,093497,078934,075258,093783
0000000294,0000293000,086966,074843,091725,082169,074177,091630
0000000295,0000294000,089579,074629,089326,085056,074110,088810
0000000296,0000295000,091676,075316,086541,087312,075062,085602
0000000297,0000296000,093045,076838,083650,088712,076942,082321
0000000298,0000297000,093560,079052,080922,089124,079567,079285
0000000299,0000298000,093171,081738,078625,088506,082679,076791
0000000300,0000299000,091915,084625,076994,086921,085970,075085
0000000301,0000300000,089911,087437,076184,084520,089121,074335
