DIgSILENT PowerFactory,21000900,2000
6,06A,00D
1,TTPP_200000_100:Secondary Voltage A,,,V,0.10000000,-8580.722656,0.000000,70328,99998,1,1,P
2,TTPP_200000_100:Secondary Voltage B,,,V,0.10000000,-8400.250000,0.000000,67718,99998,1,1,P
3,TTPP_200000_100:Secondary Voltage C,,,V,0.10000000,-8453.845703,0.000000,68993,99998,1,1,P
4,TTCC_500_5:Secondary Current A,,,A,0.0010000000,-86.813210,0.000000,67987,99998,1,1,P
5,TTCC_500_5:Secondary Current B,,,A,0.0010000000,-85.104500,0.000000,70206,99998,1,1,P
6,TTCC_500_5:Secondary Current C,,,A,0.0010000000,-84.731865,0.000000,69408,99998,1,1,P
50
1
1000.000000,1101
30/06/2023,06:08:01.000000
30/06/2023,06:08:01.000000
ASCII
1.000000
0000000001,0000000000,091319,087643,075386,092729,089784,074137
0000000002,0000001000,088771,090076,075500,089714,092500,074435
0000000003,0000002000,085920,091932,076498,086414,094495,075741
0000000004,0000003000,083074,092993,078281,083159,095564,077926
0000000005,0000004000,080490,093176,080683,080255,095614,080781
0000000006,0000005000,078418,092469,083461,077994,094635,084020
0000000007,0000006000,077072,090939,086336,076600,092722,087327
0000000008,0000007000,076599,088708,089042,076205,090063,090382
0000000009,0000008000,077007,086030,091311,076846,086919,092885
0000000010,0000009000,078275,083163,092912,078464,083598,094588
0000000011,0000010000,080294,080364,093690,080902,080423,095325
0000000012,0000011000,082855,077916,093577,083915,077708,095027
0000000013,0000012000,085684,076085,092580,087214,075714,093722
0000000014,0000013000,088538,075014,090795,090473,074641,091536
0000000015,0000014000,091135,074819,088394,093375,074592,088682
0000000016,0000015000,093194,075538,085617,095633,075574,085442
0000000017,0000016000,094530,077078,082741,097031,077482,082136
0000000018,0000017000,095029,079285,080035,097425,080143,079081
0000000019,0000018000,094610,081972,077766,096782,083290,076578
0000000020,0000019000,093327,084855,076166,095165,086610,074875
0000000021,0000020000,091325,087636,075386,092731,089781,074137
0000000022,0000021000,088770,090078,075500,089712,092502,074436
0000000023,0000022000,085919,091933,076497,086415,094494,075741
0000000024,0000023000,083074,092993,078281,083158,095565,077927
0000000025,0000024000,080493,093173,080683,080255,095614,080781
0000000026,0000025000,078415,092473,083460,077993,094636,084020
0000000027,0000026000,077075,090937,086336,076600,092723,087327
0000000028,0000027000,076597,088709,089042,076204,090064,090382
0000000029,0000028000,077006,086030,091311,076846,086919,092885
0000000030,0000029000,078275,083163,092911,078464,083598,094588
0000000031,0000030000,080296,080362,093691,080900,080424,095326
0000000032,0000031000,082851,077920,093577,083915,077707,095027
0000000033,0000032000,085686,076082,092580,087213,075714,093722
0000000034,0000033000,088540,075012,090796,090472,074641,091536
0000000035,0000034000,091132,074821,088395,093373,074594,088682
0000000036,0000035000,093193,075538,085617,095634,075573,085443
0000000037,0000036000,094536,077073,082740,097030,077484,082136
0000000038,0000037000,095026,079287,080036,097425,080144,079081
0000000039,0000038000,094606,081976,077766,096782,083290,076578
0000000040,0000039000,093333,084850,076166,095166,086609,074875
0000000041,0000040000,091326,087635,075386,092729,089783,074137
0000000042,0000041000,088765,090083,075500,089712,092501,074436
0000000043,0000042000,085921,091931,076497,086415,094493,075741
0000000044,0000043000,083079,092989,078280,083158,095565,077927
0000000045,0000044000,080488,093178,080683,080254,095615,080781
0000000046,0000045000,078414,092474,083460,077995,094635,084020
0000000047,0000046000,077080,090932,086336,076600,092723,087327
0000000048,0000047000,076595,088711,089042,076203,090065,090381
0000000049,0000048000,077002,086035,091311,076846,086919,092884
0000000050,0000049000,078279,083158,092911,078464,083598,094588
0000000051,0000050000,080296,080362,093691,080899,080426,095325
0000000052,0000051000,082846,077925,093578,083915,077708,095027
0000000053,0000052000,085687,076081,092580,087214,075714,093722
0000000054,0000053000,088543,075009,090796,090471,074642,091536
0000000055,0000054000,091128,074825,088395,093372,074595,088683
0000000056,0000055000,093192,075539,085617,095634,075573,085443
0000000057,0000056000,094539,077069,082741,097029,077484,082137
0000000058,0000057000,095025,079288,080036,097423,080144,079082
0000000059,0000058000,094605,081977,077766,096781,083289,076579
0000000060,0000059000,093336,084847,076166,095165,086608,074876
0000000061,0000060000,091327,087635,075386,092729,089783,074138
0000000062,0000061000,088764,090085,075499,089712,092501,074436
0000000063,0000062000,085923,091929,076496,086416,094492,075742
0000000064,0000063000,083080,092988,078280,083158,095565,077927
0000000065,0000064000,080486,093181,080682,080255,095615,080780
0000000066,0000065000,078415,092474,083459,077995,094635,084020
0000000067,0000066000,077081,090931,086336,076600,092723,087326
0000000068,0000067000,076592,088714,089041,076204,090065,090381
0000000069,0000068000,077002,086036,091310,076847,086919,092884
0000000070,0000069000,078280,083157,092911,078464,083599,094587
0000000071,0000070000,080293,080364,093691,080898,080427,095325
0000000072,0000071000,082845,077926,093578,083914,077709,095026
0000000073,0000072000,085689,076078,092581,087213,075716,093722
0000000074,0000073000,088541,075010,090798,090469,074644,091536
0000000075,0000074000,091125,074826,088396,093371,074595,088683
0000000076,0000075000,093195,075535,085618,095632,075573,085444
0000000077,0000076000,094539,077067,082742,097027,077485,082138
0000000078,0000077000,095022,079290,080036,097422,080144,079083
0000000079,0000078000,094607,081975,077766,096781,083288,076580
0000000080,0000079000,093339,084844,076166,095164,086608,074877
0000000081,0000080000,091325,087637,075386,092728,089782,074139
0000000082,0000081000,088765,090085,075498,089713,092499,074437
0000000083,0000082000,085927,091926,076495,086416,094491,075742
0000000084,0000083000,083079,092990,078279,083158,095564,077927
0000000085,0000084000,080485,093184,080680,080256,095613,080780
0000000086,0000085000,078418,092472,083458,077997,094634,084019
0000000087,0000086000,077081,090933,086335,076601,092724,087325
0000000088,0000087000,076589,088718,089041,076205,090065,090379
0000000089,0000088000,077003,086036,091310,076848,086920,092882
0000000090,0000089000,078280,083157,092911,078464,083601,094585
0000000091,0000090000,080289,080368,093692,080898,080429,095323
0000000092,0000091000,082844,077926,093579,083914,077710,095025
0000000093,0000092000,085690,076076,092582,087211,075718,093721
0000000094,0000093000,088538,075011,090799,090467,074646,091536
0000000095,0000094000,091124,074826,088398,093369,074596,088684
0000000096,0000095000,093197,075532,085620,095630,075574,085445
0000000097,0000096000,094539,077066,082743,097025,077485,082140
0000000098,0000097000,095022,079290,080037,097421,080144,079085
0000000099,0000098000,094610,081971,077767,096780,083287,076583
0000000100,0000099000,093341,084842,076166,095163,086607,074880
0000000101,0000100000,091325,087638,075385,092728,089780,074141
0000000102,0000101000,088768,090083,075497,089714,092496,074439
0000000103,0000102000,085930,091925,076493,086417,094489,075743
0000000104,0000103000,083079,092993,078277,083160,095562,077927
0000000105,0000104000,080486,093185,080678,080259,095611,080780
0000000106,0000105000,078420,092472,083456,077999,094633,084018
0000000107,0000106000,077079,090936,086333,076603,092724,087323
0000000108,0000107000,076588,088721,089039,076207,090065,090377
0000000109,0000108000,077003,086036,091309,076849,086921,092879
0000000110,0000109000,078277,083159,092912,078464,083603,094582
0000000111,0000110000,080285,080370,093693,080898,080431,095321
0000000112,0000111000,082843,077925,093580,083913,077713,095023
0000000113,0000112000,085688,076076,092585,087209,075721,093720
0000000114,0000113000,088534,075012,090802,090465,074649,091536
0000000115,0000114000,091124,074824,088400,093367,074598,088684
0000000116,0000115000,093198,075528,085622,095627,075576,085447
0000000117,0000116000,094537,077066,082745,097021,077486,082142
0000000118,0000117000,095023,079287,080038,097418,080143,079088
0000000119,0000118000,094614,081967,077768,096778,083286,076586
0000000120,0000119000,093342,084841,076166,095162,086605,074883
0000000121,0000120000,091327,087637,075384,092729,089776,074144
0000000122,0000121000,088772,090080,075495,089715,092493,074441
0000000123,0000122000,085932,091925,076491,086419,094486,075744
0000000124,0000123000,083079,092995,078274,083163,095559,077927
0000000125,0000124000,080489,093185,080675,080263,095608,080779
0000000126,0000125000,078421,092474,083453,078002,094632,084016
0000000127,0000126000,077076,090941,086331,076607,092723,087320
0000000128,0000127000,076587,088724,089037,076210,090066,090373
0000000129,0000128000,077002,086038,091309,076851,086923,092876
0000000130,0000129000,078273,083164,092912,078465,083606,094579
0000000131,0000130000,080282,080373,093694,080898,080434,095317
0000000132,0000131000,082841,077925,093583,083912,077717,095021
0000000133,0000132000,085684,076077,092588,087206,075725,093718
0000000134,0000133000,088531,075012,090805,090461,074652,091536
0000000135,0000134000,091124,074820,088404,093363,074601,088685
0000000136,0000135000,093197,075526,085626,095622,075578,085449
0000000137,0000136000,094537,077064,082748,097017,077487,082145
0000000138,0000137000,095026,079282,080040,097415,080142,079093
0000000139,0000138000,094617,081962,077769,096775,083284,076590
0000000140,0000139000,093344,084839,076165,095161,086602,074887
0000000141,0000140000,091331,087634,075382,092729,089772,074148
0000000142,0000141000,088777,090078,075493,089716,092489,074444
0000000143,0000142000,085934,091926,076488,086422,094481,075746
0000000144,0000143000,083082,092997,078270,083167,095554,077928
0000000145,0000144000,080492,093186,080671,080267,095605,080778
0000000146,0000145000,078421,092478,083450,078007,094629,084013
0000000147,0000146000,077075,090946,086327,076611,092722,087316
0000000148,0000147000,076586,088727,089035,076215,090066,090369
0000000149,0000148000,076998,086042,091308,076854,086925,092870
0000000150,0000149000,078267,083169,092912,078466,083610,094574
0000000151,0000150000,080278,080375,093696,080898,080439,095313
0000000152,0000151000,082837,077925,093586,083910,077723,095017
0000000153,0000152000,085678,076078,092592,087203,075731,093716
0000000154,0000153000,088528,075010,090809,090457,074657,091535
0000000155,0000154000,091123,074816,088408,093357,074606,088687
0000000156,0000155000,093195,075523,085630,095616,075581,085452
0000000157,0000156000,094537,077059,082752,097012,077488,082150
0000000158,0000157000,095030,079276,080043,097410,080142,079098
0000000159,0000158000,094621,081958,077770,096771,083282,076596
0000000160,0000159000,093348,084836,076165,095159,086597,074893
0000000161,0000160000,091338,087630,075380,092729,089767,074153
0000000162,0000161000,088783,090076,075489,089718,092483,074448
0000000163,0000162000,085938,091927,076483,086426,094475,075749
0000000164,0000163000,083086,092998,078264,083173,095549,077928
0000000165,0000164000,080495,093188,080666,080273,095601,080776
0000000166,0000165000,078420,092484,083445,078013,094626,084010
0000000167,0000166000,077074,090951,086323,076618,092721,087311
0000000168,0000167000,076584,088731,089032,076220,090067,090363
0000000169,0000168000,076993,086048,091307,076857,086929,092864
0000000170,0000169000,078262,083174,092913,078468,083614,094567
0000000171,0000170000,080274,080377,093698,080898,080445,095307
0000000172,0000171000,082831,077928,093590,083907,077730,095013
0000000173,0000172000,085672,076079,092597,087198,075738,093714
0000000174,0000173000,088525,075008,090815,090451,074663,091535
0000000175,0000174000,091121,074813,088415,093350,074611,088688
0000000176,0000175000,093194,075519,085636,095609,075585,085456
0000000177,0000176000,094539,077053,082756,097005,077489,082155
0000000178,0000177000,095034,079269,080046,097404,080141,079105
0000000179,0000178000,094624,081953,077771,096767,083279,076604
0000000180,0000179000,093354,084831,076164,095157,086592,074900
0000000181,0000180000,091345,087625,075377,092729,089760,074160
0000000182,0000181000,088788,090074,075485,089721,092475,074453
0000000183,0000182000,085943,091928,076477,086430,094467,075752
0000000184,0000183000,083092,092999,078258,083179,095541,077929
0000000185,0000184000,080497,093192,080659,080280,095595,080774
0000000186,0000185000,078420,092490,083438,078022,094623,084006
0000000187,0000186000,077073,090957,086318,076625,092719,087305
0000000188,0000187000,076581,088738,089029,076226,090069,090355
0000000189,0000188000,076987,086056,091305,076862,086932,092855
0000000190,0000189000,078256,083179,092913,078471,083620,094559
0000000191,0000190000,080267,080381,093701,080897,080452,095300
0000000192,0000191000,082823,077931,093595,083904,077738,095007
0000000193,0000192000,085666,076079,092603,087193,075746,093710
0000000194,0000193000,088521,075005,090823,090444,074671,091534
0000000195,0000194000,091117,074809,088422,093341,074618,088691
0000000196,0000195000,093192,075513,085643,095600,075589,085461
0000000197,0000196000,094542,077045,082762,096997,077490,082162
0000000198,0000197000,095037,079261,080050,097397,080140,079113
0000000199,0000198000,094629,081946,077773,096762,083275,076613
0000000200,0000199000,093361,084824,076163,095155,086586,074909
0000000201,0000200000,091353,087620,075374,092729,089752,074168
0000000202,0000201000,088796,090073,075480,089724,092466,074460
0000000203,0000202000,085951,091928,076470,086436,094458,075755
0000000204,0000203000,083098,093001,078250,083187,095533,077930
0000000205,0000204000,080500,093198,080650,080290,095588,080772
0000000206,0000205000,078421,092497,083430,078031,094618,084000
0000000207,0000206000,077072,090965,086311,076635,092717,087297
0000000208,0000207000,076576,088747,089024,076234,090070,090346
0000000209,0000208000,076980,086065,091303,076868,086937,092845
0000000210,0000209000,078248,083186,092914,078474,083627,094549
0000000211,0000210000,080258,080386,093705,080897,080462,095291
0000000212,0000211000,082814,077934,093601,083901,077748,095001
0000000213,0000212000,085658,076079,092611,087187,075756,093706
0000000214,0000213000,088515,075001,090832,090435,074681,091534
0000000215,0000214000,091112,074804,088432,093331,074625,088693
0000000216,0000215000,093191,075506,085651,095589,075594,085466
0000000217,0000216000,094544,077035,082769,096987,077492,082171
0000000218,0000217000,095041,079252,080055,097388,080138,079124
0000000219,0000218000,094636,081937,077775,096756,083270,076624
0000000220,0000219000,093371,084815,076162,095151,086578,074920
0000000221,0000220000,091363,087614,075370,092730,089742,074178
0000000222,0000221000,088805,090070,075473,089728,092455,074467
0000000223,0000222000,085960,091927,076461,086444,094446,075760
0000000224,0000223000,083105,093004,078240,083197,095522,077930
0000000225,0000224000,080504,093204,080640,080301,095580,080769
0000000226,0000225000,078422,092505,083421,078043,094612,083994
0000000227,0000226000,077070,090974,086303,076646,092715,087288
0000000228,0000227000,076571,088758,089019,076243,090072,090334
0000000229,0000228000,076973,086075,091301,076874,086942,092833
0000000230,0000229000,078239,083194,092915,078477,083635,094537
0000000231,0000230000,080247,080393,093709,080896,080473,095281
0000000232,0000231000,082803,077938,093608,083896,077761,094993
0000000233,0000232000,085649,076078,092620,087179,075769,093702
0000000234,0000233000,088507,074998,090843,090424,074692,091533
0000000235,0000234000,091107,074798,088443,093319,074634,088696
0000000236,0000235000,093191,075496,085661,095577,075600,085473
0000000237,0000236000,094547,077024,082778,096974,077495,082181
0000000238,0000237000,095047,079241,080061,097378,080136,079136
0000000239,0000238000,094645,081926,077777,096748,083264,076637
0000000240,0000239000,093382,084805,076161,095148,086569,074933
0000000241,0000240000,091374,087608,075366,092730,089730,074189
0000000242,0000241000,088816,090066,075465,089733,092441,074475
0000000243,0000242000,085971,091926,076451,086452,094433,075765
0000000244,0000243000,083113,093008,078228,083208,095510,077931
0000000245,0000244000,080509,093212,080628,080314,095570,080766
0000000246,0000245000,078424,092515,083410,078057,094606,083987
0000000247,0000246000,077068,090986,086294,076659,092713,087277
0000000248,0000247000,076564,088771,089013,076254,090074,090321
0000000249,0000248000,076964,086086,091298,076882,086948,092819
0000000250,0000249000,078228,083204,092917,078481,083646,094523
0000000251,0000250000,080234,080401,093714,080896,080486,095268
0000000252,0000251000,082790,077942,093616,083891,077775,094983
0000000253,0000252000,085639,076078,092632,087170,075783,093696
0000000254,0000253000,088498,074995,090856,090412,074706,091532
0000000255,0000254000,091102,074791,088456,093304,074645,088700
0000000256,0000255000,093190,075485,085674,095562,075607,085481
0000000257,0000256000,094549,077011,082788,096960,077497,082192
0000000258,0000257000,095053,079228,080068,097366,080134,079150
0000000259,0000258000,094656,081913,077780,096740,083257,076653
0000000260,0000259000,093394,084794,076160,095143,086558,074948
0000000261,0000260000,091388,087600,075360,092731,089716,074202
0000000262,0000261000,088830,090062,075456,089738,092426,074486
0000000263,0000262000,085983,091926,076439,086462,094417,075770
0000000264,0000263000,083122,093012,078214,083221,095496,077932
0000000265,0000264000,080515,093220,080614,080330,095558,080762
0000000266,0000265000,078426,092526,083396,078073,094598,083978
0000000267,0000266000,077065,091000,086284,076674,092710,087265
0000000268,0000267000,076557,088786,089005,076267,090076,090306
0000000269,0000268000,076953,086100,091295,076891,086955,092803
0000000270,0000269000,078214,083216,092918,078485,083657,094507
0000000271,0000270000,080219,080410,093720,080895,080500,095254
0000000272,0000271000,082776,077947,093626,083885,077792,094973
0000000273,0000272000,085626,076078,092645,087159,075800,093690
0000000274,0000273000,088487,074990,090870,090397,074721,091531
0000000275,0000274000,091095,074782,088471,093288,074657,088704
0000000276,0000275000,093188,075472,085688,095544,075615,085491
0000000277,0000276000,094552,076997,082800,096944,077500,082206
0000000278,0000277000,095060,079212,080076,097352,080131,079166
0000000279,0000278000,094667,081897,077784,096730,083249,076670
0000000280,0000279000,093409,084781,076158,095139,086545,074966
0000000281,0000280000,091403,087591,075354,092732,089700,074217
0000000282,0000281000,088846,090056,075446,089744,092408,074497
0000000283,0000282000,085997,091926,076425,086473,094399,075777
0000000284,0000283000,083133,093017,078198,083237,095480,077933
0000000285,0000284000,080522,093229,080598,080348,095545,080757
0000000286,0000285000,078428,092539,083381,078092,094590,083968
0000000287,0000286000,077061,091016,086271,076692,092707,087250
0000000288,0000287000,076549,088802,088996,076282,090079,090288
0000000289,0000288000,076941,086116,091291,076902,086964,092784
0000000290,0000289000,078198,083230,092920,078490,083671,094489
0000000291,0000290000,080202,080420,093726,080894,080517,095238
0000000292,0000291000,082759,077952,093637,083879,077811,094960
0000000293,0000292000,085610,076079,092659,087147,075819,093683
0000000294,0000293000,088475,074986,090887,090381,074738,091530
0000000295,0000294000,091088,074771,088488,093269,074671,088709
0000000296,0000295000,093186,075458,085704,095524,075624,085501
0000000297,0000296000,094555,076981,082813,096925,077503,082221
0000000298,0000297000,095069,079194,080085,097337,080128,079185
0000000299,0000298000,094680,081880,077788,096719,083240,076690
0000000300,0000299000,093425,084767,076157,095133,086531,074985
0000000301,0000300000,091422,087580,075347,092733,089682,074234
