DIgSILENT PowerFactory,21000900,2000
6,06A,00D
1,TTPP_200000_100:Secondary Voltage A,,,V,0.010000000,-67.872688,0.000000,-86352,99998,1,1,P
2,TTPP_200000_100:Secondary Voltage B,,,V,0.010000000,-59.355522,0.000000,-98884,99998,1,1,P
3,TTPP_200000_100:Secondary Voltage C,,,V,0.10000000,-9016.974609,0.000000,79704,99998,1,1,P
4,TTCC_500_5:Secondary Current A,,,A,0.0010000000,-85.924179,0.000000,65293,99998,1,1,P
5,TTCC_500_5:Secondary Current B,,,A,0.0010000000,-84.991829,0.000000,70008,99998,1,1,P
6,TTCC_500_5:Secondary Current C,,,A,0.0010000000,-84.650269,0.000000,69286,99998,1,1,P
50
1
1000.000000,1101
30/06/2023,06:02:38.000000
30/06/2023,06:02:38.000000
ASCII
1.000000
0000000001,0000000000,061911,042337,081017,091840,089671,074055
0000000002,0000001000,036428,066674,081131,088825,092387,074354
0000000003,0000002000,007910,085230,082129,085525,094382,075659
0000000004,0000003000,-20539,095839,083912,082270,095451,077845
0000000005,0000004000,-46374,097664,086314,079366,095502,080699
0000000006,0000005000,-67109,090607,089092,077105,094523,083939
0000000007,0000006000,-80572,075308,091967,075712,092610,087245
0000000008,0000007000,-85296,052989,094673,075316,089950,090300
0000000009,0000008000,-81201,026198,096942,075957,086806,092803
0000000010,0000009000,-68556,-02440,098543,077575,083485,094506
0000000011,0000010000,-48347,-30448,099322,080013,080310,095244
0000000012,0000011000,-22726,-54933,099208,083026,077595,094945
0000000013,0000012000,005567,-73257,098211,086324,075602,093640
0000000014,0000013000,034062,-83922,096427,089584,074528,091454
0000000015,0000014000,060076,-85913,094026,092486,074480,088600
0000000016,0000015000,080664,-78726,091248,094745,075461,085361
0000000017,0000016000,094020,-63311,088372,096141,077371,082054
0000000018,0000017000,098976,-41219,085667,096537,080030,078999
0000000019,0000018000,094832,-14387,083398,095892,083178,076496
0000000020,0000019000,082001,014450,081797,094277,086497,074793
0000000021,0000020000,061950,042288,081017,091841,089670,074056
0000000022,0000021000,036409,066695,081132,088824,092388,074354
0000000023,0000022000,007919,085218,082128,085525,094382,075659
0000000024,0000023000,-20538,095843,083912,082269,095452,077845
0000000025,0000024000,-46380,097664,086314,079365,095502,080699
0000000026,0000025000,-67130,090633,089092,077105,094523,083938
0000000027,0000026000,-80520,075268,091967,075711,092611,087245
0000000028,0000027000,-85321,053006,094673,075315,089951,090300
0000000029,0000028000,-81240,026235,096942,075956,086807,092803
0000000030,0000029000,-68521,-02479,098542,077575,083485,094506
0000000031,0000030000,-48324,-30470,099322,080010,080312,095244
0000000032,0000031000,-22785,-54877,099209,083026,077595,094946
0000000033,0000032000,005565,-73259,098211,086325,075601,093640
0000000034,0000033000,034130,-83983,096427,089583,074529,091455
0000000035,0000034000,060031,-85874,094026,092484,074481,088601
0000000036,0000035000,080630,-78694,091248,094745,075460,085361
0000000037,0000036000,094069,-63365,088372,096141,077370,082055
0000000038,0000037000,098992,-41236,085667,096535,080031,079000
0000000039,0000038000,094776,-14328,083398,095892,083177,076497
0000000040,0000039000,082027,014422,081797,094277,086496,074794
0000000041,0000040000,061989,042254,081018,091841,089670,074056
0000000042,0000041000,036376,066731,081131,088823,092389,074354
0000000043,0000042000,007912,085229,082128,085526,094381,075660
0000000044,0000043000,-20503,095807,083912,082269,095452,077845
0000000045,0000044000,-46392,097678,086314,079365,095502,080699
0000000046,0000045000,-67147,090658,089091,077105,094523,083938
0000000047,0000046000,-80497,075245,091967,075711,092610,087245
0000000048,0000047000,-85331,053018,094673,075315,089952,090300
0000000049,0000048000,-81255,026254,096942,075957,086807,092803
0000000050,0000049000,-68506,-02495,098542,077575,083486,094506
0000000051,0000050000,-48331,-30468,099322,080010,080313,095244
0000000052,0000051000,-22815,-54852,099209,083026,077595,094945
0000000053,0000052000,005589,-73282,098211,086324,075602,093640
0000000054,0000053000,034134,-83993,096428,089582,074530,091455
0000000055,0000054000,059994,-85843,094027,092483,074482,088601
0000000056,0000055000,080645,-78710,091248,094744,075460,085362
0000000057,0000056000,094100,-63401,088372,096140,077371,082055
0000000058,0000057000,098961,-41209,085667,096534,080032,079001
0000000059,0000058000,094766,-14322,083398,095892,083177,076497
0000000060,0000059000,082076,014375,081797,094276,086496,074794
0000000061,0000060000,061982,042263,081017,091840,089670,074057
0000000062,0000061000,036350,066761,081131,088823,092388,074355
0000000063,0000062000,007949,085199,082127,085527,094380,075660
0000000064,0000063000,-20483,095793,083911,082269,095452,077845
0000000065,0000064000,-46426,097721,086313,079366,095502,080699
0000000066,0000065000,-67136,090654,089090,077106,094522,083938
0000000067,0000066000,-80472,075224,091967,075711,092611,087244
0000000068,0000067000,-85358,053050,094673,075315,089953,090299
0000000069,0000068000,-81270,026273,096942,075957,086807,092802
0000000070,0000069000,-68487,-02515,098542,077575,083487,094505
0000000071,0000070000,-48351,-30453,099323,080009,080314,095243
0000000072,0000071000,-22840,-54831,099209,083025,077596,094945
0000000073,0000072000,005601,-73303,098212,086323,075603,093640
0000000074,0000073000,034124,-83996,096429,089580,074531,091455
0000000075,0000074000,059972,-85829,094028,092482,074483,088601
0000000076,0000075000,080661,-78734,091249,094743,075461,085362
0000000077,0000076000,094107,-63418,088373,096138,077372,082056
0000000078,0000077000,098943,-41197,085668,096533,080031,079002
0000000079,0000078000,094787,-14344,083398,095892,083176,076499
0000000080,0000079000,082102,014348,081797,094275,086495,074796
0000000081,0000080000,061968,042279,081017,091839,089669,074058
0000000082,0000081000,036362,066759,081130,088824,092386,074356
0000000083,0000082000,007986,085172,082126,085527,094378,075661
0000000084,0000083000,-20491,095812,083910,082270,095451,077845
0000000085,0000084000,-46437,097746,086311,079367,095501,080698
0000000086,0000085000,-67107,090638,089089,077108,094521,083937
0000000087,0000086000,-80475,075237,091966,075712,092611,087243
0000000088,0000087000,-85391,053091,094672,075316,089953,090297
0000000089,0000088000,-81264,026271,096941,075959,086807,092800
0000000090,0000089000,-68485,-02519,098543,077575,083488,094503
0000000091,0000090000,-48392,-30418,099323,080009,080316,095241
0000000092,0000091000,-22853,-54826,099210,083025,077598,094944
0000000093,0000092000,005609,-73326,098214,086322,075605,093639
0000000094,0000093000,034097,-83985,096431,089578,074533,091455
0000000095,0000094000,059955,-85827,094029,092480,074484,088602
0000000096,0000095000,080679,-78769,091251,094741,075462,085364
0000000097,0000096000,094104,-63430,088375,096136,077373,082058
0000000098,0000097000,098936,-41198,085669,096531,080031,079004
0000000099,0000098000,094817,-14377,083398,095891,083175,076501
0000000100,0000099000,082121,014328,081797,094274,086494,074798
0000000101,0000100000,061969,042286,081016,091839,089667,074060
0000000102,0000101000,036393,066743,081128,088825,092384,074357
0000000103,0000102000,008014,085160,082125,085528,094376,075662
0000000104,0000103000,-20496,095837,083908,082271,095449,077846
0000000105,0000104000,-46424,097755,086309,079370,095499,080698
0000000106,0000105000,-67087,090637,089087,077110,094520,083936
0000000107,0000106000,-80495,075272,091964,075714,092611,087241
0000000108,0000107000,-85408,053122,094670,075318,089953,090295
0000000109,0000108000,-81259,026272,096941,075960,086809,092798
0000000110,0000109000,-68512,-02495,098543,077575,083491,094501
0000000111,0000110000,-48431,-30386,099324,080009,080318,095239
0000000112,0000111000,-22859,-54835,099212,083024,077601,094942
0000000113,0000112000,005592,-73332,098216,086320,075608,093638
0000000114,0000113000,034059,-83971,096433,089575,074536,091455
0000000115,0000114000,059951,-85848,094031,092478,074486,088603
0000000116,0000115000,080690,-78805,091253,094738,075463,085365
0000000117,0000116000,094092,-63438,088377,096132,077373,082061
0000000118,0000117000,098946,-41221,085670,096529,080030,079007
0000000119,0000118000,094854,-14421,083399,095889,083173,076504
0000000120,0000119000,082137,014314,081797,094273,086492,074801
0000000121,0000120000,061987,042280,081015,091840,089664,074063
0000000122,0000121000,036436,066717,081126,088826,092380,074360
0000000123,0000122000,008038,085159,082122,085530,094373,075663
0000000124,0000123000,-20489,095860,083905,082274,095446,077846
0000000125,0000124000,-46400,097762,086306,079374,095496,080697
0000000126,0000125000,-67077,090654,089084,077113,094519,083934
0000000127,0000126000,-80516,075317,091962,075718,092610,087238
0000000128,0000127000,-85418,053150,094669,075321,089953,090292
0000000129,0000128000,-81271,026290,096940,075962,086810,092794
0000000130,0000129000,-68556,-02455,098543,077576,083493,094497
0000000131,0000130000,-48467,-30362,099325,080009,080322,095236
0000000132,0000131000,-22878,-54839,099214,083023,077605,094939
0000000133,0000132000,005554,-73324,098219,086317,075613,093637
0000000134,0000133000,034026,-83971,096436,089572,074540,091454
0000000135,0000134000,059951,-85883,094035,092474,074489,088604
0000000136,0000135000,080685,-78834,091257,094733,075466,085368
0000000137,0000136000,094085,-63458,088380,096128,077374,082064
0000000138,0000137000,098974,-41268,085672,096526,080030,079011
0000000139,0000138000,094889,-14466,083400,095886,083172,076509
0000000140,0000139000,082157,014297,081796,094272,086489,074806
0000000141,0000140000,062028,042255,081013,091840,089660,074067
0000000142,0000141000,036488,066691,081124,088827,092376,074363
0000000143,0000142000,008063,085169,082119,085533,094369,075665
0000000144,0000143000,-20466,095879,083901,082278,095442,077846
0000000145,0000144000,-46369,097772,086302,079378,095492,080696
0000000146,0000145000,-67077,090691,089081,077118,094517,083931
0000000147,0000146000,-80534,075368,091958,075722,092609,087235
0000000148,0000147000,-85428,053183,094666,075325,089954,090287
0000000149,0000148000,-81301,026329,096939,075965,086813,092789
0000000150,0000149000,-68608,-02406,098544,077577,083497,094492
0000000151,0000150000,-48505,-30340,099327,080009,080326,095231
0000000152,0000151000,-22915,-54833,099217,083021,077610,094936
0000000153,0000152000,005502,-73312,098223,086314,075618,093635
0000000154,0000153000,033995,-83985,096441,089568,074545,091454
0000000155,0000154000,059942,-85922,094040,092468,074493,088605
0000000156,0000155000,080671,-78865,091261,094727,075468,085371
0000000157,0000156000,094090,-63499,088383,096123,077375,082068
0000000158,0000157000,099010,-41329,085674,096521,080029,079016
0000000159,0000158000,094923,-14512,083401,095882,083169,076515
0000000160,0000159000,082194,014266,081796,094270,086485,074812
0000000161,0000160000,062089,042215,081011,091840,089654,074072
0000000162,0000161000,036542,066670,081121,088829,092370,074367
0000000163,0000162000,008097,085180,082114,085537,094363,075667
0000000164,0000163000,-20425,095891,083896,082284,095436,077847
0000000165,0000164000,-46338,097794,086297,079384,095488,080695
0000000166,0000165000,-67081,090744,089076,077124,094514,083928
0000000167,0000166000,-80546,075423,091954,075729,092608,087230
0000000168,0000167000,-85445,053228,094663,075331,089955,090281
0000000169,0000168000,-81349,026388,096938,075968,086816,092782
0000000170,0000169000,-68667,-02352,098544,077579,083502,094485
0000000171,0000170000,-48553,-30315,099329,080009,080332,095226
0000000172,0000171000,-22974,-54814,099221,083018,077617,094931
0000000173,0000172000,005441,-73302,098228,086309,075625,093632
0000000174,0000173000,033961,-84009,096447,089562,074551,091453
0000000175,0000174000,059920,-85962,094046,092461,074498,088607
0000000176,0000175000,080654,-78905,091267,094720,075472,085374
0000000177,0000176000,094105,-63560,088388,096116,077376,082074
0000000178,0000177000,099048,-41401,085678,096515,080028,079023
0000000179,0000178000,094962,-14565,083403,095878,083166,076522
0000000180,0000179000,082251,014216,081795,094268,086479,074819
0000000181,0000180000,062164,042167,081009,091840,089647,074078
0000000182,0000181000,036602,066652,081116,088832,092363,074372
0000000183,0000182000,008149,085186,082108,085541,094355,075670
0000000184,0000183000,-20371,095903,083889,082290,095429,077847
0000000185,0000184000,-46309,097833,086290,079392,095482,080693
0000000186,0000185000,-67081,090809,089069,077132,094510,083924
0000000187,0000186000,-80555,075485,091949,075736,092606,087223
0000000188,0000187000,-85475,053293,094660,075337,089956,090273
0000000189,0000188000,-81411,026465,096936,075973,086820,092774
0000000190,0000189000,-68731,-02294,098545,077582,083507,094477
0000000191,0000190000,-48618,-30280,099332,080008,080340,095218
0000000192,0000191000,-23053,-54784,099226,083015,077626,094926
0000000193,0000192000,005373,-73298,098234,086304,075633,093629
0000000194,0000193000,033918,-84041,096454,089555,074559,091453
0000000195,0000194000,059885,-86004,094054,092452,074505,088609
0000000196,0000195000,080639,-78960,091274,094711,075476,085379
0000000197,0000196000,094128,-63641,088393,096108,077378,082081
0000000198,0000197000,099088,-41482,085682,096508,080027,079032
0000000199,0000198000,095013,-14633,083404,095873,083162,076531
0000000200,0000199000,082329,014148,081794,094266,086473,074828
0000000201,0000200000,062250,042112,081006,091841,089639,074086
0000000202,0000201000,036675,066633,081111,088835,092353,074378
0000000203,0000202000,008222,085187,082101,085547,094345,075674
0000000204,0000203000,-20307,095921,083881,082298,095420,077848
0000000205,0000204000,-46279,097886,086282,079401,095475,080690
0000000206,0000205000,-67075,090882,089061,077142,094505,083919
0000000207,0000206000,-80565,075560,091942,075746,092605,087216
0000000208,0000207000,-85520,053381,094656,075345,089957,090264
0000000209,0000208000,-81481,026555,096934,075979,086824,092764
0000000210,0000209000,-68807,-02227,098545,077585,083514,094467
0000000211,0000210000,-48706,-30229,099336,080008,080349,095210
0000000212,0000211000,-23148,-54749,099232,083011,077636,094919
0000000213,0000212000,005297,-73299,098242,086298,075644,093625
0000000214,0000213000,033860,-84074,096463,089546,074568,091452
0000000215,0000214000,059840,-86053,094063,092442,074513,088612
0000000216,0000215000,080628,-79034,091283,094700,075481,085385
0000000217,0000216000,094154,-63738,088401,096097,077380,082089
0000000218,0000217000,099132,-41575,085687,096499,080025,079042
0000000219,0000218000,095080,-14721,083406,095867,083157,076543
0000000220,0000219000,082424,014063,081793,094262,086465,074839
0000000221,0000220000,062347,042053,081002,091841,089629,074096
0000000222,0000221000,036767,066607,081104,088839,092342,074385
0000000223,0000222000,008313,085183,082092,085555,094334,075678
0000000224,0000223000,-20236,095948,083871,082308,095410,077849
0000000225,0000224000,-46242,097951,086271,079412,095467,080687
0000000226,0000225000,-67062,090964,089052,077154,094500,083912
0000000227,0000226000,-80582,075654,091935,075757,092603,087207
0000000228,0000227000,-85576,053491,094650,075354,089959,090253
0000000229,0000228000,-81560,026658,096932,075985,086829,092752
0000000230,0000229000,-68899,-02146,098547,077588,083523,094455
0000000231,0000230000,-48816,-30163,099340,080007,080360,095199
0000000232,0000231000,-23259,-54709,099239,083007,077648,094911
0000000233,0000232000,005207,-73304,098252,086290,075656,093620
0000000234,0000233000,033786,-84109,096474,089535,074580,091451
0000000235,0000234000,059788,-86112,094074,092430,074522,088615
0000000236,0000235000,080619,-79128,091293,094688,075487,085392
0000000237,0000236000,094179,-63849,088409,096085,077382,082099
0000000238,0000237000,099183,-41685,085693,096489,080024,079054
0000000239,0000238000,095166,-14831,083409,095859,083151,076556
0000000240,0000239000,082535,013963,081792,094259,086456,074852
0000000241,0000240000,062460,041986,080997,091841,089618,074107
0000000242,0000241000,036881,066572,081096,088844,092329,074394
0000000243,0000242000,008422,085177,082082,085563,094320,075683
0000000244,0000243000,-20156,095985,083859,082319,095397,077850
0000000245,0000244000,-46195,098025,086259,079425,095457,080684
0000000246,0000245000,-67044,091058,089041,077168,094493,083905
0000000247,0000246000,-80606,075770,091925,075770,092600,087196
0000000248,0000247000,-85642,053620,094644,075365,089961,090240
0000000249,0000248000,-81650,026776,096929,075993,086835,092737
0000000250,0000249000,-69011,-02046,098548,077592,083533,094442
0000000251,0000250000,-48947,-30082,099345,080007,080373,095187
0000000252,0000251000,-23384,-54667,099247,083002,077662,094902
0000000253,0000252000,005099,-73307,098263,086281,075671,093615
0000000254,0000253000,033694,-84145,096487,089523,074593,091450
0000000255,0000254000,059731,-86184,094087,092415,074532,088618
0000000256,0000255000,080608,-79238,091305,094672,075494,085400
0000000257,0000256000,094205,-63976,088419,096071,077385,082111
0000000258,0000257000,099244,-41815,085699,096477,080021,079068
0000000259,0000258000,095269,-14963,083412,095851,083145,076571
0000000260,0000259000,082661,013850,081791,094255,086445,074867
0000000261,0000260000,062593,041908,080992,091842,089604,074121
0000000262,0000261000,037019,066526,081087,088849,092313,074404
0000000263,0000262000,008546,085172,082070,085573,094305,075689
0000000264,0000263000,-20064,096031,083846,082332,095383,077851
0000000265,0000264000,-46136,098108,086245,079441,095445,080680
0000000266,0000265000,-67024,091169,089028,077184,094486,083896
0000000267,0000266000,-80636,075908,091915,075785,092598,087183
0000000268,0000267000,-85714,053768,094636,075378,089964,090224
0000000269,0000268000,-81754,026912,096926,076002,086843,092721
0000000270,0000269000,-69145,-01927,098549,077596,083545,094425
0000000271,0000270000,-49098,-29989,099351,080006,080388,095173
0000000272,0000271000,-23528,-54621,099257,082996,077679,094891
0000000273,0000272000,004969,-73308,098276,086270,075688,093609
0000000274,0000273000,033587,-84187,096502,089508,074608,091449
0000000275,0000274000,059668,-86272,094102,092399,074545,088623
0000000276,0000275000,080593,-79364,091319,094655,075502,085409
0000000277,0000276000,094233,-64120,088431,096055,077387,082124
0000000278,0000277000,099319,-41970,085707,096463,080019,079085
0000000279,0000278000,095387,-15116,083415,095841,083137,076589
0000000280,0000279000,082803,013722,081789,094250,086433,074884
0000000281,0000280000,062749,041815,080985,091843,089588,074136
0000000282,0000281000,037179,066471,081077,088855,092295,074415
0000000283,0000282000,008687,085169,082056,085584,094287,075695
0000000284,0000283000,-19956,096082,083830,082348,095367,077852
0000000285,0000284000,-46065,098200,086229,079459,095432,080675
0000000286,0000285000,-67002,091298,089013,077203,094477,083886
0000000287,0000286000,-80672,076069,091902,075803,092595,087169
0000000288,0000287000,-85795,053936,094628,075393,089967,090207
0000000289,0000288000,-81873,027069,096922,076013,086851,092702
0000000290,0000289000,-69301,-01786,098551,077601,083558,094407
0000000291,0000290000,-49269,-29884,099358,080005,080405,095157
0000000292,0000291000,-23693,-54568,099268,082989,077698,094879
0000000293,0000292000,004817,-73305,098291,086258,075707,093602
0000000294,0000293000,033466,-84235,096519,089492,074626,091448
0000000295,0000294000,059595,-86374,094120,092380,074558,088628
0000000296,0000295000,080573,-79506,091335,094635,075511,085420
0000000297,0000296000,094264,-64286,088444,096036,077391,082140
0000000298,0000297000,099407,-42150,085717,096448,080015,079103
0000000299,0000298000,095519,-15290,083419,095830,083128,076609
0000000300,0000299000,082964,013576,081788,094245,086418,074903
0000000301,0000300000,062931,041705,080978,091844,089570,074153
