DIgSILENT PowerFactory,21000900,2000
6,06A,00D
1,TTPP_200000_100:Secondary Voltage A,,,V,0.10000000,-8350.608398,0.000000,68900,99998,1,1,P
2,TTPP_200000_100:Secondary Voltage B,,,V,0.10000000,-8420.875977,0.000000,70242,99998,1,1,P
3,TTPP_200000_100:Secondary Voltage C,,,V,0.10000000,-8449.048828,0.000000,66983,99998,1,1,P
4,TTCC_500_5:Secondary Current A,,,A,0.0010000000,-78.962456,0.000000,64743,99998,1,1,P
5,TTCC_500_5:Secondary Current B,,,A,0.0010000000,-84.503113,0.000000,69083,99998,1,1,P
6,TTCC_500_5:Secondary Current C,,,A,0.0010000000,-84.884506,0.000000,69790,99998,1,1,P
50
1
1000.000000,1101
30/06/2023,06:12:10.000000
30/06/2023,06:12:10.000000
ASCII
1.000000
0000000001,0000000000,089018,087849,075338,084878,089182,074289
0000000002,0000001000,086470,090283,075452,081861,091901,074588
0000000003,0000002000,083622,092135,076450,078565,093891,075893
0000000004,0000003000,080769,093203,078233,075310,094962,078079
0000000005,0000004000,078189,093382,080635,072402,095015,080933
0000000006,0000005000,076117,092675,083413,070143,094035,084173
0000000007,0000006000,074773,091143,086288,068751,092120,087479
0000000008,0000007000,074295,088916,088994,068355,089461,090534
0000000009,0000008000,074706,086236,091263,068994,086318,093038
0000000010,0000009000,075974,083369,092864,070613,082997,094740
0000000011,0000010000,077995,080569,093642,073052,079820,095478
0000000012,0000011000,080553,078124,093529,076065,077105,095179
0000000013,0000012000,083383,076290,092532,079362,075114,093874
0000000014,0000013000,086237,075220,090747,082622,074039,091688
0000000015,0000014000,088835,075024,088346,085524,073991,088834
0000000016,0000015000,090892,075745,085568,087783,074972,085595
0000000017,0000016000,092229,077284,082692,089179,076882,082288
0000000018,0000017000,092728,079491,079987,089575,079542,079233
0000000019,0000018000,092309,082179,077718,088931,082689,076730
0000000020,0000019000,091026,085062,076118,087315,086008,075027
0000000021,0000020000,089023,087843,075338,084879,089181,074290
0000000022,0000021000,086469,090284,075452,081861,091901,074588
0000000023,0000022000,083617,092140,076449,078564,093892,075894
0000000024,0000023000,080772,093200,078233,075308,094963,078079
0000000025,0000024000,078191,093380,080635,072403,095013,080933
0000000026,0000025000,076114,092679,083413,070143,094035,084173
0000000027,0000026000,074773,091143,086288,068749,092121,087479
0000000028,0000027000,074296,088915,088994,068354,089462,090534
0000000029,0000028000,074705,086237,091263,068994,086318,093037
0000000030,0000029000,075975,083368,092863,070613,082996,094741
0000000031,0000030000,077994,080568,093643,073050,079822,095478
0000000032,0000031000,080550,078126,093530,076065,077106,095180
0000000033,0000032000,083385,076288,092532,079363,075113,093874
0000000034,0000033000,086239,075218,090747,082621,074040,091689
0000000035,0000034000,088831,075028,088347,085523,073992,088835
0000000036,0000035000,090892,075745,085568,087783,074972,085595
0000000037,0000036000,092235,077279,082692,089179,076882,082289
0000000038,0000037000,092725,079493,079987,089574,079542,079234
0000000039,0000038000,092305,082182,077718,088931,082688,076731
0000000040,0000039000,091031,085057,076117,087315,086008,075028
0000000041,0000040000,089025,087842,075338,084878,089181,074290
0000000042,0000041000,086464,090290,075452,081861,091900,074589
0000000043,0000042000,083619,092137,076449,078565,093892,075894
0000000044,0000043000,080777,093195,078233,075307,094964,078079
0000000045,0000044000,078186,093385,080635,072403,095014,080933
0000000046,0000045000,076112,092681,083412,070144,094034,084173
0000000047,0000046000,074779,091138,086288,068749,092122,087479
0000000048,0000047000,074294,088917,088994,068352,089463,090534
0000000049,0000048000,074701,086241,091263,068995,086318,093037
0000000050,0000049000,075978,083364,092863,070613,082997,094740
0000000051,0000050000,077995,080567,093643,073048,079824,095478
0000000052,0000051000,080545,078131,093530,076064,077107,095179
0000000053,0000052000,083386,076287,092532,079363,075113,093874
0000000054,0000053000,086242,075215,090748,082620,074041,091689
0000000055,0000054000,088827,075031,088347,085521,073993,088835
0000000056,0000055000,090891,075745,085569,087783,074971,085596
0000000057,0000056000,092238,077275,082693,089178,076882,082289
0000000058,0000057000,092724,079494,079987,089572,079543,079235
0000000059,0000058000,092304,082184,077718,088931,082688,076732
0000000060,0000059000,091035,085053,076117,087314,086007,075029
0000000061,0000060000,089025,087842,075338,084878,089181,074291
0000000062,0000061000,086462,090292,075451,081861,091899,074589
0000000063,0000062000,083622,092135,076448,078565,093891,075894
0000000064,0000063000,080778,093195,078232,075307,094964,078080
0000000065,0000064000,078184,093387,080634,072404,095013,080933
0000000066,0000065000,076114,092680,083411,070145,094033,084172
0000000067,0000066000,074780,091137,086288,068749,092122,087479
0000000068,0000067000,074291,088920,088994,068353,089464,090533
0000000069,0000068000,074701,086242,091263,068996,086318,093036
0000000070,0000069000,075979,083363,092863,070613,082998,094739
0000000071,0000070000,077992,080570,093644,073048,079825,095477
0000000072,0000071000,080544,078132,093530,076064,077107,095179
0000000073,0000072000,083388,076284,092533,079362,075114,093874
0000000074,0000073000,086240,075216,090749,082618,074043,091689
0000000075,0000074000,088825,075033,088348,085521,073994,088836
0000000076,0000075000,090894,075742,085570,087782,074972,085597
0000000077,0000076000,092238,077274,082694,089176,076883,082291
0000000078,0000077000,092721,079496,079988,089571,079543,079236
0000000079,0000078000,092306,082181,077718,088930,082687,076733
0000000080,0000079000,091038,085050,076117,087313,086007,075030
0000000081,0000080000,089024,087844,075338,084878,089180,074292
0000000082,0000081000,086463,090292,075450,081862,091898,074590
0000000083,0000082000,083626,092132,076447,078565,093890,075895
0000000084,0000083000,080777,093197,078231,075308,094963,078080
0000000085,0000084000,078183,093390,080633,072406,095012,080933
0000000086,0000085000,076117,092678,083410,070146,094032,084172
0000000087,0000086000,074779,091139,086287,068750,092122,087477
0000000088,0000087000,074288,088924,088993,068354,089464,090532
0000000089,0000088000,074701,086241,091262,068997,086318,093035
0000000090,0000089000,075979,083363,092864,070613,082999,094738
0000000091,0000090000,077988,080573,093644,073047,079827,095476
0000000092,0000091000,080543,078132,093531,076063,077109,095178
0000000093,0000092000,083389,076282,092534,079360,075116,093873
0000000094,0000093000,086237,075217,090751,082616,074045,091689
0000000095,0000094000,088823,075033,088349,085519,073995,088836
0000000096,0000095000,090896,075738,085571,087779,074973,085598
0000000097,0000096000,092238,077273,082695,089174,076884,082292
0000000098,0000097000,092721,079496,079989,089570,079542,079238
0000000099,0000098000,092309,082178,077719,088929,082686,076735
0000000100,0000099000,091039,085048,076117,087312,086005,075032
0000000101,0000100000,089024,087845,075337,084878,089178,074294
0000000102,0000101000,086466,090290,075449,081863,091895,074592
0000000103,0000102000,083628,092131,076446,078567,093888,075896
0000000104,0000103000,080777,093199,078229,075310,094961,078080
0000000105,0000104000,078184,093391,080630,072408,095010,080932
0000000106,0000105000,076119,092678,083408,070148,094031,084170
0000000107,0000106000,074777,091142,086285,068752,092122,087475
0000000108,0000107000,074286,088927,088992,068357,089464,090529
0000000109,0000108000,074702,086242,091262,068998,086320,093032
0000000110,0000109000,075976,083365,092864,070613,083002,094735
0000000111,0000110000,077984,080576,093645,073047,079830,095473
0000000112,0000111000,080542,078131,093532,076062,077112,095176
0000000113,0000112000,083387,076282,092537,079358,075120,093872
0000000114,0000113000,086233,075218,090753,082614,074047,091689
0000000115,0000114000,088823,075030,088352,085516,073997,088837
0000000116,0000115000,090897,075735,085574,087776,074975,085599
0000000117,0000116000,092236,077272,082697,089171,076885,082295
0000000118,0000117000,092722,079493,079990,089567,079542,079241
0000000119,0000118000,092313,082173,077719,088927,082685,076739
0000000120,0000119000,091040,085047,076117,087311,086003,075035
0000000121,0000120000,089026,087844,075336,084878,089175,074297
0000000122,0000121000,086471,090287,075447,081864,091892,074594
0000000123,0000122000,083631,092132,076443,078568,093885,075897
0000000124,0000123000,080778,093202,078226,075313,094957,078080
0000000125,0000124000,078187,093391,080627,072412,095007,080931
0000000126,0000125000,076119,092680,083406,070152,094030,084168
0000000127,0000126000,074775,091147,086283,068756,092121,087473
0000000128,0000127000,074286,088930,088990,068360,089464,090526
0000000129,0000128000,074701,086243,091261,069000,086322,093028
0000000130,0000129000,075972,083370,092864,070614,083005,094731
0000000131,0000130000,077981,080579,093646,073047,079833,095470
0000000132,0000131000,080540,078130,093535,076061,077116,095173
0000000133,0000132000,083383,076283,092540,079355,075124,093871
0000000134,0000133000,086230,075218,090757,082611,074051,091688
0000000135,0000134000,088823,075027,088355,085512,074000,088838
0000000136,0000135000,090896,075732,085577,087771,074977,085602
0000000137,0000136000,092236,077270,082700,089167,076886,082298
0000000138,0000137000,092725,079489,079992,089564,079541,079245
0000000139,0000138000,092316,082169,077720,088924,082683,076743
0000000140,0000139000,091043,085046,076117,087310,086000,075040
0000000141,0000140000,089030,087841,075334,084878,089171,074301
0000000142,0000141000,086476,090284,075445,081866,091887,074597
0000000143,0000142000,083633,092133,076440,078571,093880,075899
0000000144,0000143000,080780,093203,078222,075317,094953,078081
0000000145,0000144000,078190,093392,080623,072416,095004,080930
0000000146,0000145000,076119,092684,083402,070156,094028,084166
0000000147,0000146000,074774,091152,086280,068761,092120,087469
0000000148,0000147000,074285,088933,088988,068364,089465,090521
0000000149,0000148000,074697,086248,091260,069003,086324,093023
0000000150,0000149000,075966,083374,092865,070616,083008,094726
0000000151,0000150000,077977,080580,093648,073047,079837,095466
0000000152,0000151000,080536,078131,093538,076059,077121,095170
0000000153,0000152000,083378,076284,092544,079352,075129,093869
0000000154,0000153000,086227,075217,090761,082606,074056,091688
0000000155,0000154000,088822,075023,088360,085506,074004,088839
0000000156,0000155000,090895,075729,085582,087765,074980,085605
0000000157,0000156000,092236,077266,082703,089161,076886,082302
0000000158,0000157000,092729,079482,079994,089559,079540,079251
0000000159,0000158000,092319,082165,077721,088920,082681,076749
0000000160,0000159000,091046,085043,076116,087308,085996,075046
0000000161,0000160000,089036,087837,075332,084878,089166,074306
0000000162,0000161000,086481,090283,075441,081867,091882,074601
0000000163,0000162000,083636,092134,076435,078575,093874,075901
0000000164,0000163000,080785,093204,078217,075322,094947,078081
0000000165,0000164000,078193,093394,080618,072422,094999,080929
0000000166,0000165000,076119,092690,083397,070163,094025,084163
0000000167,0000166000,074773,091157,086275,068767,092119,087464
0000000168,0000167000,074283,088937,088985,068369,089466,090515
0000000169,0000168000,074692,086254,091259,069006,086327,093017
0000000170,0000169000,075961,083380,092865,070618,083013,094720
0000000171,0000170000,077973,080583,093650,073047,079843,095460
0000000172,0000171000,080530,078133,093542,076056,077128,095166
0000000173,0000172000,083372,076285,092549,079348,075136,093866
0000000174,0000173000,086224,075214,090767,082600,074062,091688
0000000175,0000174000,088820,075019,088366,085499,074010,088841
0000000176,0000175000,090893,075725,085587,087758,074983,085608
0000000177,0000176000,092238,077259,082708,089155,076888,082308
0000000178,0000177000,092733,079475,079998,089553,079539,079257
0000000179,0000178000,092323,082159,077723,088916,082678,076756
0000000180,0000179000,091052,085037,076116,087306,085991,075053
0000000181,0000180000,089044,087832,075329,084878,089159,074313
0000000182,0000181000,086487,090281,075437,081870,091874,074606
0000000183,0000182000,083642,092134,076429,078580,093866,075904
0000000184,0000183000,080790,093205,078210,075328,094940,078082
0000000185,0000184000,078196,093399,080611,072430,094994,080927
0000000186,0000185000,076119,092696,083391,070171,094021,084158
0000000187,0000186000,074772,091163,086270,068775,092118,087458
0000000188,0000187000,074280,088944,088981,068375,089467,090508
0000000189,0000188000,074686,086262,091258,069011,086331,093008
0000000190,0000189000,075955,083385,092866,070620,083018,094712
0000000191,0000190000,077966,080587,093653,073047,079851,095453
0000000192,0000191000,080522,078137,093547,076053,077137,095160
0000000193,0000192000,083365,076285,092555,079343,075145,093863
0000000194,0000193000,086220,075211,090774,082593,074070,091687
0000000195,0000194000,088816,075015,088374,085491,074016,088843
0000000196,0000195000,090892,075719,085594,087749,074987,085613
0000000197,0000196000,092241,077251,082714,089146,076889,082315
0000000198,0000197000,092736,079467,080002,089546,079538,079266
0000000199,0000198000,092328,082153,077725,088911,082674,076766
0000000200,0000199000,091060,085030,076115,087304,085984,075062
0000000201,0000200000,089052,087827,075326,084879,089151,074321
0000000202,0000201000,086494,090279,075432,081873,091865,074612
0000000203,0000202000,083649,092134,076422,078586,093856,075908
0000000204,0000203000,080796,093207,078202,075336,094931,078082
0000000205,0000204000,078199,093404,080603,072439,094987,080925
0000000206,0000205000,076119,092703,083383,070181,094016,084153
0000000207,0000206000,074771,091171,086264,068784,092116,087450
0000000208,0000207000,074275,088953,088977,068383,089469,090498
0000000209,0000208000,074679,086270,091256,069017,086335,092998
0000000210,0000209000,075947,083392,092866,070623,083025,094702
0000000211,0000210000,077957,080592,093657,073046,079860,095444
0000000212,0000211000,080513,078140,093553,076050,077147,095153
0000000213,0000212000,083358,076285,092563,079336,075155,093859
0000000214,0000213000,086214,075207,090784,082584,074080,091686
0000000215,0000214000,088812,075010,088383,085480,074024,088846
0000000216,0000215000,090891,075712,085603,087739,074992,085619
0000000217,0000216000,092243,077241,082721,089136,076891,082323
0000000218,0000217000,092740,079458,080007,089537,079537,079276
0000000219,0000218000,092335,082144,077727,088905,082669,076777
0000000220,0000219000,091070,085022,076114,087301,085976,075073
0000000221,0000220000,089062,087821,075322,084879,089141,074330
0000000222,0000221000,086503,090277,075425,081877,091853,074620
0000000223,0000222000,083658,092134,076413,078593,093845,075912
0000000224,0000223000,080803,093210,078192,075346,094921,078083
0000000225,0000224000,078202,093411,080593,072450,094978,080922
0000000226,0000225000,076121,092711,083373,070193,094011,084147
0000000227,0000226000,074769,091180,086256,068795,092114,087441
0000000228,0000227000,074269,088964,088972,068392,089470,090487
0000000229,0000228000,074671,086281,091253,069024,086340,092986
0000000230,0000229000,075938,083400,092868,070626,083034,094690
0000000231,0000230000,077946,080599,093661,073046,079871,095433
0000000232,0000231000,080502,078144,093560,076046,077159,095145
0000000233,0000232000,083349,076284,092572,079328,075167,093854
0000000234,0000233000,086206,075204,090795,082574,074091,091685
0000000235,0000234000,088806,075004,088394,085468,074033,088849
0000000236,0000235000,090890,075702,085613,087726,074998,085626
0000000237,0000236000,092246,077230,082729,089123,076893,082333
0000000238,0000237000,092745,079447,080013,089527,079535,079288
0000000239,0000238000,092344,082133,077729,088898,082663,076790
0000000240,0000239000,091081,085012,076113,087297,085967,075086
0000000241,0000240000,089073,087814,075318,084879,089129,074342
0000000242,0000241000,086515,090273,075417,081882,091840,074628
0000000243,0000242000,083669,092133,076403,078601,093832,075917
0000000244,0000243000,080811,093214,078180,075357,094909,078084
0000000245,0000244000,078207,093418,080580,072464,094968,080918
0000000246,0000245000,076123,092721,083362,070207,094004,084139
0000000247,0000246000,074767,091192,086247,068808,092112,087430
0000000248,0000247000,074263,088977,088965,068404,089472,090474
0000000249,0000248000,074663,086292,091250,069032,086347,092972
0000000250,0000249000,075927,083410,092869,070630,083044,094676
0000000251,0000250000,077933,080607,093666,073045,079884,095421
0000000252,0000251000,080489,078148,093568,076041,077174,095136
0000000253,0000252000,083338,076284,092584,079319,075182,093849
0000000254,0000253000,086197,075201,090807,082561,074104,091684
0000000255,0000254000,088801,074997,088407,085454,074044,088852
0000000256,0000255000,090889,075691,085625,087711,075005,085634
0000000257,0000256000,092248,077218,082740,089109,076896,082345
0000000258,0000257000,092752,079434,080020,089515,079533,079302
0000000259,0000258000,092354,082119,077732,088889,082656,076805
0000000260,0000259000,091093,085001,076111,087293,085956,075101
0000000261,0000260000,089086,087807,075312,084880,089115,074355
0000000262,0000261000,086529,090268,075408,081887,091825,074638
0000000263,0000262000,083682,092133,076391,078611,093816,075923
0000000264,0000263000,080820,093219,078167,075371,094895,078085
0000000265,0000264000,078213,093426,080566,072479,094957,080914
0000000266,0000265000,076125,092732,083349,070223,093997,084131
0000000267,0000266000,074763,091206,086236,068823,092109,087418
0000000268,0000267000,074256,088992,088958,068416,089475,090459
0000000269,0000268000,074652,086306,091247,069041,086354,092955
0000000270,0000269000,075913,083422,092870,070634,083056,094660
0000000271,0000270000,077918,080616,093672,073044,079899,095407
0000000272,0000271000,080475,078152,093578,076035,077190,095125
0000000273,0000272000,083325,076284,092597,079309,075199,093843
0000000274,0000273000,086186,075197,090822,082547,074120,091683
0000000275,0000274000,088795,074988,088423,085437,074056,088857
0000000276,0000275000,090887,075679,085639,087693,075013,085643
0000000277,0000276000,092251,077204,082751,089093,076899,082358
0000000278,0000277000,092759,079419,080028,089501,079530,079319
0000000279,0000278000,092366,082104,077735,088879,082648,076823
0000000280,0000279000,091107,084988,076110,087288,085944,075118
0000000281,0000280000,089102,087797,075306,084881,089099,074370
0000000282,0000281000,086545,090263,075397,081894,091807,074650
0000000283,0000282000,083696,092132,076377,078622,093798,075930
0000000284,0000283000,080831,093224,078151,075386,094878,078086
0000000285,0000284000,078221,093435,080550,072497,094944,080910
0000000286,0000285000,076127,092745,083334,070241,093988,084121
0000000287,0000286000,074760,091222,086223,068841,092106,087403
0000000288,0000287000,074248,089008,088949,068431,089478,090441
0000000289,0000288000,074640,086321,091243,069051,086362,092936
0000000290,0000289000,075897,083436,092872,070639,083069,094641
0000000291,0000290000,077901,080626,093678,073043,079916,095391
0000000292,0000291000,080459,078158,093589,076028,077209,095113
0000000293,0000292000,083309,076284,092611,079296,075218,093836
0000000294,0000293000,086174,075192,090839,082531,074137,091682
0000000295,0000294000,088787,074978,088440,085418,074070,088862
0000000296,0000295000,090885,075665,085656,087674,075022,085654
0000000297,0000296000,092254,077187,082765,089074,076902,082374
0000000298,0000297000,092768,079401,080037,089486,079527,079338
0000000299,0000298000,092379,082087,077740,088868,082639,076843
0000000300,0000299000,091123,084973,076108,087283,085930,075138
0000000301,0000300000,089120,087786,075299,084882,089081,074387
