DIgSILENT PowerFactory,21000900,2000
6,06A,00D
1,TTPP_200000_100:Secondary Voltage A,,,V,0.10000000,-8405.787109,0.000000,69810,99998,1,1,P
2,TTPP_200000_100:Secondary Voltage B,,,V,0.10000000,-8421.016602,0.000000,70513,99998,1,1,P
3,TTPP_200000_100:Secondary Voltage C,,,V,0.10000000,-8472.424805,0.000000,67177,99998,1,1,P
4,TTCC_500_5:Secondary Current A,,,A,0.0010000000,-79.133873,0.000000,64837,99998,1,1,P
5,TTCC_500_5:Secondary Current B,,,A,0.0010000000,-84.521324,0.000000,69123,99998,1,1,P
6,TTCC_500_5:Secondary Current C,,,A,0.0010000000,-84.857590,0.000000,69736,99998,1,1,P
50
1
1000.000000,1101
30/06/2023,06:12:34.000000
30/06/2023,06:12:34.000000
ASCII
1.000000
0000000001,0000000000,089570,087851,075572,085050,089201,074263
0000000002,0000001000,087022,090284,075686,082033,091918,074561
0000000003,0000002000,084172,092138,076684,078737,093909,075867
0000000004,0000003000,081321,093204,078467,075479,094982,078052
0000000005,0000004000,078743,093381,080869,072574,095032,080906
0000000006,0000005000,076668,092677,083647,070316,094051,084146
0000000007,0000006000,075322,091147,086522,068921,092139,087452
0000000008,0000007000,074848,088917,089228,068524,089481,090507
0000000009,0000008000,075260,086235,091497,069167,086335,093011
0000000010,0000009000,076524,083372,093097,070786,083013,094713
0000000011,0000010000,078545,080572,093876,073221,079841,095451
0000000012,0000011000,081107,078123,093763,076236,077124,095153
0000000013,0000012000,083936,076291,092766,079536,075130,093847
0000000014,0000013000,086787,075223,090981,082794,074057,091662
0000000015,0000014000,089387,075026,088580,085694,074011,088808
0000000016,0000015000,091445,075745,085802,087955,074990,085568
0000000017,0000016000,092780,077286,082926,089352,076900,082261
0000000018,0000017000,093279,079493,080221,089746,079561,079206
0000000019,0000018000,092861,082179,077951,089102,082707,076703
0000000020,0000019000,091578,085063,076351,087487,086026,075000
0000000021,0000020000,089575,087845,075572,085051,089199,074263
0000000022,0000021000,087021,090285,075686,082032,091919,074561
0000000023,0000022000,084169,092141,076683,078735,093911,075867
0000000024,0000023000,081324,093201,078467,075479,094982,078052
0000000025,0000024000,078743,093381,080869,072575,095032,080906
0000000026,0000025000,076666,092680,083646,070314,094053,084146
0000000027,0000026000,075325,091145,086522,068921,092139,087453
0000000028,0000027000,074848,088916,089228,068525,089480,090508
0000000029,0000028000,075257,086238,091497,069166,086336,093011
0000000030,0000029000,076526,083370,093097,070785,083015,094714
0000000031,0000030000,078546,080570,093877,073221,079841,095451
0000000032,0000031000,081102,078127,093763,076236,077124,095153
0000000033,0000032000,083937,076290,092765,079535,075131,093847
0000000034,0000033000,086791,075220,090981,082793,074058,091662
0000000035,0000034000,089382,075029,088580,085694,074011,088808
0000000036,0000035000,091444,075746,085802,087955,074990,085568
0000000037,0000036000,092786,077281,082926,089351,076900,082262
0000000038,0000037000,093277,079495,080221,089745,079561,079207
0000000039,0000038000,092857,082184,077952,089102,082707,076704
0000000040,0000039000,091583,085058,076351,087486,086026,075001
0000000041,0000040000,089577,087843,075572,085050,089200,074263
0000000042,0000041000,087015,090291,075686,082032,091918,074562
0000000043,0000042000,084171,092139,076683,078736,093910,075867
0000000044,0000043000,081329,093197,078467,075478,094982,078053
0000000045,0000044000,078738,093386,080869,072575,095032,080906
0000000046,0000045000,076664,092682,083646,070315,094052,084146
0000000047,0000046000,075331,091140,086522,068921,092140,087452
0000000048,0000047000,074846,088918,089228,068524,089482,090507
0000000049,0000048000,075252,086243,091497,069167,086336,093010
0000000050,0000049000,076530,083366,093097,070785,083015,094713
0000000051,0000050000,078547,080569,093877,073219,079842,095451
0000000052,0000051000,081097,078132,093763,076235,077125,095153
0000000053,0000052000,083938,076288,092766,079534,075131,093847
0000000054,0000053000,086794,075216,090982,082791,074059,091662
0000000055,0000054000,089379,075032,088581,085693,074012,088808
0000000056,0000055000,091443,075746,085802,087954,074990,085569
0000000057,0000056000,092790,077277,082926,089350,076901,082262
0000000058,0000057000,093276,079496,080221,089744,079561,079208
0000000059,0000058000,092856,082185,077952,089102,082706,076705
0000000060,0000059000,091586,085055,076351,087486,086025,075002
0000000061,0000060000,089577,087843,075572,085049,089200,074264
0000000062,0000061000,087014,090293,075685,082033,091918,074562
0000000063,0000062000,084173,092137,076682,078736,093909,075867
0000000064,0000063000,081330,093196,078466,075478,094982,078053
0000000065,0000064000,078736,093389,080868,072575,095031,080906
0000000066,0000065000,076666,092682,083645,070316,094051,084145
0000000067,0000066000,075332,091139,086522,068921,092140,087452
0000000068,0000067000,074843,088922,089228,068524,089482,090506
0000000069,0000068000,075253,086243,091496,069167,086336,093009
0000000070,0000069000,076531,083364,093097,070784,083016,094712
0000000071,0000070000,078544,080571,093877,073219,079844,095450
0000000072,0000071000,081096,078133,093764,076235,077126,095152
0000000073,0000072000,083940,076285,092767,079533,075132,093847
0000000074,0000073000,086792,075217,090983,082790,074061,091662
0000000075,0000074000,089376,075034,088582,085692,074012,088809
0000000076,0000075000,091446,075743,085803,087953,074990,085570
0000000077,0000076000,092790,077275,082927,089348,076902,082264
0000000078,0000077000,093273,079498,080222,089743,079561,079209
0000000079,0000078000,092858,082183,077952,089102,082705,076706
0000000080,0000079000,091589,085052,076351,087485,086025,075003
0000000081,0000080000,089575,087845,075571,085049,089199,074265
0000000082,0000081000,087015,090293,075684,082034,091916,074563
0000000083,0000082000,084178,092134,076681,078737,093908,075868
0000000084,0000083000,081329,093198,078465,075479,094981,078053
0000000085,0000084000,078735,093391,080866,072577,095030,080906
0000000086,0000085000,076668,092680,083644,070318,094051,084145
0000000087,0000086000,075331,091140,086521,068922,092140,087451
0000000088,0000087000,074840,088926,089227,068526,089482,090505
0000000089,0000088000,075253,086243,091496,069168,086337,093008
0000000090,0000089000,076531,083364,093097,070784,083018,094711
0000000091,0000090000,078540,080575,093878,073219,079845,095449
0000000092,0000091000,081094,078133,093765,076235,077127,095151
0000000093,0000092000,083941,076283,092768,079532,075134,093847
0000000094,0000093000,086789,075218,090985,082788,074063,091662
0000000095,0000094000,089375,075034,088583,085690,074013,088809
0000000096,0000095000,091448,075739,085805,087951,074991,085571
0000000097,0000096000,092790,077274,082929,089345,076902,082265
0000000098,0000097000,093272,079498,080223,089741,079561,079211
0000000099,0000098000,092861,082179,077952,089100,082704,076708
0000000100,0000099000,091591,085050,076351,087484,086024,075005
0000000101,0000100000,089575,087846,075571,085049,089197,074267
0000000102,0000101000,087018,090291,075683,082034,091913,074565
0000000103,0000102000,084180,092133,076679,078738,093906,075869
0000000104,0000103000,081329,093201,078463,075481,094979,078053
0000000105,0000104000,078736,093392,080864,072580,095028,080905
0000000106,0000105000,076670,092680,083642,070320,094050,084143
0000000107,0000106000,075329,091144,086519,068924,092140,087449
0000000108,0000107000,074838,088928,089225,068528,089482,090502
0000000109,0000108000,075254,086243,091495,069170,086338,093005
0000000110,0000109000,076528,083367,093098,070785,083020,094708
0000000111,0000110000,078536,080578,093879,073219,079848,095446
0000000112,0000111000,081094,078132,093766,076234,077130,095149
0000000113,0000112000,083939,076283,092770,079530,075138,093845
0000000114,0000113000,086785,075220,090987,082785,074066,091662
0000000115,0000114000,089375,075031,088586,085687,074015,088810
0000000116,0000115000,091449,075736,085807,087947,074993,085572
0000000117,0000116000,092788,077274,082931,089342,076903,082268
0000000118,0000117000,093274,079495,080224,089739,079560,079214
0000000119,0000118000,092865,082175,077953,089098,082703,076712
0000000120,0000119000,091592,085049,076351,087483,086022,075009
0000000121,0000120000,089577,087845,075569,085049,089193,074270
0000000122,0000121000,087023,090288,075681,082036,091910,074567
0000000123,0000122000,084182,092133,076677,078740,093903,075870
0000000124,0000123000,081329,093203,078460,075484,094976,078053
0000000125,0000124000,078739,093393,080861,072583,095025,080905
0000000126,0000125000,076671,092682,083639,070323,094048,084142
0000000127,0000126000,075327,091148,086517,068927,092140,087446
0000000128,0000127000,074837,088931,089224,068531,089482,090499
0000000129,0000128000,075252,086245,091495,069172,086340,093001
0000000130,0000129000,076523,083371,093098,070786,083023,094704
0000000131,0000130000,078533,080580,093880,073219,079851,095443
0000000132,0000131000,081092,078132,093768,076232,077134,095147
0000000133,0000132000,083935,076284,092773,079527,075142,093844
0000000134,0000133000,086782,075220,090990,082782,074069,091661
0000000135,0000134000,089375,075028,088589,085683,074018,088811
0000000136,0000135000,091448,075733,085811,087943,074995,085575
0000000137,0000136000,092788,077271,082933,089338,076904,082271
0000000138,0000137000,093277,079490,080226,089735,079559,079218
0000000139,0000138000,092868,082170,077954,089095,082701,076716
0000000140,0000139000,091594,085047,076351,087481,086019,075013
0000000141,0000140000,089582,087842,075568,085050,089189,074274
0000000142,0000141000,087028,090286,075678,082037,091906,074570
0000000143,0000142000,084185,092134,076674,078742,093898,075872
0000000144,0000143000,081332,093205,078456,075488,094971,078054
0000000145,0000144000,078742,093393,080857,072588,095022,080903
0000000146,0000145000,076671,092686,083636,070328,094046,084139
0000000147,0000146000,075325,091153,086513,068932,092139,087442
0000000148,0000147000,074837,088934,089221,068535,089483,090494
0000000149,0000148000,075249,086249,091494,069174,086342,092996
0000000150,0000149000,076518,083376,093098,070787,083026,094699
0000000151,0000150000,078529,080582,093881,073219,079855,095439
0000000152,0000151000,081088,078133,093772,076230,077139,095143
0000000153,0000152000,083929,076285,092777,079523,075148,093842
0000000154,0000153000,086779,075218,090995,082778,074074,091661
0000000155,0000154000,089374,075024,088594,085678,074022,088812
0000000156,0000155000,091446,075730,085815,087937,074998,085578
0000000157,0000156000,092788,077267,082937,089333,076905,082275
0000000158,0000157000,093281,079484,080228,089731,079559,079224
0000000159,0000158000,092871,082166,077955,089092,082699,076722
0000000160,0000159000,091598,085044,076350,087480,086014,075019
0000000161,0000160000,089588,087838,075566,085050,089184,074279
0000000162,0000161000,087033,090284,075675,082039,091900,074574
0000000163,0000162000,084188,092135,076669,078746,093892,075874
0000000164,0000163000,081336,093206,078451,075493,094965,078054
0000000165,0000164000,078745,093396,080852,072594,095017,080902
0000000166,0000165000,076670,092691,083631,070334,094043,084136
0000000167,0000166000,075324,091159,086509,068938,092137,087437
0000000168,0000167000,074835,088939,089219,068540,089484,090488
0000000169,0000168000,075244,086255,091493,069178,086345,092990
0000000170,0000169000,076513,083381,093099,070789,083031,094693
0000000171,0000170000,078525,080584,093884,073218,079861,095433
0000000172,0000171000,081082,078135,093776,076228,077146,095139
0000000173,0000172000,083923,076286,092782,079519,075154,093839
0000000174,0000173000,086776,075215,091001,082772,074080,091661
0000000175,0000174000,089372,075020,088600,085671,074028,088814
0000000176,0000175000,091445,075727,085821,087930,075002,085581
0000000177,0000176000,092790,077261,082942,089326,076906,082281
0000000178,0000177000,093284,079477,080232,089725,079558,079230
0000000179,0000178000,092875,082161,077957,089087,082696,076729
0000000180,0000179000,091604,085039,076349,087478,086009,075026
0000000181,0000180000,089595,087833,075563,085050,089177,074286
0000000182,0000181000,087039,090282,075671,082041,091892,074579
0000000183,0000182000,084193,092136,076663,078751,093884,075877
0000000184,0000183000,081342,093207,078444,075500,094958,078055
0000000185,0000184000,078748,093400,080845,072601,095012,080900
0000000186,0000185000,076670,092698,083624,070342,094039,084131
0000000187,0000186000,075324,091165,086504,068946,092136,087431
0000000188,0000187000,074832,088945,089215,068547,089485,090481
0000000189,0000188000,075238,086263,091491,069183,086349,092981
0000000190,0000189000,076506,083387,093099,070792,083036,094685
0000000191,0000190000,078518,080588,093887,073218,079869,095426
0000000192,0000191000,081074,078138,093780,076225,077155,095133
0000000193,0000192000,083917,076287,092789,079514,075163,093836
0000000194,0000193000,086772,075212,091008,082765,074088,091660
0000000195,0000194000,089368,075016,088608,085662,074034,088816
0000000196,0000195000,091443,075721,085828,087921,075006,085586
0000000197,0000196000,092792,077253,082947,089318,076907,082288
0000000198,0000197000,093288,079469,080236,089717,079557,079239
0000000199,0000198000,092880,082154,077958,089082,082692,076739
0000000200,0000199000,091612,085032,076348,087475,086002,075035
0000000201,0000200000,089604,087828,075560,085050,089169,074294
0000000202,0000201000,087046,090281,075665,082044,091883,074585
0000000203,0000202000,084201,092136,076656,078757,093875,075881
0000000204,0000203000,081348,093209,078436,075508,094950,078056
0000000205,0000204000,078751,093405,080837,072610,095005,080898
0000000206,0000205000,076671,092705,083616,070352,094035,084126
0000000207,0000206000,075323,091172,086497,068955,092134,087423
0000000208,0000207000,074827,088954,089211,068554,089487,090471
0000000209,0000208000,075231,086272,091489,069188,086353,092971
0000000210,0000209000,076499,083393,093100,070794,083044,094675
0000000211,0000210000,078509,080593,093890,073218,079878,095417
0000000212,0000211000,081065,078142,093786,076221,077165,095126
0000000213,0000212000,083909,076286,092797,079508,075173,093832
0000000214,0000213000,086766,075209,091017,082756,074098,091659
0000000215,0000214000,089363,075012,088617,085652,074042,088819
0000000216,0000215000,091442,075713,085837,087910,075011,085592
0000000217,0000216000,092795,077243,082955,089307,076909,082296
0000000218,0000217000,093292,079460,080241,089709,079555,079249
0000000219,0000218000,092887,082145,077960,089076,082687,076750
0000000220,0000219000,091622,085023,076348,087472,085995,075046
0000000221,0000220000,089613,087822,075556,085050,089159,074303
0000000222,0000221000,087055,090278,075659,082048,091872,074593
0000000223,0000222000,084210,092135,076647,078764,093863,075885
0000000224,0000223000,081355,093212,078426,075517,094939,078056
0000000225,0000224000,078754,093412,080826,072622,094996,080895
0000000226,0000225000,076673,092713,083607,070364,094029,084120
0000000227,0000226000,075321,091182,086490,068967,092132,087414
0000000228,0000227000,074821,088966,089205,068564,089489,090460
0000000229,0000228000,075223,086282,091487,069195,086358,092959
0000000230,0000229000,076490,083401,093101,070798,083052,094663
0000000231,0000230000,078498,080600,093895,073217,079889,095406
0000000232,0000231000,081054,078145,093794,076217,077177,095118
0000000233,0000232000,083901,076286,092806,079500,075186,093827
0000000234,0000233000,086758,075206,091028,082745,074109,091658
0000000235,0000234000,089358,075006,088628,085640,074051,088822
0000000236,0000235000,091442,075704,085847,087897,075017,085599
0000000237,0000236000,092797,077232,082963,089295,076912,082306
0000000238,0000237000,093297,079449,080247,089698,079553,079261
0000000239,0000238000,092896,082134,077963,089069,082681,076763
0000000240,0000239000,091633,085013,076346,087468,085985,075059
0000000241,0000240000,089625,087816,075551,085051,089147,074315
0000000242,0000241000,087067,090274,075651,082053,091858,074601
0000000243,0000242000,084221,092134,076637,078772,093850,075890
0000000244,0000243000,081363,093215,078414,075529,094927,078057
0000000245,0000244000,078759,093419,080814,072635,094986,080892
0000000246,0000245000,076675,092722,083596,070378,094022,084113
0000000247,0000246000,075318,091193,086480,068980,092130,087403
0000000248,0000247000,074815,088978,089199,068575,089491,090447
0000000249,0000248000,075214,086294,091484,069203,086365,092945
0000000250,0000249000,076478,083411,093103,070802,083062,094649
0000000251,0000250000,078485,080608,093900,073216,079902,095394
0000000252,0000251000,081041,078149,093802,076212,077192,095109
0000000253,0000252000,083890,076285,092817,079491,075200,093822
0000000254,0000253000,086749,075202,091041,082733,074123,091657
0000000255,0000254000,089353,074998,088641,085625,074062,088826
0000000256,0000255000,091441,075693,085859,087882,075024,085607
0000000257,0000256000,092800,077219,082973,089281,076914,082318
0000000258,0000257000,093304,079436,080253,089686,079551,079275
0000000259,0000258000,092906,082121,077966,089060,082674,076778
0000000260,0000259000,091645,085002,076345,087464,085975,075074
0000000261,0000260000,089638,087808,075546,085052,089133,074328
0000000262,0000261000,087081,090270,075642,082059,091843,074611
0000000263,0000262000,084233,092134,076625,078782,093834,075896
0000000264,0000263000,081372,093220,078400,075542,094913,078058
0000000265,0000264000,078765,093427,080800,072651,094975,080887
0000000266,0000265000,076677,092733,083583,070394,094015,084104
0000000267,0000266000,075315,091207,086470,068995,092127,087391
0000000268,0000267000,074808,088993,089191,068588,089493,090432
0000000269,0000268000,075204,086307,091481,069212,086372,092928
0000000270,0000269000,076465,083423,093104,070806,083074,094633
0000000271,0000270000,078470,080617,093906,073216,079917,095380
0000000272,0000271000,081027,078154,093812,076206,077208,095098
0000000273,0000272000,083877,076285,092830,079480,075217,093816
0000000274,0000273000,086738,075198,091056,082718,074138,091656
0000000275,0000274000,089346,074989,088656,085609,074074,088830
0000000276,0000275000,091439,075680,085873,087865,075032,085616
0000000277,0000276000,092802,077205,082985,089264,076917,082331
0000000278,0000277000,093311,079420,080261,089673,079548,079292
0000000279,0000278000,092918,082105,077969,089051,082666,076796
0000000280,0000279000,091659,084989,076344,087459,085962,075091
0000000281,0000280000,089654,087799,075540,085052,089117,074343
0000000282,0000281000,087097,090264,075631,082065,091825,074623
0000000283,0000282000,084247,092134,076611,078794,093816,075903
0000000284,0000283000,081383,093225,078384,075557,094896,078059
0000000285,0000284000,078772,093437,080784,072668,094962,080883
0000000286,0000285000,076679,092746,083568,070412,094007,084094
0000000287,0000286000,075312,091223,086457,069012,092124,087376
0000000288,0000287000,074800,089010,089183,068603,089496,090414
0000000289,0000288000,075192,086323,091477,069222,086381,092910
0000000290,0000289000,076449,083438,093106,070811,083087,094614
0000000291,0000290000,078453,080628,093912,073215,079934,095364
0000000292,0000291000,081010,078159,093823,076199,077227,095086
0000000293,0000292000,083861,076286,092845,079468,075236,093809
0000000294,0000293000,086726,075193,091073,082702,074155,091655
0000000295,0000294000,089339,074979,088674,085590,074088,088835
0000000296,0000295000,091437,075666,085889,087845,075041,085627
0000000297,0000296000,092806,077188,082998,089246,076920,082347
0000000298,0000297000,093320,079402,080271,089657,079545,079311
0000000299,0000298000,092931,082088,077973,089040,082657,076816
0000000300,0000299000,091675,084975,076342,087454,085948,075111
0000000301,0000300000,089672,087788,075533,085054,089099,074360
