DIgSILENT PowerFactory,21000900,2000
6,06A,00D
1,TTPP_200000_100:Secondary Voltage A,,,V,0.010000000,-67.888596,0.000000,-86352,99998,1,1,P
2,TTPP_200000_100:Secondary Voltage B,,,V,0.010000000,-18.307413,0.000000,-92889,99998,1,1,P
3,TTPP_200000_100:Secondary Voltage C,,,V,0.10000000,-8994.619141,0.000000,79890,99998,1,1,P
4,TTCC_500_5:Secondary Current A,,,A,0.0010000000,-83.555069,0.000000,58801,99998,1,1,P
5,TTCC_500_5:Secondary Current B,,,A,0.0010000000,-84.807579,0.000000,69612,99998,1,1,P
6,TTCC_500_5:Secondary Current C,,,A,0.0010000000,-84.632156,0.000000,69252,99998,1,1,P
50
1
1000.000000,1101
30/06/2023,06:04:52.000000
30/06/2023,06:04:52.000000
ASCII
1.000000
0000000001,0000000000,061935,038207,080794,089473,089485,074037
0000000002,0000001000,036469,062535,080907,086457,092202,074335
0000000003,0000002000,007919,081124,081904,083159,094196,075640
0000000004,0000003000,-20566,091773,083687,079903,095267,077825
0000000005,0000004000,-46307,093516,086088,077001,095316,080678
0000000006,0000005000,-67070,086492,088865,074737,094340,083918
0000000007,0000006000,-80542,071212,091741,073341,092429,087224
0000000008,0000007000,-85356,048961,094447,072947,089767,090280
0000000009,0000008000,-81219,022124,096717,073588,086624,092783
0000000010,0000009000,-68542,-06558,098318,075204,083304,094487
0000000011,0000010000,-48375,-34525,099097,077641,080128,095225
0000000012,0000011000,-22749,-59016,098985,080655,077412,094928
0000000013,0000012000,005553,-77367,097989,083952,075420,093623
0000000014,0000013000,034021,-88000,096206,087212,074344,091438
0000000015,0000014000,060025,-89998,093805,090115,074295,088585
0000000016,0000015000,080670,-82865,091027,092375,075275,085345
0000000017,0000016000,094032,-67458,088151,093771,077185,082038
0000000018,0000017000,098988,-45354,085445,094167,079844,078983
0000000019,0000018000,094815,-18490,083176,093524,082991,076480
0000000020,0000019000,082011,010319,081575,091909,086310,074776
0000000021,0000020000,061979,038160,080794,089475,089482,074038
0000000022,0000021000,036451,062554,080907,086457,092203,074335
0000000023,0000022000,007959,081093,081903,083158,094197,075640
0000000024,0000023000,-20523,091745,083686,079902,095268,077825
0000000025,0000024000,-46359,093567,086088,076998,095318,080679
0000000026,0000025000,-67110,086538,088866,074737,094340,083918
0000000027,0000026000,-80529,071196,091741,073343,092427,087225
0000000028,0000027000,-85304,048917,094447,072946,089769,090280
0000000029,0000028000,-81216,022129,096717,073586,086625,092783
0000000030,0000029000,-68562,-06530,098318,075204,083304,094487
0000000031,0000030000,-48370,-34526,099098,077640,080129,095226
0000000032,0000031000,-22788,-58983,098986,080655,077412,094928
0000000033,0000032000,005554,-77366,097989,083953,075419,093623
0000000034,0000033000,034086,-88062,096206,087211,074345,091438
0000000035,0000034000,060018,-89986,093805,090113,074297,088585
0000000036,0000035000,080631,-82827,091028,092374,075275,085346
0000000037,0000036000,094038,-67464,088151,093771,077185,082039
0000000038,0000037000,098986,-45357,085445,094167,079844,078984
0000000039,0000038000,094819,-18495,083176,093524,082991,076480
0000000040,0000039000,082044,010293,081574,091909,086310,074776
0000000041,0000040000,061990,038150,080794,089473,089483,074038
0000000042,0000041000,036415,062592,080907,086456,092203,074336
0000000043,0000042000,007942,081108,081903,083159,094195,075640
0000000044,0000043000,-20486,091710,083686,079902,095267,077825
0000000045,0000044000,-46352,093562,086087,076998,095318,080679
0000000046,0000045000,-67121,086555,088865,074737,094340,083918
0000000047,0000046000,-80513,071184,091741,073342,092428,087224
0000000048,0000047000,-85328,048937,094447,072946,089769,090280
0000000049,0000048000,-81248,022159,096717,073587,086625,092783
0000000050,0000049000,-68533,-06562,098318,075204,083304,094487
0000000051,0000050000,-48352,-34545,099098,077639,080131,095225
0000000052,0000051000,-22819,-58956,098986,080654,077413,094928
0000000053,0000052000,005543,-77357,097990,083952,075419,093623
0000000054,0000053000,034090,-88075,096206,087211,074346,091439
0000000055,0000054000,060002,-89979,093806,090112,074297,088585
0000000056,0000055000,080634,-82833,091028,092373,075275,085346
0000000057,0000056000,094069,-67498,088151,093770,077185,082040
0000000058,0000057000,098977,-45351,085446,094165,079845,078985
0000000059,0000058000,094791,-18470,083176,093524,082990,076481
0000000060,0000059000,082066,010271,081574,091909,086309,074777
0000000061,0000060000,062009,038131,080794,089473,089483,074039
0000000062,0000061000,036409,062604,080907,086456,092202,074336
0000000063,0000062000,007960,081098,081902,083160,094195,075640
0000000064,0000063000,-20475,091705,083685,079902,095267,077825
0000000065,0000064000,-46377,093593,086087,076999,095318,080678
0000000066,0000065000,-67119,086561,088864,074738,094339,083917
0000000067,0000066000,-80486,071164,091740,073343,092428,087224
0000000068,0000067000,-85337,048951,094447,072946,089770,090279
0000000069,0000068000,-81269,022184,096716,073587,086625,092782
0000000070,0000069000,-68530,-06565,098318,075204,083305,094486
0000000071,0000070000,-48365,-34537,099099,077639,080132,095225
0000000072,0000071000,-22842,-58939,098986,080654,077414,094927
0000000073,0000072000,005555,-77376,097990,083952,075420,093623
0000000074,0000073000,034095,-88089,096207,087209,074347,091439
0000000075,0000074000,059972,-89960,093807,090111,074298,088586
0000000076,0000075000,080631,-82839,091029,092372,075276,085347
0000000077,0000076000,094087,-67526,088152,093769,077186,082041
0000000078,0000077000,098973,-45353,085446,094164,079845,078986
0000000079,0000078000,094797,-18478,083176,093523,082990,076482
0000000080,0000079000,082094,010245,081574,091908,086308,074779
0000000081,0000080000,062010,038133,080794,089473,089482,074040
0000000082,0000081000,036403,062617,080906,086457,092201,074337
0000000083,0000082000,007989,081081,081901,083161,094193,075641
0000000084,0000083000,-20456,091699,083684,079903,095266,077825
0000000085,0000084000,-46386,093616,086085,077000,095317,080678
0000000086,0000085000,-67113,086568,088863,074740,094338,083917
0000000087,0000086000,-80480,071168,091739,073344,092428,087223
0000000088,0000087000,-85360,048980,094446,072947,089771,090277
0000000089,0000088000,-81277,022198,096716,073588,086626,092781
0000000090,0000089000,-68524,-06572,098318,075204,083306,094484
0000000091,0000090000,-48389,-34519,099099,077638,080134,095223
0000000092,0000091000,-22871,-58919,098987,080653,077416,094926
0000000093,0000092000,005553,-77388,097992,083950,075422,093622
0000000094,0000093000,034084,-88095,096209,087207,074349,091439
0000000095,0000094000,059953,-89958,093808,090109,074300,088586
0000000096,0000095000,080641,-82863,091030,092370,075277,085348
0000000097,0000096000,094096,-67549,088154,093766,077186,082042
0000000098,0000097000,098963,-45354,085447,094162,079845,078988
0000000099,0000098000,094812,-18496,083177,093522,082988,076485
0000000100,0000099000,082126,010214,081574,091907,086307,074781
0000000101,0000100000,062020,038129,080793,089472,089480,074042
0000000102,0000101000,036417,062617,080905,086458,092198,074339
0000000103,0000102000,008019,081069,081899,083162,094191,075642
0000000104,0000103000,-20448,091709,083682,079905,095264,077826
0000000105,0000104000,-46388,093639,086083,077002,095315,080678
0000000106,0000105000,-67097,086572,088861,074742,094337,083915
0000000107,0000106000,-80479,071182,091738,073346,092428,087221
0000000108,0000107000,-85385,049017,094445,072949,089771,090275
0000000109,0000108000,-81290,022217,096715,073590,086627,092778
0000000110,0000109000,-68536,-06563,098318,075205,083308,094482
0000000111,0000110000,-48423,-34495,099100,077638,080136,095221
0000000112,0000111000,-22895,-58910,098989,080652,077419,094924
0000000113,0000112000,005545,-77400,097994,083948,075425,093621
0000000114,0000113000,034059,-88095,096212,087204,074352,091438
0000000115,0000114000,059933,-89962,093811,090106,074302,088587
0000000116,0000115000,080649,-82895,091033,092367,075278,085350
0000000117,0000116000,094103,-67577,088156,093763,077187,082045
0000000118,0000117000,098965,-45370,085449,094160,079844,078991
0000000119,0000118000,094839,-18528,083177,093520,082987,076488
0000000120,0000119000,082156,010185,081574,091906,086305,074784
0000000121,0000120000,062036,038124,080792,089472,089477,074045
0000000122,0000121000,036447,062606,080903,086459,092195,074341
0000000123,0000122000,008056,081056,081897,083164,094187,075643
0000000124,0000123000,-20436,091725,083679,079908,095261,077826
0000000125,0000124000,-46381,093663,086080,077006,095312,080677
0000000126,0000125000,-67083,086586,088858,074746,094335,083913
0000000127,0000126000,-80488,071214,091735,073350,092427,087218
0000000128,0000127000,-85409,049058,094443,072952,089771,090271
0000000129,0000128000,-81304,022239,096715,073592,086629,092774
0000000130,0000129000,-68562,-06540,098318,075206,083311,094478
0000000131,0000130000,-48469,-34463,099102,077637,080140,095217
0000000132,0000131000,-22925,-58901,098991,080651,077422,094922
0000000133,0000132000,005523,-77409,097997,083946,075429,093620
0000000134,0000133000,034027,-88098,096215,087201,074356,091438
0000000135,0000134000,059916,-89980,093814,090102,074305,088588
0000000136,0000135000,080654,-82933,091036,092363,075280,085352
0000000137,0000136000,094104,-67607,088159,093759,077188,082048
0000000138,0000137000,098976,-45400,085451,094156,079844,078995
0000000139,0000138000,094876,-18573,083178,093518,082985,076492
0000000140,0000139000,082192,010152,081574,091904,086302,074789
0000000141,0000140000,062065,038110,080790,089472,089473,074049
0000000142,0000141000,036491,062589,080900,086461,092190,074344
0000000143,0000142000,008096,081050,081894,083167,094183,075645
0000000144,0000143000,-20417,091746,083676,079911,095257,077826
0000000145,0000144000,-46361,093686,086076,077011,095309,080676
0000000146,0000145000,-67069,086611,088854,074751,094333,083911
0000000147,0000146000,-80503,071260,091732,073354,092427,087214
0000000148,0000147000,-85434,049106,094441,072956,089772,090267
0000000149,0000148000,-81327,022272,096714,073595,086631,092769
0000000150,0000149000,-68604,-06503,098319,075207,083315,094473
0000000151,0000150000,-48520,-34428,099103,077637,080145,095213
0000000152,0000151000,-22962,-58893,098994,080649,077428,094918
0000000153,0000152000,005485,-77411,098001,083942,075435,093618
0000000154,0000153000,033986,-88103,096220,087196,074361,091438
0000000155,0000154000,059899,-90009,093819,090097,074309,088589
0000000156,0000155000,080656,-82979,091040,092357,075283,085355
0000000157,0000156000,094107,-67647,088162,093753,077189,082053
0000000158,0000157000,098999,-45446,085453,094152,079843,079000
0000000159,0000158000,094920,-18629,083179,093514,082982,076498
0000000160,0000159000,082234,010114,081573,091902,086298,074794
0000000161,0000160000,062111,038085,080788,089473,089468,074054
0000000162,0000161000,036550,062565,080896,086463,092184,074348
0000000163,0000162000,008142,081048,081889,083170,094177,075648
0000000164,0000163000,-20388,091770,083670,079917,095251,077827
0000000165,0000164000,-46335,093714,086071,077017,095304,080674
0000000166,0000165000,-67058,086650,088849,074757,094330,083908
0000000167,0000166000,-80521,071319,091728,073360,092425,087209
0000000168,0000167000,-85461,049163,094438,072961,089773,090261
0000000169,0000168000,-81362,022319,096712,073599,086634,092762
0000000170,0000169000,-68662,-06451,098320,075209,083320,094466
0000000171,0000170000,-48582,-34389,099106,077637,080151,095207
0000000172,0000171000,-23013,-58881,098998,080647,077434,094914
0000000173,0000172000,005432,-77411,098006,083938,075442,093615
0000000174,0000173000,033939,-88115,096226,087190,074367,091437
0000000175,0000174000,059879,-90049,093825,090090,074314,088591
0000000176,0000175000,080651,-83032,091046,092350,075286,085359
0000000177,0000176000,094113,-67699,088167,093746,077191,082058
0000000178,0000177000,099032,-45511,085456,094146,079842,079007
0000000179,0000178000,094973,-18696,083181,093510,082979,076506
0000000180,0000179000,082288,010066,081573,091900,086293,074802
0000000181,0000180000,062175,038048,080786,089473,089461,074061
0000000182,0000181000,036621,062537,080892,086465,092176,074353
0000000183,0000182000,008198,081049,081883,083175,094169,075651
0000000184,0000183000,-20347,091795,083664,079923,095244,077827
0000000185,0000184000,-46300,093748,086064,077025,095298,080672
0000000186,0000185000,-67050,086704,088843,074765,094326,083903
0000000187,0000186000,-80541,071392,091723,073368,092424,087203
0000000188,0000187000,-85492,049231,094434,072968,089774,090253
0000000189,0000188000,-81411,022383,096711,073603,086637,092754
0000000190,0000189000,-68734,-06387,098320,075211,083326,094458
0000000191,0000190000,-48655,-34345,099108,077637,080158,095200
0000000192,0000191000,-23080,-58862,099003,080644,077443,094908
0000000193,0000192000,005364,-77407,098012,083932,075450,093612
0000000194,0000193000,033885,-88134,096233,087183,074375,091436
0000000195,0000194000,059852,-90098,093833,090081,074320,088593
0000000196,0000195000,080641,-83094,091053,092341,075291,085363
0000000197,0000196000,094124,-67769,088173,093738,077192,082065
0000000198,0000197000,099075,-45594,085460,094139,079840,079016
0000000199,0000198000,095033,-18774,083182,093505,082975,076515
0000000200,0000199000,082356,010006,081572,091898,086286,074811
0000000201,0000200000,062258,037998,080782,089473,089453,074069
0000000202,0000201000,036706,062507,080887,086468,092167,074359
0000000203,0000202000,008266,081053,081876,083181,094160,075654
0000000204,0000203000,-20291,091822,083655,079931,095235,077828
0000000205,0000204000,-46260,093792,086055,077034,095291,080670
0000000206,0000205000,-67042,086774,088835,074775,094322,083898
0000000207,0000206000,-80562,071479,091716,073377,092422,087195
0000000208,0000207000,-85531,049314,094430,072976,089775,090244
0000000209,0000208000,-81476,022466,096709,073609,086642,092744
0000000210,0000209000,-68819,-06310,098321,075214,083333,094448
0000000211,0000210000,-48742,-34293,099112,077637,080167,095191
0000000212,0000211000,-23166,-58837,099009,080640,077453,094901
0000000213,0000212000,005280,-77402,098020,083926,075461,093608
0000000214,0000213000,033822,-88161,096242,087174,074385,091436
0000000215,0000214000,059818,-90157,093842,090071,074328,088596
0000000216,0000215000,080628,-83167,091062,092330,075296,085369
0000000217,0000216000,094141,-67856,088180,093727,077194,082073
0000000218,0000217000,099126,-45694,085465,094130,079839,079026
0000000219,0000218000,095104,-18866,083185,093498,082971,076526
0000000220,0000219000,082442,009930,081571,091894,086279,074822
0000000221,0000220000,062359,037937,080778,089474,089443,074078
0000000222,0000221000,036805,062473,080880,086472,092156,074367
0000000223,0000222000,008349,081057,081868,083188,094148,075659
0000000224,0000223000,-20222,091852,083645,079941,095225,077829
0000000225,0000224000,-46214,093847,086045,077045,095283,080667
0000000226,0000225000,-67034,086860,088826,074787,094316,083892
0000000227,0000226000,-80584,071579,091709,073388,092420,087186
0000000228,0000227000,-85578,049416,094424,072985,089777,090232
0000000229,0000228000,-81555,022567,096707,073615,086647,092732
0000000230,0000229000,-68920,-06220,098322,075217,083341,094436
0000000231,0000230000,-48846,-34232,099116,077636,080178,095181
0000000232,0000231000,-23272,-58803,099016,080636,077466,094894
0000000233,0000232000,005181,-77398,098030,083918,075473,093603
0000000234,0000233000,033749,-88196,096253,087164,074396,091435
0000000235,0000234000,059773,-90224,093853,090059,074337,088599
0000000236,0000235000,080612,-83254,091072,092317,075302,085376
0000000237,0000236000,094163,-67963,088188,093715,077196,082083
0000000238,0000237000,099185,-45812,085471,094120,079837,079038
0000000239,0000238000,095187,-18974,083187,093491,082965,076539
0000000240,0000239000,082546,009838,081570,091891,086269,074835
0000000241,0000240000,062479,037863,080774,089474,089431,074090
0000000242,0000241000,036920,062434,080872,086477,092143,074375
0000000243,0000242000,008449,081059,081857,083196,094135,075664
0000000244,0000243000,-20138,091887,083633,079952,095213,077830
0000000245,0000244000,-46161,093915,086033,077058,095273,080664
0000000246,0000245000,-67024,086961,088814,074800,094310,083884
0000000247,0000246000,-80608,071696,091699,073402,092418,087175
0000000248,0000247000,-85636,049537,094418,072996,089779,090219
0000000249,0000248000,-81650,022689,096704,073623,086654,092718
0000000250,0000249000,-69036,-06116,098323,075221,083351,094422
0000000251,0000250000,-48969,-34158,099121,077636,080191,095168
0000000252,0000251000,-23399,-58761,099024,080631,077480,094884
0000000253,0000252000,005066,-77395,098041,083909,075488,093598
0000000254,0000253000,033663,-88238,096265,087151,074409,091434
0000000255,0000254000,059718,-90301,093866,090044,074348,088603
0000000256,0000255000,080594,-83357,091084,092302,075309,085384
0000000257,0000256000,094191,-68091,088198,093701,077199,082095
0000000258,0000257000,099253,-45949,085478,094108,079835,079052
0000000259,0000258000,095283,-19101,083190,093482,082958,076555
0000000260,0000259000,082670,009728,081568,091887,086258,074850
0000000261,0000260000,062619,037778,080768,089475,089417,074103
0000000262,0000261000,037054,062391,080863,086482,092127,074385
0000000263,0000262000,008569,081060,081845,083206,094119,075669
0000000264,0000263000,-20039,091926,083620,079966,095198,077831
0000000265,0000264000,-46102,093996,086019,077074,095261,080660
0000000266,0000265000,-67010,087078,088801,074817,094302,083876
0000000267,0000266000,-80635,071832,091688,073417,092415,087163
0000000268,0000267000,-85706,049681,094410,073009,089781,090204
0000000269,0000268000,-81759,022831,096701,073632,086661,092701
0000000270,0000269000,-69169,-05996,098325,075226,083363,094406
0000000271,0000270000,-49115,-34072,099127,077635,080206,095154
0000000272,0000271000,-23547,-58711,099034,080625,077497,094873
0000000273,0000272000,004935,-77392,098054,083899,075505,093592
0000000274,0000273000,033563,-88285,096280,087137,074425,091433
0000000275,0000274000,059653,-90388,093881,090028,074360,088607
0000000276,0000275000,080574,-83478,091098,092285,075317,085393
0000000277,0000276000,094224,-68240,088210,093685,077201,082109
0000000278,0000277000,099329,-46106,085486,094094,079832,079069
0000000279,0000278000,095396,-19248,083194,093473,082950,076572
0000000280,0000279000,082815,009598,081567,091882,086246,074867
0000000281,0000280000,062779,037680,080762,089476,089401,074118
0000000282,0000281000,037209,062341,080853,086489,092109,074397
0000000283,0000282000,008709,081058,081831,083217,094101,075676
0000000284,0000283000,-19926,091972,083604,079981,095182,077832
0000000285,0000284000,-46033,094091,086003,077092,095248,080655
0000000286,0000285000,-66991,087211,088786,074835,094294,083866
0000000287,0000286000,-80665,071987,091676,073434,092412,087148
0000000288,0000287000,-85786,049848,094402,073024,089784,090187
0000000289,0000288000,-81883,022993,096697,073643,086670,092682
0000000290,0000289000,-69322,-05859,098326,075231,083376,094388
0000000291,0000290000,-49283,-33970,099134,077634,080223,095138
0000000292,0000291000,-23717,-58653,099045,080618,077516,094861
0000000293,0000292000,004784,-77389,098069,083886,075524,093585
0000000294,0000293000,033445,-88338,096297,087121,074442,091432
0000000295,0000294000,059577,-90486,093899,090009,074374,088612
0000000296,0000295000,080552,-83617,091115,092265,075326,085404
0000000297,0000296000,094260,-68410,088223,093666,077205,082124
0000000298,0000297000,099414,-46285,085495,094078,079829,079087
0000000299,0000298000,095525,-19418,083198,093462,082941,076592
0000000300,0000299000,082980,009448,081565,091877,086232,074886
0000000301,0000300000,062961,037569,080755,089477,089383,074135
