DIgSILENT PowerFactory,21000900,2000
6,06A,00D
1,TTPP_200000_100:Secondary Voltage A,,,V,0.10000000,-8358.860352,0.000000,67028,99998,1,1,P
2,TTPP_200000_100:Secondary Voltage B,,,V,0.10000000,-7994.211426,0.000000,62857,99998,1,1,P
3,TTPP_200000_100:Secondary Voltage C,,,V,0.10000000,-8315.440430,0.000000,65340,99998,1,1,P
4,TTCC_500_5:Secondary Current A,,,A,0.0010000000,-87.540054,0.000000,69779,99998,1,1,P
5,TTCC_500_5:Secondary Current B,,,A,0.0010000000,-85.170525,0.000000,70241,99998,1,1,P
6,TTCC_500_5:Secondary Current C,,,A,0.0010000000,-84.696396,0.000000,69312,99998,1,1,P
50
1
1000.000000,1101
30/06/2023,06:06:58.000000
30/06/2023,06:06:58.000000
ASCII
1.000000
0000000001,0000000000,089101,083582,074002,093456,089850,074101
0000000002,0000001000,086552,086016,074116,090441,092566,074400
0000000003,0000002000,083701,087871,075114,087141,094561,075705
0000000004,0000003000,080856,088933,076897,083886,095630,077891
0000000005,0000004000,078272,089115,079299,080981,095680,080745
0000000006,0000005000,076199,088409,082077,078721,094701,083985
0000000007,0000006000,074853,086878,084952,077327,092789,087291
0000000008,0000007000,074380,084648,087658,076932,090129,090346
0000000009,0000008000,074788,081969,089927,077573,086985,092849
0000000010,0000009000,076056,079103,091528,079191,083664,094552
0000000011,0000010000,078075,076304,092306,081628,080489,095290
0000000012,0000011000,080637,073855,092193,084642,077773,094991
0000000013,0000012000,083465,072024,091196,087941,075780,093686
0000000014,0000013000,086319,070953,089411,091200,074707,091500
0000000015,0000014000,088916,070759,087010,094102,074659,088646
0000000016,0000015000,090976,071477,084232,096360,075640,085407
0000000017,0000016000,092311,073018,081356,097758,077549,082100
0000000018,0000017000,092810,075225,078651,098152,080210,079045
0000000019,0000018000,092391,077912,076382,097509,083356,076542
0000000020,0000019000,091109,080794,074782,095892,086676,074839
0000000021,0000020000,089106,083576,074002,093458,089847,074102
0000000022,0000021000,086552,086017,074116,090438,092568,074400
0000000023,0000022000,083700,087873,075113,087141,094560,075706
0000000024,0000023000,080856,088933,076897,083885,095631,077891
0000000025,0000024000,078274,089113,079299,080982,095680,080745
0000000026,0000025000,076196,088412,082076,078720,094702,083985
0000000027,0000026000,074856,086876,084952,077327,092788,087291
0000000028,0000027000,074378,084648,087658,076931,090130,090346
0000000029,0000028000,074788,081970,089927,077573,086985,092849
0000000030,0000029000,076057,079102,091527,079190,083664,094552
0000000031,0000030000,078077,076302,092307,081627,080490,095290
0000000032,0000031000,080632,073860,092193,084642,077773,094992
0000000033,0000032000,083468,072022,091196,087941,075780,093686
0000000034,0000033000,086321,070952,089412,091199,074707,091501
0000000035,0000034000,088913,070761,087011,094100,074660,088647
0000000036,0000035000,090974,071478,084232,096361,075639,085407
0000000037,0000036000,092317,073012,081356,097757,077550,082101
0000000038,0000037000,092807,075227,078651,098151,080210,079046
0000000039,0000038000,092388,077915,076382,097508,083356,076543
0000000040,0000039000,091114,080790,074781,095892,086675,074840
0000000041,0000040000,089108,083575,074002,093456,089849,074102
0000000042,0000041000,086546,086023,074116,090439,092568,074400
0000000043,0000042000,083702,087870,075113,087142,094559,075706
0000000044,0000043000,080860,088928,076897,083884,095631,077891
0000000045,0000044000,078269,089118,079299,080981,095681,080745
0000000046,0000045000,076195,088414,082076,078721,094701,083985
0000000047,0000046000,074862,086871,084952,077327,092789,087291
0000000048,0000047000,074377,084650,087658,076930,090131,090346
0000000049,0000048000,074783,081975,089927,077573,086985,092849
0000000050,0000049000,076060,079098,091527,079191,083664,094552
0000000051,0000050000,078078,076301,092307,081626,080492,095290
0000000052,0000051000,080628,073864,092194,084642,077774,094991
0000000053,0000052000,083469,072020,091196,087941,075780,093686
0000000054,0000053000,086324,070948,089412,091198,074708,091501
0000000055,0000054000,088909,070764,087011,094099,074661,088647
0000000056,0000055000,090974,071478,084233,096360,075639,085408
0000000057,0000056000,092320,073008,081357,097756,077550,082101
0000000058,0000057000,092806,075227,078651,098150,080210,079047
0000000059,0000058000,092386,077917,076382,097508,083356,076543
0000000060,0000059000,091117,080786,074782,095892,086674,074840
0000000061,0000060000,089108,083575,074002,093455,089849,074103
0000000062,0000061000,086545,086025,074115,090439,092567,074401
0000000063,0000062000,083704,087869,075112,087142,094558,075706
0000000064,0000063000,080861,088928,076896,083885,095631,077891
0000000065,0000064000,078267,089121,079298,080981,095681,080745
0000000066,0000065000,076197,088413,082075,078722,094701,083984
0000000067,0000066000,074862,086871,084952,077327,092789,087291
0000000068,0000067000,074374,084654,087657,076931,090131,090345
0000000069,0000068000,074783,081975,089926,077573,086985,092848
0000000070,0000069000,076062,079096,091527,079191,083665,094551
0000000071,0000070000,078074,076304,092307,081625,080493,095289
0000000072,0000071000,080626,073865,092194,084641,077775,094991
0000000073,0000072000,083471,072018,091197,087940,075782,093686
0000000074,0000073000,086322,070949,089413,091196,074710,091501
0000000075,0000074000,088907,070766,087012,094098,074661,088647
0000000076,0000075000,090977,071475,084234,096359,075639,085408
0000000077,0000076000,092321,073007,081358,097754,077551,082102
0000000078,0000077000,092804,075230,078652,098149,080210,079048
0000000079,0000078000,092389,077914,076382,097508,083354,076545
0000000080,0000079000,091120,080783,074782,095891,086674,074842
0000000081,0000080000,089106,083577,074002,093455,089848,074104
0000000082,0000081000,086546,086025,074114,090440,092565,074402
0000000083,0000082000,083709,087865,075111,087143,094557,075707
0000000084,0000083000,080860,088930,076895,083885,095630,077892
0000000085,0000084000,078266,089123,079296,080983,095679,080745
0000000086,0000085000,076199,088412,082074,078724,094700,083984
0000000087,0000086000,074862,086872,084951,077328,092790,087289
0000000088,0000087000,074370,084658,087657,076932,090131,090344
0000000089,0000088000,074784,081975,089926,077575,086986,092847
0000000090,0000089000,076062,079096,091527,079190,083667,094550
0000000091,0000090000,078070,076307,092308,081625,080495,095288
0000000092,0000091000,080625,073866,092195,084641,077776,094990
0000000093,0000092000,083471,072015,091198,087938,075784,093685
0000000094,0000093000,086319,070950,089415,091194,074712,091501
0000000095,0000094000,088905,070766,087013,094096,074662,088648
0000000096,0000095000,090978,071471,084235,096357,075640,085410
0000000097,0000096000,092320,073006,081359,097751,077552,082104
0000000098,0000097000,092803,075229,078653,098147,080210,079050
0000000099,0000098000,092392,077911,076383,097506,083353,076547
0000000100,0000099000,091122,080782,074782,095890,086673,074844
0000000101,0000100000,089106,083578,074001,093455,089846,074106
0000000102,0000101000,086549,086023,074113,090441,092563,074404
0000000103,0000102000,083711,087864,075110,087144,094555,075708
0000000104,0000103000,080860,088933,076893,083887,095628,077892
0000000105,0000104000,078267,089124,079294,080986,095677,080744
0000000106,0000105000,076201,088412,082072,078726,094699,083982
0000000107,0000106000,074860,086876,084949,077330,092789,087287
0000000108,0000107000,074369,084661,087655,076934,090131,090341
0000000109,0000108000,074784,081975,089925,077576,086987,092844
0000000110,0000109000,076059,079099,091528,079191,083669,094547
0000000111,0000110000,078067,076310,092309,081625,080497,095285
0000000112,0000111000,080625,073864,092196,084640,077779,094988
0000000113,0000112000,083469,072015,091201,087936,075787,093684
0000000114,0000113000,086316,070952,089417,091192,074715,091501
0000000115,0000114000,088906,070763,087016,094094,074664,088649
0000000116,0000115000,090979,071468,084238,096354,075642,085411
0000000117,0000116000,092319,073005,081361,097748,077552,082106
0000000118,0000117000,092805,075227,078654,098145,080209,079053
0000000119,0000118000,092396,077906,076383,097504,083352,076550
0000000120,0000119000,091123,080781,074781,095889,086671,074847
0000000121,0000120000,089108,083577,074000,093455,089843,074109
0000000122,0000121000,086554,086020,074111,090442,092559,074406
0000000123,0000122000,083713,087865,075107,087146,094552,075709
0000000124,0000123000,080860,088935,076890,083890,095625,077892
0000000125,0000124000,078270,089124,079291,080989,095674,080743
0000000126,0000125000,076202,088414,082069,078729,094698,083980
0000000127,0000126000,074858,086881,084947,077333,092789,087285
0000000128,0000127000,074368,084663,087653,076937,090132,090338
0000000129,0000128000,074783,081977,089925,077578,086989,092840
0000000130,0000129000,076054,079103,091528,079192,083672,094543
0000000131,0000130000,078063,076312,092310,081625,080500,095282
0000000132,0000131000,080623,073864,092199,084639,077783,094985
0000000133,0000132000,083465,072016,091204,087933,075791,093683
0000000134,0000133000,086313,070952,089421,091188,074718,091500
0000000135,0000134000,088906,070760,087019,094090,074667,088650
0000000136,0000135000,090978,071465,084241,096349,075644,085414
0000000137,0000136000,092318,073003,081364,097744,077553,082110
0000000138,0000137000,092808,075222,078656,098142,080208,079057
0000000139,0000138000,092399,077902,076384,097502,083351,076555
0000000140,0000139000,091125,080779,074781,095887,086668,074852
0000000141,0000140000,089113,083574,073998,093456,089838,074113
0000000142,0000141000,086559,086018,074109,090443,092555,074409
0000000143,0000142000,083715,087866,075104,087148,094548,075711
0000000144,0000143000,080863,088937,076886,083894,095620,077892
0000000145,0000144000,078273,089125,079287,080994,095671,080742
0000000146,0000145000,076202,088418,082066,078734,094695,083978
0000000147,0000146000,074856,086885,084943,077338,092788,087281
0000000148,0000147000,074367,084666,087651,076941,090132,090333
0000000149,0000148000,074780,081981,089924,077580,086991,092835
0000000150,0000149000,076049,079108,091528,079193,083676,094538
0000000151,0000150000,078060,076314,092311,081625,080505,095277
0000000152,0000151000,080619,073865,092202,084637,077789,094982
0000000153,0000152000,083460,072018,091208,087930,075797,093681
0000000154,0000153000,086310,070950,089425,091184,074723,091500
0000000155,0000154000,088905,070756,087024,094084,074672,088651
0000000156,0000155000,090977,071462,084246,096343,075647,085416
0000000157,0000156000,092319,072999,081367,097739,077554,082114
0000000158,0000157000,092811,075215,078659,098137,080208,079062
0000000159,0000158000,092402,077898,076386,097498,083348,076561
0000000160,0000159000,091129,080776,074780,095886,086664,074858
0000000161,0000160000,089119,083570,073996,093456,089833,074118
0000000162,0000161000,086564,086016,074105,090445,092549,074413
0000000163,0000162000,083719,087867,075099,087152,094541,075713
0000000164,0000163000,080867,088937,076881,083899,095615,077893
0000000165,0000164000,078276,089128,079282,081000,095667,080741
0000000166,0000165000,076201,088423,082061,078740,094692,083974
0000000167,0000166000,074855,086891,084939,077345,092786,087276
0000000168,0000167000,074366,084671,087648,076946,090133,090327
0000000169,0000168000,074775,081987,089923,077584,086994,092828
0000000170,0000169000,076043,079113,091529,079195,083680,094532
0000000171,0000170000,078055,076316,092314,081625,080511,095272
0000000172,0000171000,080613,073867,092206,084634,077796,094977
0000000173,0000172000,083454,072019,091213,087925,075804,093678
0000000174,0000173000,086307,070947,089431,091178,074729,091499
0000000175,0000174000,088902,070752,087030,094077,074677,088653
0000000176,0000175000,090975,071459,084251,096336,075651,085420
0000000177,0000176000,092321,072993,081372,097732,077555,082120
0000000178,0000177000,092815,075208,078662,098131,080207,079069
0000000179,0000178000,092406,077893,076387,097494,083345,076568
0000000180,0000179000,091135,080770,074780,095884,086658,074865
0000000181,0000180000,089126,083565,073993,093456,089826,074124
0000000182,0000181000,086570,086014,074101,090447,092542,074418
0000000183,0000182000,083724,087868,075093,087157,094534,075716
0000000184,0000183000,080873,088939,076874,083906,095607,077894
0000000185,0000184000,078279,089132,079275,081007,095661,080739
0000000186,0000185000,076201,088430,082054,078748,094689,083970
0000000187,0000186000,074855,086897,084934,077352,092785,087270
0000000188,0000187000,074362,084678,087645,076953,090135,090320
0000000189,0000188000,074769,081995,089921,077589,086998,092820
0000000190,0000189000,076037,079119,091529,079198,083686,094523
0000000191,0000190000,078048,076320,092317,081624,080518,095265
0000000192,0000191000,080605,073870,092211,084631,077804,094972
0000000193,0000192000,083447,072019,091219,087920,075812,093675
0000000194,0000193000,086302,070944,089439,091171,074737,091499
0000000195,0000194000,088898,070748,087038,094068,074684,088655
0000000196,0000195000,090974,071453,084258,096327,075655,085425
0000000197,0000196000,092323,072984,081378,097724,077557,082127
0000000198,0000197000,092819,075201,078666,098124,080206,079078
0000000199,0000198000,092411,077886,076389,097489,083341,076577
0000000200,0000199000,091143,080763,074779,095881,086652,074874
0000000201,0000200000,089135,083560,073990,093456,089818,074132
0000000202,0000201000,086577,086012,074096,090451,092532,074424
0000000203,0000202000,083732,087867,075086,087163,094524,075720
0000000204,0000203000,080879,088940,076866,083914,095599,077894
0000000205,0000204000,078281,089137,079266,081017,095654,080737
0000000206,0000205000,076202,088437,082046,078758,094684,083965
0000000207,0000206000,074854,086904,084927,077362,092783,087262
0000000208,0000207000,074358,084687,087641,076961,090136,090310
0000000209,0000208000,074762,082004,089919,077594,087002,092810
0000000210,0000209000,076030,079125,091530,079201,083693,094514
0000000211,0000210000,078039,076325,092320,081624,080528,095256
0000000212,0000211000,080595,073874,092217,084628,077814,094965
0000000213,0000212000,083440,072018,091227,087914,075822,093671
0000000214,0000213000,086296,070941,089448,091162,074747,091498
0000000215,0000214000,088894,070744,087047,094058,074691,088658
0000000216,0000215000,090973,071445,084267,096316,075660,085431
0000000217,0000216000,092326,072975,081385,097713,077559,082135
0000000218,0000217000,092823,075191,078671,098115,080204,079088
0000000219,0000218000,092418,077877,076391,097482,083336,076589
0000000220,0000219000,091152,080755,074778,095878,086644,074885
0000000221,0000220000,089144,083554,073986,093457,089808,074142
0000000222,0000221000,086586,086010,074089,090455,092521,074431
0000000223,0000222000,083741,087867,075077,087170,094512,075724
0000000224,0000223000,080886,088943,076856,083923,095588,077895
0000000225,0000224000,078285,089144,079256,081028,095646,080734
0000000226,0000225000,076204,088445,082037,078770,094678,083959
0000000227,0000226000,074852,086914,084920,077373,092781,087253
0000000228,0000227000,074352,084698,087635,076970,090138,090299
0000000229,0000228000,074754,082014,089917,077601,087008,092798
0000000230,0000229000,076020,079133,091531,079204,083701,094502
0000000231,0000230000,078028,076332,092325,081623,080539,095245
0000000232,0000231000,080584,073878,092224,084623,077827,094957
0000000233,0000232000,083431,072018,091236,087906,075835,093666
0000000234,0000233000,086289,070938,089459,091151,074759,091497
0000000235,0000234000,088889,070738,087058,094046,074700,088661
0000000236,0000235000,090972,071436,084277,096304,075666,085438
0000000237,0000236000,092328,072964,081394,097701,077561,082145
0000000238,0000237000,092828,075181,078677,098105,080202,079100
0000000239,0000238000,092426,077866,076393,097475,083330,076602
0000000240,0000239000,091163,080745,074777,095874,086635,074898
0000000241,0000240000,089155,083548,073982,093457,089796,074153
0000000242,0000241000,086598,086006,074081,090459,092508,074440
0000000243,0000242000,083752,087866,075067,087179,094499,075729
0000000244,0000243000,080894,088947,076844,083935,095576,077896
0000000245,0000244000,078290,089151,079244,081041,095636,080730
0000000246,0000245000,076206,088454,082026,078784,094672,083951
0000000247,0000246000,074849,086925,084910,077386,092779,087242
0000000248,0000247000,074345,084711,087629,076981,090140,090286
0000000249,0000248000,074745,082026,089914,077609,087014,092784
0000000250,0000249000,076009,079144,091533,079208,083711,094488
0000000251,0000250000,078015,076340,092330,081623,080551,095233
0000000252,0000251000,080572,073882,092232,084618,077841,094948
0000000253,0000252000,083420,072018,091247,087897,075849,093661
0000000254,0000253000,086279,070934,089471,091139,074772,091496
0000000255,0000254000,088883,070730,087071,094031,074711,088664
0000000256,0000255000,090971,071425,084289,096288,075673,085446
0000000257,0000256000,092330,072951,081404,097687,077563,082157
0000000258,0000257000,092834,075167,078684,098093,080200,079114
0000000259,0000258000,092437,077852,076396,097467,083323,076617
0000000260,0000259000,091176,080734,074776,095870,086624,074913
0000000261,0000260000,089169,083540,073976,093458,089783,074167
0000000262,0000261000,086612,086001,074072,090465,092492,074450
0000000263,0000262000,083764,087866,075055,087188,094483,075735
0000000264,0000263000,080903,088952,076830,083948,095562,077897
0000000265,0000264000,078296,089159,079230,081057,095624,080726
0000000266,0000265000,076208,088465,082013,078800,094664,083943
0000000267,0000266000,074846,086939,084900,077401,092776,087230
0000000268,0000267000,074338,084725,087621,076994,090142,090271
0000000269,0000268000,074735,082039,089911,077618,087021,092767
0000000270,0000269000,075995,079156,091534,079212,083723,094472
0000000271,0000270000,078000,076350,092336,081622,080566,095219
0000000272,0000271000,080558,073886,092242,084612,077858,094937
0000000273,0000272000,083407,072018,091260,087886,075866,093655
0000000274,0000273000,086269,070930,089486,091124,074787,091495
0000000275,0000274000,088877,070721,087087,094015,074723,088669
0000000276,0000275000,090969,071412,084303,096271,075681,085455
0000000277,0000276000,092333,072937,081415,097671,077566,082170
0000000278,0000277000,092842,075152,078692,098079,080197,079131
0000000279,0000278000,092449,077837,076400,097457,083315,076635
0000000280,0000279000,091190,080721,074774,095866,086611,074930
0000000281,0000280000,089185,083530,073970,093459,089767,074182
0000000282,0000281000,086628,085996,074061,090471,092474,074462
0000000283,0000282000,083778,087866,075041,087200,094466,075742
0000000284,0000283000,080914,088957,076814,083963,095546,077898
0000000285,0000284000,078303,089168,079214,081075,095611,080722
0000000286,0000285000,076210,088478,081998,078819,094656,083933
0000000287,0000286000,074842,086955,084887,077418,092773,087215
0000000288,0000287000,074330,084742,087612,077009,090145,090253
0000000289,0000288000,074723,082055,089907,077629,087030,092748
0000000290,0000289000,075980,079170,091536,079217,083737,094453
0000000291,0000290000,077983,076360,092342,081621,080583,095203
0000000292,0000291000,080541,073891,092253,084606,077877,094925
0000000293,0000292000,083392,072018,091275,087874,075885,093648
0000000294,0000293000,086257,070925,089503,091108,074804,091494
0000000295,0000294000,088870,070711,087104,093996,074737,088674
0000000296,0000295000,090967,071398,084320,096251,075690,085466
0000000297,0000296000,092336,072920,081429,097652,077569,082186
0000000298,0000297000,092851,075134,078701,098063,080194,079149
0000000299,0000298000,092462,077820,076404,097446,083306,076655
0000000300,0000299000,091206,080707,074772,095860,086597,074950
0000000301,0000300000,089203,083519,073963,093460,089748,074199
