DIgSILENT PowerFactory,21000900,2000
6,06A,00D
1,TTPP_200000_100:Secondary Voltage A,,,V,0.10000000,-8513.113281,0.000000,70746,99998,1,1,P
2,TTPP_200000_100:Secondary Voltage B,,,V,0.10000000,-8344.229492,0.000000,67736,99998,1,1,P
3,TTPP_200000_100:Secondary Voltage C,,,V,0.10000000,-8598.221680,0.000000,68588,99998,1,1,P
4,TTCC_500_5:Secondary Current A,,,A,0.0010000000,-79.099136,0.000000,64438,99998,1,1,P
5,TTCC_500_5:Secondary Current B,,,A,0.0010000000,-84.588234,0.000000,69190,99998,1,1,P
6,TTCC_500_5:Secondary Current C,,,A,0.0010000000,-84.794991,0.000000,69609,99998,1,1,P
50
1
1000.000000,1101
30/06/2023,06:12:22.000000
30/06/2023,06:12:22.000000
ASCII
1.000000
0000000001,0000000000,090643,087083,076830,085015,089268,074200
0000000002,0000001000,088095,089516,076944,081999,091984,074499
0000000003,0000002000,085243,091372,077942,078700,093978,075804
0000000004,0000003000,082398,092433,079725,075445,095048,077990
0000000005,0000004000,079814,092616,082127,072541,095098,080844
0000000006,0000005000,077741,091909,084905,070280,094119,084084
0000000007,0000006000,076396,090379,087780,068886,092206,087390
0000000008,0000007000,075923,088148,090486,068491,089547,090445
0000000009,0000008000,076332,085469,092755,069132,086402,092948
0000000010,0000009000,077598,082603,094355,070750,083081,094651
0000000011,0000010000,079619,079803,095134,073188,079906,095389
0000000012,0000011000,082179,077356,095020,076202,077191,095090
0000000013,0000012000,085009,075524,094023,079500,075198,093785
0000000014,0000013000,087861,074455,092239,082759,074124,091599
0000000015,0000014000,090460,074258,089838,085661,074077,088745
0000000016,0000015000,092518,074978,087060,087920,075057,085505
0000000017,0000016000,093854,076518,084184,089317,076967,082199
0000000018,0000017000,094352,078725,081479,089712,079627,079144
0000000019,0000018000,093934,081412,079209,089067,082775,076641
0000000020,0000019000,092652,084295,077609,087451,086093,074938
0000000021,0000020000,090648,087077,076830,085016,089266,074200
0000000022,0000021000,088094,089518,076944,081998,091986,074499
0000000023,0000022000,085242,091373,077941,078700,093978,075804
0000000024,0000023000,082398,092433,079725,075444,095048,077990
0000000025,0000024000,079815,092614,082127,072540,095098,080844
0000000026,0000025000,077739,091912,084904,070279,094120,084084
0000000027,0000026000,076399,090377,087780,068886,092206,087390
0000000028,0000027000,075921,088148,090486,068490,089547,090445
0000000029,0000028000,076330,085471,092755,069132,086402,092948
0000000030,0000029000,077600,082601,094355,070750,083082,094651
0000000031,0000030000,079619,079802,095134,073186,079907,095389
0000000032,0000031000,082175,077360,095021,076201,077191,095090
0000000033,0000032000,085011,075522,094023,079500,075198,093785
0000000034,0000033000,087865,074451,092239,082758,074125,091599
0000000035,0000034000,090455,074262,089838,085660,074077,088745
0000000036,0000035000,092517,074979,087060,087920,075057,085505
0000000037,0000036000,093860,076512,084184,089316,076967,082199
0000000038,0000037000,094350,078727,081479,089710,079628,079144
0000000039,0000038000,093930,081416,079210,089068,082774,076641
0000000040,0000039000,092656,084290,077609,087451,086093,074938
0000000041,0000040000,090650,087075,076830,085015,089267,074201
0000000042,0000041000,088088,089524,076944,081997,091986,074499
0000000043,0000042000,085244,091371,077941,078701,093977,075804
0000000044,0000043000,082403,092428,079725,075443,095049,077990
0000000045,0000044000,079811,092618,082127,072540,095099,080844
0000000046,0000045000,077737,091915,084904,070280,094119,084083
0000000047,0000046000,076404,090371,087780,068886,092206,087390
0000000048,0000047000,075919,088150,090486,068489,089548,090445
0000000049,0000048000,076326,085475,092755,069132,086403,092948
0000000050,0000049000,077603,082598,094355,070750,083081,094651
0000000051,0000050000,079621,079801,095135,073185,079909,095389
0000000052,0000051000,082171,077364,095021,076201,077192,095090
0000000053,0000052000,085011,075521,094024,079500,075198,093785
0000000054,0000053000,087867,074449,092240,082757,074126,091599
0000000055,0000054000,090452,074264,089839,085658,074078,088745
0000000056,0000055000,092517,074979,087060,087920,075057,085506
0000000057,0000056000,093863,076509,084184,089315,076968,082200
0000000058,0000057000,094349,078728,081479,089709,079628,079145
0000000059,0000058000,093929,081417,079210,089067,082773,076642
0000000060,0000059000,092659,084287,077609,087451,086092,074939
0000000061,0000060000,090650,087076,076830,085014,089267,074201
0000000062,0000061000,088087,089525,076943,081998,091985,074500
0000000063,0000062000,085247,091369,077940,078701,093976,075805
0000000064,0000063000,082403,092429,079724,075443,095049,077990
0000000065,0000064000,079809,092621,082126,072540,095098,080844
0000000066,0000065000,077739,091913,084903,070281,094118,084083
0000000067,0000066000,076405,090371,087780,068886,092207,087389
0000000068,0000067000,075916,088154,090486,068490,089549,090444
0000000069,0000068000,076326,085475,092754,069133,086403,092947
0000000070,0000069000,077605,082596,094355,070750,083083,094650
0000000071,0000070000,079617,079804,095135,073184,079910,095388
0000000072,0000071000,082169,077365,095022,076201,077192,095089
0000000073,0000072000,085014,075517,094024,079499,075199,093784
0000000074,0000073000,087865,074449,092241,082755,074128,091599
0000000075,0000074000,090449,074267,089840,085657,074079,088746
0000000076,0000075000,092519,074975,087061,087918,075057,085507
0000000077,0000076000,093864,076507,084185,089313,076969,082201
0000000078,0000077000,094346,078730,081480,089708,079628,079146
0000000079,0000078000,093931,081415,079210,089067,082772,076643
0000000080,0000079000,092663,084283,077609,087450,086092,074940
0000000081,0000080000,090648,087078,076829,085014,089266,074203
0000000082,0000081000,088088,089525,076942,081999,091983,074501
0000000083,0000082000,085251,091366,077939,078702,093975,075805
0000000084,0000083000,082403,092430,079723,075444,095048,077990
0000000085,0000084000,079808,092624,082124,072542,095097,080844
0000000086,0000085000,077742,091912,084902,070283,094117,084082
0000000087,0000086000,076405,090372,087779,068887,092207,087388
0000000088,0000087000,075913,088158,090485,068491,089549,090442
0000000089,0000088000,076327,085475,092754,069134,086403,092945
0000000090,0000089000,077604,082596,094355,070750,083084,094648
0000000091,0000090000,079613,079807,095136,073184,079912,095386
0000000092,0000091000,082168,077365,095023,076200,077194,095088
0000000093,0000092000,085014,075516,094026,079497,075201,093784
0000000094,0000093000,087862,074451,092243,082753,074130,091599
0000000095,0000094000,090448,074266,089841,085656,074080,088746
0000000096,0000095000,092521,074972,087063,087916,075058,085508
0000000097,0000096000,093863,076506,084187,089311,076969,082202
0000000098,0000097000,094346,078730,081481,089707,079628,079148
0000000099,0000098000,093934,081411,079210,089065,082771,076646
0000000100,0000099000,092664,084282,077609,087449,086091,074943
0000000101,0000100000,090648,087078,076829,085014,089264,074204
0000000102,0000101000,088092,089523,076941,082000,091980,074502
0000000103,0000102000,085253,091365,077937,078703,093973,075806
0000000104,0000103000,082402,092433,079721,075446,095046,077991
0000000105,0000104000,079810,092624,082122,072545,095095,080843
0000000106,0000105000,077744,091912,084900,070285,094117,084081
0000000107,0000106000,076402,090376,087777,068889,092207,087386
0000000108,0000107000,075911,088161,090483,068493,089549,090440
0000000109,0000108000,076327,085475,092753,069135,086404,092943
0000000110,0000109000,077601,082599,094356,070750,083087,094646
0000000111,0000110000,079609,079810,095136,073184,079914,095384
0000000112,0000111000,082167,077364,095024,076199,077197,095086
0000000113,0000112000,085012,075515,094028,079495,075205,093783
0000000114,0000113000,087858,074452,092245,082751,074132,091599
0000000115,0000114000,090448,074264,089843,085653,074082,088747
0000000116,0000115000,092522,074968,087065,087913,075060,085510
0000000117,0000116000,093861,076506,084189,089307,076970,082205
0000000118,0000117000,094347,078727,081482,089704,079627,079151
0000000119,0000118000,093938,081407,079211,089063,082770,076649
0000000120,0000119000,092665,084281,077609,087448,086089,074946
0000000121,0000120000,090650,087077,076827,085014,089261,074207
0000000122,0000121000,088096,089520,076939,082001,091977,074505
0000000123,0000122000,085256,091365,077935,078705,093970,075808
0000000124,0000123000,082403,092435,079718,075449,095043,077991
0000000125,0000124000,079812,092625,082119,072548,095092,080842
0000000126,0000125000,077744,091914,084897,070288,094115,084079
0000000127,0000126000,076400,090381,087775,068892,092206,087383
0000000128,0000127000,075911,088163,090481,068496,089549,090437
0000000129,0000128000,076326,085477,092753,069137,086406,092939
0000000130,0000129000,077597,082603,094356,070751,083089,094642
0000000131,0000130000,079606,079812,095138,073184,079918,095381
0000000132,0000131000,082166,077364,095026,076198,077201,095084
0000000133,0000132000,085008,075516,094031,079492,075209,093781
0000000134,0000133000,087855,074452,092248,082748,074136,091599
0000000135,0000134000,090448,074260,089847,085649,074085,088748
0000000136,0000135000,092521,074966,087069,087908,075062,085512
0000000137,0000136000,093861,076504,084191,089303,076971,082208
0000000138,0000137000,094350,078722,081484,089701,079626,079155
0000000139,0000138000,093941,081402,079212,089060,082769,076653
0000000140,0000139000,092667,084279,077609,087446,086086,074950
0000000141,0000140000,090655,087075,076826,085015,089256,074211
0000000142,0000141000,088101,089518,076937,082002,091973,074508
0000000143,0000142000,085258,091366,077932,078707,093965,075810
0000000144,0000143000,082405,092437,079714,075453,095038,077991
0000000145,0000144000,079816,092625,082115,072553,095089,080841
0000000146,0000145000,077744,091918,084894,070293,094113,084077
0000000147,0000146000,076399,090386,087771,068897,092205,087380
0000000148,0000147000,075910,088166,090479,068500,089550,090432
0000000149,0000148000,076322,085481,092752,069140,086409,092934
0000000150,0000149000,077591,082608,094356,070753,083093,094637
0000000151,0000150000,079603,079814,095139,073184,079922,095376
0000000152,0000151000,082162,077365,095029,076196,077206,095080
0000000153,0000152000,085003,075518,094035,079489,075214,093779
0000000154,0000153000,087852,074450,092253,082743,074141,091598
0000000155,0000154000,090447,074256,089852,085643,074089,088749
0000000156,0000155000,092519,074963,087073,087902,075065,085515
0000000157,0000156000,093861,076499,084195,089298,076972,082212
0000000158,0000157000,094354,078716,081486,089696,079626,079161
0000000159,0000158000,093944,081398,079213,089057,082766,076659
0000000160,0000159000,092671,084276,077608,087445,086082,074956
0000000161,0000160000,090661,087070,076824,085015,089251,074217
0000000162,0000161000,088106,089516,076933,082004,091967,074512
0000000163,0000162000,085261,091367,077927,078711,093959,075812
0000000164,0000163000,082410,092438,079709,075458,095032,077992
0000000165,0000164000,079818,092628,082110,072559,095084,080840
0000000166,0000165000,077744,091923,084889,070299,094110,084073
0000000167,0000166000,076398,090391,087767,068904,092204,087375
0000000168,0000167000,075908,088171,090476,068505,089551,090426
0000000169,0000168000,076317,085487,092751,069143,086412,092927
0000000170,0000169000,077586,082613,094357,070755,083097,094630
0000000171,0000170000,079598,079816,095142,073184,079928,095370
0000000172,0000171000,082155,077367,095033,076193,077213,095076
0000000173,0000172000,084997,075519,094040,079485,075221,093776
0000000174,0000173000,087849,074447,092259,082737,074147,091598
0000000175,0000174000,090445,074252,089858,085636,074095,088751
0000000176,0000175000,092518,074959,087079,087895,075069,085519
0000000177,0000176000,093863,076493,084200,089291,076973,082218
0000000178,0000177000,094358,078709,081490,089690,079625,079168
0000000179,0000178000,093948,081393,079215,089053,082763,076667
0000000180,0000179000,092677,084271,077607,087443,086076,074963
0000000181,0000180000,090669,087065,076821,085015,089244,074223
0000000182,0000181000,088112,089515,076929,082006,091959,074517
0000000183,0000182000,085267,091368,077921,078716,093951,075815
0000000184,0000183000,082415,092439,079702,075465,095025,077992
0000000185,0000184000,079821,092632,082103,072566,095079,080838
0000000186,0000185000,077744,091930,084882,070307,094106,084069
0000000187,0000186000,076397,090397,087762,068911,092202,087369
0000000188,0000187000,075905,088177,090473,068512,089552,090418
0000000189,0000188000,076311,085495,092749,069148,086416,092919
0000000190,0000189000,077580,082619,094357,070757,083103,094622
0000000191,0000190000,079591,079820,095145,073184,079936,095363
0000000192,0000191000,082147,077370,095038,076190,077222,095070
0000000193,0000192000,084990,075519,094047,079480,075230,093773
0000000194,0000193000,087845,074444,092266,082730,074155,091597
0000000195,0000194000,090441,074249,089866,085628,074101,088753
0000000196,0000195000,092516,074953,087086,087886,075073,085523
0000000197,0000196000,093866,076485,084205,089283,076974,082225
0000000198,0000197000,094361,078701,081494,089683,079624,079176
0000000199,0000198000,093953,081386,079216,089048,082759,076676
0000000200,0000199000,092685,084264,077607,087440,086070,074972
0000000201,0000200000,090677,087060,076818,085015,089236,074231
0000000202,0000201000,088119,089513,076923,082009,091950,074523
0000000203,0000202000,085274,091368,077914,078722,093942,075819
0000000204,0000203000,082422,092441,079694,075473,095017,077993
0000000205,0000204000,079824,092638,082095,072575,095072,080835
0000000206,0000205000,077745,091937,084874,070317,094101,084064
0000000207,0000206000,076396,090404,087755,068921,092201,087361
0000000208,0000207000,075900,088187,090469,068520,089554,090409
0000000209,0000208000,076304,085504,092747,069154,086420,092909
0000000210,0000209000,077572,082625,094358,070760,083110,094612
0000000211,0000210000,079582,079825,095148,073183,079945,095354
0000000212,0000211000,082138,077374,095044,076187,077232,095064
0000000213,0000212000,084983,075518,094054,079473,075240,093769
0000000214,0000213000,087839,074441,092275,082721,074165,091596
0000000215,0000214000,090436,074244,089875,085617,074109,088756
0000000216,0000215000,092516,074945,087094,087876,075078,085529
0000000217,0000216000,093868,076475,084213,089273,076976,082233
0000000218,0000217000,094365,078692,081499,089674,079622,079186
0000000219,0000218000,093960,081377,079218,089041,082754,076687
0000000220,0000219000,092695,084255,077606,087437,086062,074983
0000000221,0000220000,090687,087055,076814,085015,089226,074241
0000000222,0000221000,088128,089510,076917,082013,091939,074530
0000000223,0000222000,085284,091367,077905,078729,093930,075823
0000000224,0000223000,082428,092444,079684,075482,095006,077994
0000000225,0000224000,079827,092644,082084,072587,095063,080833
0000000226,0000225000,077746,091945,084865,070329,094096,084058
0000000227,0000226000,076394,090414,087748,068932,092199,087352
0000000228,0000227000,075894,088198,090463,068529,089555,090398
0000000229,0000228000,076297,085514,092745,069161,086425,092897
0000000230,0000229000,077563,082633,094359,070763,083119,094600
0000000231,0000230000,079571,079832,095153,073183,079956,095344
0000000232,0000231000,082127,077378,095051,076183,077244,095056
0000000233,0000232000,084974,075518,094064,079465,075252,093765
0000000234,0000233000,087831,074438,092286,082710,074176,091596
0000000235,0000234000,090431,074238,089886,085605,074118,088759
0000000236,0000235000,092515,074936,087105,087863,075084,085536
0000000237,0000236000,093871,076464,084221,089260,076979,082243
0000000238,0000237000,094370,078681,081505,089664,079620,079198
0000000239,0000238000,093969,081366,079221,089034,082748,076700
0000000240,0000239000,092706,084245,077604,087433,086053,074996
0000000241,0000240000,090698,087048,076810,085016,089214,074252
0000000242,0000241000,088140,089506,076909,082018,091925,074539
0000000243,0000242000,085294,091366,077895,078737,093917,075828
0000000244,0000243000,082436,092448,079672,075494,094994,077995
0000000245,0000244000,079832,092651,082072,072600,095053,080829
0000000246,0000245000,077748,091954,084854,070343,094089,084050
0000000247,0000246000,076392,090425,087738,068945,092196,087341
0000000248,0000247000,075888,088211,090457,068540,089557,090385
0000000249,0000248000,076288,085526,092742,069168,086431,092882
0000000250,0000249000,077552,082643,094361,070767,083129,094586
0000000251,0000250000,079558,079840,095158,073182,079969,095332
0000000252,0000251000,082115,077382,095060,076178,077258,095046
0000000253,0000252000,084963,075518,094075,079456,075267,093759
0000000254,0000253000,087822,074434,092299,082698,074189,091595
0000000255,0000254000,090426,074230,089899,085591,074129,088763
0000000256,0000255000,092514,074925,087117,087848,075091,085544
0000000257,0000256000,093873,076452,084231,089246,076981,082255
0000000258,0000257000,094377,078668,081511,089652,079618,079213
0000000259,0000258000,093979,081353,079224,089026,082741,076715
0000000260,0000259000,092718,084234,077603,087429,086042,075011
0000000261,0000260000,090711,087040,076804,085017,089200,074265
0000000262,0000261000,088154,089502,076900,082024,091910,074549
0000000263,0000262000,085307,091366,077883,078747,093901,075834
0000000264,0000263000,082445,092452,079658,075507,094980,077996
0000000265,0000264000,079838,092659,082058,072616,095042,080825
0000000266,0000265000,077750,091965,084841,070359,094082,084041
0000000267,0000266000,076388,090439,087728,068960,092194,087328
0000000268,0000267000,075881,088225,090449,068553,089560,090369
0000000269,0000268000,076277,085539,092739,069178,086439,092866
0000000270,0000269000,077538,082656,094362,070771,083141,094570
0000000271,0000270000,079543,079850,095163,073181,079984,095317
0000000272,0000271000,082100,077386,095070,076172,077275,095036
0000000273,0000272000,084950,075518,094088,079446,075284,093753
0000000274,0000273000,087811,074430,092314,082684,074205,091594
0000000275,0000274000,090420,074221,089914,085574,074141,088767
0000000276,0000275000,092512,074912,087131,087830,075099,085553
0000000277,0000276000,093876,076437,084243,089230,076984,082269
0000000278,0000277000,094384,078652,081519,089638,079615,079229
0000000279,0000278000,093991,081337,079227,089016,082733,076733
0000000280,0000279000,092732,084222,077602,087424,086029,075028
0000000281,0000280000,090727,087031,076798,085017,089184,074280
0000000282,0000281000,088170,089496,076889,082030,091892,074560
0000000283,0000282000,085320,091366,077869,078759,093883,075840
0000000284,0000283000,082456,092457,079642,075522,094963,077997
0000000285,0000284000,079846,092669,082042,072633,095029,080820
0000000286,0000285000,077752,091978,084826,070378,094073,084031
0000000287,0000286000,076385,090455,087715,068978,092191,087314
0000000288,0000287000,075873,088242,090441,068568,089563,090352
0000000289,0000288000,076265,085555,092735,069188,086447,092847
0000000290,0000289000,077522,082670,094364,070776,083154,094552
0000000291,0000290000,079526,079860,095170,073180,080001,095301
0000000292,0000291000,082084,077391,095081,076165,077294,095024
0000000293,0000292000,084935,075518,094103,079433,075303,093746
0000000294,0000293000,087799,074425,092331,082667,074222,091593
0000000295,0000294000,090413,074211,089932,085555,074155,088772
0000000296,0000295000,092510,074898,087147,087811,075108,085564
0000000297,0000296000,093879,076421,084256,089211,076987,082284
0000000298,0000297000,094393,078634,081529,089622,079612,079248
0000000299,0000298000,094004,081320,079231,089005,082724,076753
0000000300,0000299000,092748,084207,077600,087419,086015,075048
0000000301,0000300000,090745,087020,076791,085019,089166,074297
