DIgSILENT PowerFactory,21000900,2000
6,06A,00D
1,TTPP_200000_100:Secondary Voltage A,,,V,0.010000000,-71.429924,0.000000,-85630,99998,1,1,P
2,TTPP_200000_100:Secondary Voltage B,,,V,0.010000000,-18.282728,0.000000,-91862,99998,1,1,P
3,TTPP_200000_100:Secondary Voltage C,,,V,0.10000000,-8978.014648,0.000000,79722,99998,1,1,P
4,TTCC_300_1:Secondary Current A,,,A,0.00010000000,-4.206364,0.000000,-43047,99998,1,1,P
5,TTCC_300_1:Secondary Current B,,,A,0.00010000000,-4.934432,0.000000,-1293,99998,1,1,P
6,TTCC_300_1:Secondary Current C,,,A,0.00010000000,-4.877799,0.000000,-2353,99998,1,1,P
50
1
1000.000000,1101
30/06/2023,06:03:24.000000
30/06/2023,06:03:24.000000
ASCII
1.000000
0000000001,0000000000,078209,016581,081198,021126,035364,083696
0000000002,0000001000,056862,043767,080614,030881,026081,083225
0000000003,0000002000,030493,067027,080926,041718,019083,079385
0000000004,0000003000,001916,083841,082102,052590,015044,072552
0000000005,0000004000,-26068,092502,084035,062438,014361,063387
0000000006,0000005000,-50951,092398,086532,070292,017107,052788
0000000007,0000006000,-70125,083513,089340,075381,023000,041805
0000000008,0000007000,-81555,066416,092191,077206,031474,031507
0000000009,0000008000,-84410,043047,094814,075582,041715,022889
0000000010,0000009000,-78466,015844,096940,070685,052692,016809
0000000011,0000010000,-63978,-12868,098362,062997,063324,013865
0000000012,0000011000,-42451,-40237,098947,053243,072607,014336
0000000013,0000012000,-16224,-63355,098635,042392,079620,018174
0000000014,0000013000,012316,-80119,097458,031527,083651,025008
0000000015,0000014000,040449,-88927,095525,021680,084332,034175
0000000016,0000015000,065222,-88733,093029,013817,081596,044773
0000000017,0000016000,084281,-79723,090221,008739,075693,055755
0000000018,0000017000,095917,-62834,087369,006922,067210,066053
0000000019,0000018000,098801,-39492,084747,008529,056986,074671
0000000020,0000019000,092653,-12084,082620,013425,046011,080750
0000000021,0000020000,078256,016541,081198,021126,035365,083695
0000000022,0000021000,056813,043817,080614,030874,026087,083225
0000000023,0000022000,030426,067088,080926,041722,019079,079385
0000000024,0000023000,001950,083800,082102,052598,015036,072552
0000000025,0000024000,-26039,092463,084035,062438,014361,063385
0000000026,0000025000,-50964,092419,086532,070290,017109,052787
0000000027,0000026000,-70101,083486,089339,075382,022998,041806
0000000028,0000027000,-81570,066429,092191,077204,031476,031507
0000000029,0000028000,-84478,043104,094814,075584,041713,022889
0000000030,0000029000,-78449,015820,096940,070695,052683,016809
0000000031,0000030000,-63927,-12922,098362,062999,063323,013864
0000000032,0000031000,-42460,-40231,098947,053239,072612,014335
0000000033,0000032000,-16248,-63329,098635,042395,079617,018174
0000000034,0000033000,012307,-80117,097458,031530,083649,025007
0000000035,0000034000,040437,-88922,095526,021682,084331,034173
0000000036,0000035000,065217,-88735,093029,013824,081591,044771
0000000037,0000036000,084323,-79760,090221,008741,075692,055753
0000000038,0000037000,095932,-62849,087369,006918,067216,066052
0000000039,0000038000,098757,-39448,084747,008531,056986,074669
0000000040,0000039000,092646,-12075,082620,013429,046007,080749
0000000041,0000040000,078280,016514,081198,021127,035366,083694
0000000042,0000041000,056812,043821,080614,030875,026088,083223
0000000043,0000042000,030443,067078,080925,041723,019079,079384
0000000044,0000043000,001970,083788,082102,052595,015039,072552
0000000045,0000044000,-26073,092498,084035,062437,014363,063386
0000000046,0000045000,-50983,092441,086532,070294,017104,052787
0000000047,0000046000,-70070,083457,089339,075383,022996,041806
0000000048,0000047000,-81557,066419,092191,077202,031477,031508
0000000049,0000048000,-84494,043125,094814,075585,041711,022890
0000000050,0000049000,-78448,015820,096940,070695,052681,016810
0000000051,0000050000,-63932,-12918,098362,062999,063321,013866
0000000052,0000051000,-42489,-40208,098947,053243,072607,014335
0000000053,0000052000,-16234,-63344,098635,042399,079613,018174
0000000054,0000053000,012339,-80150,097458,031531,083649,025007
0000000055,0000054000,040414,-88902,095526,021683,084331,034172
0000000056,0000055000,065196,-88716,093029,013828,081589,044770
0000000057,0000056000,084340,-79782,090221,008745,075690,055751
0000000058,0000057000,095930,-62851,087370,006921,067216,066049
0000000059,0000058000,098753,-39445,084747,008534,056985,074666
0000000060,0000059000,092677,-12102,082620,013430,046009,080747
0000000061,0000060000,078282,016512,081198,021125,035369,083691
0000000062,0000061000,056784,043851,080614,030876,026089,083221
0000000063,0000062000,030454,067070,080925,041724,019079,079383
0000000064,0000063000,001996,083765,082101,052593,015041,072551
0000000065,0000064000,-26082,092512,084034,062434,014365,063386
0000000066,0000065000,-50985,092449,086531,070292,017105,052789
0000000067,0000066000,-70057,083449,089338,075381,022997,041809
0000000068,0000067000,-81579,066441,092191,077200,031476,031511
0000000069,0000068000,-84511,043143,094814,075585,041708,022893
0000000070,0000069000,-78426,015798,096940,070696,052677,016813
0000000071,0000070000,-63934,-12918,098363,062998,063319,013868
0000000072,0000071000,-42518,-40183,098948,053244,072603,014338
0000000073,0000072000,-16234,-63350,098636,042403,079608,018175
0000000074,0000073000,012340,-80160,097459,031535,083645,025007
0000000075,0000074000,040395,-88892,095527,021688,084327,034171
0000000076,0000075000,065206,-88731,093029,013834,081585,044767
0000000077,0000076000,084360,-79807,090222,008749,075690,055747
0000000078,0000077000,095915,-62841,087370,006924,067217,066044
0000000079,0000078000,098747,-39441,084747,008538,056986,074661
0000000080,0000079000,092703,-12128,082620,013433,046011,080742
0000000081,0000080000,078291,016506,081197,021125,035374,083687
0000000082,0000081000,056783,043860,080613,030875,026094,083218
0000000083,0000082000,030477,067058,080924,041722,019084,079381
0000000084,0000083000,002002,083767,082100,052589,015046,072551
0000000085,0000084000,-26098,092538,084034,062430,014368,063387
0000000086,0000085000,-50974,092448,086530,070288,017106,052791
0000000087,0000086000,-70043,083442,089337,075375,022998,041813
0000000088,0000087000,-81597,066465,092190,077195,031476,031516
0000000089,0000088000,-84523,043159,094813,075583,041704,022899
0000000090,0000089000,-78424,015795,096940,070694,052673,016819
0000000091,0000090000,-63955,-12903,098363,062998,063314,013873
0000000092,0000091000,-42536,-40171,098948,053248,072596,014341
0000000093,0000092000,-16225,-63368,098637,042408,079601,018177
0000000094,0000093000,012331,-80164,097460,031540,083639,025007
0000000095,0000094000,040372,-88881,095528,021696,084322,034169
0000000096,0000095000,065212,-88748,093031,013842,081581,044763
0000000097,0000096000,084371,-79830,090223,008756,075689,055741
0000000098,0000097000,095910,-62842,087371,006930,067218,066037
0000000099,0000098000,098761,-39456,084747,008544,056988,074654
0000000100,0000099000,092728,-12151,082620,013435,046017,080734
0000000101,0000100000,078291,016511,081197,021125,035381,083680
0000000102,0000101000,056790,043862,080612,030874,026100,083212
0000000103,0000102000,030506,067041,080922,041717,019091,079378
0000000104,0000103000,002011,083772,082099,052581,015055,072550
0000000105,0000104000,-26102,092559,084032,062422,014374,063389
0000000106,0000105000,-50963,092452,086529,070280,017110,052796
0000000107,0000106000,-70044,083454,089336,075366,023000,041819
0000000108,0000107000,-81619,066494,092190,077188,031474,031524
0000000109,0000108000,-84528,043169,094813,075579,041699,022908
0000000110,0000109000,-78428,015797,096940,070691,052667,016828
0000000111,0000110000,-63985,-12881,098364,062998,063306,013881
0000000112,0000111000,-42557,-40161,098949,053253,072585,014348
0000000113,0000112000,-16229,-63380,098638,042414,079590,018181
0000000114,0000113000,012313,-80165,097462,031548,083630,025008
0000000115,0000114000,040358,-88885,095530,021707,084314,034166
0000000116,0000115000,065222,-88775,093032,013853,081575,044758
0000000117,0000116000,084374,-79848,090225,008765,075687,055733
0000000118,0000117000,095906,-62849,087372,006940,067219,066027
0000000119,0000118000,098783,-39482,084747,008551,056992,074642
0000000120,0000119000,092754,-12177,082620,013438,046025,080723
0000000121,0000120000,078301,016509,081196,021125,035392,083670
0000000122,0000121000,056812,043856,080610,030871,026111,083204
0000000123,0000122000,030534,067032,080921,041710,019103,079373
0000000124,0000123000,002016,083788,082097,052571,015066,072549
0000000125,0000124000,-26098,092577,084030,062411,014382,063392
0000000126,0000125000,-50948,092458,086526,070268,017116,052802
0000000127,0000126000,-70051,083478,089335,075354,023003,041829
0000000128,0000127000,-81641,066529,092188,077178,031472,031536
0000000129,0000128000,-84538,043184,094812,075572,041693,022921
0000000130,0000129000,-78447,015812,096941,070687,052658,016841
0000000131,0000130000,-64020,-12857,098365,062999,063293,013893
0000000132,0000131000,-42577,-40157,098951,053258,072571,014357
0000000133,0000132000,-16243,-63388,098641,042423,079577,018187
0000000134,0000133000,012286,-80163,097465,031560,083618,025009
0000000135,0000134000,040344,-88897,095532,021721,084302,034163
0000000136,0000135000,065230,-88807,093035,013868,081568,044750
0000000137,0000136000,084376,-79871,090227,008779,075685,055722
0000000138,0000137000,095914,-62870,087373,006953,067220,066013
0000000139,0000138000,098813,-39517,084748,008560,056998,074627
0000000140,0000139000,092780,-12200,082619,013442,046036,080707
0000000141,0000140000,078321,016501,081195,021125,035405,083656
0000000142,0000141000,056847,043841,080608,030866,026126,083194
0000000143,0000142000,030566,067025,080918,041700,019120,079366
0000000144,0000143000,002027,083806,082094,052557,015081,072547
0000000145,0000144000,-26085,092596,084026,062396,014394,063395
0000000146,0000145000,-50937,092475,086524,070251,017124,052811
0000000147,0000146000,-70065,083513,089332,075337,023007,041842
0000000148,0000147000,-81660,066565,092187,077165,031469,031552
0000000149,0000148000,-84553,043206,094812,075562,041685,022939
0000000150,0000149000,-78479,015840,096941,070681,052646,016859
0000000151,0000150000,-64061,-12829,098366,063000,063277,013909
0000000152,0000151000,-42603,-40152,098953,053265,072552,014369
0000000153,0000152000,-16270,-63393,098644,042434,079558,018194
0000000154,0000153000,012255,-80166,097468,031576,083600,025010
0000000155,0000154000,040333,-88920,095536,021740,084288,034158
0000000156,0000155000,065233,-88843,093038,013888,081559,044740
0000000157,0000156000,084376,-79899,090229,008798,075681,055706
0000000158,0000157000,095931,-62904,087375,006969,067222,065994
0000000159,0000158000,098849,-39561,084749,008572,057007,074607
0000000160,0000159000,092812,-12228,082619,013448,046051,080687
0000000161,0000160000,078353,016485,081193,021125,035423,083638
0000000162,0000161000,056892,043823,080606,030860,026147,083180
0000000163,0000162000,030600,067025,080915,041687,019141,079358
0000000164,0000163000,002046,083826,082090,052540,015101,072545
0000000165,0000164000,-26064,092616,084022,062375,014410,063400
0000000166,0000165000,-50929,092503,086520,070228,017135,052822
0000000167,0000166000,-70081,083560,089329,075316,023011,041859
0000000168,0000167000,-81681,066608,092184,077147,031466,031573
0000000169,0000168000,-84578,043239,094811,075549,041675,022962
0000000170,0000169000,-78524,015878,096942,070675,052630,016881
0000000171,0000170000,-64108,-12799,098368,063001,063256,013929
0000000172,0000171000,-42639,-40146,098956,053273,072528,014385
0000000173,0000172000,-16309,-63393,098648,042448,079535,018203
0000000174,0000173000,012218,-80174,097473,031596,083578,025012
0000000175,0000174000,040320,-88952,095540,021765,084269,034153
0000000176,0000175000,065231,-88884,093042,013913,081547,044727
0000000177,0000176000,084380,-79937,090233,008822,075677,055687
0000000178,0000177000,095957,-62953,087377,006990,067225,065970
0000000179,0000178000,098890,-39612,084750,008587,057018,074581
0000000180,0000179000,092851,-12262,082619,013455,046069,080662
0000000181,0000180000,078401,016459,081191,021125,035446,083615
0000000182,0000181000,056947,043801,080602,030851,026173,083162
0000000183,0000182000,030640,067027,080910,041670,019169,079348
0000000184,0000183000,002075,083848,082085,052518,015125,072543
0000000185,0000184000,-26038,092641,084017,062349,014430,063407
0000000186,0000185000,-50923,092544,086515,070200,017149,052837
0000000187,0000186000,-70099,083616,089326,075289,023016,041880
0000000188,0000187000,-81705,066658,092182,077125,031462,031600
0000000189,0000188000,-84614,043286,094810,075532,041663,022991
0000000190,0000189000,-78579,015927,096942,070666,052610,016910
0000000191,0000190000,-64163,-12767,098370,063002,063230,013954
0000000192,0000191000,-42688,-40135,098960,053282,072499,014404
0000000193,0000192000,-16361,-63391,098653,042466,079505,018215
0000000194,0000193000,012178,-80189,097478,031622,083550,025014
0000000195,0000194000,040302,-88991,095546,021794,084247,034146
0000000196,0000195000,065225,-88931,093048,013943,081532,044711
0000000197,0000196000,084388,-79988,090237,008852,075671,055663
0000000198,0000197000,095991,-63016,087380,007016,067229,065941
0000000199,0000198000,098937,-39671,084751,008605,057032,074549
0000000200,0000199000,092901,-12305,082618,013465,046091,080630
0000000201,0000200000,078463,016422,081189,021124,035474,083587
0000000202,0000201000,057011,043778,080598,030840,026206,083141
0000000203,0000202000,030689,067032,080905,041650,019202,079335
0000000204,0000203000,002116,083870,082079,052490,015155,072540
0000000205,0000204000,-26007,092673,084011,062317,014454,063415
0000000206,0000205000,-50920,092598,086510,070166,017165,052855
0000000207,0000206000,-70117,083682,089321,075257,023022,041907
0000000208,0000207000,-81734,066720,092178,077097,031457,031632
0000000209,0000208000,-84663,043347,094809,075512,041648,023026
0000000210,0000209000,-78645,015985,096943,070656,052586,016944
0000000211,0000210000,-64227,-12729,098373,063003,063198,013985
0000000212,0000211000,-42751,-40118,098964,053294,072464,014428
0000000213,0000212000,-16424,-63387,098659,042488,079469,018229
0000000214,0000213000,012132,-80211,097485,031652,083517,025017
0000000215,0000214000,040279,-89037,095553,021830,084220,034137
0000000216,0000215000,065215,-88986,093054,013981,081514,044691
0000000217,0000216000,084402,-80053,090242,008888,075664,055634
0000000218,0000217000,096031,-63092,087384,007046,067234,065906
0000000219,0000218000,098990,-39740,084752,008626,057049,074510
0000000220,0000219000,092964,-12359,082617,013476,046118,080592
0000000221,0000220000,078540,016377,081185,021123,035509,083554
0000000222,0000221000,057085,043753,080593,030826,026245,083115
0000000223,0000222000,030749,067037,080898,041625,019241,079319
0000000224,0000223000,002167,083893,082071,052457,015191,072537
0000000225,0000224000,-25973,092715,084003,062277,014484,063424
0000000226,0000225000,-50915,092664,086503,070124,017185,052876
0000000227,0000226000,-70135,083759,089315,075218,023030,041938
0000000228,0000227000,-81769,066795,092175,077064,031451,031671
0000000229,0000228000,-84723,043423,094807,075488,041630,023068
0000000230,0000229000,-78722,016053,096944,070644,052556,016985
0000000231,0000230000,-64305,-12685,098376,063005,063160,014021
0000000232,0000231000,-42830,-40094,098970,053309,072421,014455
0000000233,0000232000,-16499,-63384,098666,042515,079425,018245
0000000234,0000233000,012079,-80238,097493,031689,083477,025021
0000000235,0000234000,040247,-89089,095561,021872,084188,034126
0000000236,0000235000,065204,-89051,093062,014025,081493,044668
0000000237,0000236000,084420,-80134,090249,008931,075655,055600
0000000238,0000237000,096078,-63182,087388,007082,067240,065864
0000000239,0000238000,099053,-39821,084754,008652,057069,074464
0000000240,0000239000,093043,-12427,082616,013489,046150,080547
0000000241,0000240000,078632,016321,081182,021122,035550,083515
0000000242,0000241000,057172,043725,080587,030810,026291,083085
0000000243,0000242000,030824,067041,080891,041596,019288,079301
0000000244,0000243000,002230,083920,082062,052418,015234,072534
0000000245,0000244000,-25934,092767,083994,062231,014519,063436
0000000246,0000245000,-50910,092741,086494,070076,017208,052902
0000000247,0000246000,-70154,083847,089308,075173,023038,041975
0000000248,0000247000,-81813,066886,092170,077026,031445,031716
0000000249,0000248000,-84796,043515,094805,075460,041609,023117
0000000250,0000249000,-78810,016131,096945,070631,052522,017034
0000000251,0000250000,-64397,-12632,098380,063007,063115,014064
0000000252,0000251000,-42926,-40063,098976,053326,072371,014488
0000000253,0000252000,-16585,-63382,098674,042547,079375,018264
0000000254,0000253000,012016,-80271,097503,031732,083430,025024
0000000255,0000254000,040207,-89148,095571,021922,084150,034114
0000000256,0000255000,065191,-89129,093071,014078,081469,044640
0000000257,0000256000,084443,-80231,090256,008980,075646,055560
0000000258,0000257000,096130,-63285,087393,007124,067248,065814
0000000259,0000258000,099126,-39915,084756,008682,057093,074411
0000000260,0000259000,093137,-12510,082615,013504,046187,080495
0000000261,0000260000,078738,016257,081178,021120,035598,083469
0000000262,0000261000,057273,043694,080580,030791,026345,083050
0000000263,0000262000,030913,067043,080881,041563,019343,079281
0000000264,0000263000,002304,083950,082052,052372,015284,072530
0000000265,0000264000,-25890,092828,083984,062177,014559,063450
0000000266,0000265000,-50901,092831,086484,070020,017234,052932
0000000267,0000266000,-70175,083949,089300,075120,023047,042019
0000000268,0000267000,-81866,066994,092164,076981,031437,031769
0000000269,0000268000,-84880,043622,094803,075428,041583,023175
0000000270,0000269000,-78911,016221,096946,070615,052481,017090
0000000271,0000270000,-64507,-12567,098385,063009,063064,014113
0000000272,0000271000,-43038,-40026,098984,053346,072314,014526
0000000273,0000272000,-16684,-63381,098684,042583,079316,018286
0000000274,0000273000,011941,-80309,097514,031781,083377,025028
0000000275,0000274000,040158,-89214,095583,021980,084108,034099
0000000276,0000275000,065176,-89220,093081,014138,081440,044608
0000000277,0000276000,084469,-80344,090265,009037,075636,055513
0000000278,0000277000,096188,-63404,087399,007172,067256,065758
0000000279,0000278000,099211,-40026,084759,008716,057120,074350
0000000280,0000279000,093247,-12607,082613,013521,046230,080435
0000000281,0000280000,078859,016183,081173,021117,035653,083416
0000000282,0000281000,057389,043657,080572,030769,026407,083010
0000000283,0000282000,031018,067043,080871,041524,019405,079257
0000000284,0000283000,002389,083985,082040,052319,015341,072526
0000000285,0000284000,-25839,092900,083971,062115,014605,063465
0000000286,0000285000,-50888,092932,086473,069956,017264,052966
0000000287,0000286000,-70199,084067,089291,075059,023058,042069
0000000288,0000287000,-81928,067120,092158,076929,031427,031830
0000000289,0000288000,-84975,043745,094800,075392,041554,023240
0000000290,0000289000,-79026,016323,096947,070597,052435,017154
0000000291,0000290000,-64634,-12491,098390,063011,063005,014169
0000000292,0000291000,-43167,-39982,098992,053369,072248,014568
0000000293,0000292000,-16797,-63380,098695,042625,079249,018311
0000000294,0000293000,011853,-80350,097527,031837,083316,025032
0000000295,0000294000,040100,-89289,095596,022045,084059,034082
0000000296,0000295000,065160,-89325,093094,014207,081409,044571
0000000297,0000296000,084498,-80474,090275,009102,075624,055460
0000000298,0000297000,096253,-63540,087406,007226,067267,065693
0000000299,0000298000,099308,-40154,084762,008755,057151,074280
0000000300,0000299000,093373,-12720,082612,013540,046279,080367
0000000301,0000300000,078997,016099,081168,021114,035716,083356
