DIgSILENT PowerFactory,21000900,2000
6,06A,00D
1,TTPP_200000_100:Secondary Voltage A,,,V,0.010000000,-67.889320,0.000000,-86352,99998,1,1,P
2,TTPP_200000_100:Secondary Voltage B,,,V,0.010000000,-19.690584,0.000000,-92693,99998,1,1,P
3,TTPP_200000_100:Secondary Voltage C,,,V,0.10000000,-8992.057617,0.000000,79885,99998,1,1,P
4,TTCC_500_5:Secondary Current A,,,A,0.0010000000,-83.906990,0.000000,59626,99998,1,1,P
5,TTCC_500_5:Secondary Current B,,,A,0.0010000000,-84.825638,0.000000,69655,99998,1,1,P
6,TTCC_500_5:Secondary Current C,,,A,0.0010000000,-84.621292,0.000000,69241,99998,1,1,P
50
1
1000.000000,1101
30/06/2023,06:03:45.000000
30/06/2023,06:03:45.000000
ASCII
1.000000
0000000001,0000000000,061935,038346,080768,089825,089503,074026
0000000002,0000001000,036467,062676,080881,086809,092220,074325
0000000003,0000002000,007915,081268,081878,083511,094214,075629
0000000004,0000003000,-20555,091902,083661,080255,095285,077814
0000000005,0000004000,-46311,093657,086062,077353,095334,080668
0000000006,0000005000,-67073,086636,088839,075088,094359,083907
0000000007,0000006000,-80540,071347,091716,073693,092447,087214
0000000008,0000007000,-85364,049108,094421,073300,089785,090269
0000000009,0000008000,-81207,022252,096691,073939,086642,092773
0000000010,0000009000,-68539,-06421,098292,075557,083321,094476
0000000011,0000010000,-48374,-34384,099072,077993,080146,095215
0000000012,0000011000,-22743,-58882,098959,081007,077430,094917
0000000013,0000012000,005536,-77212,097963,084304,075437,093612
0000000014,0000013000,034028,-87867,096180,087564,074362,091427
0000000015,0000014000,060037,-89872,093779,090467,074313,088574
0000000016,0000015000,080670,-82725,091002,092726,075293,085334
0000000017,0000016000,094036,-67321,088125,094123,077203,082028
0000000018,0000017000,098970,-45199,085419,094519,079862,078972
0000000019,0000018000,094814,-18353,083151,093876,083009,076469
0000000020,0000019000,082021,010446,081549,092261,086327,074765
0000000021,0000020000,061977,038299,080769,089827,089500,074027
0000000022,0000021000,036459,062684,080881,086808,092221,074325
0000000023,0000022000,007946,081242,081878,083510,094214,075629
0000000024,0000023000,-20536,091893,083661,080254,095286,077814
0000000025,0000024000,-46351,093693,086062,077351,095336,080668
0000000026,0000025000,-67109,086672,088840,075089,094358,083907
0000000027,0000026000,-80520,071323,091715,073694,092446,087214
0000000028,0000027000,-85309,049058,094421,073298,089787,090269
0000000029,0000028000,-81232,022280,096691,073938,086643,092773
0000000030,0000029000,-68561,-06397,098292,075556,083322,094476
0000000031,0000030000,-48366,-34395,099072,077992,080147,095215
0000000032,0000031000,-22778,-58855,098960,081007,077430,094917
0000000033,0000032000,005558,-77230,097963,084305,075437,093612
0000000034,0000033000,034074,-87913,096180,087563,074363,091427
0000000035,0000034000,060013,-89845,093779,090465,074314,088574
0000000036,0000035000,080631,-82689,091002,092726,075293,085335
0000000037,0000036000,094048,-67335,088125,094123,077203,082028
0000000038,0000037000,098995,-45226,085419,094519,079862,078973
0000000039,0000038000,094809,-18346,083150,093876,083009,076469
0000000040,0000039000,082036,010439,081549,092260,086328,074766
0000000041,0000040000,061987,038289,080769,089826,089501,074027
0000000042,0000041000,036418,062727,080882,086808,092221,074325
0000000043,0000042000,007951,081237,081877,083511,094214,075629
0000000044,0000043000,-20487,091850,083660,080254,095286,077814
0000000045,0000044000,-46361,093708,086062,077350,095336,080668
0000000046,0000045000,-67128,086698,088839,075089,094358,083907
0000000047,0000046000,-80512,071319,091715,073695,092446,087214
0000000048,0000047000,-85318,049065,094421,073298,089787,090269
0000000049,0000048000,-81244,022294,096691,073938,086643,092772
0000000050,0000049000,-68537,-06420,098292,075556,083322,094476
0000000051,0000050000,-48358,-34402,099073,077991,080148,095215
0000000052,0000051000,-22822,-58816,098960,081006,077431,094917
0000000053,0000052000,005550,-77226,097964,084305,075437,093612
0000000054,0000053000,034099,-87944,096181,087563,074364,091428
0000000055,0000054000,060002,-89839,093780,090464,074315,088574
0000000056,0000055000,080629,-82688,091002,092725,075293,085335
0000000057,0000056000,094064,-67355,088126,094122,077203,082029
0000000058,0000057000,098979,-45214,085420,094518,079863,078974
0000000059,0000058000,094797,-18337,083151,093876,083008,076470
0000000060,0000059000,082070,010407,081549,092260,086327,074766
0000000061,0000060000,062005,038273,080768,089825,089501,074028
0000000062,0000061000,036401,062750,080881,086808,092220,074325
0000000063,0000062000,007958,081238,081877,083512,094213,075630
0000000064,0000063000,-20470,091838,083660,080254,095285,077814
0000000065,0000064000,-46373,093727,086061,077351,095336,080668
0000000066,0000065000,-67120,086699,088839,075090,094357,083907
0000000067,0000066000,-80490,071305,091715,073695,092446,087213
0000000068,0000067000,-85342,049092,094421,073298,089788,090268
0000000069,0000068000,-81267,022320,096691,073939,086643,092771
0000000070,0000069000,-68524,-06433,098292,075556,083323,094475
0000000071,0000070000,-48361,-34402,099073,077990,080150,095214
0000000072,0000071000,-22845,-58797,098961,081006,077432,094916
0000000073,0000072000,005552,-77234,097965,084304,075438,093612
0000000074,0000073000,034096,-87951,096182,087561,074365,091428
0000000075,0000074000,059976,-89824,093781,090463,074316,088575
0000000076,0000075000,080636,-82703,091003,092724,075294,085336
0000000077,0000076000,094088,-67387,088126,094120,077204,082030
0000000078,0000077000,098969,-45210,085421,094516,079863,078975
0000000079,0000078000,094794,-18335,083151,093875,083008,076471
0000000080,0000079000,082096,010382,081549,092260,086326,074768
0000000081,0000080000,062013,038269,080768,089825,089500,074029
0000000082,0000081000,036403,062756,080880,086809,092219,074326
0000000083,0000082000,007987,081222,081876,083512,094211,075630
0000000084,0000083000,-20460,091840,083659,080255,095284,077815
0000000085,0000084000,-46389,093756,086060,077352,095335,080667
0000000086,0000085000,-67111,086703,088837,075092,094356,083906
0000000087,0000086000,-80477,071302,091714,073696,092446,087212
0000000088,0000087000,-85361,049119,094420,073299,089789,090266
0000000089,0000088000,-81280,022338,096690,073940,086644,092770
0000000090,0000089000,-68524,-06434,098292,075556,083324,094473
0000000091,0000090000,-48388,-34383,099074,077990,080152,095212
0000000092,0000091000,-22868,-58783,098962,081005,077434,094915
0000000093,0000092000,005556,-77252,097966,084302,075440,093612
0000000094,0000093000,034084,-87956,096183,087559,074367,091428
0000000095,0000094000,059951,-89816,093783,090461,074318,088575
0000000096,0000095000,080641,-82724,091005,092722,075295,085337
0000000097,0000096000,094099,-67413,088128,094118,077204,082031
0000000098,0000097000,098964,-45215,085422,094514,079863,078977
0000000099,0000098000,094811,-18356,083151,093874,083007,076474
0000000100,0000099000,082125,010354,081548,092259,086325,074770
0000000101,0000100000,062018,038270,080767,089824,089498,074031
0000000102,0000101000,036416,062756,080879,086810,092216,074328
0000000103,0000102000,008021,081205,081874,083514,094209,075631
0000000104,0000103000,-20449,091847,083657,080257,095282,077815
0000000105,0000104000,-46391,093780,086058,077354,095333,080667
0000000106,0000105000,-67098,086710,088835,075094,094355,083905
0000000107,0000106000,-80479,071319,091712,073698,092446,087210
0000000108,0000107000,-85385,049154,094419,073301,089789,090264
0000000109,0000108000,-81288,022353,096690,073942,086645,092767
0000000110,0000109000,-68534,-06426,098292,075557,083326,094471
0000000111,0000110000,-48425,-34355,099075,077990,080154,095210
0000000112,0000111000,-22895,-58771,098963,081004,077437,094913
0000000113,0000112000,005548,-77264,097968,084301,075443,093610
0000000114,0000113000,034061,-87958,096186,087556,074370,091427
0000000115,0000114000,059934,-89823,093785,090458,074320,088576
0000000116,0000115000,080650,-82756,091007,092719,075296,085339
0000000117,0000116000,094102,-67437,088130,094115,077205,082034
0000000118,0000117000,098964,-45229,085423,094512,079863,078980
0000000119,0000118000,094840,-18390,083152,093872,083005,076477
0000000120,0000119000,082157,010323,081548,092258,086323,074773
0000000121,0000120000,062034,038264,080766,089824,089496,074034
0000000122,0000121000,036445,062746,080877,086811,092213,074330
0000000123,0000122000,008056,081194,081871,083516,094205,075633
0000000124,0000123000,-20437,091864,083654,080259,095279,077815
0000000125,0000124000,-46381,093801,086055,077358,095330,080666
0000000126,0000125000,-67082,086723,088832,075098,094353,083903
0000000127,0000126000,-80489,071352,091710,073701,092445,087207
0000000128,0000127000,-85410,049197,094417,073304,089789,090261
0000000129,0000128000,-81303,022376,096689,073944,086646,092763
0000000130,0000129000,-68561,-06403,098293,075558,083329,094467
0000000131,0000130000,-48468,-34325,099076,077989,080158,095207
0000000132,0000131000,-22923,-58764,098965,081003,077440,094911
0000000133,0000132000,005525,-77271,097971,084298,075447,093609
0000000134,0000133000,034027,-87959,096189,087553,074374,091427
0000000135,0000134000,059917,-89841,093789,090454,074323,088577
0000000136,0000135000,080657,-82796,091010,092715,075298,085341
0000000137,0000136000,094104,-67467,088133,094111,077206,082037
0000000138,0000137000,098975,-45259,085425,094508,079862,078984
0000000139,0000138000,094876,-18435,083152,093869,083003,076481
0000000140,0000139000,082192,010291,081548,092256,086320,074778
0000000141,0000140000,062064,038250,080765,089824,089492,074038
0000000142,0000141000,036491,062727,080874,086812,092208,074333
0000000143,0000142000,008095,081188,081868,083518,094201,075634
0000000144,0000143000,-20419,091886,083650,080263,095275,077816
0000000145,0000144000,-46363,093824,086050,077363,095327,080665
0000000146,0000145000,-67068,086747,088829,075103,094351,083900
0000000147,0000146000,-80503,071398,091707,073706,092445,087203
0000000148,0000147000,-85435,049244,094415,073308,089790,090256
0000000149,0000148000,-81326,022409,096688,073947,086649,092758
0000000150,0000149000,-68604,-06365,098293,075559,083333,094462
0000000151,0000150000,-48520,-34290,099078,077989,080163,095202
0000000152,0000151000,-22960,-58756,098968,081001,077446,094907
0000000153,0000152000,005487,-77274,097975,084294,075453,093607
0000000154,0000153000,033986,-87964,096194,087548,074379,091427
0000000155,0000154000,059900,-89871,093793,090449,074327,088578
0000000156,0000155000,080657,-82841,091015,092709,075301,085344
0000000157,0000156000,094106,-67507,088137,094105,077207,082042
0000000158,0000157000,098999,-45307,085427,094504,079861,078989
0000000159,0000158000,094921,-18491,083153,093866,083001,076487
0000000160,0000159000,082234,010253,081548,092254,086316,074784
0000000161,0000160000,062110,038225,080763,089825,089486,074043
0000000162,0000161000,036550,062703,080871,086814,092202,074337
0000000163,0000162000,008142,081186,081864,083522,094195,075637
0000000164,0000163000,-20390,091909,083645,080268,095270,077816
0000000165,0000164000,-46335,093852,086045,077369,095322,080663
0000000166,0000165000,-67058,086787,088824,075109,094348,083897
0000000167,0000166000,-80522,071458,091703,073712,092444,087198
0000000168,0000167000,-85461,049300,094412,073313,089791,090250
0000000169,0000168000,-81361,022456,096687,073951,086652,092752
0000000170,0000169000,-68662,-06314,098294,075561,083338,094456
0000000171,0000170000,-48582,-34251,099080,077989,080169,095196
0000000172,0000171000,-23011,-58744,098972,080999,077452,094903
0000000173,0000172000,005433,-77273,097980,084290,075460,093604
0000000174,0000173000,033939,-87976,096200,087542,074385,091426
0000000175,0000174000,059880,-89911,093799,090442,074332,088580
0000000176,0000175000,080652,-82893,091020,092702,075304,085348
0000000177,0000176000,094112,-67559,088141,094098,077209,082047
0000000178,0000177000,099032,-45372,085431,094498,079860,078996
0000000179,0000178000,094973,-18557,083155,093862,082997,076495
0000000180,0000179000,082287,010206,081547,092252,086311,074791
0000000181,0000180000,062174,038188,080760,089825,089479,074050
0000000182,0000181000,036621,062676,080866,086817,092194,074342
0000000183,0000182000,008197,081189,081858,083527,094187,075640
0000000184,0000183000,-20348,091934,083638,080275,095262,077817
0000000185,0000184000,-46300,093885,086038,077376,095316,080661
0000000186,0000185000,-67050,086841,088817,075117,094345,083893
0000000187,0000186000,-80542,071531,091697,073720,092442,087192
0000000188,0000187000,-85492,049368,094408,073320,089792,090242
0000000189,0000188000,-81410,022520,096685,073955,086655,092743
0000000190,0000189000,-68734,-06249,098295,075563,083344,094447
0000000191,0000190000,-48654,-34207,099083,077989,080176,095189
0000000192,0000191000,-23078,-58726,098977,080996,077461,094897
0000000193,0000192000,005364,-77269,097987,084284,075468,093601
0000000194,0000193000,033886,-87995,096207,087535,074393,091426
0000000195,0000194000,059854,-89961,093807,090433,074338,088582
0000000196,0000195000,080642,-82955,091028,092693,075309,085352
0000000197,0000196000,094123,-67629,088147,094090,077210,082054
0000000198,0000197000,099075,-45455,085435,094491,079859,079005
0000000199,0000198000,095034,-18635,083157,093856,082994,076504
0000000200,0000199000,082355,010146,081546,092249,086305,074800
0000000201,0000200000,062257,038138,080757,089825,089471,074058
0000000202,0000201000,036705,062645,080861,086820,092185,074348
0000000203,0000202000,008264,081192,081851,083532,094178,075643
0000000204,0000203000,-20293,091961,083630,080283,095254,077817
0000000205,0000204000,-46260,093929,086030,077386,095309,080659
0000000206,0000205000,-67043,086912,088810,075127,094340,083887
0000000207,0000206000,-80563,071617,091691,073729,092440,087184
0000000208,0000207000,-85530,049451,094404,073328,089793,090233
0000000209,0000208000,-81475,022603,096683,073961,086660,092733
0000000210,0000209000,-68819,-06172,098296,075566,083351,094437
0000000211,0000210000,-48740,-34156,099086,077989,080185,095180
0000000212,0000211000,-23164,-58700,098983,080992,077471,094891
0000000213,0000212000,005280,-77264,097995,084278,075479,093597
0000000214,0000213000,033823,-88023,096216,087526,074403,091425
0000000215,0000214000,059819,-90019,093816,090423,074346,088585
0000000216,0000215000,080628,-83028,091036,092682,075314,085358
0000000217,0000216000,094140,-67717,088154,094079,077212,082062
0000000218,0000217000,099127,-45555,085440,094482,079857,079015
0000000219,0000218000,095104,-18727,083159,093850,082989,076515
0000000220,0000219000,082440,010070,081545,092246,086297,074811
0000000221,0000220000,062359,038076,080753,089826,089461,074067
0000000222,0000221000,036804,062611,080855,086824,092174,074356
0000000223,0000222000,008347,081196,081842,083540,094167,075648
0000000224,0000223000,-20222,091991,083620,080293,095243,077818
0000000225,0000224000,-46214,093985,086020,077397,095301,080656
0000000226,0000225000,-67035,086998,088800,075138,094334,083881
0000000227,0000226000,-80585,071717,091683,073740,092438,087175
0000000228,0000227000,-85578,049552,094399,073337,089795,090222
0000000229,0000228000,-81555,022705,096681,073967,086665,092721
0000000230,0000229000,-68920,-06082,098297,075569,083359,094425
0000000231,0000230000,-48844,-34095,099091,077988,080196,095170
0000000232,0000231000,-23271,-58666,098990,080988,077484,094883
0000000233,0000232000,005181,-77260,098004,084270,075491,093592
0000000234,0000233000,033751,-88058,096227,087516,074414,091424
0000000235,0000234000,059775,-90086,093827,090411,074355,088588
0000000236,0000235000,080612,-83115,091047,092669,075320,085365
0000000237,0000236000,094164,-67824,088163,094067,077214,082072
0000000238,0000237000,099186,-45674,085445,094472,079855,079027
0000000239,0000238000,095186,-18835,083161,093843,082983,076528
0000000240,0000239000,082545,009978,081544,092243,086287,074824
0000000241,0000240000,062479,038002,080748,089826,089449,074079
0000000242,0000241000,036919,062573,080847,086829,092161,074364
0000000243,0000242000,008447,081199,081832,083548,094153,075653
0000000244,0000243000,-20138,092025,083608,080304,095231,077819
0000000245,0000244000,-46162,094053,086008,077410,095291,080653
0000000246,0000245000,-67025,087100,088789,075152,094328,083874
0000000247,0000246000,-80608,071834,091674,073754,092436,087165
0000000248,0000247000,-85636,049674,094392,073348,089797,090209
0000000249,0000248000,-81650,022827,096678,073975,086672,092707
0000000250,0000249000,-69035,-05978,098298,075573,083369,094412
0000000251,0000250000,-48968,-34022,099096,077988,080209,095158
0000000252,0000251000,-23398,-58624,098999,080983,077498,094873
0000000253,0000252000,005067,-77256,098015,084261,075506,093587
0000000254,0000253000,033665,-88100,096240,087503,074427,091423
0000000255,0000254000,059720,-90163,093840,090396,074366,088592
0000000256,0000255000,080594,-83218,091059,092654,075327,085373
0000000257,0000256000,094192,-67952,088173,094053,077217,082084
0000000258,0000257000,099254,-45811,085452,094460,079853,079041
0000000259,0000258000,095283,-18961,083164,093834,082976,076544
0000000260,0000259000,082669,009867,081543,092239,086276,074839
0000000261,0000260000,062619,037917,080743,089827,089435,074092
0000000262,0000261000,037053,062530,080838,086834,092145,074374
0000000263,0000262000,008568,081199,081820,083558,094137,075659
0000000264,0000263000,-20040,092064,083594,080318,095216,077820
0000000265,0000264000,-46103,094134,085993,077426,095279,080649
0000000266,0000265000,-67011,087217,088776,075168,094321,083865
0000000267,0000266000,-80635,071969,091663,073769,092433,087152
0000000268,0000267000,-85705,049818,094385,073361,089799,090193
0000000269,0000268000,-81759,022969,096675,073984,086679,092690
0000000270,0000269000,-69169,-05859,098299,075578,083381,094395
0000000271,0000270000,-49113,-33935,099101,077987,080224,095143
0000000272,0000271000,-23546,-58573,099009,080977,077515,094863
0000000273,0000272000,004935,-77254,098028,084251,075523,093581
0000000274,0000273000,033564,-88148,096254,087489,074443,091422
0000000275,0000274000,059654,-90249,093856,090380,074378,088596
0000000276,0000275000,080574,-83338,091073,092636,075335,085382
0000000277,0000276000,094224,-68101,088184,094037,077220,082098
0000000278,0000277000,099329,-45967,085460,094446,079850,079058
0000000279,0000278000,095395,-19109,083168,093824,082968,076561
0000000280,0000279000,082814,009737,081541,092234,086264,074856
0000000281,0000280000,062779,037819,080736,089828,089419,074107
0000000282,0000281000,037208,062480,080827,086840,092127,074386
0000000283,0000282000,008708,081197,081806,083569,094119,075665
0000000284,0000283000,-19927,092110,083578,080333,095200,077821
0000000285,0000284000,-46035,094229,085977,077443,095266,080644
0000000286,0000285000,-66992,087350,088761,075187,094312,083855
0000000287,0000286000,-80665,072124,091650,073786,092430,087138
0000000288,0000287000,-85786,049985,094376,073376,089802,090176
0000000289,0000288000,-81883,023131,096671,073995,086688,092672
0000000290,0000289000,-69321,-05721,098301,075583,083394,094377
0000000291,0000290000,-49282,-33833,099108,077986,080241,095127
0000000292,0000291000,-23717,-58515,099020,080970,077534,094850
0000000293,0000292000,004785,-77251,098043,084238,075542,093574
0000000294,0000293000,033447,-88200,096272,087473,074460,091421
0000000295,0000294000,059578,-90347,093873,090361,074392,088601
0000000296,0000295000,080553,-83478,091089,092617,075344,085393
0000000297,0000296000,094261,-68271,088198,094018,077223,082113
0000000298,0000297000,099414,-46145,085470,094430,079847,079076
0000000299,0000298000,095524,-19278,083172,093813,082959,076581
0000000300,0000299000,082980,009587,081540,092229,086250,074876
0000000301,0000300000,062960,037708,080729,089829,089401,074124
