DIgSILENT PowerFactory,21000900,2000
6,06A,00D
1,TTPP_200000_100:Secondary Voltage A,,,V,0.10000000,-8369.695313,0.000000,67110,99998,1,1,P
2,TTPP_200000_100:Secondary Voltage B,,,V,0.10000000,-8037.459961,0.000000,63467,99998,1,1,P
3,TTPP_200000_100:Secondary Voltage C,,,V,0.10000000,-8338.105469,0.000000,66164,99998,1,1,P
4,TTCC_500_5:Secondary Current A,,,A,0.0010000000,-87.482841,0.000000,69408,99998,1,1,P
5,TTCC_500_5:Secondary Current B,,,A,0.0010000000,-85.165054,0.000000,70249,99998,1,1,P
6,TTCC_500_5:Secondary Current C,,,A,0.0010000000,-84.783669,0.000000,69413,99998,1,1,P
50
1
1000.000000,1101
30/06/2023,06:07:00.000000
30/06/2023,06:07:00.000000
ASCII
1.000000
0000000001,0000000000,089209,084015,074229,093399,089844,074189
0000000002,0000001000,086661,086449,074343,090383,092560,074487
0000000003,0000002000,083810,088304,075341,087084,094555,075793
0000000004,0000003000,080964,089365,077123,083829,095625,077978
0000000005,0000004000,078380,089548,079525,080924,095675,080832
0000000006,0000005000,076308,088841,082304,078664,094696,084072
0000000007,0000006000,074962,087311,085179,077270,092783,087378
0000000008,0000007000,074489,085080,087884,076875,090123,090434
0000000009,0000008000,074897,082402,090153,077515,086979,092937
0000000010,0000009000,076164,079535,091754,079134,083658,094640
0000000011,0000010000,078184,076736,092533,081571,080483,095377
0000000012,0000011000,080745,074288,092419,084585,077768,095079
0000000013,0000012000,083574,072457,091422,087884,075774,093773
0000000014,0000013000,086427,071386,089638,091143,074701,091588
0000000015,0000014000,089025,071191,087237,094045,074653,088734
0000000016,0000015000,091084,071909,084459,096303,075635,085494
0000000017,0000016000,092420,073450,081583,097701,077543,082187
0000000018,0000017000,092919,075657,078878,098095,080204,079133
0000000019,0000018000,092499,078344,076608,097451,083351,076630
0000000020,0000019000,091217,081227,075008,095835,086670,074926
0000000021,0000020000,089214,084009,074229,093401,089842,074189
0000000022,0000021000,086660,086450,074342,090381,092563,074487
0000000023,0000022000,083808,088305,075340,087084,094554,075793
0000000024,0000023000,080964,089365,077124,083828,095626,077978
0000000025,0000024000,078382,089546,079526,080925,095675,080832
0000000026,0000025000,076305,088845,082303,078663,094697,084072
0000000027,0000026000,074965,087309,085179,077270,092783,087379
0000000028,0000027000,074487,085081,087885,076874,090124,090434
0000000029,0000028000,074896,082403,090153,077515,086979,092937
0000000030,0000029000,076165,079535,091753,079133,083659,094640
0000000031,0000030000,078185,076734,092533,081570,080484,095378
0000000032,0000031000,080741,074292,092420,084585,077768,095079
0000000033,0000032000,083576,072454,091422,087883,075775,093774
0000000034,0000033000,086430,071384,089638,091142,074702,091588
0000000035,0000034000,089021,071194,087237,094043,074654,088734
0000000036,0000035000,091083,071911,084459,096304,075634,085494
0000000037,0000036000,092426,073444,081583,097699,077544,082188
0000000038,0000037000,092916,075659,078878,098094,080204,079133
0000000039,0000038000,092496,078348,076609,097451,083351,076630
0000000040,0000039000,091222,081222,075008,095835,086669,074927
0000000041,0000040000,089216,084007,074229,093399,089843,074189
0000000042,0000041000,086654,086455,074343,090382,092562,074488
0000000043,0000042000,083810,088303,075339,087085,094554,075793
0000000044,0000043000,080969,089361,077123,083827,095626,077979
0000000045,0000044000,078377,089550,079525,080923,095676,080832
0000000046,0000045000,076303,088847,082303,078664,094696,084072
0000000047,0000046000,074970,087304,085179,077269,092784,087378
0000000048,0000047000,074485,085083,087884,076873,090125,090433
0000000049,0000048000,074891,082407,090153,077515,086980,092936
0000000050,0000049000,076169,079531,091754,079134,083658,094639
0000000051,0000050000,078186,076733,092533,081568,080486,095377
0000000052,0000051000,080736,074297,092420,084584,077769,095079
0000000053,0000052000,083577,072453,091423,087883,075775,093774
0000000054,0000053000,086433,071381,089639,091140,074703,091588
0000000055,0000054000,089018,071197,087238,094042,074655,088734
0000000056,0000055000,091082,071911,084459,096303,075633,085495
0000000057,0000056000,092428,073441,081583,097699,077544,082189
0000000058,0000057000,092915,075660,078878,098093,080205,079134
0000000059,0000058000,092495,078349,076609,097451,083350,076631
0000000060,0000059000,091226,081219,075008,095835,086669,074928
0000000061,0000060000,089216,084007,074229,093398,089843,074190
0000000062,0000061000,086653,086457,074342,090382,092561,074488
0000000063,0000062000,083813,088301,075339,087085,094553,075793
0000000064,0000063000,080970,089360,077123,083827,095626,077979
0000000065,0000064000,078375,089553,079524,080924,095675,080832
0000000066,0000065000,076305,088846,082302,078665,094695,084072
0000000067,0000066000,074971,087303,085178,077270,092784,087378
0000000068,0000067000,074482,085086,087884,076873,090126,090432
0000000069,0000068000,074892,082408,090153,077516,086980,092935
0000000070,0000069000,076170,079529,091754,079133,083660,094639
0000000071,0000070000,078183,076736,092534,081568,080487,095376
0000000072,0000071000,080734,074298,092421,084584,077769,095078
0000000073,0000072000,083579,072450,091423,087882,075776,093773
0000000074,0000073000,086431,071382,089640,091139,074705,091588
0000000075,0000074000,089015,071199,087239,094041,074656,088735
0000000076,0000075000,091085,071907,084460,096302,075634,085496
0000000077,0000076000,092429,073439,081584,097697,077545,082190
0000000078,0000077000,092912,075662,078879,098092,080205,079135
0000000079,0000078000,092497,078347,076609,097450,083349,076632
0000000080,0000079000,091229,081216,075008,095834,086668,074929
0000000081,0000080000,089214,084010,074228,093398,089842,074191
0000000082,0000081000,086654,086457,074341,090383,092560,074489
0000000083,0000082000,083817,088298,075338,087086,094552,075794
0000000084,0000083000,080969,089363,077122,083828,095625,077979
0000000085,0000084000,078374,089556,079523,080926,095674,080832
0000000086,0000085000,076308,088844,082301,078666,094694,084071
0000000087,0000086000,074971,087305,085177,077271,092784,087377
0000000088,0000087000,074479,085090,087883,076875,090126,090431
0000000089,0000088000,074892,082408,090153,077517,086980,092934
0000000090,0000089000,076170,079529,091754,079133,083661,094637
0000000091,0000090000,078179,076740,092534,081568,080489,095375
0000000092,0000091000,080733,074298,092421,084584,077771,095077
0000000093,0000092000,083580,072448,091425,087881,075778,093773
0000000094,0000093000,086428,071383,089642,091137,074707,091588
0000000095,0000094000,089014,071198,087240,094039,074657,088735
0000000096,0000095000,091087,071904,084462,096300,075635,085497
0000000097,0000096000,092429,073438,081586,097694,077546,082191
0000000098,0000097000,092911,075662,078880,098090,080204,079137
0000000099,0000098000,092500,078343,076609,097449,083348,076634
0000000100,0000099000,091230,081214,075008,095833,086667,074931
0000000101,0000100000,089215,084010,074227,093398,089840,074193
0000000102,0000101000,086657,086455,074340,090383,092557,074491
0000000103,0000102000,083820,088297,075336,087087,094550,075795
0000000104,0000103000,080968,089365,077120,083830,095623,077979
0000000105,0000104000,078376,089557,079521,080929,095672,080831
0000000106,0000105000,076310,088844,082299,078669,094693,084069
0000000107,0000106000,074968,087308,085176,077273,092784,087375
0000000108,0000107000,074477,085093,087882,076877,090126,090429
0000000109,0000108000,074893,082408,090152,077519,086982,092931
0000000110,0000109000,076167,079532,091754,079134,083664,094634
0000000111,0000110000,078175,076742,092535,081568,080491,095373
0000000112,0000111000,080733,074297,092423,084583,077774,095075
0000000113,0000112000,083578,072448,091427,087878,075782,093772
0000000114,0000113000,086424,071384,089644,091134,074709,091588
0000000115,0000114000,089014,071196,087243,094036,074659,088736
0000000116,0000115000,091087,071900,084465,096296,075637,085499
0000000117,0000116000,092427,073438,081588,097691,077547,082194
0000000118,0000117000,092913,075659,078881,098088,080204,079140
0000000119,0000118000,092504,078339,076610,097447,083347,076638
0000000120,0000119000,091231,081213,075008,095832,086665,074935
0000000121,0000120000,089217,084009,074226,093398,089837,074196
0000000122,0000121000,086662,086452,074338,090385,092554,074493
0000000123,0000122000,083822,088297,075334,087089,094547,075796
0000000124,0000123000,080969,089368,077117,083833,095619,077979
0000000125,0000124000,078378,089557,079518,080932,095669,080831
0000000126,0000125000,076311,088846,082296,078672,094692,084068
0000000127,0000126000,074966,087313,085173,077276,092783,087372
0000000128,0000127000,074477,085096,087880,076880,090126,090425
0000000129,0000128000,074891,082409,090151,077521,086983,092927
0000000130,0000129000,076162,079536,091755,079135,083667,094630
0000000131,0000130000,078172,076745,092536,081568,080495,095369
0000000132,0000131000,080731,074297,092425,084581,077778,095073
0000000133,0000132000,083574,072449,091430,087876,075786,093770
0000000134,0000133000,086421,071384,089647,091131,074713,091588
0000000135,0000134000,089014,071192,087246,094032,074662,088737
0000000136,0000135000,091087,071898,084468,096292,075639,085501
0000000137,0000136000,092426,073436,081591,097687,077547,082197
0000000138,0000137000,092916,075654,078883,098084,080203,079144
0000000139,0000138000,092507,078334,076611,097444,083345,076642
0000000140,0000139000,091233,081211,075008,095830,086662,074939
0000000141,0000140000,089221,084007,074225,093399,089833,074200
0000000142,0000141000,086667,086450,074335,090386,092549,074496
0000000143,0000142000,083824,088298,075330,087091,094542,075798
0000000144,0000143000,080971,089369,077112,083837,095615,077980
0000000145,0000144000,078382,089558,079513,080937,095665,080830
0000000146,0000145000,076310,088850,082292,078677,094690,084065
0000000147,0000146000,074965,087318,085170,077281,092782,087368
0000000148,0000147000,074476,085099,087878,076884,090127,090420
0000000149,0000148000,074888,082414,090151,077523,086986,092922
0000000150,0000149000,076157,079541,091755,079136,083670,094625
0000000151,0000150000,078168,076747,092538,081568,080499,095365
0000000152,0000151000,080727,074297,092428,084579,077783,095069
0000000153,0000152000,083568,072450,091434,087872,075791,093768
0000000154,0000153000,086418,071382,089652,091127,074718,091587
0000000155,0000154000,089013,071189,087251,094027,074666,088738
0000000156,0000155000,091085,071895,084473,096286,075642,085504
0000000157,0000156000,092427,073431,081594,097682,077548,082201
0000000158,0000157000,092920,075648,078885,098080,080202,079150
0000000159,0000158000,092510,078330,076612,097441,083343,076648
0000000160,0000159000,091237,081208,075007,095829,086658,074945
0000000161,0000160000,089227,084002,074223,093399,089827,074205
0000000162,0000161000,086672,086448,074332,090388,092544,074500
0000000163,0000162000,083827,088300,075326,087095,094536,075801
0000000164,0000163000,080976,089370,077107,083842,095609,077980
0000000165,0000164000,078384,089560,079508,080943,095661,080828
0000000166,0000165000,076310,088856,082287,078683,094687,084062
0000000167,0000166000,074964,087323,085166,077287,092781,087363
0000000168,0000167000,074474,085103,087875,076889,090128,090414
0000000169,0000168000,074883,082420,090149,077527,086989,092916
0000000170,0000169000,076152,079546,091755,079138,083675,094619
0000000171,0000170000,078163,076749,092540,081567,080505,095359
0000000172,0000171000,080721,074300,092432,084577,077790,095065
0000000173,0000172000,083562,072451,091439,087868,075798,093765
0000000174,0000173000,086415,071380,089658,091121,074724,091587
0000000175,0000174000,089010,071185,087257,094020,074672,088740
0000000176,0000175000,091083,071891,084478,096279,075645,085508
0000000177,0000176000,092429,073425,081599,097675,077550,082207
0000000178,0000177000,092923,075641,078889,098074,080201,079157
0000000179,0000178000,092514,078325,076614,097436,083340,076656
0000000180,0000179000,091243,081203,075006,095827,086653,074952
0000000181,0000180000,089235,083998,074220,093399,089821,074212
0000000182,0000181000,086678,086447,074328,090390,092536,074505
0000000183,0000182000,083833,088300,075320,087100,094528,075803
0000000184,0000183000,080981,089371,077100,083849,095602,077981
0000000185,0000184000,078387,089564,079502,080950,095655,080826
0000000186,0000185000,076310,088862,082281,078691,094683,084057
0000000187,0000186000,074963,087329,085160,077295,092779,087357
0000000188,0000187000,074471,085110,087872,076896,090129,090407
0000000189,0000188000,074877,082428,090148,077531,086993,092907
0000000190,0000189000,076145,079551,091756,079141,083680,094611
0000000191,0000190000,078157,076753,092543,081567,080513,095352
0000000192,0000191000,080713,074303,092437,084574,077799,095059
0000000193,0000192000,083556,072451,091446,087863,075807,093762
0000000194,0000193000,086411,071377,089665,091113,074732,091586
0000000195,0000194000,089007,071181,087265,094011,074678,088742
0000000196,0000195000,091082,071885,084485,096270,075649,085512
0000000197,0000196000,092431,073417,081605,097667,077551,082214
0000000198,0000197000,092927,075633,078893,098066,080200,079165
0000000199,0000198000,092519,078318,076615,097431,083336,076665
0000000200,0000199000,091251,081196,075005,095824,086646,074961
0000000201,0000200000,089243,083992,074217,093399,089813,074220
0000000202,0000201000,086685,086445,074322,090393,092527,074511
0000000203,0000202000,083840,088300,075313,087106,094518,075807
0000000204,0000203000,080988,089373,077092,083857,095593,077982
0000000205,0000204000,078390,089570,079493,080959,095649,080824
0000000206,0000205000,076311,088869,082273,078701,094678,084052
0000000207,0000206000,074962,087337,085154,077304,092778,087349
0000000208,0000207000,074466,085119,087867,076903,090131,090397
0000000209,0000208000,074870,082437,090146,077537,086997,092897
0000000210,0000209000,076138,079558,091757,079143,083687,094601
0000000211,0000210000,078148,076758,092547,081567,080522,095343
0000000212,0000211000,080703,074306,092443,084570,077809,095052
0000000213,0000212000,083548,072451,091453,087857,075817,093758
0000000214,0000213000,086405,071373,089674,091105,074742,091585
0000000215,0000214000,089002,071176,087274,094001,074686,088745
0000000216,0000215000,091081,071878,084494,096259,075654,085518
0000000217,0000216000,092434,073407,081612,097656,077553,082222
0000000218,0000217000,092931,075624,078898,098058,080199,079175
0000000219,0000218000,092526,078309,076617,097425,083331,076676
0000000220,0000219000,091261,081187,075005,095821,086638,074972
0000000221,0000220000,089253,083987,074213,093399,089803,074229
0000000222,0000221000,086695,086442,074316,090397,092515,074519
0000000223,0000222000,083850,088299,075304,087113,094507,075811
0000000224,0000223000,080994,089376,077083,083866,095583,077982
0000000225,0000224000,078394,089576,079483,080971,095640,080821
0000000226,0000225000,076312,088877,082263,078713,094673,084046
0000000227,0000226000,074960,087346,085146,077316,092776,087340
0000000228,0000227000,074460,085130,087862,076913,090132,090386
0000000229,0000228000,074862,082447,090143,077544,087002,092885
0000000230,0000229000,076129,079566,091758,079147,083696,094589
0000000231,0000230000,078137,076765,092551,081566,080533,095333
0000000232,0000231000,080692,074310,092450,084566,077821,095044
0000000233,0000232000,083539,072450,091463,087849,075829,093753
0000000234,0000233000,086397,071370,089685,091094,074753,091585
0000000235,0000234000,088997,071170,087285,093989,074695,088748
0000000236,0000235000,091080,071868,084504,096246,075660,085525
0000000237,0000236000,092436,073396,081620,097644,077555,082232
0000000238,0000237000,092936,075613,078904,098047,080197,079187
0000000239,0000238000,092535,078298,076620,097418,083325,076689
0000000240,0000239000,091272,081177,075003,095817,086629,074985
0000000241,0000240000,089264,083980,074208,093400,089791,074241
0000000242,0000241000,086706,086438,074308,090402,092502,074527
0000000243,0000242000,083860,088299,075294,087121,094494,075816
0000000244,0000243000,081002,089380,077071,083878,095571,077983
0000000245,0000244000,078398,089584,079471,080984,095630,080818
0000000246,0000245000,076314,088887,082252,078727,094666,084039
0000000247,0000246000,074958,087358,085137,077329,092774,087329
0000000248,0000247000,074454,085143,087855,076924,090134,090373
0000000249,0000248000,074853,082458,090141,077552,087008,092871
0000000250,0000249000,076117,079576,091759,079150,083706,094575
0000000251,0000250000,078123,076773,092557,081565,080546,095320
0000000252,0000251000,080680,074314,092459,084561,077835,095035
0000000253,0000252000,083528,072450,091474,087840,075844,093748
0000000254,0000253000,086388,071367,089698,091081,074766,091584
0000000255,0000254000,088991,071163,087298,093974,074706,088752
0000000256,0000255000,091079,071857,084516,096231,075667,085533
0000000257,0000256000,092439,073384,081630,097630,077558,082244
0000000258,0000257000,092943,075600,078910,098035,080195,079202
0000000259,0000258000,092545,078285,076623,097409,083318,076704
0000000260,0000259000,091284,081166,075002,095813,086618,075000
0000000261,0000260000,089277,083972,074203,093401,089777,074254
0000000262,0000261000,086720,086434,074299,090408,092486,074537
0000000263,0000262000,083873,088298,075282,087131,094478,075822
0000000264,0000263000,081011,089384,077057,083891,095556,077984
0000000265,0000264000,078405,089592,079457,081000,095619,080814
0000000266,0000265000,076316,088898,082239,078743,094659,084030
0000000267,0000266000,074954,087372,085126,077344,092771,087317
0000000268,0000267000,074447,085158,087848,076937,090137,090358
0000000269,0000268000,074843,082472,090138,077561,087016,092854
0000000270,0000269000,076104,079588,091761,079155,083718,094559
0000000271,0000270000,078108,076782,092562,081565,080561,095306
0000000272,0000271000,080666,074319,092468,084555,077852,095024
0000000273,0000272000,083515,072450,091487,087829,075861,093742
0000000274,0000273000,086377,071363,089713,091067,074782,091583
0000000275,0000274000,088985,071154,087313,093958,074718,088756
0000000276,0000275000,091078,071845,084530,096214,075675,085542
0000000277,0000276000,092441,073369,081642,097613,077561,082258
0000000278,0000277000,092950,075584,078918,098022,080192,079218
0000000279,0000278000,092557,078269,076626,097400,083310,076722
0000000280,0000279000,091298,081154,075001,095808,086606,075017
0000000281,0000280000,089293,083963,074197,093401,089761,074269
0000000282,0000281000,086736,086428,074288,090414,092469,074549
0000000283,0000282000,083887,088298,075268,087143,094460,075829
0000000284,0000283000,081022,089390,077041,083906,095540,077985
0000000285,0000284000,078412,089601,079440,081017,095605,080809
0000000286,0000285000,076318,088911,082224,078761,094650,084020
0000000287,0000286000,074951,087388,085114,077361,092768,087302
0000000288,0000287000,074439,085174,087839,076952,090140,090340
0000000289,0000288000,074831,082488,090134,077571,087024,092836
0000000290,0000289000,076088,079602,091762,079160,083731,094541
0000000291,0000290000,078091,076792,092569,081564,080578,095290
0000000292,0000291000,080649,074324,092480,084548,077871,095012
0000000293,0000292000,083500,072451,091502,087817,075880,093735
0000000294,0000293000,086365,071358,089730,091051,074799,091582
0000000295,0000294000,088978,071143,087331,093939,074732,088761
0000000296,0000295000,091076,071831,084546,096194,075684,085553
0000000297,0000296000,092445,073353,081655,097595,077564,082273
0000000298,0000297000,092959,075566,078928,098006,080189,079237
0000000299,0000298000,092570,078252,076630,097389,083301,076742
0000000300,0000299000,091314,081139,074999,095803,086592,075037
0000000301,0000300000,089311,083952,074189,093403,089743,074286
