DIgSILENT PowerFactory,21000900,2000
6,06A,00D
1,TTPP_200000_100:Secondary Voltage A,,,V,0.010000000,-71.422882,0.000000,-85629,99998,1,1,P
2,TTPP_200000_100:Secondary Voltage B,,,V,0.010000000,-62.150711,0.000000,-88209,99998,1,1,P
3,TTPP_200000_100:Secondary Voltage C,,,V,0.10000000,-8941.790039,0.000000,79446,99998,1,1,P
4,TTCC_300_1:Secondary Current A,,,A,0.00010000000,-4.743534,0.000000,-29882,99998,1,1,P
5,TTCC_300_1:Secondary Current B,,,A,0.00010000000,-4.904140,0.000000,-1933,99998,1,1,P
6,TTCC_300_1:Secondary Current C,,,A,0.00010000000,-4.900243,0.000000,-2022,99998,1,1,P
50
1
1000.000000,1101
30/06/2023,06:04:40.000000
30/06/2023,06:04:40.000000
ASCII
1.000000
0000000001,0000000000,078207,020967,080836,026499,035059,083921
0000000002,0000001000,056859,048151,080252,036254,025777,083449
0000000003,0000002000,030481,071425,080563,047090,018781,079609
0000000004,0000003000,001903,088228,081739,057966,014738,072775
0000000005,0000004000,-26071,096879,083673,067813,014056,063609
0000000006,0000005000,-50951,096778,086170,075664,016806,053009
0000000007,0000006000,-70104,087869,088977,080755,022696,042028
0000000008,0000007000,-81553,070799,091828,082574,031177,031730
0000000009,0000008000,-84451,047464,094451,080951,041416,023112
0000000010,0000009000,-78481,020237,096578,076062,052384,017033
0000000011,0000010000,-63962,-08504,098000,068368,063022,014089
0000000012,0000011000,-42418,-35883,098584,058609,072309,014560
0000000013,0000012000,-16223,-58964,098272,047760,079319,018400
0000000014,0000013000,012278,-75694,097096,036894,083351,025234
0000000015,0000014000,040433,-84528,095163,027052,084027,034401
0000000016,0000015000,065229,-84359,092667,019191,081288,044999
0000000017,0000016000,084310,-75357,089859,014110,075389,055981
0000000018,0000017000,095933,-58459,087007,012290,066910,066279
0000000019,0000018000,098776,-35077,084385,013899,056683,074897
0000000020,0000019000,092623,-07668,082258,018800,045703,080976
0000000021,0000020000,078262,020916,080836,026501,035058,083920
0000000022,0000021000,056839,048179,080252,036248,025783,083449
0000000023,0000022000,030437,071466,080563,047095,018776,079609
0000000024,0000023000,001939,088200,081740,057969,014735,072775
0000000025,0000024000,-26061,096867,083673,067812,014058,063608
0000000026,0000025000,-50966,096805,086170,075667,016803,053009
0000000027,0000026000,-70086,087856,088976,080754,022697,042028
0000000028,0000027000,-81558,070805,091829,082574,031176,031730
0000000029,0000028000,-84485,047498,094452,080955,041412,023112
0000000030,0000029000,-78461,020217,096578,076065,052382,017032
0000000031,0000030000,-63924,-08537,098000,068369,063021,014089
0000000032,0000031000,-42458,-35847,098584,058609,072310,014560
0000000033,0000032000,-16246,-58942,098273,047764,079316,018399
0000000034,0000033000,012312,-75734,097096,036899,083347,025233
0000000035,0000034000,040432,-84530,095164,027051,084029,034400
0000000036,0000035000,065212,-84342,092666,019194,081287,044998
0000000037,0000036000,084326,-75376,089859,014112,075388,055979
0000000038,0000037000,095929,-58459,087007,012290,066911,066278
0000000039,0000038000,098751,-35057,084385,013903,056680,074895
0000000040,0000039000,092653,-07694,082258,018802,045702,080975
0000000041,0000040000,078285,020894,080836,026500,035061,083919
0000000042,0000041000,056802,048217,080252,036249,025783,083448
0000000043,0000042000,030433,071471,080563,047097,018774,079608
0000000044,0000043000,001974,088167,081740,057970,014734,072775
0000000045,0000044000,-26069,096879,083673,067811,014060,063608
0000000046,0000045000,-50981,096825,086169,075666,016803,053009
0000000047,0000046000,-70067,087841,088976,080755,022695,042029
0000000048,0000047000,-81568,070813,091829,082573,031176,031731
0000000049,0000048000,-84505,047520,094452,080957,041410,023113
0000000050,0000049000,-78436,020194,096578,076067,052379,017033
0000000051,0000050000,-63919,-08542,098000,068368,063021,014089
0000000052,0000051000,-42496,-35812,098585,058611,072307,014560
0000000053,0000052000,-16243,-58948,098273,047769,079311,018399
0000000054,0000053000,012337,-75763,097096,036901,083345,025233
0000000055,0000054000,040413,-84517,095164,027054,084027,034398
0000000056,0000055000,065202,-84333,092667,019198,081285,044996
0000000057,0000056000,084345,-75401,089859,014115,075387,055977
0000000058,0000057000,095921,-58455,087007,012292,066912,066275
0000000059,0000058000,098742,-35049,084385,013907,056680,074892
0000000060,0000059000,092682,-07722,082258,018804,045703,080972
0000000061,0000060000,078288,020892,080836,026498,035065,083916
0000000062,0000061000,056778,048243,080251,036249,025785,083446
0000000063,0000062000,030453,071458,080562,047098,018775,079607
0000000064,0000063000,001997,088148,081739,057967,014738,072774
0000000065,0000064000,-26087,096904,083672,067808,014062,063609
0000000066,0000065000,-50984,096834,086169,075665,016803,053011
0000000067,0000066000,-70050,087828,088976,080753,022695,042031
0000000068,0000067000,-81583,070831,091829,082571,031175,031733
0000000069,0000068000,-84516,047534,094451,080957,041407,023116
0000000070,0000069000,-78419,020178,096578,076066,052377,017036
0000000071,0000070000,-63934,-08532,098000,068368,063019,014092
0000000072,0000071000,-42524,-35789,098585,058614,072302,014562
0000000073,0000072000,-16230,-58967,098273,047773,079306,018400
0000000074,0000073000,012343,-75776,097097,036904,083343,025233
0000000075,0000074000,040388,-84499,095164,027058,084025,034397
0000000076,0000075000,065204,-84342,092667,019204,081281,044994
0000000077,0000076000,084362,-75424,089860,014120,075386,055974
0000000078,0000077000,095910,-58450,087008,012296,066912,066271
0000000079,0000078000,098746,-35053,084385,013911,056681,074887
0000000080,0000079000,092709,-07748,082258,018805,045707,080967
0000000081,0000080000,078285,020897,080835,026498,035070,083912
0000000082,0000081000,056773,048254,080251,036249,025789,083442
0000000083,0000082000,030482,071438,080562,047096,018779,079605
0000000084,0000083000,002006,088148,081738,057962,014743,072774
0000000085,0000084000,-26103,096929,083671,067803,014066,063610
0000000086,0000085000,-50973,096834,086168,075661,016804,053014
0000000087,0000086000,-70041,087825,088975,080747,022697,042035
0000000088,0000087000,-81604,070857,091828,082567,031174,031739
0000000089,0000088000,-84521,047544,094451,080955,041403,023122
0000000090,0000089000,-78414,020172,096578,076065,052372,017042
0000000091,0000090000,-63959,-08513,098001,068368,063013,014097
0000000092,0000091000,-42543,-35777,098586,058618,072294,014566
0000000093,0000092000,-16221,-58985,098274,047778,079299,018403
0000000094,0000093000,012331,-75778,097098,036909,083337,025233
0000000095,0000094000,040366,-84489,095166,027066,084019,034395
0000000096,0000095000,065215,-84364,092668,019213,081277,044990
0000000097,0000096000,084371,-75445,089861,014126,075385,055968
0000000098,0000097000,095901,-58448,087009,012302,066913,066264
0000000099,0000098000,098761,-35070,084385,013916,056683,074880
0000000100,0000099000,092732,-07771,082258,018807,045712,080960
0000000101,0000100000,078284,020902,080835,026498,035077,083905
0000000102,0000101000,056786,048252,080250,036248,025795,083437
0000000103,0000102000,030511,071421,080560,047091,018787,079601
0000000104,0000103000,002008,088159,081737,057955,014752,072773
0000000105,0000104000,-26108,096951,083670,067796,014071,063612
0000000106,0000105000,-50958,096833,086166,075653,016807,053018
0000000107,0000106000,-70043,087838,088974,080739,022699,042042
0000000108,0000107000,-81626,070887,091827,082560,031173,031747
0000000109,0000108000,-84525,047553,094451,080951,041398,023131
0000000110,0000109000,-78423,020178,096578,076062,052366,017051
0000000111,0000110000,-63991,-08488,098002,068368,063005,014105
0000000112,0000111000,-42558,-35772,098587,058623,072284,014572
0000000113,0000112000,-16223,-58999,098276,047784,079289,018407
0000000114,0000113000,012308,-75773,097100,036917,083329,025234
0000000115,0000114000,040352,-84492,095167,027077,084010,034393
0000000116,0000115000,065227,-84393,092670,019224,081271,044984
0000000117,0000116000,084373,-75462,089862,014136,075384,055960
0000000118,0000117000,095900,-58456,087009,012312,066914,066253
0000000119,0000118000,098786,-35099,084385,013923,056687,074868
0000000120,0000119000,092755,-07792,082258,018810,045720,080948
0000000121,0000120000,078292,020902,080834,026498,035087,083895
0000000122,0000121000,056812,048241,080248,036245,025806,083429
0000000123,0000122000,030540,071411,080558,047084,018799,079596
0000000124,0000123000,002011,088177,081735,057945,014763,072771
0000000125,0000124000,-26101,096967,083667,067785,014079,063614
0000000126,0000125000,-50943,096839,086164,075641,016813,053025
0000000127,0000126000,-70053,087865,088973,080726,022702,042051
0000000128,0000127000,-81645,070920,091826,082550,031171,031759
0000000129,0000128000,-84532,047565,094450,080944,041392,023144
0000000130,0000129000,-78445,020196,096578,076057,052358,017064
0000000131,0000130000,-64027,-08463,098003,068369,062993,014117
0000000132,0000131000,-42574,-35771,098588,058628,072269,014581
0000000133,0000132000,-16239,-59006,098278,047792,079275,018412
0000000134,0000133000,012279,-75770,097103,036929,083316,025235
0000000135,0000134000,040342,-84508,095170,027092,083999,034389
0000000136,0000135000,065235,-84426,092673,019238,081264,044977
0000000137,0000136000,084371,-75481,089865,014150,075381,055948
0000000138,0000137000,095909,-58478,087011,012324,066915,066239
0000000139,0000138000,098818,-35136,084386,013933,056693,074853
0000000140,0000139000,092778,-07813,082257,018815,045732,080933
0000000141,0000140000,078313,020894,080833,026498,035100,083881
0000000142,0000141000,056850,048224,080246,036240,025821,083418
0000000143,0000142000,030568,071407,080556,047073,018816,079590
0000000144,0000143000,002021,088197,081732,057931,014778,072770
0000000145,0000144000,-26084,096982,083664,067770,014091,063618
0000000146,0000145000,-50932,096856,086161,075624,016822,053033
0000000147,0000146000,-70069,087903,088970,080710,022705,042064
0000000148,0000147000,-81663,070955,091824,082537,031168,031775
0000000149,0000148000,-84547,047586,094449,080933,041384,023162
0000000150,0000149000,-78480,020227,096579,076052,052346,017082
0000000151,0000150000,-64066,-08437,098004,068370,062976,014133
0000000152,0000151000,-42598,-35770,098591,058634,072251,014594
0000000153,0000152000,-16269,-59007,098281,047803,079257,018419
0000000154,0000153000,012247,-75772,097106,036945,083298,025236
0000000155,0000154000,040334,-84534,095173,027111,083984,034385
0000000156,0000155000,065236,-84461,092676,019258,081255,044967
0000000157,0000156000,084370,-75507,089867,014169,075377,055933
0000000158,0000157000,095929,-58515,087012,012341,066917,066220
0000000159,0000158000,098854,-35180,084386,013944,056702,074833
0000000160,0000159000,092806,-07838,082257,018820,045746,080913
0000000161,0000160000,078348,020876,080831,026499,035118,083863
0000000162,0000161000,056896,048204,080243,036233,025842,083404
0000000163,0000162000,030599,071410,080553,047060,018838,079582
0000000164,0000163000,002041,088217,081728,057914,014797,072768
0000000165,0000164000,-26060,096999,083660,067749,014107,063623
0000000166,0000165000,-50926,096886,086158,075601,016833,053045
0000000167,0000166000,-70087,087952,088967,080688,022710,042081
0000000168,0000167000,-81681,070994,091822,082519,031164,031796
0000000169,0000168000,-84573,047620,094449,080920,041375,023185
0000000170,0000169000,-78527,020268,096579,076045,052330,017105
0000000171,0000170000,-64110,-08410,098006,068371,062955,014153
0000000172,0000171000,-42634,-35764,098594,058642,072227,014609
0000000173,0000172000,-16312,-59004,098285,047817,079233,018429
0000000174,0000173000,012213,-75781,097110,036966,083275,025238
0000000175,0000174000,040323,-84568,095178,027135,083966,034379
0000000176,0000175000,065231,-84499,092680,019283,081243,044954
0000000177,0000176000,084373,-75544,089871,014193,075373,055914
0000000178,0000177000,095958,-58567,087015,012362,066920,066197
0000000179,0000178000,098893,-35229,084388,013959,056713,074807
0000000180,0000179000,092844,-07870,082256,018828,045764,080887
0000000181,0000180000,078399,020847,080829,026498,035141,083840
0000000182,0000181000,056950,048182,080240,036224,025869,083387
0000000183,0000182000,030636,071415,080548,047044,018865,079571
0000000184,0000183000,002072,088237,081723,057892,014822,072766
0000000185,0000184000,-26033,097023,083655,067723,014127,063629
0000000186,0000185000,-50924,096930,086153,075573,016847,053059
0000000187,0000186000,-70104,088008,088963,080662,022715,042103
0000000188,0000187000,-81702,071042,091819,082497,031160,031822
0000000189,0000188000,-84612,047669,094448,080903,041363,023214
0000000190,0000189000,-78583,020318,096580,076037,052310,017133
0000000191,0000190000,-64162,-08380,098008,068372,062928,014178
0000000192,0000191000,-42684,-35752,098597,058652,072198,014629
0000000193,0000192000,-16365,-58999,098290,047835,079203,018440
0000000194,0000193000,012175,-75799,097116,036991,083248,025240
0000000195,0000194000,040306,-84608,095184,027164,083944,034372
0000000196,0000195000,065222,-84543,092685,019313,081229,044937
0000000197,0000196000,084383,-75596,089875,014223,075366,055890
0000000198,0000197000,095993,-58632,087018,012387,066924,066167
0000000199,0000198000,098937,-35286,084389,013977,056727,074775
0000000200,0000199000,092894,-07912,082256,018837,045786,080856
0000000201,0000200000,078463,020808,080826,026498,035169,083812
0000000202,0000201000,057013,048160,080236,036213,025901,083365
0000000203,0000202000,030684,071422,080543,047023,018898,079558
0000000204,0000203000,002115,088256,081717,057864,014851,072763
0000000205,0000204000,-26003,097055,083649,067690,014151,063637
0000000206,0000205000,-50922,096986,086148,075538,016863,053077
0000000207,0000206000,-70120,088072,088958,080630,022720,042129
0000000208,0000207000,-81729,071102,091816,082469,031156,031854
0000000209,0000208000,-84663,047732,094446,080883,041348,023249
0000000210,0000209000,-78649,020376,096581,076027,052285,017167
0000000211,0000210000,-64224,-08345,098011,068374,062897,014209
0000000212,0000211000,-42749,-35733,098602,058664,072163,014652
0000000213,0000212000,-16429,-58995,098296,047858,079167,018454
0000000214,0000213000,012132,-75823,097123,037022,083214,025243
0000000215,0000214000,040281,-84654,095191,027200,083917,034363
0000000216,0000215000,065211,-84596,092692,019351,081211,044918
0000000217,0000216000,084399,-75663,089880,014259,075359,055861
0000000218,0000217000,096034,-58709,087021,012418,066929,066132
0000000219,0000218000,098988,-35352,084390,013998,056744,074736
0000000220,0000219000,092959,-07968,082255,018849,045813,080818
0000000221,0000220000,078542,020760,080823,026497,035204,083779
0000000222,0000221000,057085,048137,080231,036200,025941,083339
0000000223,0000222000,030745,071427,080536,046999,018937,079543
0000000224,0000223000,002169,088278,081709,057831,014888,072760
0000000225,0000224000,-25970,097098,083641,067651,014181,063647
0000000226,0000225000,-50919,097053,086140,075497,016883,053099
0000000227,0000226000,-70136,088146,088953,080591,022728,042161
0000000228,0000227000,-81766,071177,091812,082436,031150,031893
0000000229,0000228000,-84726,047811,094445,080859,041330,023291
0000000230,0000229000,-78724,020442,096582,076015,052255,017209
0000000231,0000230000,-64301,-08302,098014,068375,062859,014245
0000000232,0000231000,-42831,-35707,098608,058678,072120,014680
0000000233,0000232000,-16503,-58993,098303,047885,079124,018471
0000000234,0000233000,012080,-75852,097131,037059,083174,025247
0000000235,0000234000,040248,-84704,095199,027242,083885,034353
0000000236,0000235000,065199,-84660,092700,019396,081190,044894
0000000237,0000236000,084419,-75747,089886,014302,075351,055826
0000000238,0000237000,096080,-58798,087026,012453,066935,066090
0000000239,0000238000,099049,-35431,084392,014024,056764,074690
0000000240,0000239000,093039,-08038,082254,018862,045844,080773
0000000241,0000240000,078634,020704,080820,026495,035245,083739
0000000242,0000241000,057170,048112,080225,036184,025987,083309
0000000243,0000242000,030820,071430,080528,046970,018984,079525
0000000244,0000243000,002233,088303,081700,057792,014930,072757
0000000245,0000244000,-25933,097151,083632,067604,014216,063659
0000000246,0000245000,-50913,097131,086132,075449,016906,053124
0000000247,0000246000,-70153,088232,088946,080545,022736,042198
0000000248,0000247000,-81811,071269,091808,082397,031144,031939
0000000249,0000248000,-84799,047904,094443,080831,041308,023340
0000000250,0000249000,-78810,020518,096583,076002,052221,017257
0000000251,0000250000,-64394,-08248,098018,068377,062815,014288
0000000252,0000251000,-42928,-35674,098614,058696,072070,014713
0000000253,0000252000,-16588,-58992,098312,047916,079073,018490
0000000254,0000253000,012018,-75886,097140,037101,083128,025250
0000000255,0000254000,040205,-84761,095209,027292,083848,034340
0000000256,0000255000,065186,-84738,092709,019448,081165,044866
0000000257,0000256000,084444,-75845,089894,014351,075342,055786
0000000258,0000257000,096131,-58900,087031,012495,066943,066041
0000000259,0000258000,099121,-35525,084394,014054,056788,074637
0000000260,0000259000,093135,-08122,082252,018877,045882,080721
0000000261,0000260000,078739,020641,080816,026493,035293,083693
0000000262,0000261000,057269,048082,080218,036165,026041,083274
0000000263,0000262000,030911,071431,080519,046937,019038,079504
0000000264,0000263000,002307,088333,081690,057746,014980,072753
0000000265,0000264000,-25891,097215,083621,067551,014256,063672
0000000266,0000265000,-50903,097220,086122,075393,016932,053154
0000000267,0000266000,-70173,088333,088938,080492,022746,042241
0000000268,0000267000,-81865,071379,091802,082352,031136,031992
0000000269,0000268000,-84883,048011,094441,080800,041283,023397
0000000270,0000269000,-78909,020606,096584,075986,052180,017313
0000000271,0000270000,-64504,-08183,098022,068379,062763,014337
0000000272,0000271000,-43041,-35636,098622,058716,072013,014750
0000000273,0000272000,-16685,-58992,098322,047953,079014,018512
0000000274,0000273000,011943,-75924,097152,037151,083075,025254
0000000275,0000274000,040155,-84826,095220,027349,083805,034325
0000000276,0000275000,065173,-84830,092719,019508,081137,044834
0000000277,0000276000,084470,-75959,089902,014408,075331,055740
0000000278,0000277000,096187,-59018,087037,012543,066952,065984
0000000279,0000278000,099207,-35635,084397,014088,056815,074576
0000000280,0000279000,093247,-08221,082251,018894,045925,080661
0000000281,0000280000,078859,020568,080811,026491,035348,083641
0000000282,0000281000,057385,048046,080210,036143,026103,083234
0000000283,0000282000,031018,071429,080509,046898,019101,079481
0000000284,0000283000,002392,088368,081678,057693,015037,072749
0000000285,0000284000,-25841,097289,083609,067489,014302,063688
0000000286,0000285000,-50889,097320,086111,075329,016962,053188
0000000287,0000286000,-70196,088450,088928,080432,022757,042291
0000000288,0000287000,-81929,071506,091796,082301,031126,032052
0000000289,0000288000,-84977,048134,094438,080763,041253,023463
0000000290,0000289000,-79023,020708,096585,075968,052134,017377
0000000291,0000290000,-64633,-08106,098028,068381,062704,014393
0000000292,0000291000,-43170,-35591,098630,058739,071947,014793
0000000293,0000292000,-16797,-58992,098333,047995,078948,018537
0000000294,0000293000,011854,-75964,097165,037207,083014,025258
0000000295,0000294000,040097,-84899,095234,027415,083756,034308
0000000296,0000295000,065158,-84937,092731,019577,081105,044798
0000000297,0000296000,084499,-76089,089913,014473,075320,055686
0000000298,0000297000,096251,-59151,087044,012597,066962,065919
0000000299,0000298000,099306,-35764,084400,014127,056846,074506
0000000300,0000299000,093373,-08335,082250,018913,045974,080593
0000000301,0000300000,078995,020486,080805,026487,035411,083581
