DIgSILENT PowerFactory,21000900,2000
6,06A,00D
1,TTPP_200000_100:Secondary Voltage A,,,V,0.10000000,-8295.572266,0.000000,67864,99998,1,1,P
2,TTPP_200000_100:Secondary Voltage B,,,V,0.10000000,-8376.133789,0.000000,69250,99998,1,1,P
3,TTPP_200000_100:Secondary Voltage C,,,V,0.10000000,-8393.061523,0.000000,66418,99998,1,1,P
4,TTCC_500_5:Secondary Current A,,,A,0.0010000000,-79.335075,0.000000,65227,99998,1,1,P
5,TTCC_500_5:Secondary Current B,,,A,0.0010000000,-84.493271,0.000000,69058,99998,1,1,P
6,TTCC_500_5:Secondary Current C,,,A,0.0010000000,-84.909317,0.000000,69841,99998,1,1,P
50
1
1000.000000,1101
30/06/2023,06:10:25.000000
30/06/2023,06:10:25.000000
ASCII
1.000000
0000000001,0000000000,088468,087402,074778,085251,089173,074314
0000000002,0000001000,085919,089836,074892,082233,091892,074613
0000000003,0000002000,083072,091687,075890,078938,093881,075918
0000000004,0000003000,080219,092755,077673,075682,094952,078104
0000000005,0000004000,077638,092935,080075,072776,095004,080958
0000000006,0000005000,075565,092229,082853,070515,094026,084198
0000000007,0000006000,074223,090695,085729,069122,092111,087504
0000000008,0000007000,073745,088468,088434,068729,089450,090559
0000000009,0000008000,074155,085789,090703,069367,086308,093062
0000000010,0000009000,075422,082922,092304,070985,082987,094765
0000000011,0000010000,077445,080121,093083,073423,079812,095503
0000000012,0000011000,080003,077675,092969,076439,077095,095204
0000000013,0000012000,082832,075844,091972,079736,075103,093899
0000000014,0000013000,085686,074773,090187,082994,074030,091713
0000000015,0000014000,088285,074576,087786,085896,073982,088859
0000000016,0000015000,090343,075296,085008,088156,074962,085620
0000000017,0000016000,091678,076837,082132,089553,076871,082313
0000000018,0000017000,092177,079044,079427,089947,079533,079258
0000000019,0000018000,091759,081731,077158,089303,082679,076755
0000000020,0000019000,090476,084614,075558,087688,085998,075052
0000000021,0000020000,088473,087396,074778,085253,089170,074315
0000000022,0000021000,085918,089837,074892,082233,091891,074613
0000000023,0000022000,083067,091692,075889,078936,093883,075918
0000000024,0000023000,080223,092752,077673,075681,094953,078104
0000000025,0000024000,077640,092933,080075,072777,095003,080958
0000000026,0000025000,075563,092232,082853,070515,094025,084198
0000000027,0000026000,074223,090695,085729,069122,092112,087504
0000000028,0000027000,073746,088467,088435,068726,089452,090559
0000000029,0000028000,074154,085790,090703,069368,086308,093062
0000000030,0000029000,075424,082921,092303,070985,082987,094765
0000000031,0000030000,077444,080121,093083,073422,079813,095503
0000000032,0000031000,080000,077678,092970,076437,077096,095204
0000000033,0000032000,082835,075841,091972,079736,075103,093899
0000000034,0000033000,085689,074771,090188,082994,074030,091714
0000000035,0000034000,088280,074580,087787,085895,073983,088860
0000000036,0000035000,090342,075297,085008,088156,074962,085620
0000000037,0000036000,091684,076832,082132,089552,076872,082314
0000000038,0000037000,092175,079046,079427,089946,079533,079259
0000000039,0000038000,091755,081735,077158,089303,082679,076756
0000000040,0000039000,090481,084609,075557,087687,085998,075053
0000000041,0000040000,088475,087394,074778,085251,089171,074315
0000000042,0000041000,085913,089842,074892,082234,091890,074613
0000000043,0000042000,083069,091690,075889,078937,093882,075919
0000000044,0000043000,080227,092748,077673,075679,094954,078104
0000000045,0000044000,077636,092937,080075,072776,095004,080958
0000000046,0000045000,075562,092233,082853,070516,094024,084198
0000000047,0000046000,074228,090691,085728,069122,092112,087504
0000000048,0000047000,073744,088470,088434,068725,089454,090559
0000000049,0000048000,074150,085794,090703,069368,086308,093062
0000000050,0000049000,075428,082917,092303,070986,082987,094765
0000000051,0000050000,077445,080120,093083,073421,079814,095503
0000000052,0000051000,079995,077683,092970,076437,077097,095204
0000000053,0000052000,082836,075839,091972,079736,075103,093899
0000000054,0000053000,085692,074767,090188,082993,074031,091714
0000000055,0000054000,088277,074584,087787,085894,073983,088860
0000000056,0000055000,090341,075298,085009,088155,074962,085621
0000000057,0000056000,091688,076828,082133,089551,076873,082314
0000000058,0000057000,092174,079047,079427,089945,079533,079260
0000000059,0000058000,091753,081736,077158,089303,082678,076756
0000000060,0000059000,090484,084606,075558,087687,085997,075053
0000000061,0000060000,088475,087394,074778,085251,089171,074316
0000000062,0000061000,085912,089844,074891,082234,091890,074614
0000000063,0000062000,083071,091688,075888,078938,093881,075919
0000000064,0000063000,080228,092747,077672,075680,094954,078104
0000000065,0000064000,077634,092940,080074,072777,095003,080958
0000000066,0000065000,075563,092233,082852,070517,094023,084197
0000000067,0000066000,074230,090690,085728,069122,092112,087503
0000000068,0000067000,073741,088473,088434,068726,089454,090558
0000000069,0000068000,074150,085794,090703,069368,086308,093061
0000000070,0000069000,075429,082915,092303,070986,082988,094764
0000000071,0000070000,077442,080122,093084,073420,079816,095502
0000000072,0000071000,079993,077684,092970,076436,077098,095204
0000000073,0000072000,082838,075837,091973,079734,075104,093899
0000000074,0000073000,085690,074768,090190,082991,074033,091714
0000000075,0000074000,088274,074585,087788,085893,073984,088860
0000000076,0000075000,090344,075294,085010,088154,074962,085621
0000000077,0000076000,091688,076826,082134,089549,076873,082315
0000000078,0000077000,092171,079049,079428,089944,079533,079261
0000000079,0000078000,091756,081734,077158,089303,082677,076758
0000000080,0000079000,090487,084603,075558,087686,085997,075055
0000000081,0000080000,088473,087396,074778,085250,089170,074317
0000000082,0000081000,085913,089844,074891,082235,091888,074615
0000000083,0000082000,083075,091685,075887,078938,093880,075920
0000000084,0000083000,080227,092749,077671,075680,094953,078104
0000000085,0000084000,077633,092943,080073,072778,095002,080958
0000000086,0000085000,075566,092231,082850,070519,094023,084196
0000000087,0000086000,074229,090691,085727,069123,092112,087502
0000000088,0000087000,073737,088477,088433,068727,089454,090557
0000000089,0000088000,074151,085794,090702,069370,086309,093059
0000000090,0000089000,075429,082915,092304,070985,082990,094763
0000000091,0000090000,077438,080126,093084,073420,079817,095501
0000000092,0000091000,079992,077685,092971,076436,077099,095203
0000000093,0000092000,082839,075834,091974,079733,075106,093898
0000000094,0000093000,085687,074770,090191,082989,074035,091714
0000000095,0000094000,088273,074585,087789,085891,073985,088861
0000000096,0000095000,090346,075290,085011,088152,074963,085623
0000000097,0000096000,091687,076825,082135,089546,076874,082317
0000000098,0000097000,092170,079049,079429,089942,079533,079263
0000000099,0000098000,091759,081730,077159,089302,082676,076760
0000000100,0000099000,090489,084601,075558,087685,085996,075057
0000000101,0000100000,088473,087397,074777,085250,089168,074319
0000000102,0000101000,085916,089842,074889,082236,091885,074617
0000000103,0000102000,083078,091684,075886,078939,093878,075921
0000000104,0000103000,080227,092752,077669,075682,094951,078105
0000000105,0000104000,077634,092943,080070,072781,095000,080957
0000000106,0000105000,075568,092231,082849,070521,094022,084195
0000000107,0000106000,074227,090695,085726,069125,092112,087500
0000000108,0000107000,073736,088480,088432,068729,089454,090554
0000000109,0000108000,074151,085794,090702,069371,086310,093057
0000000110,0000109000,075426,082918,092304,070986,082992,094760
0000000111,0000110000,077434,080129,093085,073420,079820,095498
0000000112,0000111000,079992,077684,092973,076435,077102,095201
0000000113,0000112000,082837,075834,091977,079731,075110,093897
0000000114,0000113000,085683,074771,090194,082986,074038,091714
0000000115,0000114000,088273,074583,087792,085889,073987,088862
0000000116,0000115000,090346,075287,085014,088148,074965,085624
0000000117,0000116000,091686,076825,082137,089543,076875,082319
0000000118,0000117000,092172,079046,079430,089940,079532,079266
0000000119,0000118000,091763,081726,077159,089299,082675,076763
0000000120,0000119000,090490,084600,075557,087684,085994,075060
0000000121,0000120000,088475,087396,074776,085251,089165,074322
0000000122,0000121000,085921,089840,074887,082237,091882,074619
0000000123,0000122000,083080,091684,075883,078941,093875,075922
0000000124,0000123000,080227,092754,077666,075685,094948,078105
0000000125,0000124000,077637,092944,080067,072784,094997,080956
0000000126,0000125000,075569,092233,082846,070524,094020,084193
0000000127,0000126000,074225,090700,085723,069129,092112,087497
0000000128,0000127000,073735,088482,088430,068732,089454,090551
0000000129,0000128000,074150,085796,090701,069373,086312,093053
0000000130,0000129000,075421,082922,092304,070987,082995,094756
0000000131,0000130000,077431,080131,093086,073420,079823,095495
0000000132,0000131000,079990,077683,092975,076434,077106,095198
0000000133,0000132000,082833,075835,091980,079728,075114,093896
0000000134,0000133000,085680,074771,090197,082983,074041,091713
0000000135,0000134000,088273,074579,087795,085885,073990,088863
0000000136,0000135000,090346,075284,085017,088144,074967,085626
0000000137,0000136000,091685,076823,082140,089539,076876,082323
0000000138,0000137000,092175,079041,079432,089937,079531,079270
0000000139,0000138000,091766,081721,077160,089297,082673,076768
0000000140,0000139000,090492,084598,075557,087682,085990,075065
0000000141,0000140000,088480,087394,074774,085251,089161,074326
0000000142,0000141000,085926,089837,074885,082238,091877,074622
0000000143,0000142000,083082,091685,075880,078944,093870,075924
0000000144,0000143000,080230,092756,077662,075689,094943,078105
0000000145,0000144000,077640,092945,080063,072789,094994,080955
0000000146,0000145000,075569,092237,082842,070529,094018,084191
0000000147,0000146000,074223,090705,085720,069133,092111,087494
0000000148,0000147000,073734,088485,088428,068736,089455,090546
0000000149,0000148000,074147,085800,090700,069375,086314,093048
0000000150,0000149000,075416,082927,092305,070988,082998,094751
0000000151,0000150000,077427,080133,093088,073420,079828,095490
0000000152,0000151000,079986,077684,092978,076432,077111,095195
0000000153,0000152000,082827,075837,091984,079725,075120,093894
0000000154,0000153000,085677,074769,090201,082979,074046,091713
0000000155,0000154000,088272,074575,087800,085879,073994,088864
0000000156,0000155000,090344,075282,085022,088138,074970,085629
0000000157,0000156000,091686,076818,082143,089534,076877,082327
0000000158,0000157000,092178,079035,079435,089932,079530,079275
0000000159,0000158000,091769,081717,077162,089293,082671,076774
0000000160,0000159000,090496,084595,075556,087681,085986,075071
0000000161,0000160000,088486,087389,074772,085251,089156,074331
0000000162,0000161000,085931,089835,074882,082240,091872,074626
0000000163,0000162000,083086,091686,075875,078947,093864,075926
0000000164,0000163000,080234,092757,077657,075695,094937,078106
0000000165,0000164000,077643,092947,080058,072795,094989,080954
0000000166,0000165000,075568,092242,082837,070535,094015,084187
0000000167,0000166000,074222,090710,085715,069140,092109,087489
0000000168,0000167000,073733,088490,088425,068741,089456,090540
0000000169,0000168000,074142,085806,090699,069379,086317,093041
0000000170,0000169000,075410,082932,092305,070990,083003,094745
0000000171,0000170000,077422,080135,093090,073420,079834,095485
0000000172,0000171000,079980,077686,092982,076429,077118,095190
0000000173,0000172000,082821,075838,091989,079720,075126,093891
0000000174,0000173000,085674,074766,090207,082973,074052,091712
0000000175,0000174000,088270,074571,087806,085872,074000,088866
0000000176,0000175000,090342,075278,085027,088131,074973,085633
0000000177,0000176000,091688,076812,082148,089527,076878,082333
0000000178,0000177000,092182,079028,079438,089926,079530,079282
0000000179,0000178000,091773,081712,077163,089289,082668,076781
0000000180,0000179000,090502,084590,075556,087679,085981,075078
0000000181,0000180000,088493,087385,074769,085251,089149,074337
0000000182,0000181000,085937,089834,074877,082242,091864,074631
0000000183,0000182000,083091,091687,075869,078952,093856,075929
0000000184,0000183000,080240,092758,077650,075701,094930,078106
0000000185,0000184000,077646,092951,080051,072802,094984,080952
0000000186,0000185000,075568,092249,082831,070543,094011,084183
0000000187,0000186000,074222,090716,085710,069147,092108,087483
0000000188,0000187000,073729,088497,088421,068748,089457,090532
0000000189,0000188000,074136,085814,090698,069384,086321,093033
0000000190,0000189000,075404,082938,092306,070993,083009,094736
0000000191,0000190000,077416,080139,093093,073419,079841,095477
0000000192,0000191000,079972,077689,092987,076426,077127,095185
0000000193,0000192000,082815,075838,091995,079715,075135,093888
0000000194,0000193000,085670,074763,090215,082966,074060,091712
0000000195,0000194000,088266,074567,087814,085863,074006,088868
0000000196,0000195000,090341,075272,085034,088122,074978,085638
0000000197,0000196000,091690,076804,082154,089519,076879,082340
0000000198,0000197000,092186,079020,079442,089919,079528,079291
0000000199,0000198000,091778,081705,077165,089284,082664,076790
0000000200,0000199000,090510,084583,075555,087676,085974,075087
0000000201,0000200000,088502,087379,074766,085251,089141,074345
0000000202,0000201000,085944,089832,074872,082246,091855,074637
0000000203,0000202000,083099,091687,075862,078958,093847,075933
0000000204,0000203000,080246,092760,077642,075709,094922,078107
0000000205,0000204000,077648,092957,080043,072812,094977,080949
0000000206,0000205000,075569,092256,082823,070553,094007,084178
0000000207,0000206000,074221,090723,085704,069157,092106,087475
0000000208,0000207000,073725,088506,088417,068756,089459,090523
0000000209,0000208000,074129,085823,090696,069389,086325,093023
0000000210,0000209000,075397,082944,092307,070996,083016,094726
0000000211,0000210000,077407,080144,093097,073419,079850,095469
0000000212,0000211000,079962,077693,092993,076422,077137,095178
0000000213,0000212000,082807,075837,092003,079709,075145,093884
0000000214,0000213000,085664,074760,090224,082957,074070,091711
0000000215,0000214000,088261,074563,087823,085853,074014,088871
0000000216,0000215000,090340,075264,085043,088111,074983,085644
0000000217,0000216000,091693,076794,082161,089508,076881,082348
0000000218,0000217000,092190,079011,079447,089910,079527,079301
0000000219,0000218000,091785,081696,077167,089277,082659,076802
0000000220,0000219000,090519,084574,075554,087673,085967,075098
0000000221,0000220000,088511,087374,074763,085252,089131,074355
0000000222,0000221000,085953,089829,074865,082250,091844,074644
0000000223,0000222000,083108,091686,075853,078965,093835,075937
0000000224,0000223000,080253,092763,077632,075719,094911,078108
0000000225,0000224000,077652,092963,080033,072823,094968,080947
0000000226,0000225000,075571,092264,082813,070565,094001,084172
0000000227,0000226000,074219,090733,085696,069168,092104,087466
0000000228,0000227000,073719,088517,088412,068765,089461,090512
0000000229,0000228000,074121,085833,090693,069396,086331,093011
0000000230,0000229000,075388,082952,092308,070999,083024,094715
0000000231,0000230000,077396,080151,093101,073418,079861,095458
0000000232,0000231000,079951,077697,093000,076418,077149,095170
0000000233,0000232000,082798,075837,092012,079701,075158,093879
0000000234,0000233000,085656,074757,090235,082946,074081,091710
0000000235,0000234000,088256,074557,087835,085841,074023,088874
0000000236,0000235000,090339,075255,085053,088098,074989,085651
0000000237,0000236000,091695,076783,082170,089496,076884,082358
0000000238,0000237000,092195,079000,079453,089900,079525,079313
0000000239,0000238000,091794,081685,077169,089270,082653,076815
0000000240,0000239000,090530,084564,075553,087670,085957,075111
0000000241,0000240000,088523,087367,074758,085252,089119,074366
0000000242,0000241000,085965,089825,074857,082254,091830,074653
0000000243,0000242000,083119,091686,075843,078974,093822,075942
0000000244,0000243000,080261,092767,077621,075730,094899,078109
0000000245,0000244000,077657,092971,080021,072836,094958,080943
0000000246,0000245000,075572,092273,082802,070579,093994,084164
0000000247,0000246000,074216,090744,085687,069181,092102,087455
0000000248,0000247000,073713,088530,088405,068776,089463,090499
0000000249,0000248000,074112,085845,090691,069404,086337,092997
0000000250,0000249000,075376,082963,092309,071003,083034,094701
0000000251,0000250000,077382,080159,093106,073418,079874,095446
0000000252,0000251000,079939,077701,093008,076413,077164,095161
0000000253,0000252000,082787,075837,092024,079692,075172,093874
0000000254,0000253000,085647,074753,090247,082934,074095,091709
0000000255,0000254000,088251,074549,087848,085826,074034,088877
0000000256,0000255000,090338,075244,085065,088083,074996,085659
0000000257,0000256000,091698,076770,082180,089482,076886,082370
0000000258,0000257000,092201,078987,079460,089888,079523,079327
0000000259,0000258000,091804,081672,077172,089262,082646,076830
0000000260,0000259000,090543,084553,075552,087665,085947,075126
0000000261,0000260000,088536,087359,074752,085253,089105,074380
0000000262,0000261000,085979,089821,074848,082260,091815,074663
0000000263,0000262000,083131,091685,075831,078984,093806,075948
0000000264,0000263000,080270,092771,077607,075743,094885,078110
0000000265,0000264000,077663,092979,080006,072852,094947,080939
0000000266,0000265000,075574,092284,082789,070595,093987,084156
0000000267,0000266000,074213,090758,085676,069196,092099,087442
0000000268,0000267000,073705,088544,088398,068789,089465,090483
0000000269,0000268000,074102,085858,090687,069413,086344,092980
0000000270,0000269000,075363,082975,092311,071007,083046,094685
0000000271,0000270000,077367,080169,093112,073417,079889,095432
0000000272,0000271000,079925,077705,093018,076407,077180,095150
0000000273,0000272000,082774,075837,092037,079681,075189,093868
0000000274,0000273000,085636,074749,090262,082919,074110,091708
0000000275,0000274000,088244,074540,087863,085810,074046,088882
0000000276,0000275000,090337,075231,085079,088066,075004,085668
0000000277,0000276000,091700,076756,082191,089465,076889,082383
0000000278,0000277000,092209,078971,079468,089874,079520,079344
0000000279,0000278000,091816,081656,077176,089252,082638,076848
0000000280,0000279000,090557,084541,075550,087661,085934,075143
0000000281,0000280000,088552,087350,074746,085254,089089,074395
0000000282,0000281000,085995,089815,074838,082266,091797,074674
0000000283,0000282000,083145,091685,075817,078995,093788,075955
0000000284,0000283000,080281,092776,077591,075759,094868,078111
0000000285,0000284000,077670,092988,079990,072870,094934,080934
0000000286,0000285000,075576,092297,082774,070614,093979,084146
0000000287,0000286000,074209,090775,085663,069214,092096,087428
0000000288,0000287000,073697,088561,088389,068804,089468,090466
0000000289,0000288000,074090,085874,090684,069424,086353,092961
0000000290,0000289000,075347,082989,092312,071012,083059,094666
0000000291,0000290000,077350,080179,093119,073416,079906,095416
0000000292,0000291000,079908,077710,093029,076401,077199,095138
0000000293,0000292000,082759,075837,092052,079669,075208,093861
0000000294,0000293000,085624,074744,090279,082903,074127,091707
0000000295,0000294000,088237,074530,087880,085791,074060,088887
0000000296,0000295000,090335,075217,085096,088046,075013,085679
0000000297,0000296000,091703,076740,082205,089447,076892,082399
0000000298,0000297000,092218,078953,079477,089858,079517,079362
0000000299,0000298000,091829,081639,077180,089241,082629,076868
0000000300,0000299000,090573,084526,075548,087655,085920,075162
0000000301,0000300000,088570,087339,074739,085255,089071,074412
