DIgSILENT PowerFactory,21000900,2000
6,06A,00D
1,TTPP_200000_100:Secondary Voltage A,,,V,0.10000000,-8521.708008,0.000000,72139,99998,1,1,P
2,TTPP_200000_100:Secondary Voltage B,,,V,0.10000000,-8633.010742,0.000000,72817,99998,1,1,P
3,TTPP_200000_100:Secondary Voltage C,,,V,0.10000000,-8399.713867,0.000000,66355,99998,1,1,P
4,TTCC_300_1:Secondary Current A,,,A,0.00010000000,-5.387081,0.000000,-13167,99998,1,1,P
5,TTCC_300_1:Secondary Current B,,,A,0.00010000000,-4.858896,0.000000,-3161,99998,1,1,P
6,TTCC_300_1:Secondary Current C,,,A,0.00010000000,-4.993735,0.000000,-255,99998,1,1,P
50
1
1000.000000,1101
30/06/2023,06:12:04.000000
30/06/2023,06:12:04.000000
ASCII
1.000000
0000000001,0000000000,092323,087805,075416,032941,034600,084857
0000000002,0000001000,090190,090522,074831,042693,025322,084383
0000000003,0000002000,087548,092854,075143,053533,018323,080541
0000000004,0000003000,084692,094532,076319,064412,014281,073705
0000000005,0000004000,081899,095393,078253,074255,013605,064536
0000000006,0000005000,079411,095385,080749,082103,016358,053937
0000000007,0000006000,077489,094499,083556,087189,022252,042956
0000000008,0000007000,076346,092790,086409,089012,030728,032658
0000000009,0000008000,076060,090453,089031,087388,040968,024041
0000000010,0000009000,076657,087730,091156,082490,051943,017964
0000000011,0000010000,078106,084860,092579,074797,062577,015023
0000000012,0000011000,080259,082121,093163,065038,071863,015496
0000000013,0000012000,082881,079813,092852,054189,078870,019338
0000000014,0000013000,085732,078138,091674,043324,082899,026174
0000000015,0000014000,088546,077256,089743,033480,083575,035343
0000000016,0000015000,091026,077273,087245,025621,080835,045942
0000000017,0000016000,092933,078173,084438,020542,074931,056923
0000000018,0000017000,094095,079864,081586,018724,066452,067221
0000000019,0000018000,094380,082201,078964,020339,056220,075837
0000000020,0000019000,093767,084940,076838,025238,045244,081914
0000000021,0000020000,092329,087800,075415,032940,034601,084857
0000000022,0000021000,090183,090530,074831,042691,025324,084383
0000000023,0000022000,087546,092855,075143,053540,018317,080540
0000000024,0000023000,084700,094525,076319,064412,014281,073704
0000000025,0000024000,081897,095396,078252,074252,013608,064537
0000000026,0000025000,079404,095391,080749,082107,016354,053937
0000000027,0000026000,077496,094493,083556,087194,022247,042955
0000000028,0000027000,076348,092788,086408,089009,030731,032658
0000000029,0000028000,076053,090460,089031,087389,040967,024041
0000000030,0000029000,076658,087729,091157,082497,051936,017964
0000000031,0000030000,078112,084854,092579,074797,062578,015022
0000000032,0000031000,080254,082127,093163,065037,071864,015496
0000000033,0000032000,082878,079815,092852,054194,078865,019338
0000000034,0000033000,085737,078132,091675,043327,082897,026173
0000000035,0000034000,088546,077256,089742,033478,083578,035341
0000000036,0000035000,091021,077278,087245,025625,080832,045941
0000000037,0000036000,092936,078170,084438,020546,074929,056922
0000000038,0000037000,094097,079861,081586,018724,066453,067220
0000000039,0000038000,094376,082205,078964,020340,056221,075836
0000000040,0000039000,093768,084939,076838,025242,045241,081913
0000000041,0000040000,092332,087797,075415,032940,034603,084855
0000000042,0000041000,090181,090532,074831,042691,025325,084381
0000000043,0000042000,087546,092855,075143,053542,018316,080540
0000000044,0000043000,084703,094522,076319,064412,014280,073704
0000000045,0000044000,081895,095397,078252,074251,013609,064536
0000000046,0000045000,079403,095392,080749,082108,016352,053937
0000000047,0000046000,077498,094491,083556,087194,022247,042956
0000000048,0000047000,076347,092789,086408,089009,030730,032659
0000000049,0000048000,076052,090462,089031,087391,040965,024042
0000000050,0000049000,076661,087727,091156,082498,051934,017965
0000000051,0000050000,078111,084854,092579,074797,062577,015023
0000000052,0000051000,080252,082129,093164,065040,071860,015496
0000000053,0000052000,082880,079813,092852,054197,078862,019338
0000000054,0000053000,085738,078131,091675,043328,082896,026173
0000000055,0000054000,088542,077259,089743,033482,083575,035340
0000000056,0000055000,091023,077276,087245,025630,080829,045939
0000000057,0000056000,092939,078167,084438,020548,074930,056920
0000000058,0000057000,094093,079864,081587,018726,066454,067217
0000000059,0000058000,094376,082205,078964,020345,056219,075833
0000000060,0000059000,093773,084934,076837,025243,045244,081911
0000000061,0000060000,092330,087798,075415,032939,034606,084852
0000000062,0000061000,090179,090535,074831,042693,025326,084379
0000000063,0000062000,087551,092852,075142,053542,018317,080538
0000000064,0000063000,084703,094522,076319,064408,014285,073704
0000000065,0000064000,081891,095402,078252,074250,013610,064537
0000000066,0000065000,079406,095391,080748,082107,016351,053939
0000000067,0000066000,077500,094489,083555,087190,022249,042959
0000000068,0000067000,076343,092794,086408,089006,030730,032661
0000000069,0000068000,076051,090463,089030,087392,040960,024045
0000000070,0000069000,076664,087724,091157,082497,051932,017968
0000000071,0000070000,078108,084857,092579,074796,062575,015026
0000000072,0000071000,080249,082132,093164,065044,071854,015498
0000000073,0000072000,082883,079810,092852,054201,078857,019339
0000000074,0000073000,085737,078131,091676,043331,082894,026173
0000000075,0000074000,088539,077262,089744,033487,083571,035339
0000000076,0000075000,091025,077273,087246,025636,080825,045936
0000000077,0000076000,092940,078165,084439,020551,074930,056916
0000000078,0000077000,094091,079866,081587,018730,066454,067212
0000000079,0000078000,094377,082204,078964,020349,056219,075828
0000000080,0000079000,093775,084932,076837,025244,045247,081906
0000000081,0000080000,092329,087800,075415,032938,034611,084848
0000000082,0000081000,090179,090535,074830,042693,025329,084376
0000000083,0000082000,087553,092849,075141,053539,018322,080536
0000000084,0000083000,084703,094524,076318,064403,014290,073703
0000000085,0000084000,081891,095404,078250,074246,013613,064538
0000000086,0000085000,079408,095390,080747,082103,016353,053941
0000000087,0000086000,077500,094490,083555,087184,022250,042963
0000000088,0000087000,076340,092797,086407,089003,030728,032667
0000000089,0000088000,076052,090462,089030,087390,040956,024051
0000000090,0000089000,076663,087724,091157,082495,051928,017974
0000000091,0000090000,078105,084860,092580,074797,062569,015031
0000000092,0000091000,080249,082131,093165,065048,071847,015502
0000000093,0000092000,082883,079808,092853,054205,078851,019341
0000000094,0000093000,085734,078133,091677,043336,082888,026173
0000000095,0000094000,088538,077262,089745,033496,083565,035337
0000000096,0000095000,091027,077270,087247,025644,080821,045932
0000000097,0000096000,092939,078165,084440,020557,074929,056910
0000000098,0000097000,094090,079866,081588,018738,066454,067205
0000000099,0000098000,094381,082200,078964,020354,056222,075820
0000000100,0000099000,093777,084930,076837,025246,045254,081898
0000000101,0000100000,092329,087801,075414,032939,034617,084841
0000000102,0000101000,090182,090533,074829,042692,025336,084370
0000000103,0000102000,087556,092848,075140,053533,018331,080533
0000000104,0000103000,084701,094526,076317,064397,014298,073702
0000000105,0000104000,081892,095404,078249,074239,013618,064540
0000000106,0000105000,079410,095389,080746,082094,016357,053946
0000000107,0000106000,077498,094493,083554,087175,022253,042969
0000000108,0000107000,076339,092799,086406,088997,030726,032675
0000000109,0000108000,076053,090461,089030,087385,040952,024060
0000000110,0000109000,076661,087726,091157,082492,051923,017983
0000000111,0000110000,078102,084862,092580,074798,062559,015039
0000000112,0000111000,080249,082130,093166,065052,071836,015509
0000000113,0000112000,082882,079807,092855,054210,078842,019345
0000000114,0000113000,085731,078134,091679,043345,082878,026174
0000000115,0000114000,088538,077260,089746,033507,083556,035334
0000000116,0000115000,091028,077267,087249,025654,080817,045927
0000000117,0000116000,092938,078164,084442,020568,074928,056902
0000000118,0000117000,094091,079865,081589,018748,066454,067195
0000000119,0000118000,094384,082196,078965,020361,056227,075809
0000000120,0000119000,093777,084930,076837,025249,045262,081887
0000000121,0000120000,092330,087801,075413,032940,034626,084831
0000000122,0000121000,090186,090531,074827,042688,025347,084363
0000000123,0000122000,087557,092848,075138,053525,018344,080528
0000000124,0000123000,084702,094528,076314,064388,014309,073701
0000000125,0000124000,081894,095404,078246,074228,013626,064542
0000000126,0000125000,079410,095390,080744,082080,016364,053952
0000000127,0000126000,077496,094497,083552,087164,022255,042979
0000000128,0000127000,076338,092801,086405,088988,030723,032687
0000000129,0000128000,076052,090463,089029,087377,040947,024074
0000000130,0000129000,076657,087729,091157,082488,051914,017996
0000000131,0000130000,078099,084864,092581,074800,062546,015051
0000000132,0000131000,080248,082129,093167,065057,071822,015518
0000000133,0000132000,082879,079808,092857,054218,078828,019350
0000000134,0000133000,085729,078134,091681,043358,082865,026175
0000000135,0000134000,088539,077256,089749,033522,083545,035331
0000000136,0000135000,091027,077265,087252,025668,080810,045919
0000000137,0000136000,092937,078163,084444,020583,074924,056890
0000000138,0000137000,094094,079861,081590,018761,066455,067181
0000000139,0000138000,094386,082193,078965,020369,056234,075793
0000000140,0000139000,093778,084929,076837,025253,045273,081871
0000000141,0000140000,092333,087799,075412,032941,034639,084817
0000000142,0000141000,090190,090529,074826,042682,025363,084352
0000000143,0000142000,087559,092850,075136,053515,018361,080521
0000000144,0000143000,084703,094530,076311,064375,014323,073699
0000000145,0000144000,081897,095405,078243,074212,013638,064546
0000000146,0000145000,079410,095393,080741,082063,016373,053961
0000000147,0000146000,077494,094501,083549,087148,022257,042992
0000000148,0000147000,076338,092803,086403,088974,030720,032703
0000000149,0000148000,076050,090466,089029,087366,040940,024091
0000000150,0000149000,076653,087733,091158,082483,051901,018013
0000000151,0000150000,078097,084865,092583,074801,062529,015066
0000000152,0000151000,080245,082130,093170,065062,071805,015530
0000000153,0000152000,082875,079810,092860,054230,078810,019357
0000000154,0000153000,085727,078133,091685,043375,082846,026176
0000000155,0000154000,088538,077253,089753,033540,083531,035327
0000000156,0000155000,091026,077263,087255,025687,080801,045909
0000000157,0000156000,092938,078160,084446,020602,074920,056875
0000000158,0000157000,094097,079856,081592,018777,066458,067162
0000000159,0000158000,094389,082190,078966,020380,056243,075773
0000000160,0000159000,093781,084927,076836,025260,045286,081851
0000000161,0000160000,092338,087795,075411,032941,034657,084799
0000000162,0000161000,090194,090527,074823,042675,025384,084338
0000000163,0000162000,087561,092851,075132,053503,018382,080513
0000000164,0000163000,084707,094530,076307,064358,014342,073698
0000000165,0000164000,081899,095406,078239,074191,013655,064551
0000000166,0000165000,079409,095398,080737,082040,016384,053972
0000000167,0000166000,077493,094505,083546,087128,022261,043009
0000000168,0000167000,076337,092806,086401,088956,030718,032724
0000000169,0000168000,076046,090470,089028,087353,040931,024114
0000000170,0000169000,076649,087737,091158,082477,051884,018036
0000000171,0000170000,078093,084867,092584,074802,062509,015087
0000000172,0000171000,080240,082131,093173,065070,071782,015545
0000000173,0000172000,082870,079810,092864,054245,078785,019367
0000000174,0000173000,085725,078131,091689,043395,082824,026178
0000000175,0000174000,088537,077250,089757,033563,083514,035321
0000000176,0000175000,091024,077260,087259,025713,080789,045896
0000000177,0000176000,092939,078155,084450,020627,074914,056856
0000000178,0000177000,094100,079850,081594,018797,066461,067139
0000000179,0000178000,094391,082186,078967,020395,056255,075747
0000000180,0000179000,093785,084923,076836,025268,045303,081825
0000000181,0000180000,092344,087792,075409,032940,034681,084777
0000000182,0000181000,090198,090526,074820,042666,025411,084320
0000000183,0000182000,087565,092852,075128,053487,018408,080502
0000000184,0000183000,084711,094531,076302,064335,014366,073695
0000000185,0000184000,081901,095409,078234,074164,013675,064558
0000000186,0000185000,079409,095403,080733,082013,016397,053987
0000000187,0000186000,077493,094509,083542,087101,022266,043030
0000000188,0000187000,076334,092811,086399,088933,030714,032750
0000000189,0000188000,076041,090476,089027,087336,040918,024143
0000000190,0000189000,076644,087741,091159,082469,051864,018064
0000000191,0000190000,078089,084869,092587,074802,062483,015112
0000000192,0000191000,080234,082134,093177,065080,071753,015565
0000000193,0000192000,082865,079811,092869,054264,078755,019378
0000000194,0000193000,085722,078128,091695,043420,082796,026181
0000000195,0000194000,088534,077247,089763,033592,083492,035314
0000000196,0000195000,091023,077256,087264,025744,080774,045879
0000000197,0000196000,092941,078149,084454,020657,074908,056832
0000000198,0000197000,094103,079844,081597,018822,066466,067109
0000000199,0000198000,094395,082181,078968,020414,056268,075715
0000000200,0000199000,093792,084918,076835,025278,045325,081794
0000000201,0000200000,092350,087788,075406,032939,034710,084749
0000000202,0000201000,090203,090525,074816,042655,025444,084299
0000000203,0000202000,087570,092852,075122,053467,018440,080490
0000000204,0000203000,084716,094532,076296,064307,014397,073693
0000000205,0000204000,081903,095414,078228,074131,013700,064565
0000000206,0000205000,079409,095408,080727,081979,016413,054005
0000000207,0000206000,077492,094515,083538,087069,022272,043057
0000000208,0000207000,076331,092818,086396,088905,030710,032783
0000000209,0000208000,076035,090483,089026,087317,040903,024178
0000000210,0000209000,076639,087746,091159,082459,051839,018099
0000000211,0000210000,078082,084873,092590,074803,062452,015142
0000000212,0000211000,080227,082136,093181,065092,071717,015588
0000000213,0000212000,082860,079810,092875,054287,078718,019392
0000000214,0000213000,085717,078125,091702,043450,082763,026184
0000000215,0000214000,088530,077244,089770,033628,083465,035305
0000000216,0000215000,091023,077251,087271,025782,080756,045860
0000000217,0000216000,092944,078141,084459,020692,074902,056803
0000000218,0000217000,094106,079837,081601,018852,066471,067074
0000000219,0000218000,094400,082175,078970,020436,056285,075676
0000000220,0000219000,093799,084911,076834,025289,045352,081756
0000000221,0000220000,092358,087784,075403,032938,034745,084715
0000000222,0000221000,090210,090523,074811,042642,025483,084273
0000000223,0000222000,087577,092851,075116,053443,018480,080474
0000000224,0000223000,084721,094535,076289,064274,014433,073690
0000000225,0000224000,081905,095419,078221,074092,013730,064575
0000000226,0000225000,079411,095414,080720,081938,016432,054026
0000000227,0000226000,077491,094522,083532,087029,022280,043088
0000000228,0000227000,076326,092826,086392,088871,030705,032821
0000000229,0000228000,076030,090491,089024,087293,040884,024220
0000000230,0000229000,076632,087752,091160,082447,051810,018140
0000000231,0000230000,078073,084878,092593,074804,062414,015179
0000000232,0000231000,080219,082139,093187,065107,071674,015616
0000000233,0000232000,082853,079809,092882,054313,078675,019409
0000000234,0000233000,085712,078123,091710,043486,082724,026187
0000000235,0000234000,088526,077239,089778,033671,083432,035294
0000000236,0000235000,091022,077243,087278,025827,080734,045836
0000000237,0000236000,092946,078133,084466,020734,074894,056769
0000000238,0000237000,094110,079829,081605,018888,066477,067032
0000000239,0000238000,094407,082167,078971,020462,056304,075631
0000000240,0000239000,093807,084904,076833,025302,045384,081711
0000000241,0000240000,092366,087779,075400,032936,034786,084676
0000000242,0000241000,090219,090521,074805,042626,025528,084243
0000000243,0000242000,087585,092851,075108,053414,018527,080457
0000000244,0000243000,084727,094538,076280,064234,014477,073686
0000000245,0000244000,081909,095425,078211,074046,013764,064587
0000000246,0000245000,079412,095421,080711,081890,016455,054052
0000000247,0000246000,077489,094530,083525,086983,022288,043125
0000000248,0000247000,076321,092836,086387,088833,030698,032867
0000000249,0000248000,076023,090499,089022,087266,040862,024270
0000000250,0000249000,076623,087759,091162,082433,051776,018189
0000000251,0000250000,078063,084884,092597,074806,062370,015221
0000000252,0000251000,080209,082142,093193,065124,071624,015649
0000000253,0000252000,082845,079809,092891,054344,078624,019428
0000000254,0000253000,085705,078120,091720,043529,082678,026190
0000000255,0000254000,088522,077234,089788,033721,083395,035282
0000000256,0000255000,091022,077235,087288,025879,080710,045809
0000000257,0000256000,092947,078124,084473,020783,074885,056729
0000000258,0000257000,094115,079820,081610,018930,066485,066982
0000000259,0000258000,094415,082156,078973,020492,056327,075577
0000000260,0000259000,093817,084896,076832,025316,045422,081659
0000000261,0000260000,092376,087773,075395,032934,034834,084630
0000000262,0000261000,090229,090517,074798,042608,025582,084208
0000000263,0000262000,087595,092850,075099,053380,018581,080436
0000000264,0000263000,084733,094542,076269,064188,014526,073682
0000000265,0000264000,081913,095431,078201,073993,013804,064600
0000000266,0000265000,079413,095430,080701,081834,016481,054082
0000000267,0000266000,077486,094541,083517,086930,022298,043169
0000000268,0000267000,076316,092847,086381,088788,030689,032920
0000000269,0000268000,076015,090509,089019,087234,040837,024327
0000000270,0000269000,076613,087768,091163,082417,051736,018245
0000000271,0000270000,078052,084891,092601,074808,062318,015271
0000000272,0000271000,080199,082145,093200,065145,071566,015686
0000000273,0000272000,082835,079809,092900,054381,078566,019450
0000000274,0000273000,085697,078117,091731,043578,082625,026194
0000000275,0000274000,088518,077227,089799,033779,083352,035267
0000000276,0000275000,091021,077225,087298,025939,080682,045777
0000000277,0000276000,092950,078113,084482,020840,074875,056682
0000000278,0000277000,094121,079808,081616,018978,066493,066926
0000000279,0000278000,094424,082145,078976,020526,056355,075516
0000000280,0000279000,093827,084886,076831,025333,045465,081599
0000000281,0000280000,092388,087766,075390,032932,034889,084577
0000000282,0000281000,090241,090513,074790,042586,025644,084168
0000000283,0000282000,087605,092850,075088,053341,018644,080413
0000000284,0000283000,084741,094546,076257,064136,014583,073678
0000000285,0000284000,081919,095438,078188,073931,013849,064616
0000000286,0000285000,079415,095440,080690,081769,016512,054116
0000000287,0000286000,077483,094553,083508,086869,022309,043218
0000000288,0000287000,076310,092860,086375,088737,030680,032980
0000000289,0000288000,076006,090521,089017,087197,040808,024392
0000000290,0000289000,076601,087779,091164,082399,051689,018309
0000000291,0000290000,078039,084899,092606,074811,062259,015327
0000000292,0000291000,080186,082149,093209,065168,071500,015729
0000000293,0000292000,082824,079809,092912,054422,078500,019475
0000000294,0000293000,085688,078113,091744,043635,082564,026199
0000000295,0000294000,088512,077219,089813,033845,083303,035250
0000000296,0000295000,091019,077214,087310,026008,080650,045740
0000000297,0000296000,092952,078100,084492,020905,074863,056629
0000000298,0000297000,094127,079794,081623,019033,066503,066861
0000000299,0000298000,094434,082132,078979,020564,056386,075446
0000000300,0000299000,093840,084875,076830,025352,045514,081531
0000000301,0000300000,092402,087758,075385,032929,034951,084517
