DIgSILENT PowerFactory,21000900,2000
6,06A,00D
1,TTPP_200000_100:Secondary Voltage A,,,V,0.10000000,-8435.356445,0.000000,68061,99998,1,1,P
2,TTPP_200000_100:Secondary Voltage B,,,V,0.10000000,-8396.544922,0.000000,68774,99998,1,1,P
3,TTPP_200000_100:Secondary Voltage C,,,V,0.10000000,-8433.747070,0.000000,66890,99998,1,1,P
4,TTCC_500_5:Secondary Current A,,,A,0.0010000000,-86.308159,0.000000,66583,99998,1,1,P
5,TTCC_500_5:Secondary Current B,,,A,0.0010000000,-85.047668,0.000000,70109,99998,1,1,P
6,TTCC_500_5:Secondary Current C,,,A,0.0010000000,-84.680237,0.000000,69329,99998,1,1,P
50
1
1000.000000,1101
30/06/2023,06:08:51.000000
30/06/2023,06:08:51.000000
ASCII
1.000000
0000000001,0000000000,089866,087606,075185,092224,089727,074085
0000000002,0000001000,087317,090039,075299,089209,092443,074384
0000000003,0000002000,084466,091895,076297,085909,094438,075689
0000000004,0000003000,081621,092956,078080,082654,095507,077875
0000000005,0000004000,079036,093139,080482,079749,095558,080729
0000000006,0000005000,076964,092432,083260,077489,094579,083969
0000000007,0000006000,075618,090902,086135,076095,092666,087275
0000000008,0000007000,075145,088671,088841,075700,090006,090330
0000000009,0000008000,075553,085993,091110,076341,086862,092833
0000000010,0000009000,076821,083126,092711,077959,083541,094536
0000000011,0000010000,078840,080327,093489,080397,080366,095274
0000000012,0000011000,081402,077878,093376,083410,077651,094975
0000000013,0000012000,084230,076048,092379,086709,075657,093670
0000000014,0000013000,087084,074977,090594,089968,074584,091484
0000000015,0000014000,089682,074782,088193,092870,074536,088630
0000000016,0000015000,091741,075500,085415,095128,075517,085391
0000000017,0000016000,093076,077041,082539,096526,077426,082084
0000000018,0000017000,093575,079248,079834,096920,080087,079029
0000000019,0000018000,093156,081935,077565,096277,083233,076526
0000000020,0000019000,091874,084818,075965,094660,086553,074823
0000000021,0000020000,089871,087600,075185,092226,089725,074085
0000000022,0000021000,087316,090041,075299,089206,092445,074384
0000000023,0000022000,084465,091896,076296,085910,094437,075689
0000000024,0000023000,081620,092956,078080,082653,095508,077875
0000000025,0000024000,079039,093136,080482,079750,095557,080729
0000000026,0000025000,076961,092436,083259,077488,094579,083969
0000000027,0000026000,075622,090899,086135,076095,092666,087275
0000000028,0000027000,075143,088672,088841,075699,090007,090330
0000000029,0000028000,075553,085993,091110,076341,086862,092833
0000000030,0000029000,076822,083125,092710,077959,083541,094536
0000000031,0000030000,078842,080325,093490,080395,080367,095274
0000000032,0000031000,081397,077883,093376,083410,077650,094975
0000000033,0000032000,084233,076045,092379,086709,075657,093670
0000000034,0000033000,087086,074975,090595,089967,074584,091485
0000000035,0000034000,089678,074785,088194,092868,074537,088631
0000000036,0000035000,091739,075502,085415,095129,075516,085391
0000000037,0000036000,093082,077035,082539,096525,077427,082084
0000000038,0000037000,093572,079250,079834,096920,080087,079030
0000000039,0000038000,093152,081939,077565,096276,083233,076526
0000000040,0000039000,091879,084813,075964,094661,086552,074823
0000000041,0000040000,089873,087598,075185,092224,089726,074086
0000000042,0000041000,087311,090046,075299,089207,092445,074384
0000000043,0000042000,084467,091894,076296,085910,094436,075690
0000000044,0000043000,081625,092952,078080,082653,095508,077875
0000000045,0000044000,079034,093141,080482,079749,095558,080729
0000000046,0000045000,076960,092438,083259,077489,094578,083969
0000000047,0000046000,075626,090895,086135,076095,092666,087275
0000000048,0000047000,075142,088674,088841,075698,090008,090330
0000000049,0000048000,075548,085998,091110,076341,086862,092833
0000000050,0000049000,076825,083121,092710,077959,083541,094536
0000000051,0000050000,078843,080324,093490,080394,080369,095274
0000000052,0000051000,081393,077887,093377,083410,077651,094975
0000000053,0000052000,084233,076044,092379,086709,075657,093670
0000000054,0000053000,087089,074972,090595,089966,074585,091485
0000000055,0000054000,089675,074788,088194,092867,074538,088631
0000000056,0000055000,091739,075502,085416,095129,075516,085391
0000000057,0000056000,093085,077032,082540,096524,077427,082085
0000000058,0000057000,093571,079251,079835,096918,080088,079030
0000000059,0000058000,093151,081940,077565,096276,083233,076527
0000000060,0000059000,091882,084810,075965,094660,086552,074824
0000000061,0000060000,089873,087598,075185,092224,089726,074086
0000000062,0000061000,087310,090048,075298,089207,092444,074385
0000000063,0000062000,084469,091892,076295,085910,094436,075690
0000000064,0000063000,081626,092952,078079,082653,095508,077875
0000000065,0000064000,079032,093144,080481,079750,095558,080729
0000000066,0000065000,076962,092437,083258,077490,094578,083968
0000000067,0000066000,075627,090894,086135,076095,092666,087275
0000000068,0000067000,075139,088677,088841,075699,090008,090329
0000000069,0000068000,075548,085999,091109,076342,086862,092832
0000000070,0000069000,076827,083120,092710,077959,083542,094535
0000000071,0000070000,078839,080327,093490,080393,080370,095273
0000000072,0000071000,081391,077889,093377,083410,077652,094975
0000000073,0000072000,084236,076041,092380,086708,075659,093670
0000000074,0000073000,087087,074973,090597,089964,074587,091485
0000000075,0000074000,089672,074789,088195,092866,074538,088631
0000000076,0000075000,091742,075498,085417,095127,075516,085392
0000000077,0000076000,093086,077030,082541,096522,077428,082086
0000000078,0000077000,093569,079253,079835,096917,080088,079032
0000000079,0000078000,093154,081938,077565,096276,083232,076529
0000000080,0000079000,091885,084807,075965,094659,086551,074826
0000000081,0000080000,089871,087600,075185,092223,089725,074088
0000000082,0000081000,087311,090048,075297,089208,092442,074386
0000000083,0000082000,084474,091889,076294,085911,094434,075691
0000000084,0000083000,081625,092953,078078,082653,095507,077875
0000000085,0000084000,079031,093147,080479,079751,095556,080729
0000000086,0000085000,076964,092435,083257,077492,094577,083967
0000000087,0000086000,075627,090895,086134,076096,092667,087273
0000000088,0000087000,075135,088681,088840,075700,090008,090328
0000000089,0000088000,075549,085998,091109,076343,086863,092830
0000000090,0000089000,076827,083120,092710,077959,083544,094533
0000000091,0000090000,078835,080330,093491,080393,080372,095271
0000000092,0000091000,081390,077889,093378,083409,077653,094974
0000000093,0000092000,084236,076039,092381,086706,075661,093669
0000000094,0000093000,087084,074974,090598,089962,074589,091485
0000000095,0000094000,089670,074789,088196,092865,074540,088632
0000000096,0000095000,091743,075495,085418,095125,075517,085393
0000000097,0000096000,093085,077029,082542,096520,077429,082088
0000000098,0000097000,093568,079253,079836,096915,080087,079034
0000000099,0000098000,093157,081934,077566,096275,083231,076531
0000000100,0000099000,091887,084805,075965,094658,086550,074828
0000000101,0000100000,089871,087601,075184,092223,089723,074090
0000000102,0000101000,087314,090046,075296,089209,092440,074387
0000000103,0000102000,084476,091888,076293,085912,094432,075692
0000000104,0000103000,081625,092956,078076,082655,095505,077876
0000000105,0000104000,079032,093147,080477,079754,095554,080728
0000000106,0000105000,076966,092435,083255,077494,094576,083966
0000000107,0000106000,075625,090899,086132,076098,092667,087271
0000000108,0000107000,075134,088684,088838,075702,090008,090325
0000000109,0000108000,075549,085998,091109,076344,086864,092828
0000000110,0000109000,076824,083122,092711,077959,083546,094531
0000000111,0000110000,078832,080333,093492,080393,080374,095269
0000000112,0000111000,081390,077888,093379,083408,077656,094972
0000000113,0000112000,084234,076039,092384,086704,075664,093668
0000000114,0000113000,087081,074975,090601,089960,074592,091484
0000000115,0000114000,089671,074787,088199,092862,074542,088633
0000000116,0000115000,091744,075491,085421,095122,075519,085395
0000000117,0000116000,093084,077029,082544,096516,077429,082090
0000000118,0000117000,093570,079250,079837,096913,080086,079037
0000000119,0000118000,093161,081930,077566,096272,083229,076534
0000000120,0000119000,091888,084804,075964,094657,086548,074831
0000000121,0000120000,089873,087600,075183,092224,089720,074093
0000000122,0000121000,087319,090043,075294,089210,092436,074390
0000000123,0000122000,084478,091888,076290,085914,094429,075693
0000000124,0000123000,081625,092958,078073,082658,095502,077876
0000000125,0000124000,079035,093148,080474,079757,095552,080727
0000000126,0000125000,076967,092437,083253,077497,094575,083964
0000000127,0000126000,075623,090904,086130,076102,092666,087269
0000000128,0000127000,075133,088687,088837,075705,090009,090322
0000000129,0000128000,075548,086000,091108,076346,086866,092824
0000000130,0000129000,076819,083126,092711,077960,083549,094527
0000000131,0000130000,078828,080336,093493,080393,080377,095266
0000000132,0000131000,081388,077887,093382,083407,077660,094969
0000000133,0000132000,084230,076040,092387,086701,075668,093667
0000000134,0000133000,087078,074975,090604,089956,074595,091484
0000000135,0000134000,089671,074783,088202,092858,074545,088634
0000000136,0000135000,091743,075489,085424,095117,075522,085397
0000000137,0000136000,093083,077027,082547,096512,077430,082094
0000000138,0000137000,093573,079245,079839,096910,080086,079041
0000000139,0000138000,093164,081925,077567,096270,083228,076539
0000000140,0000139000,091890,084802,075964,094655,086545,074836
0000000141,0000140000,089878,087598,075181,092224,089716,074097
0000000142,0000141000,087324,090041,075292,089211,092432,074393
0000000143,0000142000,084480,091889,076287,085917,094425,075695
0000000144,0000143000,081628,092960,078069,082662,095498,077876
0000000145,0000144000,079038,093149,080470,079762,095548,080726
0000000146,0000145000,076967,092441,083249,077502,094573,083962
0000000147,0000146000,075621,090909,086126,076106,092665,087265
0000000148,0000147000,075132,088689,088834,075709,090009,090317
0000000149,0000148000,075545,086004,091107,076349,086868,092819
0000000150,0000149000,076814,083131,092711,077961,083553,094522
0000000151,0000150000,078825,080337,093495,080393,080382,095261
0000000152,0000151000,081384,077888,093385,083405,077666,094966
0000000153,0000152000,084225,076041,092391,086698,075674,093664
0000000154,0000153000,087075,074973,090608,089952,074600,091484
0000000155,0000154000,089670,074779,088207,092852,074549,088635
0000000156,0000155000,091742,075486,085429,095111,075524,085400
0000000157,0000156000,093084,077022,082550,096507,077431,082098
0000000158,0000157000,093576,079239,079842,096905,080085,079046
0000000159,0000158000,093167,081921,077569,096266,083226,076545
0000000160,0000159000,091894,084799,075963,094654,086541,074841
0000000161,0000160000,089884,087593,075179,092224,089710,074102
0000000162,0000161000,087329,090039,075288,089213,092426,074397
0000000163,0000162000,084484,091890,076282,085920,094419,075697
0000000164,0000163000,081632,092961,078064,082668,095492,077877
0000000165,0000164000,079041,093151,080465,079768,095544,080725
0000000166,0000165000,076966,092447,083244,077508,094570,083958
0000000167,0000166000,075620,090914,086122,076113,092664,087260
0000000168,0000167000,075131,088694,088832,075715,090010,090311
0000000169,0000168000,075540,086011,091106,076352,086872,092812
0000000170,0000169000,076808,083137,092712,077963,083557,094515
0000000171,0000170000,078820,080340,093497,080393,080388,095256
0000000172,0000171000,081378,077890,093389,083402,077673,094961
0000000173,0000172000,084219,076042,092396,086694,075681,093662
0000000174,0000173000,087072,074971,090614,089946,074607,091483
0000000175,0000174000,089667,074776,088213,092845,074554,088637
0000000176,0000175000,091740,075482,085434,095104,075528,085404
0000000177,0000176000,093086,077016,082555,096500,077432,082104
0000000178,0000177000,093580,079232,079845,096899,080084,079053
0000000179,0000178000,093171,081916,077570,096262,083222,076552
0000000180,0000179000,091900,084794,075963,094652,086535,074849
0000000181,0000180000,089891,087588,075176,092224,089704,074108
0000000182,0000181000,087335,090038,075284,089215,092419,074402
0000000183,0000182000,084489,091891,076276,085925,094411,075700
0000000184,0000183000,081638,092962,078057,082674,095485,077877
0000000185,0000184000,079044,093155,080458,079775,095538,080723
0000000186,0000185000,076966,092453,083237,077516,094566,083954
0000000187,0000186000,075620,090920,086117,076120,092662,087254
0000000188,0000187000,075127,088701,088828,075721,090012,090303
0000000189,0000188000,075534,086018,091104,076357,086875,092804
0000000190,0000189000,076802,083142,092712,077966,083563,094507
0000000191,0000190000,078813,080343,093500,080392,080395,095248
0000000192,0000191000,081370,077893,093394,083399,077681,094956
0000000193,0000192000,084212,076042,092402,086688,075689,093659
0000000194,0000193000,087067,074967,090622,089939,074614,091483
0000000195,0000194000,089663,074772,088221,092836,074561,088639
0000000196,0000195000,091739,075476,085441,095095,075532,085409
0000000197,0000196000,093088,077008,082561,096492,077434,082110
0000000198,0000197000,093584,079224,079849,096892,080083,079061
0000000199,0000198000,093176,081909,077572,096257,083218,076561
0000000200,0000199000,091908,084787,075962,094649,086529,074858
0000000201,0000200000,089900,087583,075173,092224,089695,074116
0000000202,0000201000,087342,090036,075279,089219,092409,074408
0000000203,0000202000,084497,091891,076269,085931,094401,075704
0000000204,0000203000,081644,092964,078049,082682,095476,077878
0000000205,0000204000,079046,093161,080450,079785,095531,080720
0000000206,0000205000,076967,092460,083229,077526,094561,083949
0000000207,0000206000,075619,090927,086110,076130,092660,087246
0000000208,0000207000,075123,088710,088824,075729,090013,090294
0000000209,0000208000,075527,086027,091102,076363,086880,092794
0000000210,0000209000,076795,083149,092713,077969,083570,094497
0000000211,0000210000,078804,080349,093504,080392,080405,095240
0000000212,0000211000,081360,077897,093400,083396,077692,094949
0000000213,0000212000,084205,076042,092410,086682,075699,093655
0000000214,0000213000,087061,074964,090631,089930,074624,091482
0000000215,0000214000,089659,074767,088230,092826,074568,088641
0000000216,0000215000,091738,075469,085450,095084,075537,085414
0000000217,0000216000,093091,076998,082568,096482,077436,082119
0000000218,0000217000,093588,079215,079854,096883,080082,079072
0000000219,0000218000,093183,081900,077574,096250,083213,076572
0000000220,0000219000,091917,084778,075961,094646,086521,074869
0000000221,0000220000,089909,087578,075169,092225,089685,074126
0000000222,0000221000,087351,090033,075272,089223,092398,074415
0000000223,0000222000,084506,091890,076260,085938,094390,075708
0000000224,0000223000,081651,092967,078039,082692,095466,077879
0000000225,0000224000,079050,093167,080439,079796,095523,080718
0000000226,0000225000,076969,092468,083220,077538,094555,083943
0000000227,0000226000,075617,090937,086103,076141,092658,087237
0000000228,0000227000,075117,088721,088818,075738,090015,090283
0000000229,0000228000,075519,086037,091100,076369,086885,092782
0000000230,0000229000,076785,083157,092714,077972,083578,094486
0000000231,0000230000,078793,080356,093508,080391,080416,095229
0000000232,0000231000,081349,077901,093407,083391,077704,094941
0000000233,0000232000,084196,076041,092419,086674,075712,093650
0000000234,0000233000,087054,074961,090642,089919,074636,091481
0000000235,0000234000,089654,074761,088241,092814,074578,088644
0000000236,0000235000,091737,075459,085460,095072,075543,085421
0000000237,0000236000,093093,076987,082577,096469,077438,082129
0000000238,0000237000,093593,079204,079860,096873,080080,079084
0000000239,0000238000,093191,081889,077576,096243,083207,076585
0000000240,0000239000,091928,084768,075960,094643,086512,074882
0000000241,0000240000,089920,087571,075165,092225,089674,074137
0000000242,0000241000,087363,090029,075264,089227,092385,074424
0000000243,0000242000,084517,091889,076250,085947,094376,075713
0000000244,0000243000,081659,092971,078027,082703,095453,077880
0000000245,0000244000,079055,093175,080427,079809,095513,080714
0000000246,0000245000,076970,092477,083209,077552,094549,083935
0000000247,0000246000,075614,090949,086094,076154,092656,087226
0000000248,0000247000,075110,088734,088812,075749,090017,090270
0000000249,0000248000,075510,086049,091097,076377,086891,092768
0000000250,0000249000,076774,083167,092716,077976,083589,094472
0000000251,0000250000,078780,080364,093513,080391,080429,095217
0000000252,0000251000,081337,077905,093415,083386,077718,094932
0000000253,0000252000,084185,076041,092430,086665,075726,093645
0000000254,0000253000,087044,074958,090654,089907,074649,091480
0000000255,0000254000,089648,074754,088255,092800,074588,088648
0000000256,0000255000,091736,075448,085472,095057,075550,085429
0000000257,0000256000,093095,076975,082587,096455,077441,082140
0000000258,0000257000,093599,079191,079867,096861,080077,079098
0000000259,0000258000,093202,081876,077579,096235,083201,076601
0000000260,0000259000,091941,084757,075959,094638,086501,074897
0000000261,0000260000,089934,087563,075159,092226,089660,074150
0000000262,0000261000,087377,090025,075255,089233,092369,074434
0000000263,0000262000,084529,091889,076238,085956,094361,075719
0000000264,0000263000,081668,092975,078013,082716,095439,077881
0000000265,0000264000,079061,093183,080413,079825,095501,080710
0000000266,0000265000,076972,092488,083196,077568,094541,083927
0000000267,0000266000,075611,090963,086083,076169,092653,087213
0000000268,0000267000,075103,088749,088804,075762,090019,090254
0000000269,0000268000,075500,086063,091094,076386,086898,092751
0000000270,0000269000,076760,083179,092717,077980,083600,094456
0000000271,0000270000,078765,080373,093519,080390,080443,095203
0000000272,0000271000,081323,077909,093425,083381,077735,094921
0000000273,0000272000,084172,076041,092443,086654,075743,093638
0000000274,0000273000,087034,074953,090669,089893,074664,091479
0000000275,0000274000,089642,074745,088270,092783,074600,088653
0000000276,0000275000,091734,075435,085486,095039,075558,085439
0000000277,0000276000,093098,076960,082598,096439,077443,082154
0000000278,0000277000,093607,079175,079875,096847,080075,079114
0000000279,0000278000,093214,081860,077583,096225,083193,076619
0000000280,0000279000,091955,084744,075957,094634,086489,074914
0000000281,0000280000,089949,087554,075153,092227,089644,074166
0000000282,0000281000,087393,090019,075245,089239,092351,074445
0000000283,0000282000,084543,091889,076224,085968,094343,075726
0000000284,0000283000,081679,092980,077998,082731,095423,077882
0000000285,0000284000,079068,093192,080397,079843,095488,080706
0000000286,0000285000,076974,092501,083181,077587,094533,083917
0000000287,0000286000,075607,090979,086070,076187,092650,087199
0000000288,0000287000,075095,088765,088796,075777,090022,090237
0000000289,0000288000,075488,086078,091090,076397,086907,092732
0000000290,0000289000,076745,083193,092719,077985,083614,094437
0000000291,0000290000,078748,080383,093525,080389,080460,095187
0000000292,0000291000,081306,077915,093436,083374,077754,094909
0000000293,0000292000,084157,076041,092458,086642,075763,093631
0000000294,0000293000,087022,074948,090686,089876,074682,091478
0000000295,0000294000,089635,074734,088287,092764,074614,088658
0000000296,0000295000,091732,075421,085503,095019,075567,085449
0000000297,0000296000,093101,076944,082612,096420,077447,082169
0000000298,0000297000,093616,079157,079884,096832,080072,079133
0000000299,0000298000,093227,081843,077587,096214,083184,076639
0000000300,0000299000,091971,084730,075956,094628,086474,074933
0000000301,0000300000,089968,087543,075146,092228,089626,074183
