DIgSILENT PowerFactory,21000900,2000
6,06A,00D
1,TTPP_200000_100:Secondary Voltage A,,,V,0.10000000,-8434.470703,0.000000,70612,99998,1,1,P
2,TTPP_200000_100:Secondary Voltage B,,,V,0.10000000,-8379.996094,0.000000,68980,99998,1,1,P
3,TTPP_200000_100:Secondary Voltage C,,,V,0.10000000,-8543.976563,0.000000,67850,99998,1,1,P
4,TTCC_500_5:Secondary Current A,,,A,0.0010000000,-79.724358,0.000000,65286,99998,1,1,P
5,TTCC_500_5:Secondary Current B,,,A,0.0010000000,-84.546150,0.000000,69141,99998,1,1,P
6,TTCC_500_5:Secondary Current C,,,A,0.0010000000,-84.829262,0.000000,69679,99998,1,1,P
50
1
1000.000000,1101
30/06/2023,06:10:32.000000
30/06/2023,06:10:32.000000
ASCII
1.000000
0000000001,0000000000,089857,087441,076287,085640,089226,074234
0000000002,0000001000,087309,089873,076401,082624,091943,074533
0000000003,0000002000,084457,091729,077400,079327,093935,075838
0000000004,0000003000,081610,092792,079182,076068,095008,078024
0000000005,0000004000,079030,092970,081584,073167,095055,080878
0000000006,0000005000,076952,092270,084362,070905,094077,084118
0000000007,0000006000,075611,090734,087238,069510,092165,087424
0000000008,0000007000,075135,088506,089943,069117,089503,090479
0000000009,0000008000,075545,085827,092212,069756,086361,092982
0000000010,0000009000,076812,082960,093813,071375,083039,094685
0000000011,0000010000,078832,080161,094592,073813,079864,095423
0000000012,0000011000,081392,077714,094478,076826,077149,095124
0000000013,0000012000,084223,075880,093481,080125,075155,093819
0000000014,0000013000,087074,074813,091697,083385,074082,091633
0000000015,0000014000,089674,074615,089295,086285,074035,088779
0000000016,0000015000,091732,075335,086517,088545,075015,085540
0000000017,0000016000,093067,076876,083641,089942,076925,082233
0000000018,0000017000,093567,079082,080936,090337,079585,079178
0000000019,0000018000,093147,081770,078667,089693,082732,076675
0000000020,0000019000,091865,084653,077067,088076,086052,074972
0000000021,0000020000,089862,087434,076288,085642,089223,074234
0000000022,0000021000,087307,089876,076401,082623,091943,074533
0000000023,0000022000,084456,091731,077399,079325,093936,075838
0000000024,0000023000,081612,092790,079182,076070,095006,078024
0000000025,0000024000,079029,092972,081585,073166,095056,080878
0000000026,0000025000,076953,092270,084362,070904,094078,084118
0000000027,0000026000,075612,090734,087238,069511,092164,087424
0000000028,0000027000,075134,088506,089944,069115,089505,090479
0000000029,0000028000,075544,085828,092212,069757,086361,092982
0000000030,0000029000,076813,082959,093812,071375,083039,094685
0000000031,0000030000,078833,080160,094592,073811,079866,095423
0000000032,0000031000,081389,077717,094479,076827,077149,095124
0000000033,0000032000,084224,075880,093481,080125,075156,093819
0000000034,0000033000,087078,074809,091697,083383,074083,091634
0000000035,0000034000,089669,074619,089296,086285,074035,088780
0000000036,0000035000,091731,075336,086518,088545,075015,085540
0000000037,0000036000,093074,076870,083641,089941,076925,082233
0000000038,0000037000,093564,079085,080936,090336,079586,079179
0000000039,0000038000,093143,081774,078667,089693,082732,076675
0000000040,0000039000,091870,084648,077067,088077,086051,074972
0000000041,0000040000,089864,087433,076287,085640,089225,074235
0000000042,0000041000,087302,089881,076401,082623,091943,074533
0000000043,0000042000,084458,091729,077398,079326,093935,075839
0000000044,0000043000,081616,092786,079182,076069,095007,078024
0000000045,0000044000,079025,092976,081584,073165,095057,080878
0000000046,0000045000,076950,092272,084362,070906,094077,084118
0000000047,0000046000,075617,090729,087238,069511,092165,087424
0000000048,0000047000,075133,088508,089943,069114,089506,090479
0000000049,0000048000,075539,085833,092212,069757,086361,092982
0000000050,0000049000,076816,082956,093812,071375,083040,094685
0000000051,0000050000,078834,080158,094592,073810,079867,095423
0000000052,0000051000,081384,077722,094479,076826,077150,095124
0000000053,0000052000,084225,075878,093481,080125,075156,093819
0000000054,0000053000,087081,074806,091698,083382,074084,091634
0000000055,0000054000,089666,074622,089296,086283,074036,088780
0000000056,0000055000,091730,075336,086518,088545,075015,085540
0000000057,0000056000,093076,076866,083642,089940,076926,082234
0000000058,0000057000,093563,079085,080937,090334,079586,079179
0000000059,0000058000,093143,081775,078667,089692,082731,076676
0000000060,0000059000,091873,084645,077067,088076,086050,074973
0000000061,0000060000,089864,087433,076287,085640,089224,074236
0000000062,0000061000,087301,089883,076401,082623,091943,074534
0000000063,0000062000,084460,091727,077397,079327,093934,075839
0000000064,0000063000,081617,092786,079182,076069,095007,078024
0000000065,0000064000,079023,092979,081583,073166,095056,080878
0000000066,0000065000,076953,092271,084361,070906,094076,084117
0000000067,0000066000,075618,090729,087237,069511,092165,087424
0000000068,0000067000,075130,088511,089943,069115,089507,090478
0000000069,0000068000,075540,085833,092212,069758,086361,092981
0000000070,0000069000,076818,082954,093813,071375,083041,094684
0000000071,0000070000,078831,080161,094593,073809,079868,095422
0000000072,0000071000,081382,077723,094479,076826,077150,095124
0000000073,0000072000,084227,075875,093482,080124,075157,093819
0000000074,0000073000,087079,074807,091699,083380,074086,091634
0000000075,0000074000,089663,074624,089297,086283,074037,088780
0000000076,0000075000,091733,075333,086519,088544,075015,085541
0000000077,0000076000,093077,076865,083643,089938,076926,082235
0000000078,0000077000,093560,079088,080937,090333,079586,079181
0000000079,0000078000,093145,081772,078667,089692,082730,076678
0000000080,0000079000,091876,084641,077067,088075,086050,074975
0000000081,0000080000,089862,087435,076287,085639,089224,074237
0000000082,0000081000,087302,089883,076400,082624,091941,074535
0000000083,0000082000,084465,091723,077396,079327,093933,075840
0000000084,0000083000,081616,092788,079180,076069,095006,078025
0000000085,0000084000,079022,092981,081582,073167,095055,080878
0000000086,0000085000,076955,092270,084360,070908,094075,084116
0000000087,0000086000,075618,090730,087236,069512,092165,087422
0000000088,0000087000,075126,088516,089942,069116,089507,090477
0000000089,0000088000,075540,085833,092212,069759,086361,092979
0000000090,0000089000,076818,082954,093813,071375,083042,094683
0000000091,0000090000,078827,080165,094593,073809,079870,095421
0000000092,0000091000,081381,077723,094480,076825,077152,095123
0000000093,0000092000,084228,075873,093484,080122,075159,093818
0000000094,0000093000,087076,074808,091700,083378,074088,091634
0000000095,0000094000,089662,074624,089299,086281,074038,088781
0000000096,0000095000,091735,075329,086520,088541,075016,085542
0000000097,0000096000,093076,076864,083644,089936,076927,082237
0000000098,0000097000,093559,079087,080938,090332,079586,079183
0000000099,0000098000,093148,081769,078668,089691,082729,076680
0000000100,0000099000,091878,084640,077067,088074,086049,074977
0000000101,0000100000,089862,087436,076286,085639,089221,074239
0000000102,0000101000,087305,089881,076398,082625,091938,074537
0000000103,0000102000,084467,091722,077395,079328,093931,075841
0000000104,0000103000,081616,092791,079179,076071,095004,078025
0000000105,0000104000,079023,092982,081580,073170,095053,080877
0000000106,0000105000,076957,092270,084358,070910,094074,084115
0000000107,0000106000,075616,090734,087235,069514,092165,087420
0000000108,0000107000,075125,088518,089941,069118,089507,090474
0000000109,0000108000,075541,085833,092211,069760,086363,092977
0000000110,0000109000,076815,082957,093813,071375,083045,094680
0000000111,0000110000,078823,080168,094594,073809,079872,095418
0000000112,0000111000,081381,077722,094482,076825,077155,095121
0000000113,0000112000,084226,075873,093486,080120,075163,093817
0000000114,0000113000,087072,074810,091703,083376,074090,091633
0000000115,0000114000,089662,074621,089301,086278,074040,088782
0000000116,0000115000,091736,075326,086523,088538,075018,085544
0000000117,0000116000,093075,076863,083646,089933,076928,082239
0000000118,0000117000,093561,079085,080939,090329,079585,079186
0000000119,0000118000,093152,081764,078669,089689,082728,076683
0000000120,0000119000,091879,084639,077067,088073,086047,074980
0000000121,0000120000,089864,087435,076285,085640,089218,074242
0000000122,0000121000,087310,089878,076396,082626,091935,074539
0000000123,0000122000,084469,091723,077393,079330,093928,075842
0000000124,0000123000,081616,092793,079175,076074,095001,078025
0000000125,0000124000,079026,092982,081577,073174,095050,080876
0000000126,0000125000,076958,092271,084355,070913,094073,084113
0000000127,0000126000,075614,090738,087232,069518,092164,087418
0000000128,0000127000,075124,088521,089939,069122,089507,090471
0000000129,0000128000,075539,085835,092210,069762,086364,092973
0000000130,0000129000,076810,082961,093813,071376,083047,094676
0000000131,0000130000,078820,080170,094595,073809,079876,095415
0000000132,0000131000,081379,077722,094484,076823,077159,095118
0000000133,0000132000,084222,075874,093489,080117,075167,093816
0000000134,0000133000,087069,074809,091706,083373,074094,091633
0000000135,0000134000,089662,074618,089305,086274,074043,088783
0000000136,0000135000,091735,075323,086526,088533,075020,085546
0000000137,0000136000,093074,076861,083649,089929,076929,082243
0000000138,0000137000,093564,079080,080941,090326,079584,079190
0000000139,0000138000,093155,081760,078670,089686,082726,076688
0000000140,0000139000,091881,084637,077066,088072,086044,074985
0000000141,0000140000,089869,087432,076283,085640,089214,074246
0000000142,0000141000,087315,089876,076394,082627,091931,074542
0000000143,0000142000,084471,091724,077389,079333,093923,075844
0000000144,0000143000,081619,092794,079171,076078,094996,078025
0000000145,0000144000,079029,092983,081572,073178,095047,080875
0000000146,0000145000,076958,092276,084351,070918,094071,084111
0000000147,0000146000,075612,090743,087229,069523,092163,087414
0000000148,0000147000,075124,088524,089937,069126,089508,090466
0000000149,0000148000,075536,085839,092210,069765,086367,092968
0000000150,0000149000,076805,082966,093814,071378,083051,094671
0000000151,0000150000,078816,080172,094597,073809,079880,095410
0000000152,0000151000,081375,077722,094487,076821,077164,095115
0000000153,0000152000,084216,075875,093493,080114,075172,093813
0000000154,0000153000,087066,074808,091710,083368,074099,091633
0000000155,0000154000,089661,074614,089309,086268,074047,088784
0000000156,0000155000,091733,075320,086531,088527,075023,085549
0000000157,0000156000,093075,076857,083653,089923,076930,082247
0000000158,0000157000,093567,079074,080944,090321,079583,079195
0000000159,0000158000,093158,081756,078671,089682,082724,076694
0000000160,0000159000,091885,084634,077066,088070,086039,074990
0000000161,0000160000,089875,087428,076281,085640,089209,074251
0000000162,0000161000,087320,089874,076391,082629,091925,074546
0000000163,0000162000,084475,091725,077385,079336,093917,075846
0000000164,0000163000,081623,092795,079166,076084,094990,078026
0000000165,0000164000,079032,092986,081567,073184,095042,080874
0000000166,0000165000,076957,092281,084346,070924,094068,084107
0000000167,0000166000,075611,090748,087225,069529,092162,087409
0000000168,0000167000,075122,088528,089934,069131,089509,090460
0000000169,0000168000,075531,085845,092208,069768,086370,092961
0000000170,0000169000,076799,082971,093814,071380,083056,094665
0000000171,0000170000,078811,080174,094599,073809,079886,095405
0000000172,0000171000,081369,077725,094491,076818,077171,095110
0000000173,0000172000,084210,075876,093498,080110,075179,093811
0000000174,0000173000,087063,074805,091716,083362,074105,091632
0000000175,0000174000,089658,074610,089316,086261,074053,088786
0000000176,0000175000,091731,075316,086537,088520,075026,085553
0000000177,0000176000,093077,076851,083657,089917,076931,082253
0000000178,0000177000,093571,079066,080947,090315,079583,079202
0000000179,0000178000,093162,081751,078672,089678,082721,076701
0000000180,0000179000,091891,084629,077065,088068,086034,074998
0000000181,0000180000,089882,087423,076279,085640,089202,074257
0000000182,0000181000,087325,089872,076386,082632,091917,074551
0000000183,0000182000,084480,091726,077379,079341,093909,075849
0000000184,0000183000,081629,092796,079159,076090,094983,078027
0000000185,0000184000,079035,092990,081560,073191,095037,080872
0000000186,0000185000,076957,092287,084340,070933,094064,084103
0000000187,0000186000,075611,090754,087219,069537,092160,087403
0000000188,0000187000,075118,088535,089931,069137,089510,090452
0000000189,0000188000,075525,085853,092207,069773,086374,092953
0000000190,0000189000,076793,082976,093815,071382,083061,094656
0000000191,0000190000,078805,080178,094602,073809,079894,095397
0000000192,0000191000,081361,077728,094496,076815,077180,095105
0000000193,0000192000,084204,075876,093504,080105,075188,093808
0000000194,0000193000,087059,074802,091724,083355,074113,091632
0000000195,0000194000,089655,074606,089323,086253,074059,088788
0000000196,0000195000,091730,075311,086544,088511,075031,085558
0000000197,0000196000,093079,076842,083663,089908,076932,082259
0000000198,0000197000,093575,079059,080951,090308,079582,079210
0000000199,0000198000,093167,081744,078674,089673,082717,076710
0000000200,0000199000,091899,084621,077064,088066,086027,075007
0000000201,0000200000,089891,087418,076276,085640,089194,074265
0000000202,0000201000,087333,089870,076381,082635,091908,074557
0000000203,0000202000,084488,091725,077371,079347,093900,075853
0000000204,0000203000,081635,092798,079151,076098,094974,078027
0000000205,0000204000,079037,092995,081552,073201,095030,080870
0000000206,0000205000,076958,092295,084332,070943,094059,084098
0000000207,0000206000,075610,090762,087213,069546,092159,087395
0000000208,0000207000,075114,088544,089926,069145,089512,090443
0000000209,0000208000,075518,085862,092205,069779,086378,092943
0000000210,0000209000,076786,082983,093816,071385,083068,094646
0000000211,0000210000,078796,080183,094606,073808,079903,095389
0000000212,0000211000,081351,077731,094502,076812,077190,095098
0000000213,0000212000,084196,075876,093512,080098,075198,093804
0000000214,0000213000,087053,074799,091733,083346,074123,091631
0000000215,0000214000,089650,074601,089333,086242,074067,088790
0000000216,0000215000,091729,075303,086552,088501,075036,085563
0000000217,0000216000,093082,076833,083670,089898,076934,082268
0000000218,0000217000,093579,079050,080956,090299,079580,079221
0000000219,0000218000,093174,081735,078676,089667,082712,076721
0000000220,0000219000,091908,084613,077063,088062,086020,075018
0000000221,0000220000,089900,087412,076272,085641,089184,074275
0000000222,0000221000,087342,089868,076374,082639,091897,074564
0000000223,0000222000,084497,091725,077363,079355,093888,075857
0000000224,0000223000,081642,092801,079141,076108,094964,078028
0000000225,0000224000,079041,093002,081542,073212,095021,080867
0000000226,0000225000,076960,092303,084322,070954,094054,084092
0000000227,0000226000,075608,090771,087205,069557,092157,087386
0000000228,0000227000,075108,088555,089921,069154,089513,090432
0000000229,0000228000,075510,085872,092202,069786,086383,092931
0000000230,0000229000,076777,082991,093817,071388,083077,094635
0000000231,0000230000,078785,080190,094610,073808,079914,095378
0000000232,0000231000,081340,077735,094509,076808,077202,095090
0000000233,0000232000,084187,075876,093522,080090,075210,093799
0000000234,0000233000,087045,074795,091744,083336,074134,091630
0000000235,0000234000,089645,074595,089344,086230,074076,088793
0000000236,0000235000,091728,075294,086562,088488,075041,085570
0000000237,0000236000,093084,076822,083679,089885,076937,082278
0000000238,0000237000,093584,079039,080962,090289,079578,079233
0000000239,0000238000,093183,081724,078678,089659,082706,076735
0000000240,0000239000,091919,084603,077062,088059,086010,075031
0000000241,0000240000,089911,087406,076267,085641,089172,074286
0000000242,0000241000,087354,089864,076366,082643,091883,074573
0000000243,0000242000,084508,091724,077352,079363,093875,075862
0000000244,0000243000,081650,092805,079130,076119,094952,078029
0000000245,0000244000,079046,093009,081530,073225,095011,080863
0000000246,0000245000,076961,092312,084311,070968,094047,084084
0000000247,0000246000,075605,090783,087196,069570,092155,087375
0000000248,0000247000,075102,088568,089914,069166,089515,090419
0000000249,0000248000,075501,085883,092200,069794,086389,092917
0000000250,0000249000,076765,083001,093818,071392,083087,094621
0000000251,0000250000,078771,080198,094615,073807,079927,095366
0000000252,0000251000,081328,077739,094517,076803,077216,095081
0000000253,0000252000,084176,075875,093533,080081,075225,093794
0000000254,0000253000,087036,074792,091757,083323,074147,091629
0000000255,0000254000,089639,074588,089357,086216,074087,088797
0000000256,0000255000,091727,075282,086574,088473,075048,085578
0000000257,0000256000,093087,076809,083689,089871,076939,082289
0000000258,0000257000,093590,079025,080969,090277,079576,079247
0000000259,0000258000,093193,081710,078681,089651,082699,076750
0000000260,0000259000,091932,084592,077061,088054,086000,075046
0000000261,0000260000,089925,087398,076262,085642,089158,074299
0000000262,0000261000,087368,089859,076357,082649,091868,074583
0000000263,0000262000,084520,091724,077340,079373,093859,075868
0000000264,0000263000,081659,092810,079116,076132,094938,078030
0000000265,0000264000,079052,093017,081515,073241,095000,080859
0000000266,0000265000,076963,092323,084298,070984,094040,084076
0000000267,0000266000,075602,090797,087185,069585,092152,087363
0000000268,0000267000,075094,088583,089907,069178,089518,090403
0000000269,0000268000,075491,085897,092196,069803,086397,092900
0000000270,0000269000,076752,083013,093820,071396,083099,094605
0000000271,0000270000,078756,080207,094621,073806,079942,095352
0000000272,0000271000,081314,077744,094527,076797,077233,095070
0000000273,0000272000,084163,075875,093546,080071,075242,093787
0000000274,0000273000,087025,074788,091771,083309,074163,091628
0000000275,0000274000,089633,074579,089372,086199,074099,088802
0000000276,0000275000,091726,075270,086589,088455,075056,085588
0000000277,0000276000,093089,076795,083701,089855,076942,082303
0000000278,0000277000,093598,079010,080977,090263,079573,079263
0000000279,0000278000,093205,081695,078685,089641,082691,076768
0000000280,0000279000,091946,084579,077059,088050,085987,075063
0000000281,0000280000,089940,087388,076255,085643,089142,074315
0000000282,0000281000,087384,089854,076347,082655,091850,074594
0000000283,0000282000,084534,091724,077327,079384,093841,075875
0000000284,0000283000,081670,092815,079100,076148,094921,078031
0000000285,0000284000,079059,093026,081499,073259,094987,080855
0000000286,0000285000,076965,092336,084283,071003,094031,084066
0000000287,0000286000,075598,090813,087173,069603,092149,087348
0000000288,0000287000,075087,088600,089898,069193,089521,090386
0000000289,0000288000,075479,085913,092193,069813,086405,092881
0000000290,0000289000,076736,083027,093821,071401,083112,094586
0000000291,0000290000,078739,080218,094628,073805,079959,095336
0000000292,0000291000,081297,077749,094538,076790,077252,095058
0000000293,0000292000,084148,075876,093561,080058,075261,093780
0000000294,0000293000,087013,074783,091788,083293,074180,091627
0000000295,0000294000,089626,074569,089389,086180,074113,088807
0000000296,0000295000,091724,075256,086605,088436,075066,085598
0000000297,0000296000,093092,076778,083714,089836,076945,082318
0000000298,0000297000,093607,078992,080986,090248,079570,079282
0000000299,0000298000,093218,081678,078689,089630,082682,076788
0000000300,0000299000,091962,084565,077058,088044,085973,075082
0000000301,0000300000,089959,087377,076248,085644,089124,074332
