DIgSILENT PowerFactory,21000900,2000
6,06A,00D
1,TTPP_200000_100:Secondary Voltage A,,,V,0.10000000,-8389.201172,0.000000,67171,99998,1,1,P
2,TTPP_200000_100:Secondary Voltage B,,,V,0.10000000,-8132.492676,0.000000,64796,99998,1,1,P
3,TTPP_200000_100:Secondary Voltage C,,,V,0.10000000,-8379.933594,0.000000,67114,99998,1,1,P
4,TTCC_500_5:Secondary Current A,,,A,0.0010000000,-87.364281,0.000000,69088,99998,1,1,P
5,TTCC_500_5:Secondary Current B,,,A,0.0010000000,-85.147888,0.000000,70253,99998,1,1,P
6,TTCC_500_5:Secondary Current C,,,A,0.0010000000,-84.820755,0.000000,69469,99998,1,1,P
50
1
1000.000000,1101
30/06/2023,06:08:32.000000
30/06/2023,06:08:32.000000
ASCII
1.000000
0000000001,0000000000,089404,084965,074647,093280,089827,074226
0000000002,0000001000,086856,087399,074761,090265,092543,074524
0000000003,0000002000,084005,089254,075759,086965,094538,075830
0000000004,0000003000,081159,090315,077542,083710,095608,078015
0000000005,0000004000,078575,090498,079943,080806,095658,080869
0000000006,0000005000,076503,089791,082722,078545,094679,084109
0000000007,0000006000,075157,088261,085597,077151,092766,087415
0000000008,0000007000,074684,086030,088303,076756,090106,090471
0000000009,0000008000,075092,083352,090572,077397,086962,092974
0000000010,0000009000,076360,080485,092172,079015,083641,094677
0000000011,0000010000,078379,077687,092951,081453,080466,095414
0000000012,0000011000,080940,075238,092838,084466,077751,095116
0000000013,0000012000,083769,073407,091841,087765,075757,093810
0000000014,0000013000,086622,072336,090056,091024,074684,091625
0000000015,0000014000,089220,072141,087655,093926,074636,088771
0000000016,0000015000,091279,072860,084877,096184,075617,085531
0000000017,0000016000,092615,074400,082001,097582,077526,082225
0000000018,0000017000,093114,076607,079296,097976,080187,079170
0000000019,0000018000,092694,079295,077027,097333,083333,076667
0000000020,0000019000,091412,082177,075427,095716,086653,074964
0000000021,0000020000,089410,084959,074647,093282,089825,074226
0000000022,0000021000,086855,087400,074761,090263,092546,074524
0000000023,0000022000,084003,089255,075758,086966,094537,075830
0000000024,0000023000,081159,090316,077542,083709,095608,078015
0000000025,0000024000,078578,090496,079944,080806,095658,080869
0000000026,0000025000,076500,089796,082721,078544,094680,084109
0000000027,0000026000,075160,088259,085597,077151,092766,087416
0000000028,0000027000,074682,086031,088303,076755,090107,090471
0000000029,0000028000,075091,083353,090572,077397,086962,092974
0000000030,0000029000,076360,080485,092172,079015,083641,094677
0000000031,0000030000,078380,077685,092952,081451,080467,095415
0000000032,0000031000,080936,075243,092838,084466,077751,095116
0000000033,0000032000,083771,073405,091841,087765,075758,093811
0000000034,0000033000,086624,072335,090057,091023,074685,091625
0000000035,0000034000,089216,072144,087656,093925,074637,088771
0000000036,0000035000,091278,072861,084877,096185,075616,085532
0000000037,0000036000,092620,074395,082001,097581,077527,082225
0000000038,0000037000,093111,076610,079296,097976,080187,079170
0000000039,0000038000,092691,079298,077027,097333,083333,076667
0000000040,0000039000,091417,082173,075426,095717,086652,074964
0000000041,0000040000,089411,084958,074647,093280,089826,074226
0000000042,0000041000,086850,087406,074761,090263,092545,074525
0000000043,0000042000,084006,089253,075758,086966,094537,075830
0000000044,0000043000,081164,090311,077541,083709,095609,078016
0000000045,0000044000,078572,090501,079943,080805,095659,080869
0000000046,0000045000,076498,089797,082721,078546,094679,084109
0000000047,0000046000,075165,088254,085597,077151,092767,087415
0000000048,0000047000,074680,086033,088303,076754,090108,090470
0000000049,0000048000,075087,083358,090572,077397,086963,092973
0000000050,0000049000,076364,080481,092172,079015,083641,094676
0000000051,0000050000,078381,077684,092952,081450,080469,095414
0000000052,0000051000,080931,075247,092838,084466,077751,095116
0000000053,0000052000,083772,073403,091841,087765,075758,093811
0000000054,0000053000,086628,072331,090057,091022,074686,091625
0000000055,0000054000,089213,072147,087656,093923,074638,088771
0000000056,0000055000,091277,072861,084878,096185,075616,085532
0000000057,0000056000,092624,074391,082002,097580,077527,082226
0000000058,0000057000,093110,076610,079297,097974,080188,079171
0000000059,0000058000,092690,079300,077027,097332,083333,076668
0000000060,0000059000,091421,082169,075427,095716,086652,074965
0000000061,0000060000,089411,084958,074647,093280,089826,074227
0000000062,0000061000,086848,087408,074760,090263,092544,074525
0000000063,0000062000,084008,089251,075757,086967,094536,075830
0000000064,0000063000,081165,090311,077541,083709,095608,078016
0000000065,0000064000,078570,090504,079943,080806,095658,080869
0000000066,0000065000,076500,089796,082720,078546,094678,084109
0000000067,0000066000,075166,088254,085596,077151,092767,087415
0000000068,0000067000,074677,086037,088302,076755,090109,090469
0000000069,0000068000,075087,083358,090571,077398,086963,092972
0000000070,0000069000,076365,080479,092172,079015,083643,094676
0000000071,0000070000,078378,077686,092952,081449,080470,095413
0000000072,0000071000,080929,075248,092839,084466,077752,095115
0000000073,0000072000,083774,073401,091842,087764,075759,093810
0000000074,0000073000,086626,072332,090058,091020,074687,091625
0000000075,0000074000,089210,072149,087657,093922,074639,088772
0000000076,0000075000,091280,072858,084879,096183,075617,085533
0000000077,0000076000,092624,074390,082003,097578,077528,082227
0000000078,0000077000,093107,076612,079297,097973,080188,079172
0000000079,0000078000,092692,079297,077027,097332,083332,076669
0000000080,0000079000,091424,082166,075427,095715,086651,074966
0000000081,0000080000,089410,084960,074647,093279,089825,074228
0000000082,0000081000,086849,087407,074759,090264,092542,074526
0000000083,0000082000,084012,089248,075756,086967,094534,075831
0000000084,0000083000,081164,090313,077540,083710,095608,078016
0000000085,0000084000,078569,090506,079941,080808,095657,080869
0000000086,0000085000,076503,089795,082719,078548,094677,084108
0000000087,0000086000,075166,088255,085595,077152,092767,087414
0000000088,0000087000,074674,086041,088301,076756,090109,090468
0000000089,0000088000,075087,083358,090571,077399,086963,092971
0000000090,0000089000,076365,080479,092172,079015,083644,094674
0000000091,0000090000,078374,077690,092953,081449,080472,095412
0000000092,0000091000,080928,075248,092840,084465,077754,095114
0000000093,0000092000,083775,073398,091843,087762,075761,093810
0000000094,0000093000,086623,072333,090060,091018,074690,091625
0000000095,0000094000,089209,072149,087658,093921,074640,088772
0000000096,0000095000,091282,072854,084880,096181,075618,085534
0000000097,0000096000,092624,074389,082004,097576,077529,082229
0000000098,0000097000,093106,076612,079298,097972,080187,079174
0000000099,0000098000,092695,079293,077028,097331,083331,076672
0000000100,0000099000,091425,082164,075427,095714,086650,074969
0000000101,0000100000,089410,084961,074646,093279,089823,074230
0000000102,0000101000,086853,087406,074758,090265,092540,074528
0000000103,0000102000,084015,089247,075754,086968,094532,075832
0000000104,0000103000,081163,090315,077538,083711,095606,078016
0000000105,0000104000,078571,090507,079939,080810,095655,080868
0000000106,0000105000,076505,089795,082717,078550,094676,084107
0000000107,0000106000,075164,088259,085594,077154,092767,087412
0000000108,0000107000,074672,086044,088300,076758,090109,090466
0000000109,0000108000,075088,083358,090570,077400,086964,092968
0000000110,0000109000,076362,080482,092173,079015,083647,094671
0000000111,0000110000,078370,077693,092954,081449,080474,095410
0000000112,0000111000,080928,075247,092841,084464,077756,095112
0000000113,0000112000,083773,073398,091846,087760,075764,093809
0000000114,0000113000,086619,072335,090062,091016,074692,091625
0000000115,0000114000,089209,072146,087661,093918,074642,088773
0000000116,0000115000,091282,072851,084883,096178,075619,085536
0000000117,0000116000,092622,074388,082006,097573,077530,082231
0000000118,0000117000,093108,076609,079299,097969,080186,079177
0000000119,0000118000,092699,079289,077028,097329,083330,076675
0000000120,0000119000,091426,082163,075426,095713,086648,074972
0000000121,0000120000,089412,084960,074645,093280,089820,074233
0000000122,0000121000,086857,087403,074756,090266,092536,074530
0000000123,0000122000,084017,089247,075752,086970,094529,075833
0000000124,0000123000,081164,090318,077535,083714,095602,078016
0000000125,0000124000,078574,090507,079936,080814,095652,080868
0000000126,0000125000,076506,089797,082714,078553,094675,084105
0000000127,0000126000,075161,088263,085591,077158,092766,087409
0000000128,0000127000,074672,086046,088298,076762,090109,090462
0000000129,0000128000,075087,083360,090570,077402,086966,092964
0000000130,0000129000,076357,080486,092173,079016,083649,094668
0000000131,0000130000,078367,077695,092955,081449,080478,095406
0000000132,0000131000,080926,075247,092844,084463,077761,095110
0000000133,0000132000,083769,073399,091849,087757,075769,093807
0000000134,0000133000,086616,072334,090066,091012,074696,091625
0000000135,0000134000,089209,072143,087664,093914,074645,088774
0000000136,0000135000,091282,072848,084886,096173,075622,085538
0000000137,0000136000,092622,074386,082009,097568,077530,082234
0000000138,0000137000,093111,076604,079301,097966,080186,079181
0000000139,0000138000,092702,079285,077029,097326,083328,076679
0000000140,0000139000,091429,082162,075426,095712,086645,074976
0000000141,0000140000,089416,084957,074643,093280,089816,074237
0000000142,0000141000,086862,087400,074754,090267,092532,074533
0000000143,0000142000,084019,089249,075749,086973,094525,075835
0000000144,0000143000,081166,090319,077531,083719,095598,078017
0000000145,0000144000,078577,090508,079932,080818,095648,080867
0000000146,0000145000,076505,089801,082710,078558,094673,084102
0000000147,0000146000,075160,088268,085588,077163,092765,087405
0000000148,0000147000,074671,086049,088296,076766,090110,090457
0000000149,0000148000,075083,083364,090569,077405,086969,092959
0000000150,0000149000,076352,080491,092173,079017,083653,094662
0000000151,0000150000,078363,077697,092956,081449,080482,095402
0000000152,0000151000,080922,075248,092847,084461,077766,095106
0000000153,0000152000,083763,073400,091853,087754,075774,093805
0000000154,0000153000,086613,072333,090070,091008,074701,091624
0000000155,0000154000,089208,072139,087669,093908,074649,088776
0000000156,0000155000,091280,072845,084891,096167,075625,085541
0000000157,0000156000,092622,074382,082012,097563,077531,082239
0000000158,0000157000,093115,076598,079304,097961,080185,079187
0000000159,0000158000,092705,079280,077031,097322,083326,076685
0000000160,0000159000,091432,082158,075425,095710,086641,074982
0000000161,0000160000,089422,084953,074641,093280,089810,074242
0000000162,0000161000,086867,087398,074750,090269,092526,074537
0000000163,0000162000,084023,089250,075744,086977,094519,075838
0000000164,0000163000,081171,090320,077525,083724,095592,078017
0000000165,0000164000,078580,090511,079926,080824,095644,080865
0000000166,0000165000,076505,089806,082705,078564,094670,084099
0000000167,0000166000,075159,088274,085584,077169,092764,087400
0000000168,0000167000,074669,086054,088293,076771,090111,090451
0000000169,0000168000,075078,083370,090568,077408,086972,092953
0000000170,0000169000,076347,080496,092174,079019,083657,094656
0000000171,0000170000,078358,077699,092959,081449,080488,095396
0000000172,0000171000,080916,075250,092851,084458,077773,095102
0000000173,0000172000,083757,073401,091858,087750,075781,093802
0000000174,0000173000,086610,072330,090076,091002,074707,091624
0000000175,0000174000,089205,072135,087675,093901,074654,088777
0000000176,0000175000,091278,072841,084896,096160,075628,085545
0000000177,0000176000,092624,074375,082017,097556,077532,082244
0000000178,0000177000,093118,076591,079307,097955,080184,079194
0000000179,0000178000,092709,079275,077032,097318,083322,076693
0000000180,0000179000,091438,082153,075425,095708,086635,074989
0000000181,0000180000,089430,084948,074638,093280,089804,074249
0000000182,0000181000,086873,087397,074746,090272,092519,074542
0000000183,0000182000,084028,089250,075738,086981,094511,075841
0000000184,0000183000,081176,090321,077519,083730,095585,078018
0000000185,0000184000,078582,090515,079920,080832,095638,080863
0000000186,0000185000,076505,089812,082699,078573,094666,084094
0000000187,0000186000,075158,088280,085579,077177,092762,087394
0000000188,0000187000,074666,086060,088290,076777,090112,090444
0000000189,0000188000,075072,083378,090566,077413,086976,092944
0000000190,0000189000,076340,080502,092174,079022,083663,094648
0000000191,0000190000,078352,077703,092962,081448,080496,095389
0000000192,0000191000,080908,075253,092856,084455,077782,095096
0000000193,0000192000,083751,073402,091864,087744,075789,093799
0000000194,0000193000,086606,072327,090084,090995,074715,091623
0000000195,0000194000,089202,072131,087683,093892,074661,088779
0000000196,0000195000,091277,072836,084903,096151,075632,085549
0000000197,0000196000,092626,074367,082023,097548,077534,082251
0000000198,0000197000,093122,076583,079311,097948,080183,079202
0000000199,0000198000,092714,079268,077034,097313,083318,076702
0000000200,0000199000,091446,082146,075424,095706,086629,074998
0000000201,0000200000,089438,084943,074635,093281,089795,074257
0000000202,0000201000,086880,087395,074741,090275,092510,074548
0000000203,0000202000,084035,089250,075731,086987,094501,075844
0000000204,0000203000,081183,090323,077511,083738,095576,078019
0000000205,0000204000,078585,090520,079911,080841,095631,080861
0000000206,0000205000,076506,089820,082691,078583,094661,084089
0000000207,0000206000,075157,088287,085572,077186,092761,087386
0000000208,0000207000,074661,086069,088285,076785,090114,090434
0000000209,0000208000,075065,083387,090564,077419,086980,092934
0000000210,0000209000,076333,080508,092175,079025,083670,094638
0000000211,0000210000,078343,077708,092965,081448,080505,095380
0000000212,0000211000,080898,075257,092861,084452,077792,095090
0000000213,0000212000,083743,073401,091872,087738,075800,093795
0000000214,0000213000,086600,072324,090093,090986,074724,091623
0000000215,0000214000,089197,072126,087692,093882,074669,088782
0000000216,0000215000,091276,072828,084912,096140,075637,085555
0000000217,0000216000,092629,074357,082030,097538,077536,082260
0000000218,0000217000,093126,076574,079316,097939,080182,079212
0000000219,0000218000,092721,079260,077036,097307,083313,076713
0000000220,0000219000,091456,082137,075423,095702,086621,075009
0000000221,0000220000,089448,084937,074631,093281,089786,074266
0000000222,0000221000,086890,087392,074734,090279,092498,074556
0000000223,0000222000,084045,089249,075722,086995,094490,075848
0000000224,0000223000,081190,090326,077501,083748,095566,078019
0000000225,0000224000,078589,090527,079901,080852,095623,080858
0000000226,0000225000,076507,089828,082682,078594,094656,084083
0000000227,0000226000,075155,088296,085564,077197,092759,087377
0000000228,0000227000,074655,086081,088280,076794,090115,090423
0000000229,0000228000,075057,083397,090562,077426,086985,092922
0000000230,0000229000,076324,080516,092176,079028,083679,094626
0000000231,0000230000,078332,077715,092970,081447,080516,095370
0000000232,0000231000,080887,075260,092869,084447,077804,095082
0000000233,0000232000,083734,073401,091881,087730,075812,093791
0000000234,0000233000,086592,072321,090104,090975,074736,091622
0000000235,0000234000,089192,072120,087704,093870,074678,088785
0000000236,0000235000,091275,072819,084922,096128,075643,085562
0000000237,0000236000,092631,074346,082039,097525,077538,082270
0000000238,0000237000,093131,076563,079322,097929,080180,079225
0000000239,0000238000,092730,079248,077038,097299,083308,076726
0000000240,0000239000,091467,082128,075422,095699,086612,075022
0000000241,0000240000,089459,084930,074627,093281,089774,074278
0000000242,0000241000,086901,087389,074726,090284,092485,074564
0000000243,0000242000,084056,089249,075712,087003,094476,075854
0000000244,0000243000,081197,090330,077489,083759,095554,078020
0000000245,0000244000,078594,090534,079889,080866,095613,080855
0000000246,0000245000,076509,089837,082670,078608,094649,084076
0000000247,0000246000,075153,088308,085555,077210,092756,087366
0000000248,0000247000,074649,086094,088274,076805,090117,090410
0000000249,0000248000,075048,083409,090559,077433,086991,092908
0000000250,0000249000,076312,080526,092178,079032,083689,094612
0000000251,0000250000,078318,077723,092975,081447,080529,095357
0000000252,0000251000,080875,075264,092877,084442,077818,095072
0000000253,0000252000,083723,073400,091892,087721,075827,093785
0000000254,0000253000,086583,072317,090116,090963,074749,091621
0000000255,0000254000,089186,072113,087717,093856,074688,088789
0000000256,0000255000,091274,072807,084934,096113,075650,085570
0000000257,0000256000,092634,074334,082049,097511,077541,082281
0000000258,0000257000,093138,076550,079329,097917,080177,079239
0000000259,0000258000,092740,079235,077041,097291,083301,076741
0000000260,0000259000,091479,082116,075421,095695,086601,075037
0000000261,0000260000,089472,084923,074621,093282,089760,074291
0000000262,0000261000,086915,087384,074717,090289,092469,074574
0000000263,0000262000,084068,089248,075700,087013,094461,075859
0000000264,0000263000,081207,090335,077475,083772,095539,078021
0000000265,0000264000,078600,090542,079875,080881,095601,080851
0000000266,0000265000,076511,089848,082657,078624,094642,084067
0000000267,0000266000,075149,088322,085544,077225,092754,087354
0000000268,0000267000,074642,086108,088266,076818,090120,090395
0000000269,0000268000,075038,083422,090556,077443,086999,092891
0000000270,0000269000,076299,080539,092179,079036,083701,094596
0000000271,0000270000,078303,077733,092981,081446,080544,095343
0000000272,0000271000,080861,075269,092887,084437,077835,095062
0000000273,0000272000,083710,073400,091905,087710,075844,093779
0000000274,0000273000,086572,072313,090131,090949,074765,091620
0000000275,0000274000,089180,072104,087732,093839,074701,088793
0000000276,0000275000,091273,072795,084949,096095,075658,085579
0000000277,0000276000,092636,074320,082060,097495,077544,082295
0000000278,0000277000,093145,076535,079337,097903,080175,079255
0000000279,0000278000,092752,079220,077045,097281,083293,076759
0000000280,0000279000,091493,082104,075419,095690,086589,075054
0000000281,0000280000,089488,084913,074615,093283,089744,074306
0000000282,0000281000,086931,087378,074706,090295,092451,074586
0000000283,0000282000,084082,089248,075686,087024,094443,075866
0000000284,0000283000,081217,090340,077459,083788,095523,078022
0000000285,0000284000,078607,090551,079858,080899,095588,080846
0000000286,0000285000,076513,089861,082642,078643,094633,084057
0000000287,0000286000,075146,088338,085532,077243,092751,087339
0000000288,0000287000,074634,086125,088257,076833,090122,090377
0000000289,0000288000,075026,083438,090552,077453,087007,092873
0000000290,0000289000,076283,080553,092181,079041,083714,094578
0000000291,0000290000,078286,077743,092987,081445,080561,095327
0000000292,0000291000,080844,075274,092898,084430,077854,095049
0000000293,0000292000,083695,073401,091920,087698,075863,093772
0000000294,0000293000,086560,072308,090148,090932,074782,091619
0000000295,0000294000,089173,072094,087749,093820,074715,088798
0000000296,0000295000,091271,072781,084965,096076,075667,085590
0000000297,0000296000,092640,074303,082074,097476,077547,082310
0000000298,0000297000,093154,076516,079346,097888,080172,079274
0000000299,0000298000,092765,079202,077049,097270,083284,076779
0000000300,0000299000,091509,082089,075417,095685,086574,075074
0000000301,0000300000,089506,084902,074608,093284,089726,074323
