DIgSILENT PowerFactory,21000900,2000
6,06A,00D
1,TTPP_200000_100:Secondary Voltage A,,,V,0.10000000,-8287.861328,0.000000,67734,99998,1,1,P
2,TTPP_200000_100:Secondary Voltage B,,,V,0.10000000,-8371.406250,0.000000,69140,99998,1,1,P
3,TTPP_200000_100:Secondary Voltage C,,,V,0.10000000,-8385.096680,0.000000,66319,99998,1,1,P
4,TTCC_500_5:Secondary Current A,,,A,0.0010000000,-79.363449,0.000000,65278,99998,1,1,P
5,TTCC_500_5:Secondary Current B,,,A,0.0010000000,-84.491974,0.000000,69055,99998,1,1,P
6,TTCC_500_5:Secondary Current C,,,A,0.0010000000,-84.913094,0.000000,69849,99998,1,1,P
50
1
1000.000000,1101
30/06/2023,06:09:21.000000
30/06/2023,06:09:21.000000
ASCII
1.000000
0000000001,0000000000,088391,087355,074698,085279,089171,074318
0000000002,0000001000,085842,089789,074813,082261,091890,074617
0000000003,0000002000,082995,091640,075811,078966,093880,075922
0000000004,0000003000,080142,092708,077593,075711,094950,078108
0000000005,0000004000,077561,092887,079995,072804,095003,080962
0000000006,0000005000,075488,092181,082774,070543,094024,084201
0000000007,0000006000,074146,090647,085649,069151,092110,087508
0000000008,0000007000,073668,088421,088355,068757,089449,090563
0000000009,0000008000,074078,085741,090624,069395,086307,093066
0000000010,0000009000,075345,082875,092224,071013,082986,094769
0000000011,0000010000,077368,080074,093003,073451,079811,095507
0000000012,0000011000,079926,077628,092889,076467,077093,095208
0000000013,0000012000,082755,075796,091892,079764,075102,093903
0000000014,0000013000,085609,074726,090108,083023,074029,091717
0000000015,0000014000,088208,074529,087706,085925,073981,088863
0000000016,0000015000,090266,075249,084929,088185,074960,085624
0000000017,0000016000,091601,076790,082053,089581,076870,082317
0000000018,0000017000,092100,078997,079347,089975,079531,079262
0000000019,0000018000,091682,081683,077078,089331,082678,076759
0000000020,0000019000,090399,084566,075478,087716,085996,075056
0000000021,0000020000,088396,087349,074699,085281,089169,074318
0000000022,0000021000,085841,089790,074812,082262,091890,074617
0000000023,0000022000,082990,091645,075810,078964,093882,075922
0000000024,0000023000,080146,092704,077594,075709,094952,078108
0000000025,0000024000,077563,092885,079996,072805,095002,080962
0000000026,0000025000,075486,092185,082773,070543,094024,084201
0000000027,0000026000,074146,090648,085649,069150,092110,087508
0000000028,0000027000,073669,088420,088355,068755,089451,090563
0000000029,0000028000,074077,085742,090624,069396,086306,093066
0000000030,0000029000,075347,082874,092224,071014,082986,094769
0000000031,0000030000,077367,080073,093003,073450,079812,095507
0000000032,0000031000,079923,077631,092890,076466,077095,095208
0000000033,0000032000,082758,075794,091892,079764,075102,093903
0000000034,0000033000,085612,074724,090108,083022,074029,091718
0000000035,0000034000,088203,074533,087707,085924,073981,088863
0000000036,0000035000,090265,075250,084929,088184,074960,085624
0000000037,0000036000,091607,076784,082052,089580,076871,082317
0000000038,0000037000,092098,078999,079348,089975,079531,079263
0000000039,0000038000,091678,081688,077079,089332,082677,076759
0000000040,0000039000,090404,084562,075478,087716,085996,075056
0000000041,0000040000,088397,087347,074699,085280,089170,074319
0000000042,0000041000,085836,089795,074812,082262,091889,074617
0000000043,0000042000,082992,091643,075809,078965,093881,075922
0000000044,0000043000,080150,092701,077593,075708,094953,078108
0000000045,0000044000,077559,092890,079995,072804,095002,080962
0000000046,0000045000,075485,092186,082773,070545,094023,084201
0000000047,0000046000,074151,090644,085649,069150,092111,087508
0000000048,0000047000,073666,088422,088355,068753,089452,090563
0000000049,0000048000,074073,085747,090624,069396,086307,093066
0000000050,0000049000,075350,082870,092224,071014,082985,094769
0000000051,0000050000,077368,080073,093003,073449,079813,095507
0000000052,0000051000,079918,077636,092890,076465,077096,095208
0000000053,0000052000,082759,075792,091893,079764,075102,093903
0000000054,0000053000,085615,074720,090109,083021,074030,091718
0000000055,0000054000,088200,074536,087707,085922,073982,088864
0000000056,0000055000,090264,075250,084929,088184,074960,085624
0000000057,0000056000,091610,076780,082053,089579,076871,082318
0000000058,0000057000,092096,079000,079348,089973,079532,079263
0000000059,0000058000,091676,081689,077078,089332,082677,076760
0000000060,0000059000,090407,084559,075478,087716,085996,075057
0000000061,0000060000,088398,087347,074698,085279,089170,074319
0000000062,0000061000,085835,089797,074812,082262,091888,074618
0000000063,0000062000,082994,091641,075809,078966,093880,075923
0000000064,0000063000,080151,092700,077593,075708,094952,078108
0000000065,0000064000,077557,092893,079994,072805,095002,080962
0000000066,0000065000,075486,092186,082772,070546,094022,084201
0000000067,0000066000,074152,090643,085648,069150,092111,087507
0000000068,0000067000,073664,088425,088354,068754,089453,090562
0000000069,0000068000,074073,085747,090623,069397,086307,093065
0000000070,0000069000,075352,082868,092224,071014,082987,094768
0000000071,0000070000,077365,080075,093004,073448,079814,095506
0000000072,0000071000,079916,077637,092891,076465,077096,095207
0000000073,0000072000,082761,075789,091893,079763,075103,093903
0000000074,0000073000,085613,074721,090110,083019,074031,091718
0000000075,0000074000,088197,074538,087708,085921,073983,088864
0000000076,0000075000,090267,075247,084930,088183,074961,085625
0000000077,0000076000,091611,076779,082054,089577,076872,082319
0000000078,0000077000,092094,079002,079348,089972,079532,079265
0000000079,0000078000,091679,081686,077079,089331,082676,076762
0000000080,0000079000,090410,084556,075478,087715,085995,075059
0000000081,0000080000,088396,087349,074698,085279,089169,074321
0000000082,0000081000,085836,089797,074811,082263,091886,074619
0000000083,0000082000,082998,091638,075808,078967,093879,075923
0000000084,0000083000,080150,092702,077592,075709,094952,078108
0000000085,0000084000,077556,092895,079993,072807,095001,080961
0000000086,0000085000,075489,092184,082771,070547,094021,084200
0000000087,0000086000,074152,090644,085647,069151,092111,087506
0000000088,0000087000,073660,088430,088353,068755,089453,090560
0000000089,0000088000,074074,085747,090623,069398,086307,093063
0000000090,0000089000,075352,082868,092224,071014,082988,094766
0000000091,0000090000,077361,080079,093005,073448,079816,095504
0000000092,0000091000,079915,077637,092891,076464,077098,095206
0000000093,0000092000,082762,075787,091895,079761,075105,093902
0000000094,0000093000,085610,074722,090112,083017,074034,091718
0000000095,0000094000,088196,074538,087710,085920,073984,088865
0000000096,0000095000,090269,075243,084932,088180,074962,085626
0000000097,0000096000,091610,076778,082056,089575,076873,082321
0000000098,0000097000,092093,079001,079349,089971,079531,079267
0000000099,0000098000,091682,081683,077079,089330,082675,076764
0000000100,0000099000,090412,084554,075478,087713,085994,075061
0000000101,0000100000,088396,087350,074697,085279,089167,074323
0000000102,0000101000,085839,089795,074809,082264,091884,074620
0000000103,0000102000,083001,091637,075806,078968,093877,075924
0000000104,0000103000,080150,092705,077590,075711,094950,078108
0000000105,0000104000,077557,092896,079991,072809,094999,080961
0000000106,0000105000,075491,092184,082769,070549,094020,084199
0000000107,0000106000,074150,090648,085646,069153,092111,087504
0000000108,0000107000,073659,088432,088352,068758,089453,090558
0000000109,0000108000,074074,085747,090622,069399,086309,093061
0000000110,0000109000,075349,082871,092224,071014,082991,094764
0000000111,0000110000,077357,080082,093005,073448,079818,095502
0000000112,0000111000,079915,077636,092893,076463,077101,095205
0000000113,0000112000,082759,075787,091897,079759,075108,093901
0000000114,0000113000,085606,074723,090114,083015,074036,091717
0000000115,0000114000,088196,074535,087712,085917,073986,088866
0000000116,0000115000,090269,075240,084934,088177,074964,085628
0000000117,0000116000,091609,076777,082058,089572,076874,082323
0000000118,0000117000,092095,078999,079350,089968,079531,079270
0000000119,0000118000,091686,081678,077080,089328,082674,076767
0000000120,0000119000,090413,084553,075478,087712,085992,075064
0000000121,0000120000,088398,087349,074696,085279,089164,074325
0000000122,0000121000,085844,089792,074808,082265,091881,074623
0000000123,0000122000,083003,091637,075804,078969,093873,075926
0000000124,0000123000,080150,092707,077587,075714,094946,078109
0000000125,0000124000,077560,092896,079988,072813,094996,080960
0000000126,0000125000,075492,092186,082766,070553,094019,084197
0000000127,0000126000,074148,090652,085643,069157,092110,087501
0000000128,0000127000,073658,088435,088350,068761,089453,090554
0000000129,0000128000,074073,085749,090622,069401,086310,093057
0000000130,0000129000,075344,082875,092225,071015,082993,094760
0000000131,0000130000,077353,080084,093006,073448,079822,095499
0000000132,0000131000,079913,077636,092895,076462,077105,095202
0000000133,0000132000,082756,075788,091900,079756,075113,093899
0000000134,0000133000,085603,074723,090117,083012,074040,091717
0000000135,0000134000,088196,074532,087716,085913,073989,088867
0000000136,0000135000,090269,075237,084938,088172,074966,085630
0000000137,0000136000,091608,076775,082060,089568,076874,082327
0000000138,0000137000,092098,078994,079352,089965,079530,079274
0000000139,0000138000,091689,081674,077081,089325,082672,076772
0000000140,0000139000,090415,084551,075477,087711,085989,075068
0000000141,0000140000,088403,087346,074694,085279,089160,074329
0000000142,0000141000,085848,089790,074805,082267,091876,074626
0000000143,0000142000,083005,091638,075800,078972,093869,075928
0000000144,0000143000,080153,092709,077583,075718,094942,078109
0000000145,0000144000,077563,092897,079984,072817,094992,080959
0000000146,0000145000,075492,092190,082762,070557,094017,084194
0000000147,0000146000,074146,090657,085640,069162,092109,087497
0000000148,0000147000,073657,088438,088348,068765,089454,090550
0000000149,0000148000,074070,085753,090621,069404,086313,093052
0000000150,0000149000,075339,082880,092225,071017,082997,094755
0000000151,0000150000,077350,080086,093008,073448,079826,095494
0000000152,0000151000,079909,077637,092898,076460,077110,095199
0000000153,0000152000,082750,075789,091904,079753,075118,093897
0000000154,0000153000,085600,074722,090122,083007,074045,091717
0000000155,0000154000,088195,074528,087721,085907,073993,088868
0000000156,0000155000,090267,075234,084942,088166,074969,085633
0000000157,0000156000,091609,076771,082064,089562,076875,082331
0000000158,0000157000,092101,078988,079355,089960,079529,079279
0000000159,0000158000,091692,081670,077082,089321,082670,076778
0000000160,0000159000,090419,084548,075477,087709,085985,075074
0000000161,0000160000,088409,087342,074692,085279,089154,074335
0000000162,0000161000,085854,089788,074802,082268,091870,074630
0000000163,0000162000,083009,091639,075796,078976,093863,075930
0000000164,0000163000,080157,092710,077577,075723,094936,078110
0000000165,0000164000,077566,092900,079978,072823,094988,080957
0000000166,0000165000,075491,092195,082757,070564,094014,084191
0000000167,0000166000,074145,090663,085636,069168,092108,087493
0000000168,0000167000,073656,088443,088345,068770,089455,090544
0000000169,0000168000,074065,085759,090620,069407,086316,093045
0000000170,0000169000,075333,082885,092225,071019,083002,094748
0000000171,0000170000,077345,080088,093010,073448,079832,095488
0000000172,0000171000,079903,077639,092902,076457,077117,095194
0000000173,0000172000,082744,075790,091909,079749,075125,093895
0000000174,0000173000,085597,074719,090128,083001,074051,091716
0000000175,0000174000,088192,074524,087727,085900,073998,088870
0000000176,0000175000,090265,075230,084948,088159,074972,085637
0000000177,0000176000,091611,076765,082068,089556,076876,082337
0000000178,0000177000,092105,078981,079358,089954,079528,079286
0000000179,0000178000,091696,081665,077083,089317,082667,076785
0000000180,0000179000,090425,084543,075476,087707,085980,075082
0000000181,0000180000,088416,087337,074690,085280,089148,074341
0000000182,0000181000,085859,089786,074798,082271,091863,074635
0000000183,0000182000,083014,091640,075790,078981,093855,075933
0000000184,0000183000,080163,092711,077571,075729,094929,078110
0000000185,0000184000,077568,092904,079972,072831,094982,080956
0000000186,0000185000,075491,092202,082751,070572,094010,084187
0000000187,0000186000,074144,090669,085630,069176,092106,087486
0000000188,0000187000,073652,088449,088342,068776,089456,090536
0000000189,0000188000,074059,085767,090618,069412,086320,093037
0000000190,0000189000,075327,082891,092226,071021,083007,094740
0000000191,0000190000,077339,080092,093013,073448,079840,095481
0000000192,0000191000,079895,077642,092907,076454,077126,095189
0000000193,0000192000,082738,075790,091916,079744,075134,093891
0000000194,0000193000,085592,074716,090135,082994,074059,091716
0000000195,0000194000,088189,074520,087735,085892,074005,088872
0000000196,0000195000,090264,075225,084955,088150,074976,085642
0000000197,0000196000,091613,076756,082074,089547,076878,082343
0000000198,0000197000,092109,078973,079362,089947,079527,079294
0000000199,0000198000,091701,081658,077085,089312,082662,076794
0000000200,0000199000,090433,084536,075475,087705,085973,075091
0000000201,0000200000,088425,087332,074687,085280,089140,074349
0000000202,0000201000,085867,089785,074792,082274,091854,074641
0000000203,0000202000,083022,091639,075783,078987,093845,075937
0000000204,0000203000,080169,092713,077562,075737,094920,078111
0000000205,0000204000,077571,092909,079963,072840,094975,080953
0000000206,0000205000,075492,092209,082743,070582,094005,084182
0000000207,0000206000,074143,090676,085624,069185,092105,087479
0000000208,0000207000,073648,088458,088337,068784,089458,090527
0000000209,0000208000,074052,085776,090616,069418,086324,093027
0000000210,0000209000,075320,082897,092227,071024,083014,094730
0000000211,0000210000,077330,080097,093017,073447,079849,095472
0000000212,0000211000,079885,077645,092913,076451,077136,095182
0000000213,0000212000,082730,075790,091923,079737,075144,093888
0000000214,0000213000,085587,074713,090144,082985,074068,091715
0000000215,0000214000,088184,074515,087744,085881,074013,088874
0000000216,0000215000,090263,075217,084963,088140,074981,085647
0000000217,0000216000,091616,076747,082081,089537,076880,082352
0000000218,0000217000,092113,078964,079367,089938,079526,079305
0000000219,0000218000,091708,081649,077087,089306,082658,076805
0000000220,0000219000,090442,084527,075474,087702,085965,075102
0000000221,0000220000,088434,087326,074683,085280,089130,074359
0000000222,0000221000,085876,089782,074785,082278,091842,074648
0000000223,0000222000,083031,091639,075774,078994,093834,075941
0000000224,0000223000,080176,092715,077553,075747,094910,078112
0000000225,0000224000,077575,092916,079953,072851,094967,080950
0000000226,0000225000,075493,092217,082734,070594,094000,084175
0000000227,0000226000,074142,090685,085616,069196,092103,087470
0000000228,0000227000,073642,088469,088332,068793,089459,090516
0000000229,0000228000,074044,085786,090614,069425,086329,093015
0000000230,0000229000,075310,082905,092228,071027,083023,094718
0000000231,0000230000,077318,080104,093022,073447,079860,095462
0000000232,0000231000,079874,077649,092920,076447,077148,095174
0000000233,0000232000,082721,075790,091933,079729,075156,093883
0000000234,0000233000,085579,074709,090155,082974,074080,091714
0000000235,0000234000,088179,074510,087755,085869,074022,088877
0000000236,0000235000,090262,075208,084974,088127,074987,085654
0000000237,0000236000,091618,076736,082090,089524,076882,082362
0000000238,0000237000,092118,078953,079373,089928,079524,079317
0000000239,0000238000,091717,081638,077089,089299,082652,076818
0000000240,0000239000,090453,084517,075473,087698,085956,075115
0000000241,0000240000,088445,087320,074678,085280,089118,074370
0000000242,0000241000,085888,089778,074778,082283,091829,074657
0000000243,0000242000,083042,091638,075764,079002,093820,075946
0000000244,0000243000,080184,092719,077541,075758,094898,078113
0000000245,0000244000,077580,092923,079941,072865,094957,080947
0000000246,0000245000,075495,092226,082722,070608,093993,084168
0000000247,0000246000,074139,090697,085607,069209,092100,087459
0000000248,0000247000,073635,088482,088326,068805,089461,090502
0000000249,0000248000,074035,085798,090611,069433,086335,093000
0000000250,0000249000,075299,082915,092229,071031,083033,094704
0000000251,0000250000,077305,080112,093027,073446,079873,095450
0000000252,0000251000,079862,077653,092929,076442,077162,095165
0000000253,0000252000,082710,075789,091944,079720,075171,093877
0000000254,0000253000,085570,074706,090168,082962,074093,091713
0000000255,0000254000,088173,074502,087768,085855,074032,088881
0000000256,0000255000,090261,075197,084986,088112,074994,085662
0000000257,0000256000,091621,076723,082100,089510,076885,082374
0000000258,0000257000,092124,078940,079380,089916,079522,079331
0000000259,0000258000,091727,081624,077092,089290,082645,076834
0000000260,0000259000,090466,084506,075472,087694,085945,075130
0000000261,0000260000,088459,087312,074673,085281,089104,074383
0000000262,0000261000,085901,089773,074768,082288,091813,074667
0000000263,0000262000,083054,091638,075752,079012,093805,075952
0000000264,0000263000,080193,092724,077527,075772,094883,078114
0000000265,0000264000,077586,092931,079927,072880,094946,080943
0000000266,0000265000,075497,092237,082709,070624,093986,084159
0000000267,0000266000,074136,090711,085596,069224,092098,087446
0000000268,0000267000,073628,088497,088318,068818,089464,090487
0000000269,0000268000,074025,085811,090608,069442,086343,092984
0000000270,0000269000,075286,082927,092231,071035,083045,094688
0000000271,0000270000,077290,080121,093032,073445,079888,095436
0000000272,0000271000,079848,077658,092938,076436,077179,095154
0000000273,0000272000,082697,075789,091957,079710,075188,093871
0000000274,0000273000,085559,074702,090183,082948,074109,091712
0000000275,0000274000,088167,074493,087783,085838,074045,088885
0000000276,0000275000,090260,075184,085000,088094,075002,085672
0000000277,0000276000,091623,076709,082112,089494,076888,082387
0000000278,0000277000,092132,078924,079388,089902,079519,079347
0000000279,0000278000,091739,081609,077096,089280,082637,076851
0000000280,0000279000,090480,084493,075470,087689,085933,075147
0000000281,0000280000,088474,087303,074666,085282,089088,074398
0000000282,0000281000,085918,089768,074758,082295,091796,074678
0000000283,0000282000,083068,091638,075738,079023,093787,075958
0000000284,0000283000,080204,092729,077511,075787,094867,078115
0000000285,0000284000,077593,092940,079910,072898,094932,080938
0000000286,0000285000,075499,092250,082694,070642,093977,084149
0000000287,0000286000,074132,090727,085584,069242,092095,087432
0000000288,0000287000,073620,088514,088309,068832,089467,090470
0000000289,0000288000,074013,085827,090604,069452,086351,092965
0000000290,0000289000,075270,082941,092232,071040,083058,094670
0000000291,0000290000,077273,080132,093039,073444,079905,095419
0000000292,0000291000,079831,077663,092950,076429,077198,095142
0000000293,0000292000,082682,075790,091972,079697,075207,093864
0000000294,0000293000,085547,074697,090200,082931,074126,091711
0000000295,0000294000,088160,074483,087800,085819,074059,088891
0000000296,0000295000,090258,075170,085016,088075,075011,085682
0000000297,0000296000,091626,076692,082125,089475,076891,082402
0000000298,0000297000,092141,078906,079397,089887,079516,079366
0000000299,0000298000,091752,081592,077100,089269,082628,076872
0000000300,0000299000,090496,084479,075469,087684,085919,075166
0000000301,0000300000,088493,087291,074659,085283,089070,074416
