DIgSILENT PowerFactory,21000900,2000
6,06A,00D
1,TTPP_200000_100:Secondary Voltage A,,,V,0.010000000,-67.888794,0.000000,-86352,99998,1,1,P
2,TTPP_200000_100:Secondary Voltage B,,,V,0.010000000,-5.317860,0.000000,-94185,99998,1,1,P
3,TTPP_200000_100:Secondary Voltage C,,,V,0.10000000,-8991.134766,0.000000,79828,99998,1,1,P
4,TTCC_500_5:Secondary Current A,,,A,0.0010000000,-83.033257,0.000000,57185,99998,1,1,P
5,TTCC_500_5:Secondary Current B,,,A,0.0010000000,-84.786270,0.000000,69558,99998,1,1,P
6,TTCC_500_5:Secondary Current C,,,A,0.0010000000,-84.652756,0.000000,69280,99998,1,1,P
50
1
1000.000000,1101
30/06/2023,06:03:57.000000
30/06/2023,06:03:57.000000
ASCII
1.000000
0000000001,0000000000,061936,036907,080759,088951,089463,074058
0000000002,0000001000,036469,061236,080872,085936,092180,074356
0000000003,0000002000,007929,079814,081869,082637,094175,075660
0000000004,0000003000,-20576,090485,083652,079381,095246,077845
0000000005,0000004000,-46312,092221,086053,076479,095294,080699
0000000006,0000005000,-67056,085178,088830,074215,094319,083938
0000000007,0000006000,-80553,069923,091706,072819,092408,087245
0000000008,0000007000,-85355,047663,094412,072425,089746,090301
0000000009,0000008000,-81211,020815,096682,073066,086602,092804
0000000010,0000009000,-68550,-07848,098283,074682,083282,094508
0000000011,0000010000,-48376,-35822,099063,077119,080107,095246
0000000012,0000011000,-22749,-60315,098950,080134,077390,094948
0000000013,0000012000,005558,-78669,097954,083430,075399,093644
0000000014,0000013000,034024,-89300,096171,086690,074323,091459
0000000015,0000014000,060015,-91288,093770,089594,074273,088605
0000000016,0000015000,080675,-84167,090993,091853,075254,085366
0000000017,0000016000,094035,-68759,088116,093249,077164,082059
0000000018,0000017000,098983,-46647,085410,093646,079823,079004
0000000019,0000018000,094824,-19796,083141,093002,082970,076500
0000000020,0000019000,082013,009019,081540,091387,086289,074797
0000000021,0000020000,061974,036867,080760,088953,089461,074058
0000000022,0000021000,036450,061257,080872,085935,092181,074356
0000000023,0000022000,007961,079793,081869,082636,094175,075660
0000000024,0000023000,-20516,090441,083651,079381,095246,077846
0000000025,0000024000,-46359,092271,086053,076477,095296,080699
0000000026,0000025000,-67114,085243,088831,074215,094319,083939
0000000027,0000026000,-80526,069894,091707,072821,092406,087245
0000000028,0000027000,-85308,047622,094412,072425,089747,090300
0000000029,0000028000,-81216,020830,096682,073064,086604,092804
0000000030,0000029000,-68555,-07836,098283,074682,083283,094508
0000000031,0000030000,-48372,-35823,099063,077118,080108,095246
0000000032,0000031000,-22792,-60279,098951,080133,077391,094948
0000000033,0000032000,005552,-78664,097955,083431,075397,093644
0000000034,0000033000,034086,-89362,096171,086690,074323,091459
0000000035,0000034000,060021,-91289,093770,089591,074275,088606
0000000036,0000035000,080631,-84125,090993,091852,075254,085366
0000000037,0000036000,094037,-68763,088116,093249,077163,082060
0000000038,0000037000,098984,-46656,085411,093645,079823,079004
0000000039,0000038000,094815,-19792,083141,093002,082969,076501
0000000040,0000039000,082047,008990,081539,091387,086288,074797
0000000041,0000040000,061993,036848,080759,088952,089462,074059
0000000042,0000041000,036415,061293,080872,085934,092182,074356
0000000043,0000042000,007940,079811,081868,082638,094174,075661
0000000044,0000043000,-20489,090413,083651,079381,095246,077846
0000000045,0000044000,-46351,092262,086052,076476,095297,080699
0000000046,0000045000,-67118,085253,088830,074215,094319,083938
0000000047,0000046000,-80513,069885,091706,072821,092407,087245
0000000048,0000047000,-85327,047638,094412,072424,089748,090300
0000000049,0000048000,-81250,020862,096682,073065,086603,092804
0000000050,0000049000,-68536,-07858,098283,074682,083283,094507
0000000051,0000050000,-48350,-35846,099063,077117,080109,095246
0000000052,0000051000,-22816,-60257,098951,080132,077392,094948
0000000053,0000052000,005543,-78656,097955,083431,075398,093644
0000000054,0000053000,034088,-89372,096171,086689,074324,091459
0000000055,0000054000,060000,-91276,093771,089591,074276,088606
0000000056,0000055000,080635,-84133,090993,091852,075254,085367
0000000057,0000056000,094071,-68798,088116,093248,077164,082060
0000000058,0000057000,098979,-46651,085411,093644,079824,079005
0000000059,0000058000,094792,-19769,083141,093002,082969,076502
0000000060,0000059000,082064,008975,081540,091387,086288,074798
0000000061,0000060000,062008,036833,080759,088951,089461,074059
0000000062,0000061000,036411,061304,080872,085935,092181,074357
0000000063,0000062000,007962,079798,081867,082638,094173,075661
0000000064,0000063000,-20473,090406,083650,079381,095246,077846
0000000065,0000064000,-46377,092294,086052,076477,095296,080699
0000000066,0000065000,-67121,085264,088829,074216,094318,083938
0000000067,0000066000,-80486,069865,091705,072821,092407,087244
0000000068,0000067000,-85336,047651,094412,072424,089749,090299
0000000069,0000068000,-81267,020884,096682,073065,086604,092803
0000000070,0000069000,-68530,-07863,098283,074682,083284,094507
0000000071,0000070000,-48367,-35835,099064,077117,080110,095245
0000000072,0000071000,-22844,-60237,098952,080132,077393,094948
0000000073,0000072000,005555,-78675,097955,083430,075399,093644
0000000074,0000073000,034096,-89389,096172,086687,074326,091459
0000000075,0000074000,059973,-91260,093772,089589,074277,088606
0000000076,0000075000,080630,-84137,090994,091850,075254,085367
0000000077,0000076000,094085,-68823,088117,093247,077164,082061
0000000078,0000077000,098973,-46652,085412,093642,079824,079007
0000000079,0000078000,094798,-19778,083142,093001,082968,076503
0000000080,0000079000,082095,008945,081539,091386,086287,074799
0000000081,0000080000,062010,036834,080759,088951,089461,074061
0000000082,0000081000,036403,061319,080871,085935,092179,074358
0000000083,0000082000,007987,079783,081866,082639,094172,075662
0000000084,0000083000,-20456,090400,083649,079382,095245,077846
0000000085,0000084000,-46384,092316,086051,076478,095296,080699
0000000086,0000085000,-67112,085269,088828,074218,094317,083937
0000000087,0000086000,-80481,069870,091704,072822,092407,087243
0000000088,0000087000,-85361,047682,094411,072425,089749,090298
0000000089,0000088000,-81278,020900,096681,073066,086605,092801
0000000090,0000089000,-68524,-07871,098283,074683,083285,094505
0000000091,0000090000,-48388,-35819,099064,077116,080113,095244
0000000092,0000091000,-22871,-60218,098953,080131,077395,094947
0000000093,0000092000,005552,-78686,097957,083429,075401,093643
0000000094,0000093000,034083,-89393,096174,086685,074328,091459
0000000095,0000094000,059953,-91257,093774,089587,074278,088607
0000000096,0000095000,080641,-84162,090995,091848,075255,085369
0000000097,0000096000,094097,-68849,088119,093244,077165,082063
0000000098,0000097000,098964,-46653,085413,093640,079824,079009
0000000099,0000098000,094811,-19794,083142,093000,082967,076505
0000000100,0000099000,082125,008916,081539,091385,086285,074802
0000000101,0000100000,062021,036830,080758,088951,089459,074063
0000000102,0000101000,036418,061317,080870,085936,092177,074359
0000000103,0000102000,008019,079770,081865,082640,094169,075663
0000000104,0000103000,-20448,090411,083647,079383,095243,077846
0000000105,0000104000,-46388,092341,086048,076481,095294,080698
0000000106,0000105000,-67097,085274,088826,074221,094316,083936
0000000107,0000106000,-80479,069883,091703,072825,092406,087241
0000000108,0000107000,-85384,047717,094410,072427,089750,090295
0000000109,0000108000,-81290,020918,096680,073068,086606,092798
0000000110,0000109000,-68537,-07861,098283,074683,083287,094502
0000000111,0000110000,-48424,-35793,099065,077116,080115,095241
0000000112,0000111000,-22895,-60209,098954,080130,077397,094945
0000000113,0000112000,005545,-78699,097959,083427,075404,093642
0000000114,0000113000,034059,-89394,096177,086682,074331,091459
0000000115,0000114000,059933,-91261,093776,089584,074280,088608
0000000116,0000115000,080648,-84193,090998,091845,075257,085370
0000000117,0000116000,094102,-68876,088121,093241,077166,082065
0000000118,0000117000,098966,-46669,085414,093638,079823,079012
0000000119,0000118000,094839,-19827,083142,092998,082966,076509
0000000120,0000119000,082156,008886,081539,091384,086283,074805
0000000121,0000120000,062036,036825,080757,088951,089456,074066
0000000122,0000121000,036447,061308,080868,085937,092173,074362
0000000123,0000122000,008056,079757,081862,082642,094166,075664
0000000124,0000123000,-20435,090425,083645,079386,095240,077847
0000000125,0000124000,-46380,092363,086045,076484,095291,080697
0000000126,0000125000,-67083,085288,088823,074224,094314,083934
0000000127,0000126000,-80488,069915,091701,072828,092406,087238
0000000128,0000127000,-85409,047759,094408,072430,089750,090292
0000000129,0000128000,-81304,020940,096680,073070,086607,092795
0000000130,0000129000,-68562,-07839,098284,074684,083290,094499
0000000131,0000130000,-48468,-35762,099067,077116,080119,095238
0000000132,0000131000,-22925,-60200,098956,080129,077401,094942
0000000133,0000132000,005522,-78707,097962,083424,075408,093640
0000000134,0000133000,034027,-89397,096180,086679,074335,091459
0000000135,0000134000,059916,-91279,093779,089580,074283,088609
0000000136,0000135000,080654,-84232,091001,091841,075259,085372
0000000137,0000136000,094104,-68906,088124,093237,077167,082069
0000000138,0000137000,098976,-46699,085416,093634,079822,079016
0000000139,0000138000,094876,-19872,083143,092996,082964,076513
0000000140,0000139000,082192,008853,081539,091382,086281,074809
0000000141,0000140000,062066,036810,080756,088951,089452,074069
0000000142,0000141000,036491,061290,080865,085939,092169,074365
0000000143,0000142000,008096,079751,081859,082645,094162,075666
0000000144,0000143000,-20417,090447,083641,079390,095236,077847
0000000145,0000144000,-46361,092387,086041,076489,095287,080696
0000000146,0000145000,-67069,085312,088819,074229,094312,083932
0000000147,0000146000,-80502,069961,091697,072832,092405,087235
0000000148,0000147000,-85434,047807,094406,072434,089751,090287
0000000149,0000148000,-81328,020974,096679,073073,086609,092790
0000000150,0000149000,-68605,-07801,098284,074685,083294,094493
0000000151,0000150000,-48520,-35727,099068,077116,080123,095234
0000000152,0000151000,-22963,-60191,098959,080127,077406,094939
0000000153,0000152000,005485,-78710,097966,083420,075413,093638
0000000154,0000153000,033986,-89402,096185,086674,074340,091458
0000000155,0000154000,059899,-91308,093784,089575,074287,088610
0000000156,0000155000,080655,-84278,091006,091835,075262,085375
0000000157,0000156000,094107,-68946,088127,093231,077168,082073
0000000158,0000157000,098999,-46746,085418,093630,079822,079021
0000000159,0000158000,094920,-19928,083144,092992,082961,076519
0000000160,0000159000,082235,008814,081538,091381,086277,074815
0000000161,0000160000,062112,036786,080753,088951,089447,074075
0000000162,0000161000,036550,061266,080862,085941,092163,074369
0000000163,0000162000,008143,079749,081854,082648,094156,075668
0000000164,0000163000,-20388,090470,083635,079395,095230,077847
0000000165,0000164000,-46334,092415,086036,076495,095283,080695
0000000166,0000165000,-67058,085351,088814,074235,094309,083928
0000000167,0000166000,-80521,070021,091693,072838,092404,087230
0000000168,0000167000,-85461,047864,094403,072439,089751,090281
0000000169,0000168000,-81363,021021,096677,073077,086612,092783
0000000170,0000169000,-68662,-07750,098285,074687,083298,094487
0000000171,0000170000,-48582,-35688,099071,077115,080129,095228
0000000172,0000171000,-23014,-60179,098963,080125,077413,094934
0000000173,0000172000,005432,-78709,097971,083416,075420,093636
0000000174,0000173000,033939,-89414,096191,086668,074346,091458
0000000175,0000174000,059878,-91348,093790,089568,074292,088612
0000000176,0000175000,080651,-84331,091011,091828,075265,085379
0000000177,0000176000,094113,-68999,088132,093224,077169,082079
0000000178,0000177000,099032,-46810,085422,093624,079820,079028
0000000179,0000178000,094973,-19995,083146,092988,082958,076526
0000000180,0000179000,082289,008766,081538,091378,086271,074822
0000000181,0000180000,062175,036749,080751,088951,089440,074081
0000000182,0000181000,036621,061239,080857,085943,092155,074374
0000000183,0000182000,008198,079750,081849,082653,094148,075671
0000000184,0000183000,-20346,090496,083629,079401,095223,077848
0000000185,0000184000,-46300,092449,086029,076503,095277,080693
0000000186,0000185000,-67050,085405,088808,074243,094305,083924
0000000187,0000186000,-80541,070093,091688,072846,092403,087223
0000000188,0000187000,-85493,047933,094399,072446,089753,090274
0000000189,0000188000,-81412,021085,096676,073081,086616,092775
0000000190,0000189000,-68733,-07686,098285,074689,083304,094479
0000000191,0000190000,-48655,-35644,099073,077115,080137,095220
0000000192,0000191000,-23081,-60161,098968,080122,077422,094929
0000000193,0000192000,005363,-78706,097978,083411,075429,093633
0000000194,0000193000,033885,-89433,096198,086661,074354,091457
0000000195,0000194000,059852,-91397,093798,089560,074299,088614
0000000196,0000195000,080641,-84393,091018,091819,075269,085384
0000000197,0000196000,094124,-69068,088138,093216,077171,082086
0000000198,0000197000,099075,-46893,085426,093617,079819,079036
0000000199,0000198000,095033,-20073,083148,092983,082954,076536
0000000200,0000199000,082357,008706,081537,091376,086265,074831
0000000201,0000200000,062258,036699,080747,088952,089431,074089
0000000202,0000201000,036706,061208,080852,085947,092146,074380
0000000203,0000202000,008266,079754,081841,082659,094139,075675
0000000204,0000203000,-20291,090523,083620,079409,095214,077849
0000000205,0000204000,-46260,092493,086020,076512,095270,080691
0000000206,0000205000,-67042,085475,088800,074253,094301,083919
0000000207,0000206000,-80562,070180,091681,072855,092401,087216
0000000208,0000207000,-85531,048016,094395,072454,089754,090264
0000000209,0000208000,-81476,021167,096674,073087,086621,092765
0000000210,0000209000,-68819,-07609,098286,074692,083311,094469
0000000211,0000210000,-48742,-35592,099077,077115,080146,095212
0000000212,0000211000,-23166,-60136,098974,080118,077432,094922
0000000213,0000212000,005280,-78702,097986,083404,075440,093629
0000000214,0000213000,033822,-89460,096207,086652,074363,091456
0000000215,0000214000,059817,-91456,093807,089549,074307,088616
0000000216,0000215000,080628,-84466,091027,091808,075275,085390
0000000217,0000216000,094141,-69156,088145,093206,077173,082094
0000000218,0000217000,099126,-46993,085430,093608,079818,079047
0000000219,0000218000,095104,-20166,083150,092976,082949,076547
0000000220,0000219000,082442,008631,081536,091373,086257,074842
0000000221,0000220000,062359,036638,080743,088952,089421,074099
0000000222,0000221000,036805,061174,080845,085950,092135,074387
0000000223,0000222000,008349,079757,081833,082666,094127,075679
0000000224,0000223000,-20221,090553,083610,079419,095204,077849
0000000225,0000224000,-46214,092548,086010,076523,095261,080688
0000000226,0000225000,-67034,085561,088791,074265,094295,083913
0000000227,0000226000,-80584,070281,091674,072867,092399,087207
0000000228,0000227000,-85579,048117,094389,072464,089756,090253
0000000229,0000228000,-81555,021269,096672,073094,086626,092752
0000000230,0000229000,-68920,-07519,098287,074695,083320,094457
0000000231,0000230000,-48846,-35530,099081,077114,080157,095201
0000000232,0000231000,-23272,-60102,098981,080114,077444,094914
0000000233,0000232000,005181,-78697,097995,083396,075452,093624
0000000234,0000233000,033749,-89495,096218,086642,074375,091456
0000000235,0000234000,059773,-91523,093818,089537,074316,088619
0000000236,0000235000,080612,-84553,091037,091795,075281,085397
0000000237,0000236000,094163,-69263,088153,093193,077175,082104
0000000238,0000237000,099185,-47111,085436,093598,079816,079059
0000000239,0000238000,095187,-20274,083152,092969,082944,076560
0000000240,0000239000,082546,008539,081535,091369,086248,074855
0000000241,0000240000,062479,036564,080739,088953,089410,074110
0000000242,0000241000,036921,061135,080838,085955,092121,074396
0000000243,0000242000,008449,079760,081822,082674,094114,075684
0000000244,0000243000,-20137,090588,083599,079431,095191,077850
0000000245,0000244000,-46161,092616,085998,076537,095251,080684
0000000246,0000245000,-67024,085662,088780,074279,094289,083905
0000000247,0000246000,-80608,070398,091664,072880,092396,087196
0000000248,0000247000,-85636,048238,094383,072475,089758,090240
0000000249,0000248000,-81649,021390,096669,073102,086632,092738
0000000250,0000249000,-69036,-07415,098289,074699,083330,094443
0000000251,0000250000,-48970,-35457,099086,077114,080169,095189
0000000252,0000251000,-23399,-60060,098990,080109,077459,094905
0000000253,0000252000,005066,-78694,098006,083387,075467,093618
0000000254,0000253000,033663,-89536,096231,086630,074388,091455
0000000255,0000254000,059718,-91600,093831,089523,074326,088623
0000000256,0000255000,080594,-84656,091050,091780,075288,085405
0000000257,0000256000,094192,-69391,088163,093179,077177,082116
0000000258,0000257000,099253,-47248,085443,093586,079814,079073
0000000259,0000258000,095284,-20400,083155,092960,082937,076575
0000000260,0000259000,082670,008428,081533,091365,086237,074870
0000000261,0000260000,062619,036479,080733,088953,089396,074123
0000000262,0000261000,037055,061092,080829,085960,092106,074406
0000000263,0000262000,008569,079761,081810,082684,094098,075690
0000000264,0000263000,-20039,090627,083585,079444,095177,077851
0000000265,0000264000,-46101,092697,085984,076552,095240,080680
0000000266,0000265000,-67010,085779,088767,074295,094281,083896
0000000267,0000266000,-80635,070533,091653,072895,092394,087183
0000000268,0000267000,-85706,048382,094376,072487,089760,090225
0000000269,0000268000,-81759,021532,096666,073111,086640,092722
0000000270,0000269000,-69169,-07295,098290,074704,083342,094427
0000000271,0000270000,-49115,-35370,099092,077113,080184,095175
0000000272,0000271000,-23547,-60010,098999,080103,077475,094894
0000000273,0000272000,004934,-78691,098019,083377,075483,093612
0000000274,0000273000,033562,-89584,096245,086615,074403,091454
0000000275,0000274000,059653,-91687,093847,089506,074339,088628
0000000276,0000275000,080574,-84777,091064,091763,075296,085414
0000000277,0000276000,094224,-69539,088175,093163,077180,082129
0000000278,0000277000,099329,-47405,085451,093572,079811,079089
0000000279,0000278000,095396,-20548,083159,092951,082929,076593
0000000280,0000279000,082815,008299,081532,091360,086224,074887
0000000281,0000280000,062779,036381,080727,088954,089380,074138
0000000282,0000281000,037210,061041,080818,085967,092088,074417
0000000283,0000282000,008710,079759,081797,082696,094080,075697
0000000284,0000283000,-19926,090673,083569,079459,095161,077852
0000000285,0000284000,-46033,092792,085968,076570,095227,080676
0000000286,0000285000,-66991,085913,088751,074313,094273,083886
0000000287,0000286000,-80665,070688,091641,072913,092391,087169
0000000288,0000287000,-85786,048549,094367,072502,089763,090207
0000000289,0000288000,-81883,021694,096662,073121,086648,092703
0000000290,0000289000,-69322,-07157,098291,074709,083355,094409
0000000291,0000290000,-49284,-35268,099099,077112,080201,095159
0000000292,0000291000,-23717,-59952,099011,080096,077494,094882
0000000293,0000292000,004784,-78688,098034,083365,075502,093605
0000000294,0000293000,033445,-89637,096262,086599,074421,091453
0000000295,0000294000,059577,-91785,093864,089487,074353,088633
0000000296,0000295000,080552,-84916,091080,091743,075305,085425
0000000297,0000296000,094260,-69709,088188,093144,077183,082145
0000000298,0000297000,099414,-47584,085461,093556,079808,079108
0000000299,0000298000,095525,-20717,083163,092940,082920,076613
0000000300,0000299000,082981,008149,081530,091355,086210,074907
0000000301,0000300000,062961,036269,080720,088955,089362,074156
