DIgSILENT PowerFactory,21000900,2000
6,06A,00D
1,TTPP_200000_100:Secondary Voltage A,,,V,0.10000000,-8524.522461,0.000000,72335,99998,1,1,P
2,TTPP_200000_100:Secondary Voltage B,,,V,0.10000000,-8610.196289,0.000000,73625,99998,1,1,P
3,TTPP_200000_100:Secondary Voltage C,,,V,0.10000000,-8470.145508,0.000000,67234,99998,1,1,P
4,TTCC_300_1:Secondary Current A,,,A,0.00010000000,-5.343672,0.000000,-13520,99998,1,1,P
5,TTCC_300_1:Secondary Current B,,,A,0.00010000000,-4.861870,0.000000,-2990,99998,1,1,P
6,TTCC_300_1:Secondary Current C,,,A,0.00010000000,-4.981993,0.000000,-477,99998,1,1,P
50
1
1000.000000,1101
30/06/2023,06:10:05.000000
30/06/2023,06:10:05.000000
ASCII
1.000000
0000000001,0000000000,092351,087577,076120,032507,034629,084739
0000000002,0000001000,090218,090294,075535,042259,025351,084266
0000000003,0000002000,087576,092626,075847,053099,018353,080423
0000000004,0000003000,084720,094303,077024,063978,014310,073588
0000000005,0000004000,081927,095165,078957,073821,013635,064419
0000000006,0000005000,079439,095157,081454,081669,016388,053819
0000000007,0000006000,077518,094271,084260,086755,022282,042838
0000000008,0000007000,076374,092562,087113,088578,030757,032540
0000000009,0000008000,076088,090224,089735,086954,040998,023924
0000000010,0000009000,076686,087502,091860,082056,051973,017846
0000000011,0000010000,078134,084632,093283,074363,062607,014906
0000000012,0000011000,080287,081893,093868,064604,071892,015378
0000000013,0000012000,082909,079585,093556,053755,078900,019221
0000000014,0000013000,085760,077910,092379,042889,082929,026057
0000000015,0000014000,088574,077028,090447,033046,083605,035225
0000000016,0000015000,091054,077045,087950,025187,080864,045824
0000000017,0000016000,092961,077945,085142,020108,074961,056806
0000000018,0000017000,094123,079635,082291,018290,066481,067104
0000000019,0000018000,094408,081972,079668,019905,056250,075720
0000000020,0000019000,093796,084712,077542,024804,045274,081797
0000000021,0000020000,092357,087572,076120,032506,034631,084739
0000000022,0000021000,090211,090301,075536,042257,025354,084265
0000000023,0000022000,087574,092627,075847,053106,018346,080423
0000000024,0000023000,084728,094297,077023,063978,014310,073587
0000000025,0000024000,081925,095167,078957,073818,013638,064419
0000000026,0000025000,079432,095163,081454,081673,016383,053819
0000000027,0000026000,077524,094265,084260,086760,022277,042838
0000000028,0000027000,076376,092560,087112,088575,030760,032540
0000000029,0000028000,076081,090232,089735,086955,040997,023924
0000000030,0000029000,076687,087501,091861,082063,051966,017846
0000000031,0000030000,078140,084625,093283,074363,062608,014905
0000000032,0000031000,080282,081899,093868,064603,071893,015378
0000000033,0000032000,082906,079587,093556,053760,078895,019220
0000000034,0000033000,085765,077904,092379,042893,082926,026056
0000000035,0000034000,088574,077028,090447,033044,083608,035224
0000000036,0000035000,091049,077049,087950,025191,080862,045823
0000000037,0000036000,092964,077942,085142,020112,074959,056804
0000000038,0000037000,094125,079633,082291,018290,066483,067102
0000000039,0000038000,094404,081976,079668,019906,056251,075718
0000000040,0000039000,093796,084711,077542,024808,045271,081796
0000000041,0000040000,092360,087569,076120,032506,034632,084737
0000000042,0000041000,090209,090304,075535,042257,025355,084264
0000000043,0000042000,087574,092627,075847,053108,018346,080422
0000000044,0000043000,084731,094294,077024,063978,014310,073587
0000000045,0000044000,081923,095169,078956,073817,013639,064419
0000000046,0000045000,079432,095164,081453,081673,016382,053820
0000000047,0000046000,077526,094263,084260,086760,022277,042839
0000000048,0000047000,076375,092561,087113,088575,030760,032541
0000000049,0000048000,076080,090234,089735,086957,040994,023925
0000000050,0000049000,076689,087499,091861,082064,051964,017847
0000000051,0000050000,078139,084626,093283,074363,062606,014906
0000000052,0000051000,080280,081901,093868,064606,071890,015379
0000000053,0000052000,082908,079585,093556,053763,078892,019220
0000000054,0000053000,085766,077903,092380,042894,082926,026056
0000000055,0000054000,088570,077031,090447,033048,083605,035223
0000000056,0000055000,091051,077048,087950,025196,080858,045821
0000000057,0000056000,092967,077939,085143,020114,074959,056802
0000000058,0000057000,094121,079636,082291,018292,066483,067099
0000000059,0000058000,094404,081977,079668,019911,056249,075715
0000000060,0000059000,093801,084706,077542,024809,045273,081793
0000000061,0000060000,092359,087570,076120,032505,034636,084735
0000000062,0000061000,090207,090307,075535,042259,025355,084262
0000000063,0000062000,087579,092624,075846,053108,018347,080421
0000000064,0000063000,084732,094294,077023,063974,014315,073586
0000000065,0000064000,081919,095174,078956,073816,013640,064419
0000000066,0000065000,079434,095163,081452,081673,016381,053821
0000000067,0000066000,077529,094260,084260,086756,022278,042841
0000000068,0000067000,076371,092565,087112,088572,030760,032544
0000000069,0000068000,076079,090235,089735,086958,040990,023928
0000000070,0000069000,076692,087496,091861,082063,051962,017850
0000000071,0000070000,078136,084629,093284,074362,062605,014908
0000000072,0000071000,080277,081904,093868,064610,071884,015381
0000000073,0000072000,082911,079581,093557,053767,078887,019221
0000000074,0000073000,085765,077903,092380,042896,082924,026055
0000000075,0000074000,088567,077034,090448,033053,083601,035221
0000000076,0000075000,091053,077045,087951,025202,080855,045819
0000000077,0000076000,092969,077936,085144,020117,074960,056799
0000000078,0000077000,094119,079638,082291,018296,066484,067095
0000000079,0000078000,094405,081975,079668,019915,056249,075711
0000000080,0000079000,093804,084703,077542,024810,045277,081788
0000000081,0000080000,092358,087572,076119,032504,034641,084730
0000000082,0000081000,090207,090307,075534,042259,025359,084258
0000000083,0000082000,087582,092621,075846,053105,018352,080419
0000000084,0000083000,084731,094295,077022,063969,014320,073586
0000000085,0000084000,081919,095175,078955,073812,013643,064420
0000000086,0000085000,079436,095162,081451,081668,016383,053824
0000000087,0000086000,077528,094262,084259,086750,022280,042845
0000000088,0000087000,076368,092568,087111,088569,030758,032549
0000000089,0000088000,076080,090234,089734,086956,040986,023934
0000000090,0000089000,076692,087496,091861,082061,051958,017856
0000000091,0000090000,078133,084631,093284,074363,062599,014913
0000000092,0000091000,080277,081903,093869,064614,071876,015385
0000000093,0000092000,082911,079580,093558,053771,078881,019224
0000000094,0000093000,085762,077905,092382,042902,082918,026056
0000000095,0000094000,088566,077033,090449,033062,083595,035219
0000000096,0000095000,091055,077042,087952,025209,080851,045815
0000000097,0000096000,092967,077936,085145,020123,074959,056793
0000000098,0000097000,094119,079638,082292,018304,066484,067088
0000000099,0000098000,094409,081972,079668,019920,056252,075703
0000000100,0000099000,093805,084702,077542,024812,045283,081781
0000000101,0000100000,092357,087573,076119,032505,034647,084723
0000000102,0000101000,090210,090305,075533,042258,025365,084253
0000000103,0000102000,087584,092620,075844,053099,018361,080415
0000000104,0000103000,084730,094298,077021,063963,014328,073585
0000000105,0000104000,081920,095176,078953,073805,013647,064422
0000000106,0000105000,079438,095161,081450,081659,016387,053828
0000000107,0000106000,077526,094265,084258,086741,022283,042852
0000000108,0000107000,076367,092571,087111,088563,030755,032557
0000000109,0000108000,076081,090233,089734,086951,040982,023943
0000000110,0000109000,076689,087498,091861,082057,051953,017865
0000000111,0000110000,078130,084634,093285,074364,062589,014922
0000000112,0000111000,080277,081902,093870,064618,071866,015391
0000000113,0000112000,082910,079579,093559,053776,078872,019228
0000000114,0000113000,085759,077906,092383,042911,082908,026056
0000000115,0000114000,088566,077031,090451,033073,083586,035217
0000000116,0000115000,091056,077039,087954,025220,080847,045809
0000000117,0000116000,092966,077936,085146,020134,074957,056784
0000000118,0000117000,094120,079636,082293,018314,066484,067077
0000000119,0000118000,094412,081968,079669,019927,056257,075692
0000000120,0000119000,093805,084702,077542,024814,045292,081769
0000000121,0000120000,092358,087573,076118,032506,034656,084713
0000000122,0000121000,090214,090303,075532,042254,025376,084245
0000000123,0000122000,087585,092620,075843,053091,018374,080411
0000000124,0000123000,084730,094300,077019,063954,014338,073583
0000000125,0000124000,081922,095176,078951,073794,013656,064425
0000000126,0000125000,079439,095162,081448,081646,016394,053835
0000000127,0000126000,077524,094269,084256,086730,022285,042861
0000000128,0000127000,076366,092573,087109,088554,030753,032569
0000000129,0000128000,076080,090234,089734,086943,040977,023956
0000000130,0000129000,076686,087501,091862,082054,051944,017878
0000000131,0000130000,078127,084636,093286,074366,062576,014933
0000000132,0000131000,080276,081901,093872,064623,071852,015400
0000000133,0000132000,082907,079580,093562,053784,078858,019233
0000000134,0000133000,085757,077906,092386,042924,082894,026057
0000000135,0000134000,088567,077028,090453,033087,083575,035214
0000000136,0000135000,091055,077037,087956,025234,080840,045802
0000000137,0000136000,092965,077935,085148,020149,074954,056773
0000000138,0000137000,094122,079632,082294,018327,066485,067063
0000000139,0000138000,094414,081965,079670,019935,056264,075676
0000000140,0000139000,093806,084701,077541,024819,045302,081754
0000000141,0000140000,092361,087571,076116,032507,034669,084700
0000000142,0000141000,090218,090300,075530,042248,025393,084235
0000000143,0000142000,087587,092622,075840,053081,018390,080404
0000000144,0000143000,084732,094302,077015,063941,014352,073582
0000000145,0000144000,081925,095176,078948,073778,013668,064429
0000000146,0000145000,079438,095165,081445,081629,016403,053843
0000000147,0000146000,077522,094273,084254,086714,022287,042874
0000000148,0000147000,076366,092575,087108,088540,030750,032586
0000000149,0000148000,076078,090237,089733,086932,040970,023974
0000000150,0000149000,076681,087505,091862,082049,051931,017896
0000000151,0000150000,078125,084637,093287,074367,062559,014949
0000000152,0000151000,080273,081901,093874,064628,071834,015412
0000000153,0000152000,082903,079581,093565,053796,078839,019240
0000000154,0000153000,085755,077905,092389,042940,082876,026059
0000000155,0000154000,088566,077025,090457,033106,083561,035209
0000000156,0000155000,091054,077035,087960,025253,080831,045791
0000000157,0000156000,092966,077932,085151,020168,074949,056758
0000000158,0000157000,094125,079627,082296,018343,066487,067045
0000000159,0000158000,094417,081962,079670,019946,056273,075656
0000000160,0000159000,093809,084699,077541,024826,045316,081734
0000000161,0000160000,092366,087567,076115,032507,034687,084682
0000000162,0000161000,090222,090299,075527,042241,025414,084221
0000000163,0000162000,087589,092623,075837,053069,018411,080396
0000000164,0000163000,084735,094302,077011,063924,014371,073580
0000000165,0000164000,081927,095178,078944,073757,013684,064434
0000000166,0000165000,079437,095170,081442,081606,016414,053855
0000000167,0000166000,077522,094277,084251,086694,022291,042891
0000000168,0000167000,076365,092578,087106,088522,030748,032607
0000000169,0000168000,076074,090242,089732,086919,040960,023997
0000000170,0000169000,076677,087509,091862,082043,051914,017918
0000000171,0000170000,078122,084638,093289,074367,062538,014969
0000000172,0000171000,080269,081903,093877,064636,071811,015428
0000000173,0000172000,082898,079582,093569,053811,078815,019249
0000000174,0000173000,085753,077902,092393,042961,082854,026061
0000000175,0000174000,088565,077022,090462,033129,083543,035203
0000000176,0000175000,091052,077032,087964,025278,080819,045778
0000000177,0000176000,092967,077927,085154,020193,074944,056739
0000000178,0000177000,094128,079622,082298,018363,066491,067021
0000000179,0000178000,094419,081958,079671,019961,056284,075630
0000000180,0000179000,093814,084695,077540,024834,045333,081708
0000000181,0000180000,092372,087563,076113,032506,034710,084659
0000000182,0000181000,090226,090298,075524,042232,025441,084203
0000000183,0000182000,087593,092624,075832,053053,018438,080385
0000000184,0000183000,084739,094303,077006,063901,014396,073578
0000000185,0000184000,081929,095181,078939,073730,013705,064440
0000000186,0000185000,079437,095175,081437,081579,016427,053869
0000000187,0000186000,077521,094281,084247,086667,022296,042913
0000000188,0000187000,076363,092583,087103,088499,030744,032633
0000000189,0000188000,076069,090248,089731,086902,040948,024026
0000000190,0000189000,076672,087513,091863,082035,051894,017947
0000000191,0000190000,078117,084641,093291,074368,062513,014994
0000000192,0000191000,080262,081906,093881,064645,071782,015447
0000000193,0000192000,082893,079582,093573,053830,078785,019261
0000000194,0000193000,085750,077900,092399,042986,082826,026063
0000000195,0000194000,088562,077019,090467,033158,083521,035196
0000000196,0000195000,091051,077028,087969,025310,080804,045762
0000000197,0000196000,092970,077921,085158,020222,074938,056715
0000000198,0000197000,094131,079616,082301,018388,066496,066992
0000000199,0000198000,094423,081953,079673,019979,056298,075598
0000000200,0000199000,093820,084690,077539,024844,045355,081677
0000000201,0000200000,092379,087560,076110,032505,034739,084631
0000000202,0000201000,090231,090297,075520,042221,025473,084182
0000000203,0000202000,087598,092623,075827,053033,018470,080372
0000000204,0000203000,084744,094304,077000,063873,014426,073575
0000000205,0000204000,081931,095186,078933,073697,013730,064448
0000000206,0000205000,079438,095180,081431,081545,016443,053887
0000000207,0000206000,077520,094286,084242,086635,022302,042939
0000000208,0000207000,076359,092590,087100,088471,030740,032665
0000000209,0000208000,076064,090255,089730,086883,040933,024061
0000000210,0000209000,076667,087518,091864,082025,051869,017981
0000000211,0000210000,078110,084645,093294,074369,062482,015025
0000000212,0000211000,080255,081908,093886,064658,071746,015471
0000000213,0000212000,082888,079582,093579,053852,078748,019275
0000000214,0000213000,085746,077897,092406,043016,082793,026066
0000000215,0000214000,088558,077016,090474,033194,083494,035187
0000000216,0000215000,091051,077022,087975,025348,080785,045742
0000000217,0000216000,092972,077913,085164,020258,074931,056686
0000000218,0000217000,094134,079609,082305,018418,066501,066956
0000000219,0000218000,094428,081947,079674,020002,056314,075559
0000000220,0000219000,093827,084683,077538,024855,045382,081639
0000000221,0000220000,092386,087555,076107,032504,034774,084598
0000000222,0000221000,090238,090295,075515,042208,025512,084156
0000000223,0000222000,087605,092623,075820,053009,018510,080357
0000000224,0000223000,084749,094307,076993,063840,014463,073572
0000000225,0000224000,081933,095191,078925,073658,013759,064458
0000000226,0000225000,079439,095186,081424,081504,016462,053909
0000000227,0000226000,077519,094293,084236,086595,022309,042971
0000000228,0000227000,076354,092598,087096,088437,030734,032704
0000000229,0000228000,076058,090263,089728,086859,040914,024103
0000000230,0000229000,076660,087524,091865,082013,051840,018023
0000000231,0000230000,078102,084650,093297,074370,062444,015061
0000000232,0000231000,080247,081911,093891,064673,071704,015499
0000000233,0000232000,082881,079581,093586,053879,078705,019291
0000000234,0000233000,085740,077895,092414,043052,082754,026069
0000000235,0000234000,088555,077011,090483,033237,083462,035177
0000000236,0000235000,091051,077015,087983,025393,080764,045719
0000000237,0000236000,092974,077905,085170,020300,074924,056652
0000000238,0000237000,094138,079601,082309,018454,066507,066914
0000000239,0000238000,094435,081938,079676,020028,056334,075513
0000000240,0000239000,093836,084676,077537,024867,045414,081594
0000000241,0000240000,092394,087551,076104,032502,034816,084558
0000000242,0000241000,090247,090293,075509,042192,025558,084125
0000000243,0000242000,087614,092623,075812,052980,018556,080339
0000000244,0000243000,084755,094310,076984,063800,014506,073569
0000000245,0000244000,081937,095196,078916,073612,013794,064469
0000000246,0000245000,079440,095193,081416,081456,016485,053934
0000000247,0000246000,077517,094302,084229,086549,022318,043008
0000000248,0000247000,076349,092608,087091,088399,030728,032749
0000000249,0000248000,076051,090271,089726,086832,040892,024152
0000000250,0000249000,076651,087531,091866,081999,051805,018071
0000000251,0000250000,078091,084656,093301,074372,062400,015104
0000000252,0000251000,080238,081914,093897,064690,071653,015531
0000000253,0000252000,082873,079581,093595,053910,078654,019311
0000000254,0000253000,085733,077892,092424,043095,082708,026073
0000000255,0000254000,088550,077006,090492,033287,083425,035164
0000000256,0000255000,091050,077007,087992,025445,080739,045691
0000000257,0000256000,092976,077896,085177,020349,074915,056611
0000000258,0000257000,094143,079591,082314,018496,066514,066865
0000000259,0000258000,094443,081928,079678,020058,056357,075460
0000000260,0000259000,093845,084667,077536,024882,045451,081542
0000000261,0000260000,092404,087545,076100,032500,034863,084512
0000000262,0000261000,090257,090289,075502,042174,025612,084090
0000000263,0000262000,087623,092622,075803,052946,018611,080319
0000000264,0000263000,084762,094313,076974,063754,014556,073565
0000000265,0000264000,081941,095203,078905,073559,013834,064483
0000000266,0000265000,079442,095202,081406,081400,016511,053964
0000000267,0000266000,077514,094313,084221,086496,022328,043051
0000000268,0000267000,076344,092619,087086,088354,030719,032802
0000000269,0000268000,076043,090281,089724,086800,040867,024209
0000000270,0000269000,076641,087540,091867,081983,051765,018127
0000000271,0000270000,078080,084663,093306,074374,062348,015153
0000000272,0000271000,080227,081917,093905,064711,071595,015569
0000000273,0000272000,082863,079581,093605,053947,078596,019333
0000000274,0000273000,085725,077889,092435,043144,082654,026077
0000000275,0000274000,088546,076999,090504,033345,083382,035150
0000000276,0000275000,091049,076997,088003,025505,080711,045659
0000000277,0000276000,092978,077885,085186,020406,074904,056565
0000000278,0000277000,094149,079580,082320,018544,066523,066808
0000000279,0000278000,094452,081917,079680,020092,056384,075399
0000000280,0000279000,093856,084658,077535,024899,045495,081482
0000000281,0000280000,092416,087538,076095,032498,034918,084460
0000000282,0000281000,090270,090285,075494,042152,025673,084050
0000000283,0000282000,087633,092622,075793,052907,018674,080295
0000000284,0000283000,084770,094317,076962,063702,014613,073561
0000000285,0000284000,081947,095209,078893,073497,013879,064499
0000000286,0000285000,079443,095211,081394,081335,016541,053999
0000000287,0000286000,077511,094325,084212,086435,022339,043101
0000000288,0000287000,076338,092632,087079,088303,030710,032863
0000000289,0000288000,076034,090293,089721,086763,040838,024275
0000000290,0000289000,076629,087551,091868,081965,051719,018191
0000000291,0000290000,078067,084671,093311,074377,062289,015209
0000000292,0000291000,080214,081921,093913,064734,071529,015612
0000000293,0000292000,082852,079581,093616,053988,078530,019357
0000000294,0000293000,085716,077885,092448,043201,082594,026081
0000000295,0000294000,088541,076991,090517,033411,083333,035133
0000000296,0000295000,091047,076986,088015,025574,080680,045622
0000000297,0000296000,092980,077872,085196,020471,074893,056511
0000000298,0000297000,094156,079566,082327,018598,066533,066744
0000000299,0000298000,094462,081904,079683,020130,056416,075329
0000000300,0000299000,093868,084647,077534,024918,045544,081414
0000000301,0000300000,092430,087530,076089,032495,034981,084400
