DIgSILENT PowerFactory,21000900,2000
6,06A,00D
1,TTPP_200000_100:Secondary Voltage A,,,V,0.010000000,-67.865433,0.000000,-86352,99998,1,1,P
2,TTPP_200000_100:Secondary Voltage B,,,V,0.010000000,-42.395206,0.000000,-91006,99998,1,1,P
3,TTPP_200000_100:Secondary Voltage C,,,V,0.10000000,-8980.100586,0.000000,79420,99998,1,1,P
4,TTCC_500_5:Secondary Current A,,,A,0.0010000000,-79.375618,0.000000,45446,99998,1,1,P
5,TTCC_500_5:Secondary Current B,,,A,0.0010000000,-84.622368,0.000000,69264,99998,1,1,P
6,TTCC_500_5:Secondary Current C,,,A,0.0010000000,-84.743408,0.000000,69502,99998,1,1,P
50
1
1000.000000,1101
30/06/2023,06:03:34.000000
30/06/2023,06:03:34.000000
ASCII
1.000000
0000000001,0000000000,061916,040634,080649,085292,089301,074148
0000000002,0000001000,036429,064977,080762,082278,092017,074447
0000000003,0000002000,007926,083521,081760,078976,094013,075752
0000000004,0000003000,-20554,094162,083543,075723,095081,077937
0000000005,0000004000,-46345,095946,085944,072817,095133,080791
0000000006,0000005000,-67115,088925,088722,070557,094153,084031
0000000007,0000006000,-80568,073614,091598,069162,092242,087337
0000000008,0000007000,-85316,051314,094303,068769,089580,090393
0000000009,0000008000,-81176,024479,096572,069407,086438,092896
0000000010,0000009000,-68572,-04119,098174,071026,083116,094599
0000000011,0000010000,-48365,-32128,098953,073463,079941,095337
0000000012,0000011000,-22733,-56622,098840,076478,077225,095038
0000000013,0000012000,005583,-74971,097843,079775,075233,093733
0000000014,0000013000,034048,-85604,096059,083034,074159,091548
0000000015,0000014000,060049,-87593,093658,085937,074110,088694
0000000016,0000015000,080670,-80440,090880,088195,075091,085454
0000000017,0000016000,094030,-65024,088003,089593,077001,082148
0000000018,0000017000,098967,-42913,085298,089988,079661,079093
0000000019,0000018000,094815,-16072,083030,089345,082806,076590
0000000020,0000019000,082023,012730,081429,087728,086127,074886
0000000021,0000020000,061965,040582,080649,085293,089299,074149
0000000022,0000021000,036407,065004,080763,082275,092019,074447
0000000023,0000022000,007907,083532,081759,078978,094011,075752
0000000024,0000023000,-20516,094128,083543,075721,095083,077938
0000000025,0000024000,-46366,095960,085944,072817,095133,080792
0000000026,0000025000,-67140,088953,088722,070556,094154,084031
0000000027,0000026000,-80533,073589,091598,069163,092241,087338
0000000028,0000027000,-85302,051299,094304,068767,089582,090393
0000000029,0000028000,-81231,024540,096573,069407,086438,092896
0000000030,0000029000,-68548,-04149,098173,071026,083116,094599
0000000031,0000030000,-48337,-32156,098953,073462,079943,095337
0000000032,0000031000,-22772,-56590,098840,076477,077226,095039
0000000033,0000032000,005561,-74953,097843,079775,075233,093734
0000000034,0000033000,034100,-85656,096059,083034,074159,091548
0000000035,0000034000,060029,-87577,093658,085935,074112,088694
0000000036,0000035000,080645,-80408,090880,088196,075090,085455
0000000037,0000036000,094060,-65058,088004,089592,077001,082148
0000000038,0000037000,098977,-42924,085299,089987,079661,079094
0000000039,0000038000,094785,-16043,083030,089344,082807,076590
0000000040,0000039000,082039,012711,081428,087728,086126,074887
0000000041,0000040000,061987,040561,080649,085292,089300,074149
0000000042,0000041000,036376,065033,080762,082275,092019,074447
0000000043,0000042000,007924,083525,081759,078978,094011,075752
0000000044,0000043000,-20492,094106,083542,075721,095083,077938
0000000045,0000044000,-46389,095987,085944,072817,095133,080792
0000000046,0000045000,-67149,088969,088722,070557,094154,084031
0000000047,0000046000,-80496,073552,091598,069163,092241,087337
0000000048,0000047000,-85322,051320,094304,068766,089583,090392
0000000049,0000048000,-81262,024568,096573,069408,086438,092896
0000000050,0000049000,-68519,-04176,098173,071026,083117,094599
0000000051,0000050000,-48333,-32163,098953,073461,079944,095337
0000000052,0000051000,-22813,-56551,098840,076476,077227,095039
0000000053,0000052000,005572,-74966,097843,079775,075233,093734
0000000054,0000053000,034122,-85684,096060,083033,074160,091548
0000000055,0000054000,059999,-87550,093659,085934,074112,088695
0000000056,0000055000,080640,-80409,090880,088195,075091,085455
0000000057,0000056000,094088,-65091,088004,089591,077001,082149
0000000058,0000057000,098965,-42917,085299,089986,079661,079094
0000000059,0000058000,094773,-16031,083029,089344,082807,076591
0000000060,0000059000,082073,012680,081428,087728,086126,074888
0000000061,0000060000,061986,040561,080649,085292,089300,074150
0000000062,0000061000,036362,065054,080762,082275,092018,074448
0000000063,0000062000,007951,083504,081758,078979,094010,075753
0000000064,0000063000,-20479,094099,083542,075721,095083,077938
0000000065,0000064000,-46416,096019,085943,072818,095133,080791
0000000066,0000065000,-67136,088963,088721,070558,094153,084030
0000000067,0000066000,-80475,073538,091597,069163,092242,087337
0000000068,0000067000,-85353,051354,094303,068766,089584,090392
0000000069,0000068000,-81272,024583,096572,069409,086438,092895
0000000070,0000069000,-68498,-04198,098173,071026,083118,094598
0000000071,0000070000,-48354,-32146,098954,073460,079945,095336
0000000072,0000071000,-22843,-56527,098841,076476,077227,095038
0000000073,0000072000,005587,-74991,097844,079774,075234,093733
0000000074,0000073000,034117,-85690,096061,083031,074162,091549
0000000075,0000074000,059970,-87532,093659,085933,074113,088695
0000000076,0000075000,080652,-80429,090881,088194,075091,085456
0000000077,0000076000,094103,-65116,088005,089589,077002,082150
0000000078,0000077000,098947,-42905,085300,089984,079661,079096
0000000079,0000078000,094786,-16044,083030,089343,082806,076592
0000000080,0000079000,082102,012650,081428,087727,086125,074889
0000000081,0000080000,061980,040570,080648,085291,089299,074151
0000000082,0000081000,036367,065058,080761,082276,092016,074449
0000000083,0000082000,007985,083480,081757,078979,094009,075753
0000000084,0000083000,-20479,094110,083541,075722,095082,077938
0000000085,0000084000,-46427,096045,085942,072819,095131,080791
0000000086,0000085000,-67113,088954,088720,070560,094152,084030
0000000087,0000086000,-80474,073546,091596,069164,092242,087336
0000000088,0000087000,-85382,051392,094302,068767,089584,090390
0000000089,0000088000,-81272,024587,096572,069410,086439,092893
0000000090,0000089000,-68496,-04202,098173,071026,083119,094596
0000000091,0000090000,-48390,-32116,098954,073460,079947,095335
0000000092,0000091000,-22860,-56519,098842,076476,077229,095037
0000000093,0000092000,005594,-75011,097845,079773,075236,093733
0000000094,0000093000,034093,-85684,096062,083029,074164,091548
0000000095,0000094000,059952,-87528,093661,085931,074114,088696
0000000096,0000095000,080669,-80462,090883,088192,075092,085457
0000000097,0000096000,094103,-65132,088007,089587,077003,082152
0000000098,0000097000,098939,-42905,085300,089983,079661,079098
0000000099,0000098000,094814,-16075,083030,089342,082805,076595
0000000100,0000099000,082125,012627,081428,087726,086124,074891
0000000101,0000100000,061980,040578,080648,085291,089297,074153
0000000102,0000101000,036394,065045,080759,082277,092014,074450
0000000103,0000102000,008017,083464,081755,078981,094006,075754
0000000104,0000103000,-20483,094132,083539,075723,095080,077938
0000000105,0000104000,-46421,096061,085940,072822,095129,080790
0000000106,0000105000,-67091,088951,088718,070562,094151,084028
0000000107,0000106000,-80487,073575,091595,069166,092242,087334
0000000108,0000107000,-85406,051428,094301,068770,089584,090388
0000000109,0000108000,-81271,024592,096571,069411,086440,092890
0000000110,0000109000,-68516,-04185,098174,071026,083122,094594
0000000111,0000110000,-48430,-32083,098955,073460,079950,095332
0000000112,0000111000,-22872,-56520,098843,076475,077232,095035
0000000113,0000112000,005581,-75021,097848,079771,075239,093732
0000000114,0000113000,034060,-85674,096065,083026,074167,091548
0000000115,0000114000,059943,-87544,093663,085928,074116,088696
0000000116,0000115000,080680,-80498,090885,088189,075094,085459
0000000117,0000116000,094095,-65145,088009,089584,077004,082154
0000000118,0000117000,098947,-42925,085302,089980,079661,079101
0000000119,0000118000,094849,-16117,083031,089340,082803,076598
0000000120,0000119000,082144,012608,081428,087725,086122,074895
0000000121,0000120000,061996,040573,080646,085291,089294,074156
0000000122,0000121000,036436,065022,080758,082278,092011,074453
0000000123,0000122000,008045,083460,081753,078982,094003,075756
0000000124,0000123000,-20478,094157,083536,075726,095077,077939
0000000125,0000124000,-46400,096072,085937,072825,095126,080790
0000000126,0000125000,-67077,088965,088715,070565,094149,084027
0000000127,0000126000,-80508,073619,091592,069169,092241,087331
0000000128,0000127000,-85421,051461,094299,068773,089584,090384
0000000129,0000128000,-81280,024608,096571,069413,086441,092887
0000000130,0000129000,-68555,-04150,098174,071027,083124,094590
0000000131,0000130000,-48471,-32054,098956,073460,079953,095329
0000000132,0000131000,-22892,-56523,098845,076473,077236,095033
0000000133,0000132000,005549,-75019,097851,079768,075243,093730
0000000134,0000133000,034024,-85672,096068,083023,074170,091548
0000000135,0000134000,059938,-87574,093667,085924,074119,088697
0000000136,0000135000,080680,-80532,090889,088184,075096,085461
0000000137,0000136000,094089,-65166,088011,089580,077004,082158
0000000138,0000137000,098969,-42966,085304,089977,079660,079105
0000000139,0000138000,094887,-16165,083032,089337,082802,076602
0000000140,0000139000,082168,012588,081428,087723,086119,074899
0000000141,0000140000,062033,040553,080645,085292,089290,074160
0000000142,0000141000,036487,064996,080755,082279,092006,074456
0000000143,0000142000,008074,083465,081750,078985,093999,075758
0000000144,0000143000,-20458,094178,083532,075730,095072,077939
0000000145,0000144000,-46371,096084,085933,072830,095123,080789
0000000146,0000145000,-67072,088997,088711,070570,094147,084024
0000000147,0000146000,-80528,073671,091589,069174,092240,087327
0000000148,0000147000,-85434,051497,094297,068777,089585,090380
0000000149,0000148000,-81306,024642,096570,069416,086444,092882
0000000150,0000149000,-68607,-04102,098175,071028,083128,094585
0000000151,0000150000,-48514,-32028,098958,073460,079957,095324
0000000152,0000151000,-22927,-56519,098848,076472,077241,095029
0000000153,0000152000,005500,-75011,097855,079764,075249,093728
0000000154,0000153000,033988,-85681,096073,083018,074175,091547
0000000155,0000154000,059929,-87612,093672,085919,074123,088699
0000000156,0000155000,080670,-80568,090893,088178,075099,085464
0000000157,0000156000,094091,-65204,088015,089574,077005,082162
0000000158,0000157000,099003,-43025,085306,089973,079659,079110
0000000159,0000158000,094925,-16215,083033,089334,082799,076608
0000000160,0000159000,082203,012557,081427,087722,086115,074905
0000000161,0000160000,062089,040517,080643,085292,089284,074165
0000000162,0000161000,036545,064972,080752,082281,092000,074460
0000000163,0000162000,008110,083474,081745,078989,093993,075760
0000000164,0000163000,-20422,094195,083526,075736,095066,077939
0000000165,0000164000,-46338,096105,085927,072836,095118,080787
0000000166,0000165000,-67073,089047,088706,070576,094145,084021
0000000167,0000166000,-80544,073730,091585,069180,092239,087322
0000000168,0000167000,-85452,051544,094294,068782,089586,090373
0000000169,0000168000,-81350,024697,096569,069419,086447,092875
0000000170,0000169000,-68668,-04046,098175,071030,083133,094578
0000000171,0000170000,-48565,-32000,098960,073460,079963,095319
0000000172,0000171000,-22981,-56504,098852,076469,077248,095025
0000000173,0000172000,005439,-75001,097860,079760,075256,093725
0000000174,0000173000,033950,-85701,096078,083013,074182,091547
0000000175,0000174000,059911,-87655,093678,085912,074129,088701
0000000176,0000175000,080655,-80610,090899,088171,075102,085468
0000000177,0000176000,094102,-65261,088020,089567,077007,082167
0000000178,0000177000,099043,-43097,085309,089967,079658,079117
0000000179,0000178000,094968,-16272,083034,089330,082796,076616
0000000180,0000179000,082257,012511,081427,087720,086109,074912
0000000181,0000180000,062163,040470,080640,085292,089277,074172
0000000182,0000181000,036610,064950,080747,082284,091993,074465
0000000183,0000182000,008160,083482,081739,078993,093985,075763
0000000184,0000183000,-20370,094210,083520,075742,095059,077940
0000000185,0000184000,-46305,096139,085921,072844,095113,080785
0000000186,0000185000,-67073,089110,088700,070584,094141,084016
0000000187,0000186000,-80556,073796,091579,069188,092237,087316
0000000188,0000187000,-85480,051607,094291,068788,089587,090366
0000000189,0000188000,-81409,024771,096567,069424,086451,092867
0000000190,0000189000,-68737,-03984,098176,071033,083138,094570
0000000191,0000190000,-48630,-31964,098963,073459,079971,095311
0000000192,0000191000,-23057,-56478,098857,076466,077256,095019
0000000193,0000192000,005368,-74994,097866,079755,075264,093722
0000000194,0000193000,033906,-85730,096086,083006,074189,091546
0000000195,0000194000,059880,-87701,093686,085903,074135,088703
0000000196,0000195000,080639,-80665,090906,088162,075106,085473
0000000197,0000196000,094122,-65338,088025,089559,077008,082174
0000000198,0000197000,099086,-43182,085313,089959,079657,079125
0000000199,0000198000,095019,-16342,083036,089324,082792,076625
0000000200,0000199000,082331,012447,081426,087717,086103,074921
0000000201,0000200000,062251,040415,080637,085292,089269,074180
0000000202,0000201000,036686,064928,080742,082287,091983,074471
0000000203,0000202000,008229,083486,081732,078999,093976,075766
0000000204,0000203000,-20306,094229,083512,075750,095050,077941
0000000205,0000204000,-46271,096188,085912,072853,095106,080783
0000000206,0000205000,-67069,089185,088692,070594,094136,084011
0000000207,0000206000,-80569,073874,091573,069197,092236,087308
0000000208,0000207000,-85520,051692,094286,068796,089588,090357
0000000209,0000208000,-81480,024861,096565,069430,086455,092856
0000000210,0000209000,-68815,-03913,098177,071036,083145,094560
0000000211,0000210000,-48715,-31916,098967,073459,079980,095303
0000000212,0000211000,-23151,-56444,098863,076462,077267,095012
0000000213,0000212000,005288,-74992,097874,079749,075275,093718
0000000214,0000213000,033849,-85765,096095,082997,074199,091546
0000000215,0000214000,059838,-87753,093695,085893,074143,088705
0000000216,0000215000,080625,-80736,090915,088151,075111,085478
0000000217,0000216000,094147,-65434,088032,089549,077010,082183
0000000218,0000217000,099133,-43278,085318,089950,079655,079136
0000000219,0000218000,095085,-16428,083038,089318,082787,076636
0000000220,0000219000,082424,012364,081425,087714,086095,074932
0000000221,0000220000,062352,040352,080633,085293,089259,074189
0000000222,0000221000,036777,064901,080735,082291,091972,074478
0000000223,0000222000,008317,083485,081723,079007,093964,075771
0000000224,0000223000,-20233,094255,083502,075760,095040,077942
0000000225,0000224000,-46233,096251,085902,072864,095097,080780
0000000226,0000225000,-67059,089271,088683,070606,094130,084005
0000000227,0000226000,-80585,073967,091565,069209,092234,087299
0000000228,0000227000,-85574,051798,094281,068806,089590,090345
0000000229,0000228000,-81562,024967,096563,069437,086460,092844
0000000230,0000229000,-68908,-03831,098178,071039,083154,094548
0000000231,0000230000,-48821,-31853,098971,073458,079991,095292
0000000232,0000231000,-23262,-56404,098871,076458,077279,095004
0000000233,0000232000,005195,-74993,097883,079741,075287,093714
0000000234,0000233000,033778,-85802,096106,082986,074210,091545
0000000235,0000234000,059786,-87813,093706,085881,074152,088708
0000000236,0000235000,080613,-80826,090925,088139,075117,085485
0000000237,0000236000,094174,-65547,088041,089537,077012,082193
0000000238,0000237000,099186,-43390,085324,089940,079654,079148
0000000239,0000238000,095168,-16535,083040,089311,082781,076649
0000000240,0000239000,082535,012265,081424,087711,086086,074945
0000000241,0000240000,062468,040282,080628,085293,089247,074201
0000000242,0000241000,036889,064868,080728,082295,091959,074487
0000000243,0000242000,008424,083482,081713,079015,093951,075776
0000000244,0000243000,-20150,094289,083490,075771,095028,077942
0000000245,0000244000,-46187,096326,085890,072877,095088,080777
0000000246,0000245000,-67044,089368,088671,070620,094124,083998
0000000247,0000246000,-80606,074081,091556,069222,092231,087288
0000000248,0000247000,-85638,051926,094275,068817,089592,090332
0000000249,0000248000,-81654,025087,096560,069445,086467,092830
0000000250,0000249000,-69019,-03732,098179,071043,083164,094534
0000000251,0000250000,-48950,-31775,098976,073458,080004,095280
0000000252,0000251000,-23391,-56360,098879,076453,077293,094995
0000000253,0000252000,005087,-74996,097895,079732,075302,093708
0000000254,0000253000,033689,-85841,096119,082974,074224,091544
0000000255,0000254000,059727,-87884,093719,085866,074163,088712
0000000256,0000255000,080601,-80934,090937,088124,075124,085493
0000000257,0000256000,094203,-65676,088051,089522,077015,082204
0000000258,0000257000,099247,-43521,085331,089928,079651,079162
0000000259,0000258000,095268,-16664,083043,089302,082775,076665
0000000260,0000259000,082662,012150,081422,087706,086075,074960
0000000261,0000260000,062602,040202,080623,085294,089234,074214
0000000262,0000261000,037024,064825,080718,082301,091943,074497
0000000263,0000262000,008549,083476,081701,079025,093935,075782
0000000264,0000263000,-20056,094331,083476,075784,095014,077943
0000000265,0000264000,-46130,096411,085876,072893,095076,080773
0000000266,0000265000,-67024,089480,088658,070636,094116,083989
0000000267,0000266000,-80634,074217,091545,069237,092229,087276
0000000268,0000267000,-85712,052075,094267,068830,089595,090317
0000000269,0000268000,-81759,025225,096557,069454,086474,092814
0000000270,0000269000,-69151,-03615,098180,071047,083176,094518
0000000271,0000270000,-49101,-31682,098982,073457,080019,095266
0000000272,0000271000,-23537,-56311,098889,076447,077310,094984
0000000273,0000272000,004959,-74998,097907,079721,075318,093702
0000000274,0000273000,033583,-85885,096134,082959,074239,091543
0000000275,0000274000,059661,-87969,093734,085850,074175,088716
0000000276,0000275000,080586,-81060,090951,088106,075132,085503
0000000277,0000276000,094233,-65823,088063,089506,077018,082218
0000000278,0000277000,099320,-43674,085339,089914,079649,079178
0000000279,0000278000,095385,-16816,083047,089293,082767,076682
0000000280,0000279000,082807,012019,081421,087702,086062,074977
0000000281,0000280000,062757,040109,080617,085295,089218,074229
0000000282,0000281000,037182,064772,080708,082307,091925,074508
0000000283,0000282000,008692,083472,081687,079036,093917,075788
0000000284,0000283000,-19947,094382,083460,075800,094997,077944
0000000285,0000284000,-46060,096505,085859,072911,095063,080768
0000000286,0000285000,-67002,089608,088643,070655,094108,083979
0000000287,0000286000,-80668,074375,091533,069254,092226,087261
0000000288,0000287000,-85795,052245,094258,068844,089598,090299
0000000289,0000288000,-81879,025383,096553,069464,086482,092795
0000000290,0000289000,-69305,-03477,098182,071052,083189,094500
0000000291,0000290000,-49274,-31576,098989,073456,080036,095250
0000000292,0000291000,-23703,-56256,098900,076440,077329,094972
0000000293,0000292000,004810,-74997,097922,079709,075338,093695
0000000294,0000293000,033461,-85933,096151,082943,074257,091542
0000000295,0000294000,059587,-88069,093752,085831,074189,088721
0000000296,0000295000,080567,-81203,090967,088087,075141,085513
0000000297,0000296000,094265,-65989,088076,089487,077021,082233
0000000298,0000297000,099405,-43851,085349,089899,079646,079197
0000000299,0000298000,095518,-16990,083051,089282,082757,076702
0000000300,0000299000,082970,011872,081419,087696,086048,074997
0000000301,0000300000,062936,040001,080610,085296,089200,074246
