DIgSILENT PowerFactory,21000900,2000
6,06A,00D
1,TTPP_200000_100:Secondary Voltage A,,,V,0.10000000,-8250.122070,0.000000,61898,99998,1,1,P
2,TTPP_200000_100:Secondary Voltage B,,,V,0.10000000,-7878.605469,0.000000,60782,99998,1,1,P
3,TTPP_200000_100:Secondary Voltage C,,,V,0.10000000,-8290.243164,0.000000,64010,99998,1,1,P
4,TTCC_300_1:Secondary Current A,,,A,0.00010000000,-3.478135,0.000000,-8224,99998,1,1,P
5,TTCC_300_1:Secondary Current B,,,A,0.00010000000,-5.027183,0.000000,674,99998,1,1,P
6,TTCC_300_1:Secondary Current C,,,A,0.00010000000,-4.889296,0.000000,-1664,99998,1,1,P
50
1
1000.000000,1101
30/06/2023,06:07:32.000000
30/06/2023,06:07:32.000000
ASCII
1.000000
0000000001,0000000000,089608,080261,074321,013851,036283,083812
0000000002,0000001000,087474,082978,073736,023604,027004,083338
0000000003,0000002000,084833,085309,074048,034443,020006,079497
0000000004,0000003000,081977,086988,075224,045322,015963,072661
0000000005,0000004000,079183,087849,077158,055166,015288,063492
0000000006,0000005000,076695,087841,079654,063013,018041,052893
0000000007,0000006000,074774,086955,082461,068100,023935,041911
0000000008,0000007000,073630,085247,085314,069923,032410,031614
0000000009,0000008000,073344,082909,087935,068299,042651,022997
0000000010,0000009000,073942,080187,090061,063401,053626,016919
0000000011,0000010000,075390,077316,091484,055708,064260,013979
0000000012,0000011000,077543,074578,092069,045948,073545,014452
0000000013,0000012000,080165,072269,091757,035100,080553,018294
0000000014,0000013000,083016,070594,090580,024234,084582,025130
0000000015,0000014000,085830,069712,088648,014391,085258,034298
0000000016,0000015000,088309,069729,086151,006532,082518,044897
0000000017,0000016000,090217,070629,083343,001453,076614,055879
0000000018,0000017000,091379,072319,080492,-00366,068134,066177
0000000019,0000018000,091664,074656,077870,001250,057903,074793
0000000020,0000019000,091052,077396,075743,006149,046927,080870
0000000021,0000020000,089614,080255,074321,013851,036284,083812
0000000022,0000021000,087468,082985,073737,023601,027007,083338
0000000023,0000022000,084831,085311,074048,034451,020000,079496
0000000024,0000023000,081984,086981,075224,045322,015964,072660
0000000025,0000024000,079181,087852,077157,055163,015291,063492
0000000026,0000025000,076688,087847,079654,063017,018036,052892
0000000027,0000026000,074780,086949,082461,068105,023930,041911
0000000028,0000027000,073632,085245,085313,069920,032413,031613
0000000029,0000028000,073337,082916,087936,068300,042650,022997
0000000030,0000029000,073943,080186,090062,063408,053619,016919
0000000031,0000030000,075396,077310,091484,055708,064261,013978
0000000032,0000031000,077538,074583,092069,045948,073547,014451
0000000033,0000032000,080162,072271,091757,035105,080548,018293
0000000034,0000033000,083021,070588,090580,024238,084579,025129
0000000035,0000034000,085829,069712,088648,014389,085261,034297
0000000036,0000035000,088305,069734,086151,006536,082515,044896
0000000037,0000036000,090220,070626,083344,001457,076612,055877
0000000038,0000037000,091381,072317,080492,-00365,068136,066175
0000000039,0000038000,091660,074660,077869,001250,057904,074791
0000000040,0000039000,091053,077394,075743,006153,046924,080869
0000000041,0000040000,089616,080252,074321,013851,036285,083811
0000000042,0000041000,087465,082988,073736,023602,027008,083337
0000000043,0000042000,084831,085311,074048,034452,019999,079495
0000000044,0000043000,081987,086978,075224,045323,015963,072660
0000000045,0000044000,079180,087853,077157,055162,015292,063492
0000000046,0000045000,076688,087848,079653,063018,018035,052893
0000000047,0000046000,074782,086947,082461,068104,023930,041912
0000000048,0000047000,073631,085246,085313,069919,032413,031614
0000000049,0000048000,073336,082918,087935,068301,042647,022998
0000000050,0000049000,073945,080183,090062,063409,053617,016921
0000000051,0000050000,075395,077311,091484,055708,064259,013979
0000000052,0000051000,077535,074586,092069,045951,073543,014452
0000000053,0000052000,080164,072269,091757,035108,080545,018293
0000000054,0000053000,083021,070587,090581,024239,084579,025129
0000000055,0000054000,085826,069716,088649,014393,085258,034296
0000000056,0000055000,088307,069732,086151,006541,082511,044894
0000000057,0000056000,090223,070623,083344,001458,076613,055875
0000000058,0000057000,091377,072320,080492,-00363,068137,066172
0000000059,0000058000,091660,074660,077869,001255,057902,074788
0000000060,0000059000,091057,077390,075743,006154,046926,080866
0000000061,0000060000,089615,080254,074321,013849,036289,083808
0000000062,0000061000,087463,082990,073736,023603,027008,083335
0000000063,0000062000,084835,085307,074047,034452,020000,079494
0000000064,0000063000,081988,086978,075224,045319,015968,072659
0000000065,0000064000,079176,087858,077157,055160,015293,063493
0000000066,0000065000,076690,087847,079653,063018,018034,052894
0000000067,0000066000,074785,086945,082460,068101,023931,041914
0000000068,0000067000,073627,085250,085313,069917,032413,031617
0000000069,0000068000,073335,082919,087935,068303,042643,023001
0000000070,0000069000,073948,080180,090062,063408,053615,016924
0000000071,0000070000,075392,077313,091485,055707,064258,013982
0000000072,0000071000,077533,074588,092069,045955,073537,014454
0000000073,0000072000,080166,072266,091758,035112,080540,018294
0000000074,0000073000,083021,070587,090582,024241,084577,025128
0000000075,0000074000,085822,069718,088649,014398,085254,034294
0000000076,0000075000,088308,069729,086152,006547,082508,044892
0000000077,0000076000,090224,070620,083345,001462,076613,055871
0000000078,0000077000,091375,072322,080493,-00359,068137,066168
0000000079,0000078000,091661,074659,077869,001260,057902,074783
0000000080,0000079000,091060,077387,075743,006155,046930,080861
0000000081,0000080000,089614,080255,074320,013849,036294,083803
0000000082,0000081000,087464,082991,073735,023603,027012,083331
0000000083,0000082000,084838,085305,074046,034449,020005,079492
0000000084,0000083000,081987,086979,075223,045314,015973,072659
0000000085,0000084000,079175,087860,077155,055156,015296,063494
0000000086,0000085000,076692,087846,079652,063013,018036,052897
0000000087,0000086000,074784,086946,082460,068095,023933,041918
0000000088,0000087000,073625,085253,085312,069913,032411,031622
0000000089,0000088000,073336,082918,087935,068300,042639,023007
0000000090,0000089000,073947,080180,090062,063406,053611,016929
0000000091,0000090000,075389,077316,091485,055708,064252,013987
0000000092,0000091000,077533,074588,092070,045959,073529,014458
0000000093,0000092000,080167,072264,091759,035116,080534,018297
0000000094,0000093000,083018,070589,090583,024247,084571,025129
0000000095,0000094000,085822,069718,088650,014407,085248,034292
0000000096,0000095000,088311,069726,086153,006554,082504,044888
0000000097,0000096000,090223,070620,083346,001468,076612,055866
0000000098,0000097000,091375,072322,080493,-00352,068137,066161
0000000099,0000098000,091665,074656,077870,001265,057905,074776
0000000100,0000099000,091061,077386,075743,006156,046936,080854
0000000101,0000100000,089613,080257,074320,013850,036300,083796
0000000102,0000101000,087467,082989,073734,023602,027018,083326
0000000103,0000102000,084840,085304,074045,034444,020014,079488
0000000104,0000103000,081986,086982,075222,045307,015981,072658
0000000105,0000104000,079176,087860,077154,055150,015300,063495
0000000106,0000105000,076694,087845,079651,063004,018040,052901
0000000107,0000106000,074782,086949,082459,068086,023936,041925
0000000108,0000107000,073623,085255,085311,069908,032408,031630
0000000109,0000108000,073337,082918,087935,068295,042635,023016
0000000110,0000109000,073945,080182,090062,063402,053606,016938
0000000111,0000110000,075385,077319,091486,055709,064242,013995
0000000112,0000111000,077533,074586,092071,045963,073519,014464
0000000113,0000112000,080166,072264,091760,035121,080525,018301
0000000114,0000113000,083015,070590,090585,024256,084561,025129
0000000115,0000114000,085822,069716,088652,014418,085239,034290
0000000116,0000115000,088311,069723,086155,006564,082500,044882
0000000117,0000116000,090222,070620,083347,001478,076610,055857
0000000118,0000117000,091376,072320,080494,-00342,068137,066150
0000000119,0000118000,091668,074652,077870,001271,057910,074765
0000000120,0000119000,091061,077385,075743,006159,046945,080842
0000000121,0000120000,089614,080256,074319,013851,036309,083786
0000000122,0000121000,087470,082986,073733,023599,027030,083318
0000000123,0000122000,084842,085304,074044,034436,020027,079484
0000000124,0000123000,081986,086984,075219,045298,015991,072656
0000000125,0000124000,079178,087860,077151,055139,015309,063498
0000000126,0000125000,076695,087846,079649,062991,018047,052908
0000000127,0000126000,074780,086953,082457,068074,023938,041934
0000000128,0000127000,073623,085257,085310,069898,032406,031642
0000000129,0000128000,073336,082919,087934,068287,042630,023029
0000000130,0000129000,073941,080186,090062,063398,053597,016951
0000000131,0000130000,075383,077320,091486,055710,064229,014006
0000000132,0000131000,077532,074586,092073,045967,073505,014473
0000000133,0000132000,080163,072265,091763,035129,080511,018306
0000000134,0000133000,083012,070590,090587,024269,084547,025130
0000000135,0000134000,085822,069712,088655,014432,085228,034287
0000000136,0000135000,088311,069721,086158,006578,082493,044875
0000000137,0000136000,090221,070619,083349,001493,076607,055846
0000000138,0000137000,091378,072316,080495,-00329,068138,066136
0000000139,0000138000,091670,074649,077871,001280,057917,074749
0000000140,0000139000,091063,077385,075743,006164,046955,080827
0000000141,0000140000,089618,080254,074318,013852,036322,083773
0000000142,0000141000,087474,082984,073731,023593,027046,083308
0000000143,0000142000,084843,085305,074041,034426,020043,079477
0000000144,0000143000,081988,086986,075216,045285,016005,072655
0000000145,0000144000,079181,087860,077148,055123,015321,063502
0000000146,0000145000,076694,087849,079646,062973,018056,052917
0000000147,0000146000,074778,086957,082454,068059,023940,041947
0000000148,0000147000,073622,085259,085308,069885,032403,031659
0000000149,0000148000,073334,082922,087934,068277,042623,023047
0000000150,0000149000,073937,080190,090063,063393,053584,016969
0000000151,0000150000,075381,077321,091488,055712,064212,014022
0000000152,0000151000,077529,074586,092075,045973,073487,014485
0000000153,0000152000,080158,072266,091766,035140,080492,018313
0000000154,0000153000,083010,070589,090590,024285,084529,025132
0000000155,0000154000,085822,069709,088658,014450,085214,034282
0000000156,0000155000,088310,069719,086161,006598,082484,044864
0000000157,0000156000,090222,070616,083352,001513,076603,055831
0000000158,0000157000,091381,072311,080497,-00313,068141,066118
0000000159,0000158000,091673,074646,077872,001291,057926,074729
0000000160,0000159000,091065,077383,075742,006171,046969,080807
0000000161,0000160000,089623,080251,074316,013851,036340,083755
0000000162,0000161000,087478,082983,073728,023586,027067,083294
0000000163,0000162000,084845,085307,074038,034413,020065,079469
0000000164,0000163000,081991,086986,075212,045268,016025,072653
0000000165,0000164000,079183,087862,077144,055101,015338,063507
0000000166,0000165000,076694,087854,079642,062951,018067,052928
0000000167,0000166000,074778,086961,082451,068038,023944,041964
0000000168,0000167000,073621,085262,085306,069866,032401,031680
0000000169,0000168000,073330,082927,087933,068263,042613,023070
0000000170,0000169000,073933,080194,090063,063387,053567,016991
0000000171,0000170000,075377,077323,091490,055712,064191,014042
0000000172,0000171000,077524,074588,092078,045980,073464,014501
0000000173,0000172000,080154,072267,091770,035156,080468,018322
0000000174,0000173000,083008,070587,090595,024306,084507,025134
0000000175,0000174000,085820,069706,088663,014474,085196,034276
0000000176,0000175000,088308,069716,086165,006623,082472,044851
0000000177,0000176000,090223,070611,083355,001537,076597,055812
0000000178,0000177000,091384,072306,080500,-00293,068144,066094
0000000179,0000178000,091675,074642,077873,001306,057938,074703
0000000180,0000179000,091070,077379,075741,006179,046986,080781
0000000181,0000180000,089628,080247,074314,013851,036364,083732
0000000182,0000181000,087482,082982,073725,023576,027094,083276
0000000183,0000182000,084849,085307,074033,034397,020091,079458
0000000184,0000183000,081996,086987,075207,045246,016049,072651
0000000185,0000184000,079185,087865,077139,055074,015358,063513
0000000186,0000185000,076693,087859,079638,062923,018080,052942
0000000187,0000186000,074777,086965,082447,068012,023949,041986
0000000188,0000187000,073619,085267,085304,069843,032397,031706
0000000189,0000188000,073325,082933,087932,068247,042601,023099
0000000190,0000189000,073928,080198,090064,063380,053547,017020
0000000191,0000190000,075373,077325,091492,055713,064166,014067
0000000192,0000191000,077518,074590,092082,045990,073435,014520
0000000193,0000192000,080149,072267,091774,035174,080438,018334
0000000194,0000193000,083005,070584,090600,024331,084479,025136
0000000195,0000194000,085818,069703,088669,014503,085174,034269
0000000196,0000195000,088307,069712,086170,006655,082457,044835
0000000197,0000196000,090225,070605,083360,001567,076591,055788
0000000198,0000197000,091387,072300,080503,-00268,068149,066065
0000000199,0000198000,091679,074637,077874,001324,057951,074671
0000000200,0000199000,091076,077373,075740,006188,047008,080750
0000000201,0000200000,089635,080243,074312,013850,036393,083704
0000000202,0000201000,087488,082981,073721,023565,027127,083255
0000000203,0000202000,084855,085307,074028,034378,020123,079445
0000000204,0000203000,082000,086988,075201,045218,016080,072648
0000000205,0000204000,079187,087870,077133,055041,015383,063521
0000000206,0000205000,076694,087864,079632,062890,018096,052960
0000000207,0000206000,074777,086971,082443,067979,023955,042012
0000000208,0000207000,073615,085274,085301,069815,032393,031738
0000000209,0000208000,073320,082939,087930,068227,042586,023134
0000000210,0000209000,073923,080202,090065,063370,053522,017055
0000000211,0000210000,075366,077329,091495,055713,064135,014098
0000000212,0000211000,077511,074593,092086,046002,073400,014544
0000000213,0000212000,080143,072266,091780,035197,080401,018348
0000000214,0000213000,083001,070581,090607,024361,084446,025139
0000000215,0000214000,085814,069700,088676,014539,085148,034260
0000000216,0000215000,088307,069706,086176,006693,082438,044815
0000000217,0000216000,090228,070597,083365,001603,076585,055759
0000000218,0000217000,091390,072293,080506,-00238,068154,066029
0000000219,0000218000,091684,074631,077875,001346,057967,074632
0000000220,0000219000,091083,077367,075740,006199,047035,080712
0000000221,0000220000,089642,080239,074309,013848,036428,083671
0000000222,0000221000,087494,082979,073716,023552,027165,083229
0000000223,0000222000,084862,085307,074021,034353,020163,079430
0000000224,0000223000,082006,086990,075194,045184,016116,072645
0000000225,0000224000,079190,087875,077126,055002,015412,063531
0000000226,0000225000,076695,087870,079625,062849,018115,052982
0000000227,0000226000,074775,086978,082437,067940,023963,042044
0000000228,0000227000,073610,085282,085297,069782,032388,031777
0000000229,0000228000,073314,082947,087929,068204,042567,023176
0000000230,0000229000,073916,080208,090066,063358,053493,017096
0000000231,0000230000,075357,077334,091498,055714,064097,014134
0000000232,0000231000,077503,074596,092092,046017,073357,014572
0000000233,0000232000,080137,072266,091787,035224,080358,018364
0000000234,0000233000,082995,070579,090615,024397,084407,025142
0000000235,0000234000,085810,069695,088684,014582,085115,034250
0000000236,0000235000,088306,069699,086184,006738,082417,044792
0000000237,0000236000,090229,070589,083371,001645,076577,055724
0000000238,0000237000,091394,072285,080511,-00202,068160,065987
0000000239,0000238000,091691,074622,077877,001372,057987,074586
0000000240,0000239000,091092,077359,075739,006212,047067,080667
0000000241,0000240000,089650,080234,074305,013847,036469,083631
0000000242,0000241000,087503,082976,073710,023537,027211,083199
0000000243,0000242000,084870,085306,074013,034324,020210,079412
0000000244,0000243000,082011,086994,075185,045145,016159,072642
0000000245,0000244000,079193,087880,077116,054957,015447,063542
0000000246,0000245000,076696,087877,079616,062801,018138,053007
0000000247,0000246000,074773,086987,082430,067894,023971,042081
0000000248,0000247000,073605,085292,085292,069743,032381,031822
0000000249,0000248000,073307,082956,087927,068176,042545,023225
0000000250,0000249000,073907,080216,090067,063344,053458,017144
0000000251,0000250000,075347,077340,091502,055716,064053,014177
0000000252,0000251000,077493,074598,092098,046035,073306,014604
0000000253,0000252000,080129,072265,091796,035255,080307,018384
0000000254,0000253000,082988,070576,090625,024439,084361,025146
0000000255,0000254000,085806,069690,088694,014632,085078,034237
0000000256,0000255000,088306,069691,086193,006790,082392,044764
0000000257,0000256000,090231,070579,083379,001694,076568,055684
0000000258,0000257000,091399,072275,080516,-00160,068167,065938
0000000259,0000258000,091699,074612,077879,001402,058010,074533
0000000260,0000259000,091101,077351,075738,006227,047105,080615
0000000261,0000260000,089660,080229,074301,013845,036517,083585
0000000262,0000261000,087514,082973,073703,023518,027265,083163
0000000263,0000262000,084879,085306,074004,034290,020264,079392
0000000264,0000263000,082018,086997,075174,045099,016209,072638
0000000265,0000264000,079198,087887,077106,054903,015487,063556
0000000266,0000265000,076698,087886,079606,062744,018164,053037
0000000267,0000266000,074771,086997,082422,067841,023981,042124
0000000268,0000267000,073600,085303,085286,069699,032372,031875
0000000269,0000268000,073299,082966,087924,068144,042520,023283
0000000270,0000269000,073897,080225,090068,063328,053418,017200
0000000271,0000270000,075336,077347,091507,055719,064001,014226
0000000272,0000271000,077483,074602,092106,046055,073249,014642
0000000273,0000272000,080119,072265,091806,035291,080249,018406
0000000274,0000273000,082980,070573,090636,024489,084308,025150
0000000275,0000274000,085802,069683,088705,014690,085035,034222
0000000276,0000275000,088305,069681,086204,006850,082364,044732
0000000277,0000276000,090233,070569,083387,001751,076558,055638
0000000278,0000277000,091405,072264,080522,-00111,068176,065881
0000000279,0000278000,091708,074600,077882,001436,058038,074472
0000000280,0000279000,091112,077342,075736,006243,047148,080555
0000000281,0000280000,089672,080222,074296,013842,036572,083533
0000000282,0000281000,087526,082969,073695,023497,027327,083123
0000000283,0000282000,084890,085306,073994,034251,020327,079368
0000000284,0000283000,082026,087001,075162,045046,016266,072634
0000000285,0000284000,079203,087893,077093,054842,015532,063572
0000000286,0000285000,076699,087895,079595,062680,018194,053072
0000000287,0000286000,074768,087009,082413,067780,023992,042174
0000000288,0000287000,073594,085316,085280,069648,032363,031936
0000000289,0000288000,073290,082978,087922,068108,042491,023348
0000000290,0000289000,073885,080235,090069,063310,053372,017264
0000000291,0000290000,075323,077355,091512,055722,063942,014282
0000000292,0000291000,077470,074606,092114,046079,073183,014685
0000000293,0000292000,080108,072265,091817,035333,080183,018430
0000000294,0000293000,082971,070569,090649,024545,084247,025154
0000000295,0000294000,085796,069675,088718,014755,084986,034205
0000000296,0000295000,088303,069670,086216,006918,082333,044695
0000000297,0000296000,090236,070556,083398,001816,076546,055584
0000000298,0000297000,091411,072250,080529,-00057,068186,065817
0000000299,0000298000,091718,074587,077885,001475,058069,074402
0000000300,0000299000,091124,077331,075735,006262,047197,080487
0000000301,0000300000,089686,080213,074290,013839,036634,083473
