DIgSILENT PowerFactory,21000900,2000
6,06A,00D
1,TTPP_200000_100:Secondary Voltage A,,,V,0.10000000,-8536.822266,0.000000,72575,99998,1,1,P
2,TTPP_200000_100:Secondary Voltage B,,,V,0.10000000,-8603.553711,0.000000,73919,99998,1,1,P
3,TTPP_200000_100:Secondary Voltage C,,,V,0.10000000,-8509.205078,0.000000,67889,99998,1,1,P
4,TTCC_300_1:Secondary Current A,,,A,0.00010000000,-5.323878,0.000000,-13996,99998,1,1,P
5,TTCC_300_1:Secondary Current B,,,A,0.00010000000,-4.864431,0.000000,-2947,99998,1,1,P
6,TTCC_300_1:Secondary Current C,,,A,0.00010000000,-4.977216,0.000000,-570,99998,1,1,P
50
1
1000.000000,1101
30/06/2023,06:11:09.000000
30/06/2023,06:11:09.000000
ASCII
1.000000
0000000001,0000000000,092474,087511,076511,032309,034655,084692
0000000002,0000001000,090341,090228,075926,042061,025377,084218
0000000003,0000002000,087699,092559,076238,052901,018379,080375
0000000004,0000003000,084843,094237,077414,063780,014336,073540
0000000005,0000004000,082050,095099,079348,073623,013660,064371
0000000006,0000005000,079562,095090,081844,081471,016413,053772
0000000007,0000006000,077641,094205,084651,086557,022307,042790
0000000008,0000007000,076497,092496,087504,088380,030783,032493
0000000009,0000008000,076211,090158,090125,086756,041024,023876
0000000010,0000009000,076809,087436,092251,081858,051998,017798
0000000011,0000010000,078257,084565,093673,074165,062633,014858
0000000012,0000011000,080410,081827,094258,064406,071918,015331
0000000013,0000012000,083032,079518,093946,053557,078925,019173
0000000014,0000013000,085883,077843,092769,042691,082955,026009
0000000015,0000014000,088697,076961,090837,032848,083630,035178
0000000016,0000015000,091177,076978,088340,024989,080890,045776
0000000017,0000016000,093084,077879,085532,019910,074987,056758
0000000018,0000017000,094246,079569,082681,018092,066507,067056
0000000019,0000018000,094531,081906,080059,019707,056275,075672
0000000020,0000019000,093919,084645,077933,024606,045299,081749
0000000021,0000020000,092481,087505,076510,032308,034656,084691
0000000022,0000021000,090334,090235,075926,042059,025379,084217
0000000023,0000022000,087697,092560,076238,052909,018372,080375
0000000024,0000023000,084851,094230,077414,063780,014336,073539
0000000025,0000024000,082048,095101,079347,073620,013663,064371
0000000026,0000025000,079555,095097,081844,081475,016409,053771
0000000027,0000026000,077647,094198,084651,086562,022303,042790
0000000028,0000027000,076499,092494,087503,088377,030786,032493
0000000029,0000028000,076204,090165,090126,086757,041023,023876
0000000030,0000029000,076810,087435,092251,081865,051992,017798
0000000031,0000030000,078263,084559,093673,074165,062633,014857
0000000032,0000031000,080405,081832,094258,064405,071919,015331
0000000033,0000032000,083029,079521,093947,053562,078921,019172
0000000034,0000033000,085888,077838,092770,042695,082952,026008
0000000035,0000034000,088697,076962,090837,032846,083633,035176
0000000036,0000035000,091172,076983,088340,024993,080887,045776
0000000037,0000036000,093087,077875,085533,019914,074984,056757
0000000038,0000037000,094248,079567,082681,018092,066508,067054
0000000039,0000038000,094527,081910,080059,019708,056276,075671
0000000040,0000039000,093919,084644,077932,024610,045297,081748
0000000041,0000040000,092483,087502,076510,032308,034658,084690
0000000042,0000041000,090332,090238,075926,042059,025380,084216
0000000043,0000042000,087697,092561,076237,052910,018372,080374
0000000044,0000043000,084854,094228,077414,063780,014336,073539
0000000045,0000044000,082046,095103,079347,073619,013665,064371
0000000046,0000045000,079555,095098,081843,081476,016408,053772
0000000047,0000046000,077649,094196,084651,086562,022302,042791
0000000048,0000047000,076498,092495,087503,088377,030785,032493
0000000049,0000048000,076203,090167,090125,086759,041020,023877
0000000050,0000049000,076812,087432,092251,081866,051990,017800
0000000051,0000050000,078262,084560,093674,074165,062632,014858
0000000052,0000051000,080403,081835,094259,064408,071916,015331
0000000053,0000052000,083031,079518,093946,053565,078917,019173
0000000054,0000053000,085889,077837,092770,042696,082951,026008
0000000055,0000054000,088693,076965,090838,032850,083631,035175
0000000056,0000055000,091174,076981,088340,024998,080884,045774
0000000057,0000056000,093090,077872,085533,019916,074985,056755
0000000058,0000057000,094244,079570,082682,018094,066509,067052
0000000059,0000058000,094527,081910,080059,019713,056274,075668
0000000060,0000059000,093924,084640,077932,024611,045299,081745
0000000061,0000060000,092482,087504,076510,032307,034662,084687
0000000062,0000061000,090330,090240,075926,042061,025381,084214
0000000063,0000062000,087702,092557,076237,052910,018372,080373
0000000064,0000063000,084855,094228,077414,063776,014340,073538
0000000065,0000064000,082042,095107,079346,073618,013666,064372
0000000066,0000065000,079557,095096,081843,081475,016406,053773
0000000067,0000066000,077652,094194,084650,086558,022304,042793
0000000068,0000067000,076494,092499,087503,088374,030785,032496
0000000069,0000068000,076202,090168,090125,086760,041016,023880
0000000070,0000069000,076815,087429,092251,081865,051987,017803
0000000071,0000070000,078260,084562,093674,074164,062630,014861
0000000072,0000071000,080400,081837,094259,064412,071910,015333
0000000073,0000072000,083034,079515,093947,053569,078912,019174
0000000074,0000073000,085888,077836,092771,042698,082949,026008
0000000075,0000074000,088690,076967,090838,032855,083627,035174
0000000076,0000075000,091176,076979,088341,025004,080880,045771
0000000077,0000076000,093092,077870,085534,019919,074985,056751
0000000078,0000077000,094242,079572,082682,018098,066510,067047
0000000079,0000078000,094528,081909,080059,019717,056275,075663
0000000080,0000079000,093927,084637,077932,024612,045302,081741
0000000081,0000080000,092481,087505,076510,032307,034666,084683
0000000082,0000081000,090330,090240,075925,042061,025384,084211
0000000083,0000082000,087705,092555,076236,052907,018377,080371
0000000084,0000083000,084854,094229,077413,063772,014346,073538
0000000085,0000084000,082042,095109,079345,073614,013668,064373
0000000086,0000085000,079559,095095,081842,081471,016408,053776
0000000087,0000086000,077651,094195,084650,086552,022306,042797
0000000088,0000087000,076491,092502,087502,088371,030784,032501
0000000089,0000088000,076203,090167,090125,086758,041012,023886
0000000090,0000089000,076815,087429,092252,081863,051984,017809
0000000091,0000090000,078256,084565,093675,074165,062624,014866
0000000092,0000091000,080400,081837,094259,064416,071902,015337
0000000093,0000092000,083034,079513,093948,053573,078906,019176
0000000094,0000093000,085885,077838,092772,042704,082943,026008
0000000095,0000094000,088689,076967,090839,032864,083620,035172
0000000096,0000095000,091178,076975,088342,025011,080877,045767
0000000097,0000096000,093090,077870,085535,019925,074985,056745
0000000098,0000097000,094242,079572,082683,018106,066509,067040
0000000099,0000098000,094532,081905,080059,019723,056277,075655
0000000100,0000099000,093928,084636,077932,024614,045309,081733
0000000101,0000100000,092480,087507,076509,032307,034672,084676
0000000102,0000101000,090333,090238,075924,042060,025391,084205
0000000103,0000102000,087707,092554,076235,052901,018387,080368
0000000104,0000103000,084853,094232,077411,063765,014353,073537
0000000105,0000104000,082043,095110,079344,073608,013673,064374
0000000106,0000105000,079561,095094,081841,081462,016413,053780
0000000107,0000106000,077649,094198,084649,086543,022308,042804
0000000108,0000107000,076490,092505,087501,088365,030781,032510
0000000109,0000108000,076204,090167,090125,086753,041008,023895
0000000110,0000109000,076812,087431,092252,081859,051978,017818
0000000111,0000110000,078253,084568,093675,074166,062615,014874
0000000112,0000111000,080400,081836,094261,064420,071891,015343
0000000113,0000112000,083033,079513,093950,053578,078897,019180
0000000114,0000113000,085882,077840,092774,042713,082934,026009
0000000115,0000114000,088689,076965,090841,032875,083611,035169
0000000116,0000115000,091179,076973,088344,025022,080872,045762
0000000117,0000116000,093089,077870,085537,019936,074983,056737
0000000118,0000117000,094243,079570,082683,018116,066509,067030
0000000119,0000118000,094535,081902,080060,019729,056282,075644
0000000120,0000119000,093928,084635,077932,024617,045317,081722
0000000121,0000120000,092481,087506,076508,032308,034682,084666
0000000122,0000121000,090337,090236,075922,042056,025402,084197
0000000123,0000122000,087708,092554,076233,052894,018399,080363
0000000124,0000123000,084853,094234,077409,063756,014364,073536
0000000125,0000124000,082045,095110,079341,073596,013681,064377
0000000126,0000125000,079562,095096,081839,081448,016420,053787
0000000127,0000126000,077647,094202,084647,086532,022310,042813
0000000128,0000127000,076490,092506,087500,088356,030779,032521
0000000129,0000128000,076203,090168,090124,086745,041002,023908
0000000130,0000129000,076809,087435,092252,081856,051969,017830
0000000131,0000130000,078250,084569,093676,074168,062602,014885
0000000132,0000131000,080399,081835,094262,064425,071878,015352
0000000133,0000132000,083030,079514,093952,053586,078884,019185
0000000134,0000133000,085880,077840,092776,042726,082920,026010
0000000135,0000134000,088690,076962,090844,032889,083600,035166
0000000136,0000135000,091178,076971,088347,025036,080866,045754
0000000137,0000136000,093088,077869,085539,019951,074979,056725
0000000138,0000137000,094245,079566,082685,018129,066510,067016
0000000139,0000138000,094537,081898,080060,019737,056289,075628
0000000140,0000139000,093929,084635,077932,024621,045328,081706
0000000141,0000140000,092484,087504,076507,032309,034695,084652
0000000142,0000141000,090341,090234,075920,042051,025418,084187
0000000143,0000142000,087710,092555,076231,052883,018416,080356
0000000144,0000143000,084855,094235,077406,063743,014378,073534
0000000145,0000144000,082048,095110,079338,073580,013694,064381
0000000146,0000145000,079561,095099,081836,081431,016429,053796
0000000147,0000146000,077645,094206,084644,086516,022313,042826
0000000148,0000147000,076489,092508,087498,088342,030776,032538
0000000149,0000148000,076201,090171,090124,086734,040996,023926
0000000150,0000149000,076804,087439,092253,081851,051957,017848
0000000151,0000150000,078248,084571,093677,074169,062585,014901
0000000152,0000151000,080396,081835,094265,064430,071860,015365
0000000153,0000152000,083026,079515,093955,053598,078865,019192
0000000154,0000153000,085878,077838,092780,042742,082902,026011
0000000155,0000154000,088689,076959,090847,032908,083586,035162
0000000156,0000155000,091177,076969,088350,025055,080857,045744
0000000157,0000156000,093089,077866,085541,019970,074975,056710
0000000158,0000157000,094248,079561,082687,018145,066513,066997
0000000159,0000158000,094540,081895,080061,019748,056299,075608
0000000160,0000159000,093932,084632,077931,024628,045341,081686
0000000161,0000160000,092489,087501,076505,032309,034713,084634
0000000162,0000161000,090345,090233,075918,042043,025440,084173
0000000163,0000162000,087712,092556,076227,052871,018437,080348
0000000164,0000163000,084858,094236,077402,063726,014397,073532
0000000165,0000164000,082050,095112,079334,073559,013710,064386
0000000166,0000165000,079560,095103,081832,081408,016439,053807
0000000167,0000166000,077645,094210,084641,086496,022316,042843
0000000168,0000167000,076488,092511,087496,088324,030773,032559
0000000169,0000168000,076197,090176,090123,086721,040986,023949
0000000170,0000169000,076800,087443,092253,081845,051940,017871
0000000171,0000170000,078245,084572,093679,074170,062564,014921
0000000172,0000171000,080392,081837,094268,064438,071837,015380
0000000173,0000172000,083021,079516,093959,053613,078841,019202
0000000174,0000173000,085876,077836,092784,042763,082879,026013
0000000175,0000174000,088688,076956,090852,032931,083569,035156
0000000176,0000175000,091175,076966,088354,025080,080844,045731
0000000177,0000176000,093090,077861,085545,019995,074970,056691
0000000178,0000177000,094251,079556,082689,018165,066517,066973
0000000179,0000178000,094542,081892,080062,019763,056310,075582
0000000180,0000179000,093937,084629,077931,024636,045359,081660
0000000181,0000180000,092495,087497,076503,032308,034736,084611
0000000182,0000181000,090349,090232,075915,042034,025466,084155
0000000183,0000182000,087716,092557,076223,052855,018463,080337
0000000184,0000183000,084862,094237,077397,063703,014421,073530
0000000185,0000184000,082052,095115,079329,073532,013731,064392
0000000186,0000185000,079560,095108,081828,081381,016453,053821
0000000187,0000186000,077644,094215,084637,086469,022321,042865
0000000188,0000187000,076486,092516,087494,088301,030770,032585
0000000189,0000188000,076192,090182,090122,086704,040974,023978
0000000190,0000189000,076795,087447,092254,081837,051919,017899
0000000191,0000190000,078240,084574,093682,074170,062538,014947
0000000192,0000191000,080385,081839,094272,064447,071808,015399
0000000193,0000192000,083016,079516,093964,053632,078810,019213
0000000194,0000193000,085873,077833,092790,042788,082852,026016
0000000195,0000194000,088685,076953,090858,032960,083547,035149
0000000196,0000195000,091174,076962,088359,025112,080829,045714
0000000197,0000196000,093093,077854,085549,020024,074964,056667
0000000198,0000197000,094254,079550,082692,018190,066521,066944
0000000199,0000198000,094546,081887,080063,019782,056323,075550
0000000200,0000199000,093943,084623,077930,024646,045380,081629
0000000201,0000200000,092502,087493,076501,032307,034765,084584
0000000202,0000201000,090354,090231,075911,042023,025499,084134
0000000203,0000202000,087721,092557,076217,052835,018496,080324
0000000204,0000203000,084867,094238,077391,063676,014452,073527
0000000205,0000204000,082054,095119,079323,073499,013756,064400
0000000206,0000205000,079561,095114,081822,081347,016469,053839
0000000207,0000206000,077643,094220,084632,086437,022327,042891
0000000208,0000207000,076482,092523,087491,088273,030766,032617
0000000209,0000208000,076187,090189,090120,086685,040958,024013
0000000210,0000209000,076790,087451,092254,081827,051895,017934
0000000211,0000210000,078233,084578,093685,074171,062507,014977
0000000212,0000211000,080378,081842,094276,064460,071772,015423
0000000213,0000212000,083011,079515,093970,053654,078774,019227
0000000214,0000213000,085869,077831,092797,042818,082819,026019
0000000215,0000214000,088681,076949,090865,032996,083520,035140
0000000216,0000215000,091174,076956,088366,025150,080811,045695
0000000217,0000216000,093095,077847,085554,020060,074957,056638
0000000218,0000217000,094257,079543,082696,018220,066526,066909
0000000219,0000218000,094551,081880,080065,019804,056340,075511
0000000220,0000219000,093950,084617,077929,024657,045407,081591
0000000221,0000220000,092509,087489,076498,032306,034800,084550
0000000222,0000221000,090361,090229,075906,042010,025538,084108
0000000223,0000222000,087728,092557,076211,052811,018535,080309
0000000224,0000223000,084872,094240,077384,063642,014489,073524
0000000225,0000224000,082056,095124,079315,073460,013785,064410
0000000226,0000225000,079562,095120,081815,081306,016488,053861
0000000227,0000226000,077642,094227,084627,086397,022335,042923
0000000228,0000227000,076477,092532,087487,088239,030760,032656
0000000229,0000228000,076181,090196,090119,086661,040940,024055
0000000230,0000229000,076783,087457,092255,081815,051865,017975
0000000231,0000230000,078225,084583,093688,074172,062470,015013
0000000232,0000231000,080370,081845,094282,064475,071729,015451
0000000233,0000232000,083004,079515,093977,053681,078730,019244
0000000234,0000233000,085863,077828,092805,042854,082780,026022
0000000235,0000234000,088678,076945,090873,033039,083488,035129
0000000236,0000235000,091174,076949,088373,025195,080789,045671
0000000237,0000236000,093097,077839,085561,020102,074949,056604
0000000238,0000237000,094261,079535,082700,018256,066533,066866
0000000239,0000238000,094558,081872,080066,019830,056359,075466
0000000240,0000239000,093959,084609,077928,024670,045439,081546
0000000241,0000240000,092517,087484,076494,032304,034841,084510
0000000242,0000241000,090370,090226,075899,041994,025584,084078
0000000243,0000242000,087737,092556,076203,052782,018582,080291
0000000244,0000243000,084878,094243,077375,063602,014532,073521
0000000245,0000244000,082060,095130,079306,073414,013819,064421
0000000246,0000245000,079563,095127,081806,081258,016510,053886
0000000247,0000246000,077640,094236,084620,086351,022344,042960
0000000248,0000247000,076472,092542,087482,088201,030753,032702
0000000249,0000248000,076174,090205,090117,086634,040918,024104
0000000250,0000249000,076774,087465,092257,081801,051831,018023
0000000251,0000250000,078214,084590,093692,074174,062425,015056
0000000252,0000251000,080361,081848,094288,064492,071679,015484
0000000253,0000252000,082996,079514,093985,053712,078680,019263
0000000254,0000253000,085856,077825,092815,042897,082733,026025
0000000255,0000254000,088673,076939,090883,033089,083450,035116
0000000256,0000255000,091173,076940,088382,025247,080765,045644
0000000257,0000256000,093099,077829,085568,020151,074940,056564
0000000258,0000257000,094266,079525,082705,018298,066540,066817
0000000259,0000258000,094566,081862,080068,019860,056383,075412
0000000260,0000259000,093968,084601,077927,024684,045477,081494
0000000261,0000260000,092527,087479,076490,032302,034889,084464
0000000262,0000261000,090380,090223,075892,041976,025637,084043
0000000263,0000262000,087746,092556,076194,052748,018637,080271
0000000264,0000263000,084885,094247,077364,063556,014582,073517
0000000265,0000264000,082064,095136,079296,073361,013859,064435
0000000266,0000265000,079565,095135,081796,081202,016537,053916
0000000267,0000266000,077637,094247,084612,086298,022354,043003
0000000268,0000267000,076467,092553,087476,088156,030745,032754
0000000269,0000268000,076166,090215,090114,086602,040892,024162
0000000270,0000269000,076764,087474,092258,081785,051791,018079
0000000271,0000270000,078203,084597,093696,074176,062374,015105
0000000272,0000271000,080350,081851,094295,064513,071621,015521
0000000273,0000272000,082986,079514,093995,053749,078622,019285
0000000274,0000273000,085848,077822,092826,042946,082680,026029
0000000275,0000274000,088669,076932,090894,033147,083407,035102
0000000276,0000275000,091172,076931,088393,025307,080737,045612
0000000277,0000276000,093101,077818,085577,020208,074930,056517
0000000278,0000277000,094272,079513,082711,018346,066548,066760
0000000279,0000278000,094575,081850,080071,019894,056410,075351
0000000280,0000279000,093979,084592,077926,024701,045520,081434
0000000281,0000280000,092539,087472,076485,032300,034944,084412
0000000282,0000281000,090393,090218,075885,041954,025699,084003
0000000283,0000282000,087756,092556,076183,052709,018699,080247
0000000284,0000283000,084893,094251,077352,063504,014638,073513
0000000285,0000284000,082070,095143,079283,073299,013905,064451
0000000286,0000285000,079566,095145,081785,081137,016567,053951
0000000287,0000286000,077634,094259,084603,086237,022365,043053
0000000288,0000287000,076461,092565,087470,088105,030735,032815
0000000289,0000288000,076157,090227,090112,086565,040863,024227
0000000290,0000289000,076752,087484,092259,081767,051745,018143
0000000291,0000290000,078190,084604,093701,074179,062315,015161
0000000292,0000291000,080337,081855,094304,064536,071555,015564
0000000293,0000292000,082975,079515,094007,053790,078555,019310
0000000294,0000293000,085839,077819,092839,043003,082619,026033
0000000295,0000294000,088664,076924,090908,033213,083358,035085
0000000296,0000295000,091170,076920,088405,025376,080705,045575
0000000297,0000296000,093103,077806,085587,020273,074919,056464
0000000298,0000297000,094279,079500,082718,018400,066559,066696
0000000299,0000298000,094585,081837,080074,019932,056441,075281
0000000300,0000299000,093991,084581,077925,024720,045569,081366
0000000301,0000300000,092553,087463,076480,032297,035006,084352
