DIgSILENT PowerFactory,21000900,2000
6,06A,00D
1,TTPP_200000_100:Secondary Voltage A,,,V,0.010000000,-71.455421,0.000000,-85625,99998,1,1,P
2,TTPP_200000_100:Secondary Voltage B,,,V,0.010000000,-46.797230,0.000000,-90149,99998,1,1,P
3,TTPP_200000_100:Secondary Voltage C,,,V,0.10000000,-8971.425781,0.000000,78741,99998,1,1,P
4,TTCC_300_1:Secondary Current A,,,A,0.00010000000,-5.027114,0.000000,-21955,99998,1,1,P
5,TTCC_300_1:Secondary Current B,,,A,0.00010000000,-4.886003,0.000000,-2334,99998,1,1,P
6,TTCC_300_1:Secondary Current C,,,A,0.00010000000,-4.926712,0.000000,-1550,99998,1,1,P
50
1
1000.000000,1101
30/06/2023,06:03:34.000000
30/06/2023,06:03:34.000000
ASCII
1.000000
0000000001,0000000000,078209,019432,081133,029339,034873,084186
0000000002,0000001000,056866,046608,080548,039092,025594,083713
0000000003,0000002000,030471,069900,080860,049929,018597,079872
0000000004,0000003000,001890,086703,082036,060810,014552,073037
0000000005,0000004000,-26048,095324,083970,070651,013877,063869
0000000006,0000005000,-50922,095228,086466,078505,016625,053269
0000000007,0000006000,-70100,086346,089273,083586,022523,042288
0000000008,0000007000,-81582,069302,092125,085412,030997,031990
0000000009,0000008000,-84441,045921,094748,083788,041237,023373
0000000010,0000009000,-78441,018673,096874,078895,052209,017294
0000000011,0000010000,-63943,-10049,098295,071197,062848,014353
0000000012,0000011000,-42453,-37383,098880,061439,072132,014826
0000000013,0000012000,-16239,-60483,098569,050594,079138,018667
0000000014,0000013000,012312,-77261,097391,039728,083168,025502
0000000015,0000014000,040457,-86078,095459,029881,083848,034670
0000000016,0000015000,065209,-85869,092963,022022,081108,045269
0000000017,0000016000,084292,-76875,090156,016946,075202,056250
0000000018,0000017000,095948,-60012,087303,015125,066725,066548
0000000019,0000018000,098783,-36622,084681,016737,056495,075165
0000000020,0000019000,092621,-09199,082555,021636,045519,081244
0000000021,0000020000,078260,019378,081132,029341,034872,084185
0000000022,0000021000,056837,046648,080548,039088,025598,083713
0000000023,0000022000,030436,069933,080860,049936,018591,079871
0000000024,0000023000,001951,086656,082037,060810,014552,073036
0000000025,0000024000,-26051,095326,083970,070652,013877,063869
0000000026,0000025000,-50964,095272,086466,078504,016625,053269
0000000027,0000026000,-70083,086324,089273,083592,022518,042288
0000000028,0000027000,-81561,069270,092125,085411,030998,031990
0000000029,0000028000,-84478,045963,094748,083791,041235,023373
0000000030,0000029000,-78438,018666,096874,078898,052206,017294
0000000031,0000030000,-63918,-10070,098296,071199,062847,014353
0000000032,0000031000,-42478,-37358,098881,061441,072132,014825
0000000033,0000032000,-16242,-60477,098569,050597,079135,018666
0000000034,0000033000,012344,-77293,097392,039731,083167,025501
0000000035,0000034000,040430,-86061,095459,029881,083849,034669
0000000036,0000035000,065191,-85852,092963,022027,081104,045268
0000000037,0000036000,084330,-76918,090155,016948,075202,056249
0000000038,0000037000,095944,-60008,087303,015125,066726,066547
0000000039,0000038000,098748,-36585,084681,016739,056495,075163
0000000040,0000039000,092652,-09228,082554,021640,045516,081242
0000000041,0000040000,078288,019356,081133,029339,034875,084184
0000000042,0000041000,056795,046688,080548,039089,025598,083712
0000000043,0000042000,030442,069931,080859,049939,018589,079870
0000000044,0000043000,001987,086618,082036,060810,014552,073036
0000000045,0000044000,-26073,095350,083969,070650,013879,063869
0000000046,0000045000,-50982,095295,086466,078506,016623,053269
0000000047,0000046000,-70052,086293,089273,083593,022517,042289
0000000048,0000047000,-81566,069280,092125,085409,030999,031991
0000000049,0000048000,-84505,045991,094748,083792,041232,023374
0000000050,0000049000,-78416,018647,096874,078900,052203,017296
0000000051,0000050000,-63917,-10076,098296,071199,062845,014354
0000000052,0000051000,-42510,-37330,098881,061443,072129,014826
0000000053,0000052000,-16228,-60492,098569,050601,079131,018666
0000000054,0000053000,012357,-77313,097392,039731,083166,025501
0000000055,0000054000,040399,-86033,095460,029884,083847,034668
0000000056,0000055000,065194,-85857,092963,022032,081101,045266
0000000057,0000056000,084362,-76951,090156,016950,075202,056247
0000000058,0000057000,095923,-59991,087304,015127,066727,066544
0000000059,0000058000,098734,-36572,084681,016743,056494,075161
0000000060,0000059000,092690,-09264,082554,021642,045517,081239
0000000061,0000060000,078288,019355,081132,029338,034879,084182
0000000062,0000061000,056772,046716,080548,039090,025599,083709
0000000063,0000062000,030467,069910,080859,049939,018590,079869
0000000064,0000063000,002005,086605,082036,060807,014556,073035
0000000065,0000064000,-26098,095382,083969,070648,013881,063869
0000000066,0000065000,-50975,095294,086465,078505,016622,053271
0000000067,0000066000,-70031,086277,089272,083590,022518,042291
0000000068,0000067000,-81590,069305,092125,085407,030998,031994
0000000069,0000068000,-84514,046004,094748,083792,041229,023377
0000000070,0000069000,-78399,018628,096874,078899,052200,017299
0000000071,0000070000,-63937,-10061,098297,071199,062843,014356
0000000072,0000071000,-42531,-37311,098881,061446,072124,014828
0000000073,0000072000,-16210,-60516,098569,050604,079126,018667
0000000074,0000073000,012350,-77314,097393,039734,083164,025501
0000000075,0000074000,040371,-86013,095461,029890,083843,034666
0000000076,0000075000,065211,-85880,092963,022038,081097,045263
0000000077,0000076000,084376,-76972,090156,016953,075202,056243
0000000078,0000077000,095900,-59973,087304,015131,066728,066540
0000000079,0000078000,098744,-36583,084681,016748,056494,075156
0000000080,0000079000,092720,-09295,082554,021644,045520,081234
0000000081,0000080000,078279,019367,081132,029337,034884,084177
0000000082,0000081000,056770,046725,080547,039090,025603,083706
0000000083,0000082000,030499,069886,080858,049937,018595,079867
0000000084,0000083000,002005,086613,082035,060802,014562,073035
0000000085,0000084000,-26112,095407,083968,070644,013884,063870
0000000086,0000085000,-50956,095285,086464,078501,016623,053274
0000000087,0000086000,-70029,086280,089272,083584,022519,042295
0000000088,0000087000,-81615,069337,092124,085403,030997,031999
0000000089,0000088000,-84512,046005,094747,083790,041225,023383
0000000090,0000089000,-78396,018622,096874,078897,052196,017305
0000000091,0000090000,-63968,-10034,098297,071199,062837,014361
0000000092,0000091000,-42542,-37307,098882,061450,072116,014832
0000000093,0000092000,-16200,-60535,098571,050608,079120,018670
0000000094,0000093000,012327,-77305,097394,039739,083158,025501
0000000095,0000094000,040356,-86009,095462,029898,083837,034664
0000000096,0000095000,065231,-85911,092965,022046,081093,045260
0000000097,0000096000,084375,-76982,090157,016959,075201,056237
0000000098,0000097000,095888,-59966,087305,015138,066728,066533
0000000099,0000098000,098770,-36611,084681,016754,056496,075148
0000000100,0000099000,092741,-09316,082554,021645,045526,081227
0000000101,0000100000,078273,019379,081132,029337,034891,084170
0000000102,0000101000,056790,046716,080546,039089,025609,083701
0000000103,0000102000,030527,069869,080857,049931,018603,079864
0000000104,0000103000,002000,086633,082034,060795,014570,073034
0000000105,0000104000,-26109,095421,083966,070637,013889,063872
0000000106,0000105000,-50937,095279,086463,078492,016627,053278
0000000107,0000106000,-70041,086303,089271,083575,022522,042302
0000000108,0000107000,-81635,069366,092123,085397,030995,032007
0000000109,0000108000,-84508,046005,094747,083786,041221,023392
0000000110,0000109000,-78412,018635,096874,078894,052191,017314
0000000111,0000110000,-64002,-10007,098298,071200,062828,014369
0000000112,0000111000,-42547,-37312,098883,061455,072105,014838
0000000113,0000112000,-16208,-60545,098572,050614,079111,018674
0000000114,0000113000,012297,-77293,097396,039748,083149,025502
0000000115,0000114000,040351,-86022,095464,029909,083828,034662
0000000116,0000115000,065244,-85943,092966,022056,081088,045254
0000000117,0000116000,084366,-76989,090159,016969,075200,056229
0000000118,0000117000,095892,-59979,087306,015148,066728,066522
0000000119,0000118000,098802,-36647,084682,016761,056500,075137
0000000120,0000119000,092755,-09328,082554,021648,045535,081215
0000000121,0000120000,078281,019380,081131,029338,034900,084160
0000000122,0000121000,056824,046696,080544,039086,025620,083693
0000000123,0000122000,030549,069865,080855,049924,018616,079859
0000000124,0000123000,002000,086655,082031,060785,014580,073033
0000000125,0000124000,-26093,095428,083963,070626,013897,063875
0000000126,0000125000,-50925,095287,086461,078479,016634,053285
0000000127,0000126000,-70060,086338,089269,083563,022524,042311
0000000128,0000127000,-81646,069391,092122,085387,030992,032019
0000000129,0000128000,-84512,046014,094746,083778,041215,023405
0000000130,0000129000,-78444,018663,096875,078890,052182,017327
0000000131,0000130000,-64033,-09984,098299,071202,062815,014381
0000000132,0000131000,-42558,-37318,098885,061460,072091,014847
0000000133,0000132000,-16233,-60544,098575,050622,079097,018679
0000000134,0000133000,012268,-77288,097399,039760,083135,025503
0000000135,0000134000,040352,-86048,095466,029924,083816,034658
0000000136,0000135000,065247,-85970,092969,022071,081082,045246
0000000137,0000136000,084358,-77001,090161,016984,075197,056217
0000000138,0000137000,095910,-60010,087307,015161,066729,066508
0000000139,0000138000,098833,-36685,084682,016769,056507,075121
0000000140,0000139000,092770,-09341,082554,021652,045546,081200
0000000141,0000140000,078307,019367,081129,029339,034914,084146
0000000142,0000141000,056866,046674,080543,039081,025636,083682
0000000143,0000142000,030568,069870,080853,049913,018633,079852
0000000144,0000143000,002012,086673,082028,060772,014595,073031
0000000145,0000144000,-26069,095435,083960,070610,013909,063878
0000000146,0000145000,-50922,095311,086458,078462,016643,053293
0000000147,0000146000,-70078,086381,089267,083547,022527,042324
0000000148,0000147000,-81654,069416,092120,085374,030990,032035
0000000149,0000148000,-84530,046038,094746,083768,041208,023423
0000000150,0000149000,-78486,018702,096875,078885,052170,017344
0000000151,0000150000,-64064,-09966,098300,071203,062798,014397
0000000152,0000151000,-42581,-37318,098887,061466,072073,014859
0000000153,0000152000,-16271,-60536,098578,050633,079079,018686
0000000154,0000153000,012241,-77294,097402,039777,083117,025504
0000000155,0000154000,040349,-86080,095470,029943,083802,034654
0000000156,0000155000,065239,-85997,092972,022090,081073,045236
0000000157,0000156000,084358,-77026,090164,017003,075193,056202
0000000158,0000157000,095938,-60056,087309,015177,066731,066490
0000000159,0000158000,098863,-36724,084683,016781,056516,075101
0000000160,0000159000,092794,-09360,082554,021659,045560,081180
0000000161,0000160000,078351,019340,081128,029339,034931,084128
0000000162,0000161000,056910,046655,080540,039073,025657,083668
0000000163,0000162000,030592,069880,080849,049900,018654,079844
0000000164,0000163000,002039,086687,082024,060755,014614,073029
0000000165,0000164000,-26043,095449,083956,070589,013925,063883
0000000166,0000165000,-50925,095350,086454,078439,016654,053305
0000000167,0000166000,-70092,086426,089263,083526,022531,042341
0000000168,0000167000,-81666,069448,092118,085356,030986,032056
0000000169,0000168000,-84564,046078,094745,083754,041199,023446
0000000170,0000169000,-78534,018745,096876,078878,052153,017367
0000000171,0000170000,-64100,-09947,098302,071204,062777,014417
0000000172,0000171000,-42620,-37309,098890,061473,072050,014875
0000000173,0000172000,-16319,-60527,098582,050648,079055,018695
0000000174,0000173000,012214,-77311,097406,039798,083095,025506
0000000175,0000174000,040337,-86115,095474,029966,083784,034648
0000000176,0000175000,065227,-86027,092977,022115,081061,045223
0000000177,0000176000,084367,-77068,090167,017028,075188,056183
0000000178,0000177000,095971,-60112,087311,015198,066734,066466
0000000179,0000178000,098894,-36765,084684,016795,056528,075075
0000000180,0000179000,092833,-09392,082553,021667,045578,081154
0000000181,0000180000,078408,019304,081125,029339,034954,084106
0000000182,0000181000,056958,046639,080537,039064,025684,083651
0000000183,0000182000,030628,069889,080845,049884,018681,079833
0000000184,0000183000,002078,086699,082019,060733,014638,073027
0000000185,0000184000,-26019,095475,083951,070562,013946,063890
0000000186,0000185000,-50928,095401,086450,078411,016667,053319
0000000187,0000186000,-70102,086476,089259,083500,022536,042363
0000000188,0000187000,-81686,069494,092116,085333,030983,032083
0000000189,0000188000,-84610,046135,094744,083737,041187,023475
0000000190,0000189000,-78586,018792,096876,078870,052133,017395
0000000191,0000190000,-64147,-09923,098304,071205,062751,014442
0000000192,0000191000,-42677,-37291,098894,061483,072021,014894
0000000193,0000192000,-16373,-60521,098586,050666,079025,018707
0000000194,0000193000,012183,-77336,097412,039823,083067,025509
0000000195,0000194000,040316,-86151,095480,029995,083762,034641
0000000196,0000195000,065214,-86066,092982,022146,081046,045207
0000000197,0000196000,084384,-77127,090171,017058,075181,056159
0000000198,0000197000,096006,-60177,087314,015223,066739,066437
0000000199,0000198000,098932,-36815,084685,016813,056542,075043
0000000200,0000199000,092889,-09440,082552,021676,045599,081123
0000000201,0000200000,078475,019261,081123,029338,034983,084078
0000000202,0000201000,057014,046624,080533,039053,025717,083629
0000000203,0000202000,030678,069894,080839,049864,018714,079821
0000000204,0000203000,002126,086712,082013,060705,014668,073024
0000000205,0000204000,-25994,095513,083945,070529,013971,063898
0000000206,0000205000,-50928,095459,086444,078377,016684,053337
0000000207,0000206000,-70111,086533,089255,083468,022542,042389
0000000208,0000207000,-81717,069556,092113,085305,030979,032115
0000000209,0000208000,-84666,046204,094743,083717,041171,023510
0000000210,0000209000,-78645,018844,096877,078861,052108,017430
0000000211,0000210000,-64210,-09890,098307,071206,062720,014473
0000000212,0000211000,-42749,-37265,098898,061495,071986,014918
0000000213,0000212000,-16432,-60520,098592,050689,078988,018721
0000000214,0000213000,012144,-77364,097419,039853,083034,025512
0000000215,0000214000,040284,-86190,095487,030031,083736,034632
0000000216,0000215000,065204,-86119,092988,022184,081028,045187
0000000217,0000216000,084405,-77201,090176,017094,075174,056130
0000000218,0000217000,096042,-60250,087318,015253,066744,066401
0000000219,0000218000,098980,-36878,084687,016835,056558,075004
0000000220,0000219000,092960,-09502,082551,021688,045626,081085
0000000221,0000220000,078552,019215,081120,029336,035018,084044
0000000222,0000221000,057081,046607,080528,039040,025756,083603
0000000223,0000222000,030743,069895,080833,049840,018753,079805
0000000224,0000223000,002181,086731,082006,060672,014705,073021
0000000225,0000224000,-25968,095562,083938,070490,014001,063907
0000000226,0000225000,-50922,095524,086437,078337,016703,053359
0000000227,0000226000,-70123,086602,089249,083429,022549,042420
0000000228,0000227000,-81758,069637,092109,085272,030973,032154
0000000229,0000228000,-84729,046284,094741,083694,041153,023552
0000000230,0000229000,-78714,018904,096878,078849,052078,017471
0000000231,0000230000,-64290,-09844,098310,071207,062682,014509
0000000232,0000231000,-42834,-37234,098904,061509,071943,014945
0000000233,0000232000,-16501,-60523,098599,050716,078945,018737
0000000234,0000233000,012091,-77394,097427,039890,082994,025515
0000000235,0000234000,040245,-86235,095495,030074,083704,034622
0000000236,0000235000,065196,-86187,092996,022229,081006,045163
0000000237,0000236000,084428,-77287,090183,017136,075166,056096
0000000238,0000237000,096082,-60333,087322,015288,066751,066359
0000000239,0000238000,099043,-36957,084689,016861,056578,074959
0000000240,0000239000,093045,-09577,082550,021701,045658,081040
0000000241,0000240000,078639,019163,081116,029335,035059,084005
0000000242,0000241000,057164,046584,080522,039024,025802,083573
0000000243,0000242000,030824,069892,080825,049812,018799,079787
0000000244,0000243000,002243,086758,081997,060632,014748,073018
0000000245,0000244000,-25935,095620,083929,070444,014035,063919
0000000246,0000245000,-50912,095598,086428,078288,016725,053384
0000000247,0000246000,-70139,086687,089242,083383,022558,042458
0000000248,0000247000,-81809,069734,092104,085233,030967,032199
0000000249,0000248000,-84800,046375,094739,083666,041131,023601
0000000250,0000249000,-78797,018976,096879,078835,052044,017520
0000000251,0000250000,-64387,-09786,098314,071208,062638,014552
0000000252,0000251000,-42931,-37201,098910,061527,071893,014978
0000000253,0000252000,-16581,-60527,098608,050748,078894,018757
0000000254,0000253000,012026,-77426,097437,039932,082948,025518
0000000255,0000254000,040201,-86288,095505,030124,083666,034609
0000000256,0000255000,065189,-86270,093005,022281,080982,045136
0000000257,0000256000,084451,-77386,090190,017185,075157,056056
0000000258,0000257000,096128,-60431,087327,015330,066758,066310
0000000259,0000258000,099119,-37054,084691,016891,056601,074905
0000000260,0000259000,093143,-09663,082549,021715,045695,080988
0000000261,0000260000,078739,019104,081112,029332,035107,083959
0000000262,0000261000,057265,046553,080515,039005,025855,083538
0000000263,0000262000,030919,069889,080816,049778,018854,079767
0000000264,0000263000,002313,086791,081986,060586,014798,073014
0000000265,0000264000,-25894,095685,083918,070390,014075,063932
0000000266,0000265000,-50897,095682,086419,078232,016752,053414
0000000267,0000266000,-70162,086789,089234,083330,022568,042501
0000000268,0000267000,-81867,069847,092099,085188,030958,032252
0000000269,0000268000,-84879,046478,094737,083635,041106,023659
0000000270,0000269000,-78896,019063,096880,078819,052004,017576
0000000271,0000270000,-64502,-09716,098319,071210,062587,014601
0000000272,0000271000,-43041,-37165,098918,061547,071835,015016
0000000273,0000272000,-16676,-60531,098618,050784,078835,018779
0000000274,0000273000,011946,-77459,097448,039981,082895,025522
0000000275,0000274000,040151,-86353,095517,030181,083623,034594
0000000276,0000275000,065179,-86367,093015,022341,080953,045104
0000000277,0000276000,084475,-77497,090199,017242,075147,056009
0000000278,0000277000,096183,-60546,087333,015378,066767,066253
0000000279,0000278000,099209,-37169,084693,016926,056628,074844
0000000280,0000279000,093252,-09761,082548,021732,045738,080928
0000000281,0000280000,078856,019036,081107,029330,035162,083906
0000000282,0000281000,057385,046513,080507,038984,025917,083498
0000000283,0000282000,031027,069886,080805,049739,018916,079744
0000000284,0000283000,002393,086831,081974,060533,014855,073010
0000000285,0000284000,-25842,095757,083905,070329,014121,063948
0000000286,0000285000,-50880,095779,086407,078168,016782,053448
0000000287,0000286000,-70189,086910,089225,083269,022579,042551
0000000288,0000287000,-81930,069976,092092,085137,030949,032313
0000000289,0000288000,-84970,046596,094734,083598,041076,023724
0000000290,0000289000,-79013,019166,096881,078801,051958,017640
0000000291,0000290000,-64633,-09636,098324,071213,062528,014657
0000000292,0000291000,-43167,-37125,098926,061571,071769,015058
0000000293,0000292000,-16788,-60531,098629,050826,078769,018804
0000000294,0000293000,011854,-77496,097461,040038,082834,025526
0000000295,0000294000,040096,-86429,095530,030247,083574,034577
0000000296,0000295000,065166,-86476,093028,022410,080922,045067
0000000297,0000296000,084499,-77623,090209,017306,075136,055956
0000000298,0000297000,096248,-60680,087340,015433,066777,066188
0000000299,0000298000,099311,-37302,084696,016964,056659,074774
0000000300,0000299000,093376,-09872,082547,021751,045788,080860
0000000301,0000300000,078991,018955,081102,029327,035225,083847
