DIgSILENT PowerFactory,21000900,2000
6,06A,00D
1,TTPP_200000_100:Secondary Voltage A,,,V,0.10000000,-8263.701172,0.000000,63641,99998,1,1,P
2,TTPP_200000_100:Secondary Voltage B,,,V,0.10000000,-8182.767090,0.000000,66075,99998,1,1,P
3,TTPP_200000_100:Secondary Voltage C,,,V,0.10000000,-8349.246094,0.000000,61780,99998,1,1,P
4,TTCC_300_1:Secondary Current A,,,A,0.00010000000,-3.038793,0.000000,-15586,99998,1,1,P
5,TTCC_300_1:Secondary Current B,,,A,0.00010000000,-5.014322,0.000000,254,99998,1,1,P
6,TTCC_300_1:Secondary Current C,,,A,0.00010000000,-4.889495,0.000000,-2113,99998,1,1,P
50
1
1000.000000,1101
30/06/2023,06:05:52.000000
30/06/2023,06:05:52.000000
ASCII
1.000000
0000000001,0000000000,089743,083303,074911,009458,036153,083814
0000000002,0000001000,087610,086020,074327,019212,026877,083341
0000000003,0000002000,084968,088350,074638,030050,019876,079498
0000000004,0000003000,082113,090030,075815,040929,015835,072662
0000000005,0000004000,079319,090891,077748,050774,015160,063494
0000000006,0000005000,076831,090883,080244,058620,017912,052894
0000000007,0000006000,074910,089996,083051,063707,023807,041913
0000000008,0000007000,073766,088289,085904,065529,032282,031615
0000000009,0000008000,073480,085950,088525,063906,042523,023000
0000000010,0000009000,074078,083228,090651,059006,053497,016920
0000000011,0000010000,075526,080357,092074,051314,064132,013981
0000000012,0000011000,077679,077620,092659,041554,073417,014454
0000000013,0000012000,080301,075311,092347,030706,080425,018296
0000000014,0000013000,083152,073635,091170,019840,084453,025132
0000000015,0000014000,085966,072754,089238,009997,085129,034301
0000000016,0000015000,088445,072771,086741,002139,082389,044900
0000000017,0000016000,090353,073671,083933,-02941,076485,055881
0000000018,0000017000,091515,075361,081082,-04759,068006,066179
0000000019,0000018000,091799,077698,078460,-03143,057774,074795
0000000020,0000019000,091187,080437,076333,001756,046798,080873
0000000021,0000020000,089750,083297,074911,009457,036155,083814
0000000022,0000021000,087603,086027,074327,019208,026878,083340
0000000023,0000022000,084966,088352,074638,030058,019871,079498
0000000024,0000023000,082120,090022,075814,040930,015835,072662
0000000025,0000024000,079317,090893,077748,050769,015162,063494
0000000026,0000025000,076824,090889,080244,058624,017908,052894
0000000027,0000026000,074916,089991,083051,063712,023802,041912
0000000028,0000027000,073768,088286,085903,065526,032285,031615
0000000029,0000028000,073473,085958,088526,063906,042522,022999
0000000030,0000029000,074078,083227,090652,059014,053491,016921
0000000031,0000030000,075532,080351,092074,051314,064132,013980
0000000032,0000031000,077674,077624,092659,041554,073418,014453
0000000033,0000032000,080297,075313,092347,030711,080420,018295
0000000034,0000033000,083157,073630,091170,019844,084451,025131
0000000035,0000034000,085966,072754,089238,009995,085132,034299
0000000036,0000035000,088441,072775,086741,002142,082386,044899
0000000037,0000036000,090356,073668,083934,-02937,076483,055880
0000000038,0000037000,091517,075359,081082,-04758,068007,066178
0000000039,0000038000,091796,077702,078459,-03143,057775,074794
0000000040,0000039000,091188,080436,076333,001759,046795,080871
0000000041,0000040000,089752,083294,074911,009458,036156,083813
0000000042,0000041000,087601,086029,074326,019209,026879,083339
0000000043,0000042000,084967,088353,074638,030059,019870,079497
0000000044,0000043000,082122,090020,075814,040930,015835,072661
0000000045,0000044000,079315,090895,077747,050769,015163,063494
0000000046,0000045000,076824,090890,080244,058625,017907,052894
0000000047,0000046000,074918,089989,083051,063711,023802,041913
0000000048,0000047000,073766,088287,085903,065526,032285,031616
0000000049,0000048000,073472,085959,088526,063908,042519,022999
0000000050,0000049000,074081,083224,090652,059015,053489,016922
0000000051,0000050000,075530,080352,092074,051314,064131,013981
0000000052,0000051000,077671,077627,092659,041557,073415,014454
0000000053,0000052000,080300,075310,092347,030714,080416,018295
0000000054,0000053000,083158,073629,091171,019845,084451,025131
0000000055,0000054000,085961,072757,089238,009999,085129,034298
0000000056,0000055000,088443,072773,086741,002147,082382,044897
0000000057,0000056000,090359,073664,083934,-02935,076484,055878
0000000058,0000057000,091513,075362,081082,-04757,068008,066175
0000000059,0000058000,091796,077702,078459,-03138,057773,074791
0000000060,0000059000,091193,080431,076333,001761,046797,080868
0000000061,0000060000,089751,083296,074911,009456,036160,083810
0000000062,0000061000,087599,086032,074326,019210,026879,083337
0000000063,0000062000,084971,088349,074637,030060,019871,079496
0000000064,0000063000,082124,090019,075814,040926,015839,072661
0000000065,0000064000,079311,090899,077747,050767,015165,063494
0000000066,0000065000,076826,090889,080243,058625,017905,052896
0000000067,0000066000,074921,089986,083050,063708,023803,041916
0000000068,0000067000,073763,088291,085903,065523,032285,031619
0000000069,0000068000,073471,085961,088525,063909,042515,023003
0000000070,0000069000,074084,083222,090652,059014,053486,016925
0000000071,0000070000,075528,080354,092075,051313,064129,013983
0000000072,0000071000,077669,077630,092659,041561,073409,014456
0000000073,0000072000,080302,075307,092348,030718,080411,018297
0000000074,0000073000,083157,073629,091172,019847,084448,025131
0000000075,0000074000,085959,072759,089239,010004,085126,034297
0000000076,0000075000,088444,072771,086742,002153,082379,044894
0000000077,0000076000,090360,073662,083935,-02932,076484,055874
0000000078,0000077000,091511,075363,081083,-04753,068008,066170
0000000079,0000078000,091797,077701,078459,-03133,057773,074786
0000000080,0000079000,091195,080429,076333,001762,046801,080864
0000000081,0000080000,089749,083297,074911,009456,036165,083805
0000000082,0000081000,087599,086032,074325,019210,026883,083333
0000000083,0000082000,084974,088347,074637,030056,019876,079494
0000000084,0000083000,082123,090021,075813,040921,015845,072660
0000000085,0000084000,079311,090901,077745,050764,015167,063495
0000000086,0000085000,076828,090887,080242,058620,017907,052898
0000000087,0000086000,074920,089988,083050,063701,023805,041920
0000000088,0000087000,073760,088294,085902,065520,032283,031624
0000000089,0000088000,073472,085960,088525,063907,042511,023009
0000000090,0000089000,074083,083222,090652,059012,053483,016931
0000000091,0000090000,075525,080358,092075,051314,064123,013988
0000000092,0000091000,077669,077629,092660,041565,073401,014460
0000000093,0000092000,080303,075306,092349,030721,080405,018299
0000000094,0000093000,083154,073631,091173,019853,084442,025131
0000000095,0000094000,085958,072759,089240,010013,085119,034295
0000000096,0000095000,088447,072767,086743,002160,082376,044891
0000000097,0000096000,090359,073662,083936,-02926,076483,055868
0000000098,0000097000,091510,075364,081083,-04745,068008,066163
0000000099,0000098000,091801,077697,078460,-03128,057776,074778
0000000100,0000099000,091197,080428,076333,001763,046807,080856
0000000101,0000100000,089748,083299,074910,009457,036171,083798
0000000102,0000101000,087602,086030,074324,019209,026889,083328
0000000103,0000102000,084976,088345,074635,030051,019885,079490
0000000104,0000103000,082122,090024,075812,040914,015852,072659
0000000105,0000104000,079312,090902,077744,050757,015172,063497
0000000106,0000105000,076830,090886,080241,058611,017912,052903
0000000107,0000106000,074918,089991,083049,063693,023807,041926
0000000108,0000107000,073759,088297,085901,065514,032280,031632
0000000109,0000108000,073473,085959,088525,063902,042507,023018
0000000110,0000109000,074081,083224,090652,059008,053478,016940
0000000111,0000110000,075521,080360,092076,051315,064114,013997
0000000112,0000111000,077669,077628,092661,041569,073391,014466
0000000113,0000112000,080302,075305,092350,030727,080396,018303
0000000114,0000113000,083151,073632,091174,019862,084433,025132
0000000115,0000114000,085958,072757,089242,010024,085110,034292
0000000116,0000115000,088447,072765,086745,002171,082371,044885
0000000117,0000116000,090358,073662,083937,-02915,076481,055860
0000000118,0000117000,091511,075362,081084,-04735,068008,066153
0000000119,0000118000,091804,077694,078460,-03122,057781,074767
0000000120,0000119000,091197,080427,076333,001766,046816,080844
0000000121,0000120000,089750,083298,074909,009458,036180,083788
0000000122,0000121000,087606,086028,074323,019206,026901,083320
0000000123,0000122000,084977,088346,074634,030043,019898,079485
0000000124,0000123000,082122,090026,075809,040905,015863,072658
0000000125,0000124000,079314,090902,077742,050746,015180,063500
0000000126,0000125000,076831,090888,080239,058598,017919,052909
0000000127,0000126000,074916,089995,083047,063681,023809,041936
0000000128,0000127000,073758,088299,085900,065505,032278,031644
0000000129,0000128000,073472,085960,088524,063894,042502,023031
0000000130,0000129000,074077,083227,090653,059004,053469,016953
0000000131,0000130000,075519,080362,092077,051317,064101,014008
0000000132,0000131000,077668,077627,092663,041573,073377,014475
0000000133,0000132000,080298,075306,092353,030735,080383,018308
0000000134,0000133000,083148,073632,091177,019875,084419,025133
0000000135,0000134000,085958,072754,089244,010038,085099,034289
0000000136,0000135000,088447,072763,086747,002185,082365,044877
0000000137,0000136000,090357,073661,083939,-02900,076478,055848
0000000138,0000137000,091514,075358,081085,-04722,068009,066139
0000000139,0000138000,091806,077690,078461,-03114,057788,074751
0000000140,0000139000,091198,080427,076332,001771,046826,080829
0000000141,0000140000,089753,083296,074908,009459,036193,083775
0000000142,0000141000,087610,086026,074321,019200,026917,083309
0000000143,0000142000,084979,088347,074631,030033,019915,079479
0000000144,0000143000,082124,090027,075806,040893,015877,072657
0000000145,0000144000,079317,090902,077739,050730,015193,063503
0000000146,0000145000,076830,090891,080236,058580,017928,052918
0000000147,0000146000,074914,089999,083044,063665,023812,041949
0000000148,0000147000,073758,088301,085898,065491,032275,031660
0000000149,0000148000,073470,085963,088524,063883,042495,023049
0000000150,0000149000,074073,083231,090653,059000,053456,016971
0000000151,0000150000,075517,080363,092078,051318,064084,014024
0000000152,0000151000,077665,077627,092665,041579,073359,014487
0000000153,0000152000,080294,075307,092356,030747,080364,018315
0000000154,0000153000,083146,073631,091180,019891,084401,025134
0000000155,0000154000,085958,072751,089248,010057,085085,034285
0000000156,0000155000,088445,072761,086751,002204,082355,044867
0000000157,0000156000,090358,073658,083942,-02881,076474,055833
0000000158,0000157000,091517,075353,081087,-04706,068011,066120
0000000159,0000158000,091808,077687,078462,-03102,057797,074731
0000000160,0000159000,091201,080424,076332,001777,046840,080809
0000000161,0000160000,089758,083293,074906,009458,036211,083757
0000000162,0000161000,087614,086025,074318,019193,026938,083296
0000000163,0000162000,084981,088348,074628,030020,019936,079470
0000000164,0000163000,082127,090028,075802,040875,015896,072655
0000000165,0000164000,079319,090904,077735,050708,015209,063508
0000000166,0000165000,076829,090895,080233,058558,017939,052929
0000000167,0000166000,074913,090002,083041,063645,023815,041966
0000000168,0000167000,073757,088304,085896,065473,032272,031681
0000000169,0000168000,073466,085968,088523,063870,042485,023072
0000000170,0000169000,074069,083235,090653,058994,053439,016993
0000000171,0000170000,075513,080364,092080,051318,064063,014044
0000000172,0000171000,077660,077629,092668,041586,073336,014503
0000000173,0000172000,080290,075308,092360,030762,080340,018325
0000000174,0000173000,083144,073628,091185,019912,084378,025136
0000000175,0000174000,085956,072748,089253,010080,085068,034279
0000000176,0000175000,088444,072758,086755,002229,082343,044854
0000000177,0000176000,090359,073653,083945,-02856,076468,055814
0000000178,0000177000,091520,075348,081090,-04686,068015,066097
0000000179,0000178000,091811,077684,078463,-03088,057808,074705
0000000180,0000179000,091205,080421,076331,001786,046857,080783
0000000181,0000180000,089764,083289,074904,009458,036234,083734
0000000182,0000181000,087618,086024,074315,019183,026965,083278
0000000183,0000182000,084985,088349,074623,030005,019962,079460
0000000184,0000183000,082131,090029,075797,040853,015920,072653
0000000185,0000184000,079321,090907,077730,050681,015230,063515
0000000186,0000185000,076829,090901,080228,058530,017952,052944
0000000187,0000186000,074913,090007,083037,063619,023820,041987
0000000188,0000187000,073754,088309,085894,065450,032269,031708
0000000189,0000188000,073461,085974,088522,063853,042473,023100
0000000190,0000189000,074064,083239,090654,058986,053419,017022
0000000191,0000190000,075508,080367,092082,051319,064038,014069
0000000192,0000191000,077654,077631,092672,041596,073307,014522
0000000193,0000192000,080285,075308,092364,030781,080309,018336
0000000194,0000193000,083141,073626,091190,019937,084351,025139
0000000195,0000194000,085954,072745,089258,010109,085046,034272
0000000196,0000195000,088443,072754,086760,002261,082328,044838
0000000197,0000196000,090361,073646,083949,-02827,076462,055790
0000000198,0000197000,091523,075342,081093,-04661,068020,066067
0000000199,0000198000,091815,077679,078464,-03069,057822,074673
0000000200,0000199000,091212,080415,076330,001795,046879,080752
0000000201,0000200000,089771,083285,074902,009457,036264,083706
0000000202,0000201000,087623,086023,074311,019173,026998,083256
0000000203,0000202000,084990,088349,074618,029985,019994,079447
0000000204,0000203000,082136,090030,075791,040825,015951,072650
0000000205,0000204000,079323,090911,077723,050649,015255,063523
0000000206,0000205000,076830,090906,080222,058497,017968,052962
0000000207,0000206000,074912,090012,083033,063586,023827,042014
0000000208,0000207000,073751,088315,085891,065422,032265,031740
0000000209,0000208000,073455,085981,088521,063834,042457,023135
0000000210,0000209000,074059,083244,090655,058976,053394,017056
0000000211,0000210000,075502,080371,092085,051319,064006,014100
0000000212,0000211000,077647,077634,092676,041609,073271,014546
0000000213,0000212000,080279,075308,092370,030803,080273,018350
0000000214,0000213000,083137,073623,091197,019967,084318,025142
0000000215,0000214000,085950,072741,089265,010145,085019,034263
0000000216,0000215000,088442,072748,086766,002299,082310,044818
0000000217,0000216000,090363,073639,083955,-02791,076456,055761
0000000218,0000217000,091526,075335,081096,-04631,068025,066032
0000000219,0000218000,091820,077672,078465,-03047,057838,074634
0000000220,0000219000,091219,080409,076330,001806,046906,080714
0000000221,0000220000,089778,083281,074899,009455,036299,083673
0000000222,0000221000,087630,086021,074306,019159,027036,083231
0000000223,0000222000,084997,088348,074611,029961,020034,079432
0000000224,0000223000,082141,090032,075784,040791,015988,072647
0000000225,0000224000,079325,090916,077716,050610,015284,063532
0000000226,0000225000,076831,090912,080215,058456,017987,052983
0000000227,0000226000,074911,090019,083027,063547,023834,042045
0000000228,0000227000,073746,088324,085887,065389,032259,031778
0000000229,0000228000,073449,085988,088519,063810,042439,023177
0000000230,0000229000,074052,083250,090656,058964,053365,017098
0000000231,0000230000,075493,080376,092088,051321,063969,014136
0000000232,0000231000,077638,077637,092682,041624,073228,014574
0000000233,0000232000,080273,075307,092377,030830,080229,018367
0000000234,0000233000,083131,073620,091205,020003,084279,025145
0000000235,0000234000,085946,072737,089274,010188,084987,034252
0000000236,0000235000,088442,072741,086774,002344,082288,044794
0000000237,0000236000,090365,073631,083961,-02749,076448,055727
0000000238,0000237000,091530,075327,081101,-04595,068031,065990
0000000239,0000238000,091827,077664,078467,-03021,057858,074589
0000000240,0000239000,091227,080401,076329,001819,046938,080669
0000000241,0000240000,089786,083276,074895,009454,036340,083633
0000000242,0000241000,087639,086018,074300,019144,027082,083200
0000000243,0000242000,085006,088348,074603,029931,020081,079414
0000000244,0000243000,082147,090035,075775,040752,016031,072643
0000000245,0000244000,079329,090922,077707,050564,015318,063544
0000000246,0000245000,076832,090919,080206,058407,018010,053009
0000000247,0000246000,074909,090028,083020,063501,023843,042082
0000000248,0000247000,073741,088334,085882,065350,032252,031824
0000000249,0000248000,073443,085997,088517,063783,042417,023227
0000000250,0000249000,074043,083257,090657,058950,053330,017146
0000000251,0000250000,075483,080382,092092,051322,063925,014179
0000000252,0000251000,077629,077640,092688,041641,073178,014606
0000000253,0000252000,080265,075307,092386,030861,080179,018386
0000000254,0000253000,083124,073618,091215,020046,084232,025148
0000000255,0000254000,085942,072731,089283,010238,084949,034240
0000000256,0000255000,088442,072732,086783,002396,082264,044767
0000000257,0000256000,090367,073621,083969,-02700,076439,055687
0000000258,0000257000,091535,075317,081106,-04553,068038,065940
0000000259,0000258000,091835,077654,078469,-02991,057881,074535
0000000260,0000259000,091237,080393,076328,001834,046975,080617
0000000261,0000260000,089796,083270,074891,009452,036387,083587
0000000262,0000261000,087649,086015,074293,019125,027136,083165
0000000263,0000262000,085015,088348,074594,029897,020135,079393
0000000264,0000263000,082154,090039,075765,040706,016080,072640
0000000265,0000264000,079333,090928,077696,050510,015358,063557
0000000266,0000265000,076834,090927,080197,058351,018036,053039
0000000267,0000266000,074906,090039,083012,063447,023853,042126
0000000268,0000267000,073736,088345,085876,065305,032244,031877
0000000269,0000268000,073435,086007,088515,063751,042392,023284
0000000270,0000269000,074033,083266,090658,058934,053290,017202
0000000271,0000270000,075472,080389,092097,051325,063873,014228
0000000272,0000271000,077619,077643,092696,041661,073120,014644
0000000273,0000272000,080255,075307,092396,030897,080121,018408
0000000274,0000273000,083116,073615,091226,020095,084179,025152
0000000275,0000274000,085937,072725,089295,010296,084906,034225
0000000276,0000275000,088441,072723,086794,002456,082236,044735
0000000277,0000276000,090369,073610,083977,-02643,076429,055640
0000000278,0000277000,091540,075305,081112,-04505,068047,065884
0000000279,0000278000,091844,077642,078472,-02957,057908,074474
0000000280,0000279000,091247,080383,076326,001850,047019,080557
0000000281,0000280000,089808,083263,074886,009449,036442,083535
0000000282,0000281000,087662,086010,074285,019104,027198,083125
0000000283,0000282000,085025,088348,074584,029858,020198,079370
0000000284,0000283000,082162,090043,075753,040653,016137,072635
0000000285,0000284000,079339,090935,077684,050449,015404,063573
0000000286,0000285000,076835,090937,080185,058287,018066,053073
0000000287,0000286000,074903,090051,083003,063387,023864,042176
0000000288,0000287000,073730,088357,085870,065254,032234,031938
0000000289,0000288000,073426,086019,088512,063714,042363,023350
0000000290,0000289000,074021,083277,090659,058916,053244,017266
0000000291,0000290000,075459,080397,092102,051328,063814,014284
0000000292,0000291000,077606,077647,092704,041685,073054,014687
0000000293,0000292000,080243,075307,092407,030939,080054,018433
0000000294,0000293000,083107,073611,091239,020152,084118,025157
0000000295,0000294000,085932,072717,089308,010361,084857,034208
0000000296,0000295000,088439,072712,086806,002524,082204,044698
0000000297,0000296000,090372,073598,083987,-02578,076417,055587
0000000298,0000297000,091547,075291,081119,-04450,068057,065819
0000000299,0000298000,091854,077629,078475,-02918,057940,074404
0000000300,0000299000,091260,080373,076325,001869,047068,080489
0000000301,0000300000,089822,083255,074880,009446,036505,083475
