DIgSILENT PowerFactory,21000900,2000
6,06A,00D
1,TTPP_200000_100:Secondary Voltage A,,,V,0.10000000,-8419.285156,0.000000,67845,99998,1,1,P
2,TTPP_200000_100:Secondary Voltage B,,,V,0.10000000,-8398.075195,0.000000,68853,99998,1,1,P
3,TTPP_200000_100:Secondary Voltage C,,,V,0.10000000,-8433.965820,0.000000,66512,99998,1,1,P
4,TTCC_500_5:Secondary Current A,,,A,0.0010000000,-86.239624,0.000000,66434,99998,1,1,P
5,TTCC_500_5:Secondary Current B,,,A,0.0010000000,-85.038094,0.000000,70092,99998,1,1,P
6,TTCC_500_5:Secondary Current C,,,A,0.0010000000,-84.670486,0.000000,69321,99998,1,1,P
50
1
1000.000000,1101
30/06/2023,06:05:22.000000
30/06/2023,06:05:22.000000
ASCII
1.000000
0000000001,0000000000,089705,087621,075187,092155,089718,074075
0000000002,0000001000,087157,090055,075301,089140,092434,074374
0000000003,0000002000,084305,091910,076300,085840,094428,075679
0000000004,0000003000,081460,092971,078082,082585,095498,077865
0000000005,0000004000,078876,093154,080484,079681,095548,080719
0000000006,0000005000,076803,092447,083262,077420,094569,083959
0000000007,0000006000,075457,090917,086138,076027,092656,087265
0000000008,0000007000,074985,088686,088843,075631,089996,090320
0000000009,0000008000,075393,086008,091112,076272,086852,092824
0000000010,0000009000,076660,083141,092713,077890,083531,094526
0000000011,0000010000,078680,080342,093492,080328,080356,095264
0000000012,0000011000,081241,077894,093378,083342,077641,094965
0000000013,0000012000,084070,076063,092381,086641,075647,093660
0000000014,0000013000,086923,074992,090597,089899,074574,091474
0000000015,0000014000,089521,074797,088195,092802,074526,088620
0000000016,0000015000,091580,075516,085417,095060,075508,085381
0000000017,0000016000,092916,077056,082542,096458,077416,082074
0000000018,0000017000,093414,079263,079836,096852,080077,079019
0000000019,0000018000,092995,081950,077567,096208,083224,076516
0000000020,0000019000,091713,084833,075967,094591,086544,074813
0000000021,0000020000,089710,087615,075187,092157,089715,074076
0000000022,0000021000,087156,090056,075301,089138,092436,074374
0000000023,0000022000,084304,091911,076298,085841,094428,075680
0000000024,0000023000,081459,092972,078082,082584,095499,077865
0000000025,0000024000,078878,093152,080484,079681,095548,080719
0000000026,0000025000,076800,092451,083262,077420,094570,083959
0000000027,0000026000,075461,090915,086138,076026,092656,087266
0000000028,0000027000,074982,088687,088843,075631,089997,090321
0000000029,0000028000,075392,086009,091112,076272,086852,092824
0000000030,0000029000,076661,083140,092712,077890,083531,094527
0000000031,0000030000,078681,080340,093492,080327,080357,095264
0000000032,0000031000,081236,077899,093379,083342,077641,094966
0000000033,0000032000,084072,076060,092381,086640,075648,093660
0000000034,0000033000,086926,074990,090597,089898,074575,091475
0000000035,0000034000,089517,074800,088196,092800,074527,088621
0000000036,0000035000,091579,075517,085418,095061,075506,085381
0000000037,0000036000,092922,077051,082541,096456,077417,082075
0000000038,0000037000,093412,079265,079836,096851,080078,079020
0000000039,0000038000,092992,081954,077567,096208,083224,076517
0000000040,0000039000,091718,084828,075967,094592,086542,074814
0000000041,0000040000,089712,087613,075187,092155,089717,074076
0000000042,0000041000,087150,090062,075301,089138,092435,074375
0000000043,0000042000,084306,091909,076298,085841,094427,075680
0000000044,0000043000,081465,092967,078082,082584,095499,077865
0000000045,0000044000,078873,093157,080484,079680,095549,080719
0000000046,0000045000,076799,092453,083261,077421,094569,083959
0000000047,0000046000,075466,090910,086137,076026,092657,087265
0000000048,0000047000,074981,088689,088843,075630,089998,090320
0000000049,0000048000,075387,086014,091112,076272,086853,092823
0000000050,0000049000,076665,083137,092712,077891,083531,094526
0000000051,0000050000,078682,080339,093492,080325,080359,095264
0000000052,0000051000,081232,077903,093379,083341,077642,094965
0000000053,0000052000,084073,076059,092381,086640,075648,093660
0000000054,0000053000,086929,074987,090598,089897,074576,091475
0000000055,0000054000,089514,074803,088196,092799,074528,088621
0000000056,0000055000,091578,075517,085418,095060,075506,085382
0000000057,0000056000,092924,077047,082542,096455,077418,082075
0000000058,0000057000,093411,079266,079837,096850,080078,079021
0000000059,0000058000,092991,081956,077567,096208,083223,076517
0000000060,0000059000,091721,084825,075967,094592,086542,074815
0000000061,0000060000,089712,087614,075187,092155,089716,074077
0000000062,0000061000,087149,090063,075301,089138,092435,074375
0000000063,0000062000,084309,091907,076297,085842,094426,075680
0000000064,0000063000,081465,092967,078082,082584,095499,077866
0000000065,0000064000,078871,093159,080483,079681,095548,080719
0000000066,0000065000,076801,092452,083261,077422,094568,083958
0000000067,0000066000,075467,090910,086137,076027,092657,087265
0000000068,0000067000,074978,088692,088843,075630,089999,090319
0000000069,0000068000,075388,086014,091112,076273,086853,092822
0000000070,0000069000,076666,083135,092712,077890,083533,094525
0000000071,0000070000,078679,080342,093493,080325,080360,095263
0000000072,0000071000,081230,077904,093379,083341,077642,094965
0000000073,0000072000,084075,076056,092382,086639,075649,093660
0000000074,0000073000,086927,074988,090599,089896,074578,091475
0000000075,0000074000,089511,074805,088197,092798,074529,088621
0000000076,0000075000,091581,075513,085419,095059,075507,085382
0000000077,0000076000,092925,077045,082543,096453,077418,082076
0000000078,0000077000,093408,079268,079837,096849,080078,079022
0000000079,0000078000,092993,081953,077568,096207,083222,076519
0000000080,0000079000,091725,084822,075967,094591,086542,074816
0000000081,0000080000,089710,087616,075187,092155,089716,074078
0000000082,0000081000,087150,090064,075300,089139,092433,074376
0000000083,0000082000,084313,091904,076296,085843,094425,075681
0000000084,0000083000,081464,092969,078080,082585,095498,077866
0000000085,0000084000,078870,093162,080482,079683,095547,080719
0000000086,0000085000,076804,092450,083259,077423,094567,083958
0000000087,0000086000,075466,090911,086136,076027,092657,087264
0000000088,0000087000,074975,088696,088842,075631,089999,090318
0000000089,0000088000,075388,086014,091111,076274,086853,092821
0000000090,0000089000,076666,083135,092713,077890,083534,094524
0000000091,0000090000,078675,080346,093493,080324,080362,095262
0000000092,0000091000,081229,077904,093380,083341,077644,094964
0000000093,0000092000,084076,076054,092384,086638,075651,093659
0000000094,0000093000,086924,074989,090600,089894,074580,091475
0000000095,0000094000,089510,074805,088199,092796,074530,088622
0000000096,0000095000,091583,075510,085421,095057,075508,085384
0000000097,0000096000,092924,077045,082544,096451,077419,082078
0000000098,0000097000,093407,079268,079838,096847,080078,079024
0000000099,0000098000,092996,081949,077568,096206,083221,076521
0000000100,0000099000,091726,084820,075967,094590,086541,074818
0000000101,0000100000,089710,087617,075186,092155,089713,074080
0000000102,0000101000,087153,090061,075298,089140,092430,074378
0000000103,0000102000,084315,091903,076295,085844,094423,075682
0000000104,0000103000,081464,092971,078078,082587,095496,077866
0000000105,0000104000,078872,093163,080479,079685,095545,080718
0000000106,0000105000,076806,092450,083257,077425,094566,083956
0000000107,0000106000,075464,090914,086134,076030,092657,087262
0000000108,0000107000,074973,088699,088841,075634,089999,090315
0000000109,0000108000,075389,086014,091111,076275,086854,092818
0000000110,0000109000,076663,083138,092713,077890,083537,094521
0000000111,0000110000,078671,080349,093494,080325,080364,095259
0000000112,0000111000,081229,077903,093382,083340,077647,094962
0000000113,0000112000,084074,076054,092386,086635,075654,093658
0000000114,0000113000,086920,074990,090603,089891,074582,091475
0000000115,0000114000,089510,074802,088201,092793,074532,088623
0000000116,0000115000,091584,075507,085423,095053,075510,085385
0000000117,0000116000,092923,077044,082546,096448,077420,082080
0000000118,0000117000,093409,079265,079839,096845,080077,079027
0000000119,0000118000,093000,081945,077569,096204,083220,076524
0000000120,0000119000,091727,084819,075967,094588,086539,074821
0000000121,0000120000,089712,087616,075185,092155,089710,074083
0000000122,0000121000,087158,090059,075296,089141,092427,074380
0000000123,0000122000,084317,091903,076292,085845,094420,075683
0000000124,0000123000,081464,092974,078075,082590,095493,077866
0000000125,0000124000,078874,093163,080476,079689,095542,080718
0000000126,0000125000,076806,092452,083255,077429,094565,083955
0000000127,0000126000,075462,090919,086132,076033,092656,087259
0000000128,0000127000,074972,088702,088839,075637,089999,090312
0000000129,0000128000,075387,086016,091110,076277,086856,092814
0000000130,0000129000,076658,083142,092713,077891,083539,094517
0000000131,0000130000,078668,080351,093495,080325,080368,095256
0000000132,0000131000,081227,077903,093384,083338,077651,094959
0000000133,0000132000,084070,076055,092389,086633,075659,093657
0000000134,0000133000,086917,074990,090606,089888,074586,091474
0000000135,0000134000,089510,074799,088205,092789,074535,088624
0000000136,0000135000,091583,075504,085427,095049,075512,085387
0000000137,0000136000,092922,077042,082549,096444,077421,082084
0000000138,0000137000,093412,079260,079841,096841,080076,079031
0000000139,0000138000,093003,081941,077570,096201,083218,076529
0000000140,0000139000,091729,084818,075966,094587,086535,074826
0000000141,0000140000,089717,087613,075183,092155,089706,074087
0000000142,0000141000,087163,090056,075294,089143,092422,074383
0000000143,0000142000,084320,091905,076289,085848,094415,075685
0000000144,0000143000,081467,092975,078071,082594,095488,077867
0000000145,0000144000,078877,093164,080472,079693,095539,080716
0000000146,0000145000,076806,092456,083251,077433,094563,083952
0000000147,0000146000,075460,090924,086129,076038,092655,087255
0000000148,0000147000,074972,088705,088837,075641,090000,090307
0000000149,0000148000,075384,086020,091109,076280,086859,092809
0000000150,0000149000,076653,083147,092714,077893,083543,094512
0000000151,0000150000,078664,080353,093497,080325,080372,095252
0000000152,0000151000,081223,077903,093387,083336,077656,094956
0000000153,0000152000,084064,076056,092393,086629,075664,093655
0000000154,0000153000,086914,074989,090610,089884,074591,091474
0000000155,0000154000,089509,074795,088209,092784,074539,088625
0000000156,0000155000,091581,075501,085431,095043,075515,085390
0000000157,0000156000,092923,077038,082553,096439,077421,082088
0000000158,0000157000,093416,079254,079844,096837,080075,079036
0000000159,0000158000,093006,081936,077571,096197,083216,076535
0000000160,0000159000,091733,084814,075966,094585,086531,074832
0000000161,0000160000,089723,087609,075181,092155,089701,074092
0000000162,0000161000,087168,090054,075291,089144,092417,074387
0000000163,0000162000,084323,091906,076284,085852,094409,075687
0000000164,0000163000,081472,092976,078066,082599,095482,077867
0000000165,0000164000,078880,093166,080467,079699,095534,080715
0000000166,0000165000,076805,092462,083246,077440,094560,083949
0000000167,0000166000,075459,090929,086124,076044,092654,087250
0000000168,0000167000,074970,088709,088834,075646,090001,090301
0000000169,0000168000,075379,086026,091108,076284,086862,092803
0000000170,0000169000,076648,083152,092714,077895,083547,094506
0000000171,0000170000,078659,080355,093499,080324,080378,095246
0000000172,0000171000,081217,077906,093391,083334,077663,094952
0000000173,0000172000,084058,076057,092398,086625,075671,093652
0000000174,0000173000,086911,074986,090616,089878,074597,091473
0000000175,0000174000,089506,074791,088216,092777,074545,088627
0000000176,0000175000,091579,075497,085437,095036,075518,085394
0000000177,0000176000,092925,077031,082557,096432,077423,082094
0000000178,0000177000,093419,079247,079847,096831,080075,079043
0000000179,0000178000,093010,081931,077572,096193,083213,076542
0000000180,0000179000,091739,084809,075965,094583,086526,074839
0000000181,0000180000,089731,087604,075179,092156,089694,074099
0000000182,0000181000,087174,090053,075286,089147,092409,074392
0000000183,0000182000,084329,091906,076279,085857,094401,075690
0000000184,0000183000,081477,092977,078059,082605,095475,077868
0000000185,0000184000,078883,093170,080460,079707,095529,080713
0000000186,0000185000,076805,092468,083240,077448,094556,083944
0000000187,0000186000,075459,090935,086119,076052,092652,087244
0000000188,0000187000,074967,088716,088830,075652,090002,090294
0000000189,0000188000,075373,086034,091107,076288,086866,092794
0000000190,0000189000,076641,083157,092715,077897,083553,094498
0000000191,0000190000,078653,080359,093502,080324,080386,095239
0000000192,0000191000,081209,077909,093396,083331,077672,094946
0000000193,0000192000,084052,076057,092404,086620,075680,093649
0000000194,0000193000,086907,074983,090624,089870,074605,091473
0000000195,0000194000,089503,074787,088223,092768,074551,088629
0000000196,0000195000,091578,075492,085444,095027,075522,085399
0000000197,0000196000,092927,077023,082563,096423,077424,082101
0000000198,0000197000,093423,079239,079851,096823,080073,079052
0000000199,0000198000,093015,081925,077574,096188,083209,076551
0000000200,0000199000,091747,084802,075964,094581,086519,074848
0000000201,0000200000,089739,087599,075176,092156,089686,074107
0000000202,0000201000,087181,090051,075281,089150,092400,074398
0000000203,0000202000,084336,091906,076271,085863,094392,075694
0000000204,0000203000,081483,092979,078051,082613,095466,077868
0000000205,0000204000,078886,093176,080452,079716,095522,080711
0000000206,0000205000,076806,092475,083232,077458,094551,083939
0000000207,0000206000,075458,090943,086113,076061,092651,087236
0000000208,0000207000,074962,088725,088826,075660,090004,090284
0000000209,0000208000,075366,086043,091105,076294,086870,092784
0000000210,0000209000,076634,083164,092715,077900,083560,094488
0000000211,0000210000,078644,080364,093506,080323,080395,095230
0000000212,0000211000,081199,077912,093402,083327,077682,094939
0000000213,0000212000,084044,076057,092412,086614,075690,093645
0000000214,0000213000,086901,074980,090633,089861,074615,091472
0000000215,0000214000,089498,074782,088233,092758,074559,088632
0000000216,0000215000,091577,075484,085452,095016,075527,085405
0000000217,0000216000,092930,077013,082570,096413,077426,082109
0000000218,0000217000,093427,079230,079856,096814,080072,079062
0000000219,0000218000,093022,081916,077576,096182,083204,076563
0000000220,0000219000,091757,084793,075963,094578,086512,074859
0000000221,0000220000,089748,087593,075172,092156,089676,074116
0000000222,0000221000,087190,090048,075274,089154,092389,074406
0000000223,0000222000,084345,091905,076263,085870,094380,075698
0000000224,0000223000,081490,092982,078041,082623,095456,077869
0000000225,0000224000,078889,093183,080442,079727,095513,080708
0000000226,0000225000,076808,092483,083222,077470,094546,083933
0000000227,0000226000,075456,090952,086105,076072,092649,087227
0000000228,0000227000,074956,088736,088821,075670,090005,090273
0000000229,0000228000,075358,086053,091102,076301,086875,092772
0000000230,0000229000,076625,083172,092717,077904,083569,094476
0000000231,0000230000,078633,080371,093510,080323,080406,095219
0000000232,0000231000,081189,077916,093409,083323,077694,094931
0000000233,0000232000,084035,076056,092421,086606,075702,093640
0000000234,0000233000,086893,074976,090644,089851,074626,091471
0000000235,0000234000,089493,074776,088244,092745,074568,088635
0000000236,0000235000,091576,075474,085462,095003,075533,085412
0000000237,0000236000,092932,077002,082579,096401,077428,082119
0000000238,0000237000,093432,079219,079862,096804,080070,079074
0000000239,0000238000,093031,081904,077578,096175,083198,076576
0000000240,0000239000,091768,084784,075962,094574,086502,074872
0000000241,0000240000,089760,087586,075167,092156,089664,074128
0000000242,0000241000,087202,090045,075266,089159,092375,074414
0000000243,0000242000,084356,091905,076252,085878,094367,075703
0000000244,0000243000,081498,092986,078030,082634,095444,077870
0000000245,0000244000,078894,093190,080429,079741,095503,080704
0000000246,0000245000,076810,092493,083211,077484,094539,083926
0000000247,0000246000,075453,090964,086096,076085,092646,087216
0000000248,0000247000,074950,088749,088814,075681,090007,090260
0000000249,0000248000,075349,086064,091099,076309,086881,092758
0000000250,0000249000,076613,083182,092718,077907,083579,094462
0000000251,0000250000,078619,080379,093515,080322,080419,095207
0000000252,0000251000,081176,077920,093417,083318,077708,094922
0000000253,0000252000,084024,076056,092433,086597,075717,093635
0000000254,0000253000,086884,074973,090657,089838,074639,091470
0000000255,0000254000,089487,074769,088257,092731,074579,088638
0000000256,0000255000,091575,075463,085474,094988,075540,085420
0000000257,0000256000,092935,076990,082589,096386,077431,082131
0000000258,0000257000,093438,079206,079869,096792,080068,079088
0000000259,0000258000,093041,081891,077581,096166,083191,076591
0000000260,0000259000,091780,084772,075961,094570,086492,074887
0000000261,0000260000,089773,087579,075162,092157,089650,074141
0000000262,0000261000,087216,090040,075257,089164,092360,074424
0000000263,0000262000,084368,091904,076240,085888,094351,075709
0000000264,0000263000,081507,092991,078016,082648,095430,077871
0000000265,0000264000,078900,093198,080415,079756,095492,080700
0000000266,0000265000,076812,092504,083198,077500,094532,083917
0000000267,0000266000,075450,090978,086085,076101,092644,087204
0000000268,0000267000,074943,088764,088807,075694,090010,090245
0000000269,0000268000,075339,086078,091096,076318,086889,092741
0000000270,0000269000,076600,083194,092719,077912,083591,094446
0000000271,0000270000,078604,080388,093521,080322,080434,095193
0000000272,0000271000,081162,077925,093427,083312,077725,094911
0000000273,0000272000,084011,076056,092446,086586,075734,093629
0000000274,0000273000,086873,074969,090671,089824,074655,091469
0000000275,0000274000,089481,074760,088272,092715,074591,088643
0000000276,0000275000,091574,075451,085489,094971,075548,085429
0000000277,0000276000,092937,076976,082601,096370,077434,082144
0000000278,0000277000,093446,079191,079877,096779,080065,079105
0000000279,0000278000,093053,081876,077585,096156,083183,076609
0000000280,0000279000,091794,084760,075959,094565,086479,074904
0000000281,0000280000,089789,087569,075155,092158,089634,074156
0000000282,0000281000,087232,090034,075247,089171,092342,074436
0000000283,0000282000,084382,091904,076227,085899,094333,075716
0000000284,0000283000,081518,092996,078000,082663,095413,077872
0000000285,0000284000,078908,093207,080399,079774,095478,080696
0000000286,0000285000,076814,092517,083183,077518,094523,083907
0000000287,0000286000,075447,090994,086072,076118,092641,087189
0000000288,0000287000,074935,088780,088798,075708,090012,090227
0000000289,0000288000,075327,086094,091092,076328,086897,092723
0000000290,0000289000,076584,083208,092721,077917,083604,094427
0000000291,0000290000,078587,080399,093528,080321,080451,095177
0000000292,0000291000,081145,077930,093438,083305,077744,094899
0000000293,0000292000,083996,076057,092461,086574,075753,093622
0000000294,0000293000,086861,074964,090688,089808,074672,091468
0000000295,0000294000,089474,074750,088289,092696,074605,088648
0000000296,0000295000,091572,075437,085505,094951,075557,085440
0000000297,0000296000,092940,076959,082614,096352,077437,082160
0000000298,0000297000,093455,079172,079886,096763,080062,079123
0000000299,0000298000,093066,081858,077589,096145,083174,076629
0000000300,0000299000,091810,084745,075958,094560,086465,074924
0000000301,0000300000,089807,087558,075148,092159,089616,074173
