DIgSILENT PowerFactory,21000900,2000
6,06A,00D
1,TTPP_200000_100:Secondary Voltage A,,,V,0.10000000,-8310.172852,0.000000,64665,99998,1,1,P
2,TTPP_200000_100:Secondary Voltage B,,,V,0.10000000,-8190.472656,0.000000,65194,99998,1,1,P
3,TTPP_200000_100:Secondary Voltage C,,,V,0.10000000,-8381.348633,0.000000,64863,99998,1,1,P
4,TTCC_300_1:Secondary Current A,,,A,0.00010000000,-3.306375,0.000000,-11179,99998,1,1,P
5,TTCC_300_1:Secondary Current B,,,A,0.00010000000,-5.026353,0.000000,553,99998,1,1,P
6,TTCC_300_1:Secondary Current C,,,A,0.00010000000,-4.896828,0.000000,-1848,99998,1,1,P
50
1
1000.000000,1101
30/06/2023,06:07:44.000000
30/06/2023,06:07:44.000000
ASCII
1.000000
0000000001,0000000000,090208,083379,075232,012134,036274,083888
0000000002,0000001000,088074,086097,074647,021885,026997,083413
0000000003,0000002000,085433,088427,074959,032726,019998,079572
0000000004,0000003000,082577,090107,076135,043604,015954,072736
0000000005,0000004000,079784,090968,078069,053447,015280,063567
0000000006,0000005000,077296,090960,080565,061295,018032,052967
0000000007,0000006000,075375,090073,083372,066382,023926,041987
0000000008,0000007000,074230,088366,086225,068205,032401,031689
0000000009,0000008000,073945,086027,088846,066581,042643,023072
0000000010,0000009000,074542,083305,090972,061683,053618,016994
0000000011,0000010000,075990,080434,092395,053990,064251,014054
0000000012,0000011000,078143,077697,092980,044231,073537,014527
0000000013,0000012000,080765,075388,092668,033382,080544,018369
0000000014,0000013000,083616,073713,091491,022516,084574,025205
0000000015,0000014000,086431,072830,089559,012673,085249,034373
0000000016,0000015000,088910,072848,087062,004815,082509,044973
0000000017,0000016000,090817,073748,084254,-00265,076606,055954
0000000018,0000017000,091979,075438,081403,-02083,068126,066252
0000000019,0000018000,092264,077775,078781,-00468,057895,074868
0000000020,0000019000,091652,080514,076654,004431,046918,080945
0000000021,0000020000,090214,083374,075232,012133,036276,083887
0000000022,0000021000,088068,086104,074648,021884,026999,083413
0000000023,0000022000,085431,088429,074959,032733,019991,079571
0000000024,0000023000,082585,090099,076135,043605,015955,072735
0000000025,0000024000,079782,090970,078068,053445,015283,063568
0000000026,0000025000,077289,090966,080565,061300,018028,052968
0000000027,0000026000,075381,090068,083372,066387,023922,041986
0000000028,0000027000,074233,088363,086224,068202,032405,031689
0000000029,0000028000,073938,086035,088847,066582,042642,023072
0000000030,0000029000,074543,083304,090973,061690,053611,016994
0000000031,0000030000,075996,080429,092395,053990,064252,014053
0000000032,0000031000,078139,077702,092980,044230,073538,014527
0000000033,0000032000,080762,075390,092668,033387,080540,018368
0000000034,0000033000,083622,073707,091491,022520,084571,025204
0000000035,0000034000,086430,072831,089559,012671,085252,034372
0000000036,0000035000,088905,072852,087062,004818,082506,044971
0000000037,0000036000,090821,073744,084255,-00261,076604,055953
0000000038,0000037000,091981,075436,081403,-02083,068128,066250
0000000039,0000038000,092261,077779,078780,-00467,057896,074867
0000000040,0000039000,091653,080513,076654,004435,046916,080944
0000000041,0000040000,090217,083371,075232,012133,036277,083886
0000000042,0000041000,088066,086106,074647,021884,027000,083412
0000000043,0000042000,085431,088430,074959,032734,019991,079571
0000000044,0000043000,082587,090097,076135,043605,015955,072735
0000000045,0000044000,079780,090972,078068,053444,015284,063567
0000000046,0000045000,077288,090967,080565,061300,018027,052968
0000000047,0000046000,075383,090066,083372,066387,023921,041987
0000000048,0000047000,074231,088364,086224,068202,032404,031690
0000000049,0000048000,073936,086037,088847,066584,042639,023073
0000000050,0000049000,074546,083302,090973,061691,053609,016996
0000000051,0000050000,075995,080429,092395,053990,064251,014054
0000000052,0000051000,078136,077704,092980,044234,073535,014527
0000000053,0000052000,080764,075388,092668,033390,080536,018369
0000000054,0000053000,083622,073706,091492,022521,084570,025204
0000000055,0000054000,086426,072834,089560,012675,085250,034371
0000000056,0000055000,088907,072850,087062,004823,082503,044970
0000000057,0000056000,090823,073741,084255,-00259,076604,055950
0000000058,0000057000,091978,075439,081404,-02081,068128,066248
0000000059,0000058000,092261,077779,078780,-00462,057894,074864
0000000060,0000059000,091657,080509,076654,004436,046918,080941
0000000061,0000060000,090215,083373,075232,012132,036281,083883
0000000062,0000061000,088064,086109,074647,021886,027000,083410
0000000063,0000062000,085436,088426,074958,032735,019992,079569
0000000064,0000063000,082588,090097,076135,043601,015960,072735
0000000065,0000064000,079776,090976,078068,053442,015285,063568
0000000066,0000065000,077291,090966,080564,061300,018026,052970
0000000067,0000066000,075385,090063,083371,066383,023923,041990
0000000068,0000067000,074227,088369,086224,068199,032405,031692
0000000069,0000068000,073936,086038,088846,066585,042635,023076
0000000070,0000069000,074548,083299,090973,061690,053606,016999
0000000071,0000070000,075993,080432,092396,053989,064249,014057
0000000072,0000071000,078133,077707,092980,044237,073529,014529
0000000073,0000072000,080767,075385,092669,033394,080531,018370
0000000074,0000073000,083621,073706,091493,022524,084568,025204
0000000075,0000074000,086423,072837,089560,012681,085246,034369
0000000076,0000075000,088909,072848,087063,004829,082499,044967
0000000077,0000076000,090825,073739,084256,-00256,076604,055947
0000000078,0000077000,091976,075441,081404,-02077,068129,066243
0000000079,0000078000,092262,077778,078781,-00458,057894,074859
0000000080,0000079000,091660,080506,076654,004437,046922,080937
0000000081,0000080000,090214,083374,075232,012131,036286,083879
0000000082,0000081000,088064,086109,074646,021886,027004,083407
0000000083,0000082000,085438,088424,074958,032732,019997,079567
0000000084,0000083000,082588,090098,076134,043596,015965,072734
0000000085,0000084000,079776,090978,078066,053439,015288,063569
0000000086,0000085000,077293,090964,080563,061295,018027,052972
0000000087,0000086000,075385,090065,083371,066377,023925,041994
0000000088,0000087000,074225,088372,086223,068196,032403,031697
0000000089,0000088000,073937,086037,088846,066583,042631,023082
0000000090,0000089000,074548,083299,090973,061688,053603,017005
0000000091,0000090000,075989,080435,092396,053990,064243,014062
0000000092,0000091000,078133,077706,092981,044241,073521,014533
0000000093,0000092000,080767,075383,092670,033398,080525,018372
0000000094,0000093000,083618,073708,091494,022529,084562,025204
0000000095,0000094000,086422,072836,089561,012689,085239,034368
0000000096,0000095000,088911,072845,087064,004837,082496,044963
0000000097,0000096000,090824,073739,084257,-00250,076604,055941
0000000098,0000097000,091975,075441,081404,-02069,068128,066236
0000000099,0000098000,092265,077774,078781,-00453,057897,074851
0000000100,0000099000,091661,080505,076654,004439,046928,080929
0000000101,0000100000,090213,083375,075231,012132,036292,083872
0000000102,0000101000,088067,086107,074645,021884,027010,083401
0000000103,0000102000,085441,088423,074956,032726,020006,079564
0000000104,0000103000,082586,090101,076133,043590,015973,072733
0000000105,0000104000,079777,090979,078065,053432,015292,063571
0000000106,0000105000,077295,090963,080562,061286,018032,052977
0000000107,0000106000,075383,090068,083370,066368,023927,042000
0000000108,0000107000,074223,088374,086222,068190,032400,031706
0000000109,0000108000,073938,086036,088846,066578,042627,023091
0000000110,0000109000,074546,083301,090973,061685,053597,017014
0000000111,0000110000,075986,080437,092397,053992,064234,014070
0000000112,0000111000,078133,077705,092982,044245,073510,014539
0000000113,0000112000,080766,075382,092671,033403,080516,018376
0000000114,0000113000,083615,073709,091496,022538,084553,025205
0000000115,0000114000,086422,072834,089563,012700,085230,034365
0000000116,0000115000,088912,072842,087066,004847,082491,044958
0000000117,0000116000,090822,073739,084259,-00239,076602,055933
0000000118,0000117000,091976,075439,081405,-02059,068129,066226
0000000119,0000118000,092268,077771,078781,-00446,057901,074840
0000000120,0000119000,091662,080504,076654,004442,046937,080917
0000000121,0000120000,090215,083375,075230,012133,036301,083862
0000000122,0000121000,088071,086105,074644,021881,027021,083394
0000000123,0000122000,085442,088423,074955,032718,020018,079559
0000000124,0000123000,082587,090103,076130,043580,015983,072732
0000000125,0000124000,079779,090979,078062,053421,015301,063573
0000000126,0000125000,077295,090965,080560,061273,018039,052983
0000000127,0000126000,075381,090072,083368,066357,023929,042010
0000000128,0000127000,074223,088376,086221,068181,032398,031718
0000000129,0000128000,073937,086038,088845,066570,042621,023105
0000000130,0000129000,074542,083304,090974,061681,053588,017027
0000000131,0000130000,075984,080439,092397,053993,064221,014082
0000000132,0000131000,078132,077704,092984,044250,073497,014549
0000000133,0000132000,080763,075383,092674,033411,080503,018381
0000000134,0000133000,083613,073709,091498,022551,084539,025206
0000000135,0000134000,086423,072831,089566,012715,085220,034362
0000000136,0000135000,088911,072840,087069,004861,082485,044950
0000000137,0000136000,090822,073738,084261,-00224,076599,055921
0000000138,0000137000,091979,075435,081407,-02046,068130,066212
0000000139,0000138000,092271,077767,078782,-00438,057909,074824
0000000140,0000139000,091663,080503,076654,004446,046947,080902
0000000141,0000140000,090218,083373,075229,012134,036314,083848
0000000142,0000141000,088075,086103,074642,021875,027038,083383
0000000143,0000142000,085444,088424,074952,032708,020035,079552
0000000144,0000143000,082588,090104,076127,043568,015997,072730
0000000145,0000144000,079782,090979,078059,053405,015313,063577
0000000146,0000145000,077295,090968,080557,061256,018048,052992
0000000147,0000146000,075379,090076,083365,066341,023932,042023
0000000148,0000147000,074223,088378,086219,068167,032395,031734
0000000149,0000148000,073934,086041,088845,066559,042615,023122
0000000150,0000149000,074538,083308,090974,061676,053576,017044
0000000151,0000150000,075981,080440,092399,053994,064204,014097
0000000152,0000151000,078129,077705,092986,044255,073479,014561
0000000153,0000152000,080759,075385,092677,033423,080484,018388
0000000154,0000153000,083611,073708,091501,022568,084521,025207
0000000155,0000154000,086423,072828,089569,012733,085206,034357
0000000156,0000155000,088910,072838,087072,004880,082476,044940
0000000157,0000156000,090822,073735,084263,-00205,076594,055906
0000000158,0000157000,091982,075430,081408,-02030,068132,066193
0000000159,0000158000,092273,077764,078783,-00427,057918,074804
0000000160,0000159000,091666,080501,076653,004453,046961,080882
0000000161,0000160000,090223,083370,075227,012134,036332,083830
0000000162,0000161000,088079,086101,074640,021868,027059,083369
0000000163,0000162000,085446,088425,074949,032696,020056,079544
0000000164,0000163000,082592,090105,076123,043551,016016,072728
0000000165,0000164000,079784,090981,078056,053383,015329,063582
0000000166,0000165000,077294,090972,080553,061233,018059,053003
0000000167,0000166000,075378,090080,083362,066320,023935,042040
0000000168,0000167000,074222,088381,086217,068149,032392,031755
0000000169,0000168000,073930,086045,088844,066546,042605,023145
0000000170,0000169000,074533,083312,090974,061670,053559,017067
0000000171,0000170000,075978,080442,092401,053995,064183,014118
0000000172,0000171000,078125,077706,092989,044263,073456,014576
0000000173,0000172000,080754,075385,092681,033438,080460,018398
0000000174,0000173000,083609,073705,091506,022588,084498,025209
0000000175,0000174000,086421,072825,089574,012756,085188,034352
0000000176,0000175000,088909,072835,087076,004906,082464,044927
0000000177,0000176000,090824,073730,084266,-00180,076589,055887
0000000178,0000177000,091985,075424,081411,-02010,068136,066169
0000000179,0000178000,092276,077761,078784,-00412,057929,074778
0000000180,0000179000,091670,080497,076652,004461,046978,080856
0000000181,0000180000,090229,083366,075225,012133,036355,083807
0000000182,0000181000,088083,086100,074636,021859,027086,083351
0000000183,0000182000,085450,088426,074944,032680,020083,079533
0000000184,0000183000,082596,090106,076118,043528,016041,072726
0000000185,0000184000,079786,090984,078051,053357,015350,063589
0000000186,0000185000,077294,090978,080549,061206,018072,053018
0000000187,0000186000,075378,090084,083358,066294,023940,042061
0000000188,0000187000,074219,088386,086215,068126,032389,031781
0000000189,0000188000,073925,086051,088843,066529,042593,023174
0000000190,0000189000,074529,083316,090975,061662,053538,017095
0000000191,0000190000,075973,080444,092403,053995,064157,014143
0000000192,0000191000,078119,077709,092993,044273,073427,014596
0000000193,0000192000,080749,075385,092685,033457,080429,018409
0000000194,0000193000,083606,073703,091511,022613,084471,025212
0000000195,0000194000,086418,072822,089580,012785,085166,034344
0000000196,0000195000,088908,072831,087081,004937,082448,044910
0000000197,0000196000,090826,073723,084271,-00151,076583,055863
0000000198,0000197000,091988,075419,081414,-01985,068140,066140
0000000199,0000198000,092279,077756,078785,-00394,057943,074746
0000000200,0000199000,091676,080492,076652,004471,047000,080825
0000000201,0000200000,090235,083362,075223,012132,036384,083780
0000000202,0000201000,088088,086099,074632,021848,027118,083330
0000000203,0000202000,085455,088426,074939,032660,020115,079521
0000000204,0000203000,082601,090107,076112,043500,016071,072724
0000000205,0000204000,079788,090988,078044,053324,015375,063597
0000000206,0000205000,077294,090983,080543,061172,018088,053036
0000000207,0000206000,075377,090089,083354,066262,023946,042088
0000000208,0000207000,074216,088393,086212,068098,032385,031814
0000000209,0000208000,073920,086058,088842,066510,042577,023209
0000000210,0000209000,074523,083321,090976,061652,053514,017130
0000000211,0000210000,075966,080448,092406,053996,064126,014173
0000000212,0000211000,078111,077711,092998,044285,073391,014619
0000000213,0000212000,080744,075385,092691,033480,080393,018423
0000000214,0000213000,083602,073700,091518,022643,084438,025215
0000000215,0000214000,086415,072819,089587,012821,085139,034336
0000000216,0000215000,088907,072825,087088,004975,082430,044891
0000000217,0000216000,090828,073716,084276,-00115,076576,055834
0000000218,0000217000,091991,075412,081418,-01955,068146,066105
0000000219,0000218000,092285,077749,078786,-00371,057959,074707
0000000220,0000219000,091684,080486,076651,004482,047027,080787
0000000221,0000220000,090242,083358,075220,012130,036419,083746
0000000222,0000221000,088095,086098,074627,021835,027157,083304
0000000223,0000222000,085462,088425,074932,032636,020155,079505
0000000224,0000223000,082606,090109,076105,043467,016108,072721
0000000225,0000224000,079790,090993,078037,053285,015404,063606
0000000226,0000225000,077296,090989,080536,061131,018107,053057
0000000227,0000226000,075376,090096,083348,066222,023954,042119
0000000228,0000227000,074211,088401,086208,068064,032379,031852
0000000229,0000228000,073914,086066,088840,066486,042559,023251
0000000230,0000229000,074516,083327,090977,061640,053484,017171
0000000231,0000230000,075958,080453,092409,053997,064089,014210
0000000232,0000231000,078103,077714,093003,044300,073348,014647
0000000233,0000232000,080737,075384,092698,033506,080349,018440
0000000234,0000233000,083596,073697,091527,022679,084399,025218
0000000235,0000234000,086411,072814,089595,012864,085107,034325
0000000236,0000235000,088907,072818,087095,005020,082409,044867
0000000237,0000236000,090830,073708,084282,-00073,076569,055800
0000000238,0000237000,091995,075404,081422,-01919,068152,066062
0000000239,0000238000,092291,077741,078788,-00345,057979,074662
0000000240,0000239000,091692,080478,076650,004494,047059,080742
0000000241,0000240000,090251,083353,075216,012129,036461,083706
0000000242,0000241000,088104,086095,074621,021819,027203,083274
0000000243,0000242000,085471,088425,074924,032607,020201,079488
0000000244,0000243000,082612,090112,076096,043427,016151,072717
0000000245,0000244000,079794,090999,078027,053239,015439,063618
0000000246,0000245000,077297,090996,080527,061083,018130,053083
0000000247,0000246000,075374,090105,083341,066176,023963,042156
0000000248,0000247000,074206,088411,086203,068026,032372,031898
0000000249,0000248000,073908,086074,088838,066459,042537,023301
0000000250,0000249000,074508,083334,090978,061626,053450,017220
0000000251,0000250000,075948,080459,092413,053999,064044,014252
0000000252,0000251000,078094,077717,093009,044317,073298,014680
0000000253,0000252000,080729,075384,092707,033537,080299,018459
0000000254,0000253000,083589,073695,091536,022722,084353,025221
0000000255,0000254000,086407,072808,089605,012914,085069,034312
0000000256,0000255000,088906,072809,087104,005072,082384,044839
0000000257,0000256000,090832,073698,084290,-00024,076560,055759
0000000258,0000257000,091999,075394,081427,-01877,068159,066013
0000000259,0000258000,092299,077731,078790,-00315,058002,074608
0000000260,0000259000,091702,080470,076649,004509,047096,080690
0000000261,0000260000,090261,083347,075212,012127,036508,083661
0000000262,0000261000,088114,086092,074614,021801,027257,083239
0000000263,0000262000,085480,088425,074915,032573,020256,079467
0000000264,0000263000,082618,090116,076086,043381,016201,072713
0000000265,0000264000,079798,091005,078017,053185,015478,063631
0000000266,0000265000,077298,091004,080517,061027,018156,053113
0000000267,0000266000,075371,090116,083333,066123,023973,042200
0000000268,0000267000,074200,088422,086197,067981,032364,031951
0000000269,0000268000,073900,086084,088835,066427,042511,023358
0000000270,0000269000,074498,083343,090979,061610,053410,017276
0000000271,0000270000,075936,080466,092418,054001,063993,014301
0000000272,0000271000,078083,077720,093017,044338,073240,014717
0000000273,0000272000,080720,075384,092717,033574,080241,018481
0000000274,0000273000,083581,073692,091547,022771,084299,025225
0000000275,0000274000,086402,072802,089616,012972,085026,034298
0000000276,0000275000,088905,072800,087115,005132,082356,044807
0000000277,0000276000,090834,073687,084299,000033,076549,055713
0000000278,0000277000,092005,075382,081433,-01829,068168,065956
0000000279,0000278000,092308,077719,078793,-00281,058029,074547
0000000280,0000279000,091712,080460,076648,004526,047140,080630
0000000281,0000280000,090273,083340,075207,012125,036563,083608
0000000282,0000281000,088126,086087,074606,021779,027318,083199
0000000283,0000282000,085490,088425,074905,032533,020319,079444
0000000284,0000283000,082626,090120,076073,043328,016258,072709
0000000285,0000284000,079804,091012,078004,053124,015524,063647
0000000286,0000285000,077300,091014,080506,060962,018186,053147
0000000287,0000286000,075368,090128,083324,066062,023984,042250
0000000288,0000287000,074194,088435,086191,067930,032354,032011
0000000289,0000288000,073891,086096,088833,066390,042482,023423
0000000290,0000289000,074486,083354,090980,061592,053364,017340
0000000291,0000290000,075924,080474,092423,054004,063933,014358
0000000292,0000291000,078071,077724,093025,044361,073174,014760
0000000293,0000292000,080708,075384,092728,033615,080174,018506
0000000294,0000293000,083572,073688,091560,022828,084238,025229
0000000295,0000294000,086397,072794,089629,013038,084978,034281
0000000296,0000295000,088903,072789,087127,005201,082325,044771
0000000297,0000296000,090836,073675,084309,000098,076538,055660
0000000298,0000297000,092012,075368,081440,-01775,068178,065892
0000000299,0000298000,092318,077706,078796,-00243,058061,074477
0000000300,0000299000,091724,080450,076646,004545,047189,080562
0000000301,0000300000,090286,083332,075201,012122,036626,083548
