DIgSILENT PowerFactory,21000900,2000
6,06A,00D
1,TTPP_200000_100:Secondary Voltage A,,,V,0.010000000,-67.881081,0.000000,-86353,99998,1,1,P
2,TTPP_200000_100:Secondary Voltage B,,,V,0.010000000,35.240974,0.000000,-98020,99998,1,1,P
3,TTPP_200000_100:Secondary Voltage C,,,V,0.10000000,-8885.127930,0.000000,77409,99998,1,1,P
4,TTCC_500_5:Secondary Current A,,,A,0.0010000000,-80.751953,0.000000,50083,99998,1,1,P
5,TTCC_500_5:Secondary Current B,,,A,0.0010000000,-84.663239,0.000000,69355,99998,1,1,P
6,TTCC_500_5:Secondary Current C,,,A,0.0010000000,-84.699051,0.000000,69403,99998,1,1,P
50
1
1000.000000,1101
30/06/2023,06:03:37.000000
30/06/2023,06:03:37.000000
ASCII
1.000000
0000000001,0000000000,061926,032861,079699,086669,089341,074104
0000000002,0000001000,036425,057222,079812,083655,092057,074402
0000000003,0000002000,007927,075761,080810,080353,094054,075707
0000000004,0000003000,-20557,086409,082592,077100,095122,077892
0000000005,0000004000,-46319,088172,084994,074195,095173,080746
0000000006,0000005000,-67084,081149,087771,071932,094197,083986
0000000007,0000006000,-80568,065870,090648,070540,092281,087292
0000000008,0000007000,-85326,043570,093353,070143,089623,090347
0000000009,0000008000,-81171,016718,095622,070786,086478,092851
0000000010,0000009000,-68543,-11907,097223,072401,083159,094554
0000000011,0000010000,-48396,-39860,098003,074838,079984,095293
0000000012,0000011000,-22770,-64356,097891,077855,077265,094994
0000000013,0000012000,005566,-82732,096894,081150,075275,093689
0000000014,0000013000,034071,-93393,095110,084411,074199,091504
0000000015,0000014000,060039,-95351,092709,087311,074152,088651
0000000016,0000015000,080647,-88187,089931,089571,075131,085411
0000000017,0000016000,094022,-72792,087055,090969,077040,082105
0000000018,0000017000,098996,-50711,084349,091364,079701,079049
0000000019,0000018000,094837,-23857,082080,090721,082847,076546
0000000020,0000019000,082009,004974,080479,089104,086167,074843
0000000021,0000020000,061958,032824,079699,086671,089339,074104
0000000022,0000021000,036436,057212,079813,083653,092059,074402
0000000023,0000022000,007937,075750,080809,080354,094053,075707
0000000024,0000023000,-20527,086386,082592,077099,095123,077893
0000000025,0000024000,-46365,088203,084994,074194,095174,080746
0000000026,0000025000,-67121,081183,087772,071934,094195,083986
0000000027,0000026000,-80521,065822,090647,070539,092283,087292
0000000028,0000027000,-85309,043557,093353,070142,089624,090347
0000000029,0000028000,-81232,016782,095623,070784,086479,092851
0000000030,0000029000,-68553,-11902,097223,072401,083158,094554
0000000031,0000030000,-48344,-39907,098003,074838,079984,095293
0000000032,0000031000,-22776,-64350,097890,077852,077267,094995
0000000033,0000032000,005553,-82711,096894,081150,075274,093690
0000000034,0000033000,034083,-93411,095110,084410,074200,091505
0000000035,0000034000,060023,-95341,092709,087311,074152,088651
0000000036,0000035000,080644,-88184,089931,089572,075131,085411
0000000037,0000036000,094055,-72827,087055,090968,077041,082105
0000000038,0000037000,098981,-50698,084350,091363,079701,079050
0000000039,0000038000,094791,-23820,082081,090721,082847,076546
0000000040,0000039000,082041,004944,080479,089105,086166,074843
0000000041,0000040000,061997,032786,079699,086670,089339,074105
0000000042,0000041000,036404,057249,079812,083652,092059,074403
0000000043,0000042000,007926,075765,080809,080355,094051,075708
0000000044,0000043000,-20495,086355,082592,077099,095123,077893
0000000045,0000044000,-46367,088212,084994,074194,095174,080746
0000000046,0000045000,-67130,081198,087771,071934,094195,083986
0000000047,0000046000,-80505,065813,090647,070539,092283,087292
0000000048,0000047000,-85328,043572,093353,070143,089624,090347
0000000049,0000048000,-81252,016803,095623,070784,086480,092851
0000000050,0000049000,-68524,-11930,097223,072401,083159,094554
0000000051,0000050000,-48343,-39911,098003,074837,079985,095292
0000000052,0000051000,-22821,-64308,097891,077852,077268,094994
0000000053,0000052000,005557,-82723,096894,081151,075274,093690
0000000054,0000053000,034114,-93445,095111,084408,074201,091505
0000000055,0000054000,060001,-95325,092710,087310,074153,088651
0000000056,0000055000,080630,-88172,089932,089571,075131,085412
0000000057,0000056000,094076,-72852,087055,090967,077041,082106
0000000058,0000057000,098977,-50699,084350,091362,079701,079051
0000000059,0000058000,094787,-23814,082081,090720,082847,076547
0000000060,0000059000,082067,004919,080479,089105,086166,074844
0000000061,0000060000,061996,032789,079699,086669,089339,074106
0000000062,0000061000,036385,057270,079812,083652,092058,074403
0000000063,0000062000,007957,075742,080808,080356,094050,075708
0000000064,0000063000,-20473,086340,082591,077098,095123,077893
0000000065,0000064000,-46395,088247,084993,074195,095174,080746
0000000066,0000065000,-67131,081206,087770,071935,094194,083985
0000000067,0000066000,-80481,065792,090646,070540,092283,087292
0000000068,0000067000,-85342,043591,093353,070143,089625,090346
0000000069,0000068000,-81270,016825,095622,070784,086480,092850
0000000070,0000069000,-68514,-11939,097223,072402,083159,094553
0000000071,0000070000,-48359,-39901,098004,074836,079987,095292
0000000072,0000071000,-22843,-64291,097891,077851,077269,094994
0000000073,0000072000,005571,-82742,096895,081150,075275,093689
0000000074,0000073000,034108,-93450,095112,084406,074203,091505
0000000075,0000074000,059970,-95304,092711,087308,074154,088652
0000000076,0000075000,080640,-88192,089933,089570,075131,085413
0000000077,0000076000,094098,-72883,087056,090966,077042,082107
0000000078,0000077000,098961,-50690,084351,091361,079702,079052
0000000079,0000078000,094787,-23816,082081,090720,082846,076549
0000000080,0000079000,082098,004888,080479,089104,086165,074845
0000000081,0000080000,062001,032787,079699,086669,089339,074107
0000000082,0000081000,036386,057278,079811,083653,092057,074404
0000000083,0000082000,007984,075725,080807,080357,094049,075709
0000000084,0000083000,-20468,086345,082590,077099,095122,077893
0000000085,0000084000,-46406,088270,084991,074196,095172,080746
0000000086,0000085000,-67112,081202,087769,071936,094194,083984
0000000087,0000086000,-80475,065796,090645,070541,092283,087290
0000000088,0000087000,-85372,043628,093352,070144,089626,090345
0000000089,0000088000,-81277,016837,095622,070786,086480,092848
0000000090,0000089000,-68508,-11947,097223,072402,083161,094552
0000000091,0000090000,-48387,-39879,098005,074835,079989,095290
0000000092,0000091000,-22868,-64276,097892,077851,077271,094993
0000000093,0000092000,005573,-82758,096896,081148,075277,093689
0000000094,0000093000,034092,-93451,095113,084405,074205,091505
0000000095,0000094000,059952,-95301,092712,087307,074155,088652
0000000096,0000095000,080653,-88219,089934,089568,075132,085414
0000000097,0000096000,094102,-72902,087058,090963,077043,082108
0000000098,0000097000,098952,-50690,084352,091359,079701,079054
0000000099,0000098000,094811,-23843,082081,090719,082845,076551
0000000100,0000099000,082128,004859,080479,089103,086164,074847
0000000101,0000100000,062002,032792,079698,086668,089337,074109
0000000102,0000101000,036403,057275,079810,083654,092054,074406
0000000103,0000102000,008019,075707,080805,080358,094047,075709
0000000104,0000103000,-20462,086358,082588,077101,095120,077893
0000000105,0000104000,-46406,088293,084989,074199,095170,080745
0000000106,0000105000,-67095,081205,087767,071939,094192,083983
0000000107,0000106000,-80480,065817,090644,070543,092283,087288
0000000108,0000107000,-85395,043663,093351,070146,089626,090342
0000000109,0000108000,-81282,016847,095621,070787,086482,092845
0000000110,0000109000,-68524,-11935,097224,072402,083163,094549
0000000111,0000110000,-48428,-39848,098005,074835,079991,095288
0000000112,0000111000,-22887,-64271,097894,077850,077273,094991
0000000113,0000112000,005566,-82772,096898,081146,075280,093688
0000000114,0000113000,034062,-93446,095116,084402,074208,091505
0000000115,0000114000,059935,-95309,092715,087304,074157,088653
0000000116,0000115000,080664,-88255,089937,089565,075134,085416
0000000117,0000116000,094102,-72924,087060,090960,077044,082111
0000000118,0000117000,098955,-50706,084353,091357,079701,079057
0000000119,0000118000,094843,-23880,082082,090717,082843,076554
0000000120,0000119000,082154,004834,080479,089102,086162,074851
0000000121,0000120000,062017,032788,079697,086668,089334,074112
0000000122,0000121000,036440,057258,079808,083655,092051,074408
0000000123,0000122000,008053,075697,080803,080360,094044,075711
0000000124,0000123000,-20455,086380,082585,077104,095117,077894
0000000125,0000124000,-46393,088311,084986,074202,095168,080744
0000000126,0000125000,-67078,081215,087764,071942,094191,083981
0000000127,0000126000,-80495,065854,090642,070546,092283,087286
0000000128,0000127000,-85417,043703,093349,070149,089626,090339
0000000129,0000128000,-81293,016866,095620,070789,086483,092842
0000000130,0000129000,-68555,-11907,097224,072403,083166,094545
0000000131,0000130000,-48471,-39817,098007,074835,079995,095284
0000000132,0000131000,-22911,-64268,097896,077849,077277,094988
0000000133,0000132000,005539,-82776,096901,081143,075284,093686
0000000134,0000133000,034026,-93445,095119,084398,074212,091504
0000000135,0000134000,059924,-95333,092718,087300,074160,088654
0000000136,0000135000,080669,-88294,089940,089560,075136,085418
0000000137,0000136000,094099,-72948,087063,090956,077045,082114
0000000138,0000137000,098970,-50739,084355,091353,079700,079061
0000000139,0000138000,094882,-23928,082082,090714,082841,076559
0000000140,0000139000,082184,004807,080479,089100,086159,074855
0000000141,0000140000,062048,032774,079695,086669,089330,074116
0000000142,0000141000,036488,057235,079805,083657,092046,074411
0000000143,0000142000,008089,075695,080799,080362,094039,075713
0000000144,0000143000,-20438,086403,082581,077107,095113,077894
0000000145,0000144000,-46368,088329,084982,074207,095164,080743
0000000146,0000145000,-67067,081242,087760,071947,094188,083979
0000000147,0000146000,-80514,065905,090638,070551,092282,087282
0000000148,0000147000,-85437,043746,093346,070153,089627,090334
0000000149,0000148000,-81315,016898,095619,070792,086485,092837
0000000150,0000149000,-68603,-11864,097224,072404,083170,094540
0000000151,0000150000,-48520,-39784,098008,074835,079999,095280
0000000152,0000151000,-22945,-64264,097899,077847,077282,094985
0000000153,0000152000,005496,-82774,096905,081140,075290,093684
0000000154,0000153000,033986,-93450,095124,084394,074217,091504
0000000155,0000154000,059912,-95367,092723,087295,074164,088655
0000000156,0000155000,080666,-88336,089945,089554,075139,085421
0000000157,0000156000,094099,-72985,087066,090950,077046,082118
0000000158,0000157000,098998,-50792,084357,091349,079699,079066
0000000159,0000158000,094926,-23984,082084,090711,082839,076565
0000000160,0000159000,082222,004773,080478,089099,086155,074861
0000000161,0000160000,062098,032745,079693,086669,089324,074121
0000000162,0000161000,036549,057209,079802,083659,092040,074415
0000000163,0000162000,008130,075699,080795,080366,094033,075715
0000000164,0000163000,-20407,086425,082576,077113,095107,077894
0000000165,0000164000,-46337,088352,084976,074213,095159,080742
0000000166,0000165000,-67061,081285,087755,071953,094186,083975
0000000167,0000166000,-80533,065966,090634,070557,092281,087277
0000000168,0000167000,-85459,043798,093343,070158,089627,090328
0000000169,0000168000,-81353,016947,095618,070796,086489,092830
0000000170,0000169000,-68664,-11809,097225,072406,083175,094534
0000000171,0000170000,-48577,-39750,098011,074835,080005,095274
0000000172,0000171000,-22996,-64252,097903,077845,077289,094980
0000000173,0000172000,005438,-82768,096911,081136,075297,093682
0000000174,0000173000,033942,-93464,095130,084388,074223,091503
0000000175,0000174000,059894,-95410,092729,087288,074169,088657
0000000176,0000175000,080657,-88384,089950,089547,075143,085425
0000000177,0000176000,094105,-73038,087071,090943,077047,082124
0000000178,0000177000,099035,-50861,084361,091343,079698,079073
0000000179,0000178000,094974,-24047,082085,090706,082836,076572
0000000180,0000179000,082273,004728,080477,089096,086149,074868
0000000181,0000180000,062167,032703,079690,086669,089318,074127
0000000182,0000181000,036619,057182,079797,083661,092033,074420
0000000183,0000182000,008181,075705,080789,080371,094025,075718
0000000184,0000183000,-20361,086447,082569,077119,095100,077895
0000000185,0000184000,-46301,088384,084970,074221,095154,080740
0000000186,0000185000,-67058,081345,087749,071961,094182,083971
0000000187,0000186000,-80551,066038,090629,070564,092279,087271
0000000188,0000187000,-85487,043862,093340,070165,089629,090321
0000000189,0000188000,-81406,017015,095617,070800,086492,092822
0000000190,0000189000,-68736,-11744,097226,072408,083180,094525
0000000191,0000190000,-48645,-39710,098013,074835,080013,095267
0000000192,0000191000,-23065,-64232,097908,077842,077298,094975
0000000193,0000192000,005367,-82761,096917,081130,075306,093678
0000000194,0000193000,033892,-93488,095137,084381,074231,091503
0000000195,0000194000,059868,-95460,092737,087279,074176,088659
0000000196,0000195000,080643,-88441,089957,089538,075147,085429
0000000197,0000196000,094119,-73110,087077,090935,077048,082131
0000000198,0000197000,099080,-50947,084365,091336,079697,079082
0000000199,0000198000,095030,-24121,082087,090701,082832,076581
0000000200,0000199000,082342,004668,080477,089094,086143,074877
0000000201,0000200000,062253,032649,079687,086670,089309,074135
0000000202,0000201000,036700,057154,079792,083664,092023,074426
0000000203,0000202000,008247,075710,080782,080377,094016,075722
0000000204,0000203000,-20301,086470,082561,077127,095091,077896
0000000205,0000204000,-46262,088429,084961,074230,095147,080738
0000000206,0000205000,-67054,081419,087741,071971,094177,083966
0000000207,0000206000,-80568,066121,090622,070574,092277,087263
0000000208,0000207000,-85524,043944,093335,070173,089630,090311
0000000209,0000208000,-81475,017102,095615,070806,086497,092812
0000000210,0000209000,-68820,-11668,097227,072411,083187,094515
0000000211,0000210000,-48729,-39662,098017,074834,080022,095258
0000000212,0000211000,-23155,-64203,097914,077838,077308,094968
0000000213,0000212000,005282,-82756,096925,081124,075316,093674
0000000214,0000213000,033834,-93519,095146,084372,074240,091502
0000000215,0000214000,059831,-95517,092746,087269,074184,088662
0000000216,0000215000,080627,-88512,089966,089527,075152,085435
0000000217,0000216000,094140,-73201,087084,090925,077050,082139
0000000218,0000217000,099131,-51047,084370,091327,079695,079092
0000000219,0000218000,095097,-24209,082089,090695,082827,076592
0000000220,0000219000,082430,004591,080476,089091,086135,074888
0000000221,0000220000,062356,032585,079683,086670,089299,074145
0000000222,0000221000,036795,057124,079786,083668,092012,074434
0000000223,0000222000,008331,075714,080773,080384,094005,075726
0000000224,0000223000,-20228,086496,082551,077137,095081,077897
0000000225,0000224000,-46219,088487,084951,074241,095138,080735
0000000226,0000225000,-67047,081506,087732,071983,094172,083960
0000000227,0000226000,-80587,066217,090614,070585,092275,087254
0000000228,0000227000,-85573,044046,093330,070182,089632,090300
0000000229,0000228000,-81557,017207,095613,070813,086502,092799
0000000230,0000229000,-68917,-11581,097228,072415,083196,094504
0000000231,0000230000,-48832,-39602,098021,074834,080033,095248
0000000232,0000231000,-23265,-64166,097921,077834,077321,094960
0000000233,0000232000,005185,-82752,096934,081116,075329,093670
0000000234,0000233000,033763,-93557,095157,084362,074251,091501
0000000235,0000234000,059783,-95581,092757,087256,074193,088665
0000000236,0000235000,080611,-88598,089976,089514,075158,085442
0000000237,0000236000,094167,-73312,087092,090913,077052,082149
0000000238,0000237000,099189,-51164,084375,091317,079694,079104
0000000239,0000238000,095178,-24315,082092,090687,082821,076606
0000000240,0000239000,082538,004495,080474,089087,086126,074901
0000000241,0000240000,062476,032511,079679,086670,089287,074156
0000000242,0000241000,036907,057090,079778,083673,091999,074442
0000000243,0000242000,008434,075714,080763,080392,093991,075731
0000000244,0000243000,-20143,086529,082539,077149,095068,077897
0000000245,0000244000,-46171,088558,084939,074254,095128,080731
0000000246,0000245000,-67036,081607,087721,071997,094165,083952
0000000247,0000246000,-80608,066331,090605,070598,092273,087243
0000000248,0000247000,-85634,044170,093324,070193,089634,090287
0000000249,0000248000,-81653,017330,095610,070820,086508,092785
0000000250,0000249000,-69030,-11480,097229,072419,083206,094490
0000000251,0000250000,-48957,-39528,098026,074833,080046,095235
0000000252,0000251000,-23394,-64121,097929,077828,077335,094951
0000000253,0000252000,005074,-82751,096945,081107,075343,093664
0000000254,0000253000,033678,-93600,095170,084349,074265,091500
0000000255,0000254000,059725,-95654,092770,087242,074204,088669
0000000256,0000255000,080595,-88702,089988,089499,075165,085450
0000000257,0000256000,094197,-73442,087102,090898,077055,082161
0000000258,0000257000,099253,-51298,084382,091305,079691,079118
0000000259,0000258000,095274,-24441,082095,090679,082815,076621
0000000260,0000259000,082665,004381,080473,089083,086115,074916
0000000261,0000260000,062614,032428,079673,086671,089274,074169
0000000262,0000261000,037040,057048,079769,083678,091984,074452
0000000263,0000262000,008557,075712,080751,080402,093975,075737
0000000264,0000263000,-20045,086568,082526,077162,095054,077898
0000000265,0000264000,-46114,088642,084925,074270,095117,080727
0000000266,0000265000,-67019,081723,087707,072013,094158,083944
0000000267,0000266000,-80633,066465,090594,070614,092270,087231
0000000268,0000267000,-85706,044316,093316,070206,089636,090272
0000000269,0000268000,-81761,017471,095607,070830,086516,092769
0000000270,0000269000,-69161,-11363,097230,072423,083217,094474
0000000271,0000270000,-49105,-39439,098032,074832,080061,095221
0000000272,0000271000,-23543,-64070,097939,077823,077352,094940
0000000273,0000272000,004945,-82752,096958,081096,075360,093658
0000000274,0000273000,033576,-93646,095185,084335,074280,091499
0000000275,0000274000,059658,-95739,092786,087225,074216,088673
0000000276,0000275000,080577,-88825,090002,089482,075173,085459
0000000277,0000276000,094230,-73592,087114,090882,077058,082175
0000000278,0000277000,099327,-51452,084390,091291,079689,079135
0000000279,0000278000,095388,-24589,082098,090669,082807,076639
0000000280,0000279000,082812,004249,080471,089079,086102,074933
0000000281,0000280000,062772,032332,079667,086672,089258,074185
0000000282,0000281000,037195,056998,079758,083685,091966,074464
0000000283,0000282000,008700,075708,080737,080413,093957,075743
0000000284,0000283000,-19934,086615,082510,077177,095038,077899
0000000285,0000284000,-46047,088739,084909,074288,095104,080723
0000000286,0000285000,-66998,081853,087692,072032,094149,083934
0000000287,0000286000,-80664,066620,090582,070631,092267,087216
0000000288,0000287000,-85789,044486,093308,070221,089639,090254
0000000289,0000288000,-81884,017632,095603,070840,086524,092750
0000000290,0000289000,-69313,-11227,097232,072428,083231,094455
0000000291,0000290000,-49276,-39334,098039,074831,080078,095205
0000000292,0000291000,-23712,-64012,097950,077816,077371,094928
0000000293,0000292000,004797,-82751,096973,081084,075379,093651
0000000294,0000293000,033456,-93697,095202,084318,074298,091498
0000000295,0000294000,059581,-95836,092803,087206,074230,088678
0000000296,0000295000,080558,-88967,090019,089462,075182,085470
0000000297,0000296000,094265,-73761,087127,090863,077061,082190
0000000298,0000297000,099410,-51628,084400,091275,079686,079154
0000000299,0000298000,095520,-24761,082102,090658,082797,076659
0000000300,0000299000,082978,004099,080470,089073,086088,074953
0000000301,0000300000,062951,032223,079660,086673,089240,074202
