DIgSILENT PowerFactory,21000900,2000
6,06A,00D
1,TTPP_200000_100:Secondary Voltage A,,,V,0.010000000,-67.865952,0.000000,-86353,99998,1,1,P
2,TTPP_200000_100:Secondary Voltage B,,,V,0.010000000,-45.239746,0.000000,-90176,99998,1,1,P
3,TTPP_200000_100:Secondary Voltage C,,,V,0.010000000,-13.605721,0.000000,-99897,99998,1,1,P
4,TTCC_500_5:Secondary Current A,,,A,0.0010000000,-85.557732,0.000000,64202,99998,1,1,P
5,TTCC_500_5:Secondary Current B,,,A,0.0010000000,-84.946892,0.000000,69923,99998,1,1,P
6,TTCC_500_5:Secondary Current C,,,A,0.0010000000,-84.649033,0.000000,69266,99998,1,1,P
50
1
1000.000000,1101
30/06/2023,06:02:04.000000
30/06/2023,06:02:04.000000
ASCII
1.000000
0000000001,0000000000,061918,040916,-90163,091474,089625,074054
0000000002,0000001000,036439,065254,-89026,088459,092342,074353
0000000003,0000002000,007911,083822,-79048,085160,094336,075657
0000000004,0000003000,-20532,094426,-61223,081905,095406,077843
0000000005,0000004000,-46353,096243,-37208,079001,095456,080697
0000000006,0000005000,-67100,089199,-09431,076738,094479,083937
0000000007,0000006000,-80584,073918,019331,075346,092565,087243
0000000008,0000007000,-85309,051593,046384,074950,089906,090298
0000000009,0000008000,-81175,024764,069071,075591,086762,092801
0000000010,0000009000,-68568,-03837,085083,077207,083443,094505
0000000011,0000010000,-48378,-31832,092880,079646,080265,095243
0000000012,0000011000,-22741,-56330,091752,082660,077550,094944
0000000013,0000012000,005594,-74698,081778,085957,075557,093639
0000000014,0000013000,034047,-85317,063940,089216,074484,091454
0000000015,0000014000,060040,-87300,039932,092119,074435,088600
0000000016,0000015000,080662,-80152,012153,094378,075415,085360
0000000017,0000016000,094042,-64755,-16612,095774,077326,082054
0000000018,0000017000,098969,-42633,-43667,096170,079985,078999
0000000019,0000018000,094806,-15782,-66350,095526,083132,076496
0000000020,0000019000,082019,013013,-82361,093911,086450,074792
0000000021,0000020000,061976,040856,-90163,091475,089624,074054
0000000022,0000021000,036420,065279,-89025,088458,092343,074353
0000000023,0000022000,007899,083827,-79058,085160,094336,075658
0000000024,0000023000,-20519,094418,-61222,081904,095407,077843
0000000025,0000024000,-46355,096234,-37210,079000,095457,080697
0000000026,0000025000,-67127,089231,-09432,076738,094479,083936
0000000027,0000026000,-80546,073886,019328,075345,092566,087243
0000000028,0000027000,-85312,051593,046385,074949,089907,090298
0000000029,0000028000,-81218,024813,069078,075590,086762,092801
0000000030,0000029000,-68543,-03866,085080,077207,083442,094505
0000000031,0000030000,-48348,-31857,092882,079644,080267,095243
0000000032,0000031000,-22784,-56296,091752,082659,077550,094944
0000000033,0000032000,005571,-74680,081780,085957,075557,093639
0000000034,0000033000,034101,-85373,063941,089215,074484,091454
0000000035,0000034000,060020,-87286,039932,092117,074436,088600
0000000036,0000035000,080635,-80120,012157,094378,075415,085361
0000000037,0000036000,094066,-64785,-16611,095774,077325,082054
0000000038,0000037000,098985,-42647,-43662,096169,079985,078999
0000000039,0000038000,094780,-15754,-66352,095526,083132,076496
0000000040,0000039000,082033,013001,-82362,093911,086450,074793
0000000041,0000040000,061995,040837,-90161,091475,089624,074055
0000000042,0000041000,036391,065305,-89029,088457,092343,074353
0000000043,0000042000,007917,083818,-79062,085160,094335,075658
0000000044,0000043000,-20499,094397,-61227,081904,095407,077843
0000000045,0000044000,-46379,096263,-37210,078999,095457,080697
0000000046,0000045000,-67137,089245,-09436,076739,094478,083936
0000000047,0000046000,-80506,073851,019325,075345,092566,087243
0000000048,0000047000,-85328,051613,046385,074948,089908,090298
0000000049,0000048000,-81254,024846,069077,075590,086763,092801
0000000050,0000049000,-68515,-03892,085081,077208,083442,094504
0000000051,0000050000,-48341,-31869,092883,079643,080269,095242
0000000052,0000051000,-22821,-56260,091755,082658,077551,094944
0000000053,0000052000,005573,-74686,081783,085957,075557,093639
0000000054,0000053000,034123,-85402,063948,089214,074485,091454
0000000055,0000054000,059995,-87264,039938,092116,074437,088601
0000000056,0000055000,080630,-80120,012159,094377,075415,085361
0000000057,0000056000,094090,-64812,-16605,095773,077325,082055
0000000058,0000057000,098973,-42641,-43658,096168,079986,079000
0000000059,0000058000,094772,-15747,-66353,095526,083131,076497
0000000060,0000059000,082065,012970,-82364,093910,086450,074794
0000000061,0000060000,061993,040838,-90163,091474,089624,074055
0000000062,0000061000,036374,065328,-89032,088458,092343,074353
0000000063,0000062000,007948,083793,-79070,085161,094334,075658
0000000064,0000063000,-20483,094389,-61233,081903,095407,077843
0000000065,0000064000,-46407,096297,-37217,079000,095457,080697
0000000066,0000065000,-67129,089245,-09444,076740,094478,083936
0000000067,0000066000,-80480,073831,019319,075345,092566,087242
0000000068,0000067000,-85355,051643,046380,074948,089908,090297
0000000069,0000068000,-81270,024866,069074,075591,086763,092800
0000000070,0000069000,-68498,-03912,085081,077208,083443,094503
0000000071,0000070000,-48357,-31857,092888,079642,080270,095242
0000000072,0000071000,-22848,-56238,091760,082658,077552,094944
0000000073,0000072000,005584,-74704,081791,085956,075558,093639
0000000074,0000073000,034118,-85409,063959,089213,074486,091454
0000000075,0000074000,059969,-87248,039948,092115,074438,088601
0000000076,0000075000,080644,-80141,012167,094376,075415,085362
0000000077,0000076000,094102,-64834,-16596,095772,077326,082056
0000000078,0000077000,098955,-42629,-43651,096167,079986,079001
0000000079,0000078000,094784,-15760,-66351,095525,083130,076498
0000000080,0000079000,082098,012937,-82365,093910,086449,074795
0000000081,0000080000,061986,040848,-90166,091474,089623,074057
0000000082,0000081000,036374,065335,-89041,088458,092341,074354
0000000083,0000082000,007984,083768,-79081,085162,094333,075659
0000000084,0000083000,-20479,094396,-61244,081904,095406,077843
0000000085,0000084000,-46421,096326,-37230,079002,095456,080696
0000000086,0000085000,-67111,089240,-09457,076742,094477,083935
0000000087,0000086000,-80475,073835,019310,075346,092567,087241
0000000088,0000087000,-85382,051678,046372,074949,089909,090295
0000000089,0000088000,-81274,024874,069068,075592,086763,092798
0000000090,0000089000,-68498,-03914,085084,077208,083444,094502
0000000091,0000090000,-48390,-31831,092894,079642,080272,095240
0000000092,0000091000,-22864,-56230,091768,082657,077554,094943
0000000093,0000092000,005588,-74722,081805,085955,075560,093639
0000000094,0000093000,034094,-85402,063977,089211,074489,091454
0000000095,0000094000,059951,-87245,039963,092113,074439,088602
0000000096,0000095000,080662,-80174,012183,094374,075416,085363
0000000097,0000096000,094103,-64850,-16581,095769,077327,082058
0000000098,0000097000,098944,-42628,-43642,096165,079985,079003
0000000099,0000098000,094812,-15791,-66348,095524,083129,076500
0000000100,0000099000,082125,012911,-82365,093909,086448,074797
0000000101,0000100000,061986,040856,-90173,091474,089621,074059
0000000102,0000101000,036397,065327,-89055,088459,092338,074356
0000000103,0000102000,008018,083750,-79097,085163,094331,075660
0000000104,0000103000,-20478,094415,-61264,081906,095404,077844
0000000105,0000104000,-46418,096345,-37253,079004,095454,080696
0000000106,0000105000,-67091,089240,-09476,076744,094476,083934
0000000107,0000106000,-80485,073860,019295,075348,092566,087239
0000000108,0000107000,-85404,051713,046360,074952,089909,090293
0000000109,0000108000,-81275,024882,069062,075593,086764,092796
0000000110,0000109000,-68517,-03898,085087,077208,083446,094499
0000000111,0000110000,-48430,-31800,092903,079642,080274,095238
0000000112,0000111000,-22878,-56231,091782,082657,077556,094941
0000000113,0000112000,005577,-74733,081827,085953,075564,093637
0000000114,0000113000,034061,-85393,064002,089208,074491,091454
0000000115,0000114000,059940,-87259,039987,092110,074441,088602
0000000116,0000115000,080675,-80211,012207,094371,075418,085365
0000000117,0000116000,094097,-64865,-16560,095766,077328,082060
0000000118,0000117000,098948,-42646,-43629,096163,079985,079006
0000000119,0000118000,094847,-15833,-66342,095522,083128,076504
0000000120,0000119000,082147,012889,-82366,093907,086446,074800
0000000121,0000120000,062001,040852,-90185,091474,089618,074062
0000000122,0000121000,036436,065307,-89074,088460,092335,074358
0000000123,0000122000,008048,083744,-79120,085165,094328,075661
0000000124,0000123000,-20472,094438,-61293,081909,095401,077844
0000000125,0000124000,-46399,096357,-37284,079008,095451,080695
0000000126,0000125000,-67077,089253,-09504,076748,094474,083932
0000000127,0000126000,-80504,073902,019271,075351,092566,087236
0000000128,0000127000,-85421,051748,046342,074955,089909,090290
0000000129,0000128000,-81284,024898,069055,075595,086766,092792
0000000130,0000129000,-68555,-03864,085091,077209,083449,094495
0000000131,0000130000,-48472,-31770,092915,079642,080278,095234
0000000132,0000131000,-22898,-56233,091804,082655,077560,094938
0000000133,0000132000,005547,-74733,081858,085950,075568,093636
0000000134,0000133000,034024,-85390,064035,089205,074495,091454
0000000135,0000134000,059934,-87287,040022,092106,074444,088603
0000000136,0000135000,080677,-80248,012241,094366,075420,085367
0000000137,0000136000,094092,-64887,-16532,095762,077329,082063
0000000138,0000137000,098969,-42684,-43611,096159,079984,079010
0000000139,0000138000,094885,-15880,-66332,095520,083126,076508
0000000140,0000139000,082173,012867,-82369,093906,086443,074805
0000000141,0000140000,062036,040834,-90201,091474,089614,074066
0000000142,0000141000,036487,065282,-89100,088462,092330,074361
0000000143,0000142000,008078,083747,-79154,085167,094323,075663
0000000144,0000143000,-20453,094459,-61333,081913,095397,077844
0000000145,0000144000,-46371,096371,-37326,079012,095447,080694
0000000146,0000145000,-67070,089283,-09541,076752,094472,083929
0000000147,0000146000,-80524,073955,019239,075356,092565,087232
0000000148,0000147000,-85436,051786,046318,074959,089910,090285
0000000149,0000148000,-81308,024931,069046,075598,086769,092787
0000000150,0000149000,-68606,-03817,085095,077210,083453,094490
0000000151,0000150000,-48517,-31741,092931,079642,080282,095230
0000000152,0000151000,-22932,-56229,091834,082653,077566,094935
0000000153,0000152000,005499,-74727,081898,085946,075574,093634
0000000154,0000153000,033986,-85397,064080,089200,074500,091453
0000000155,0000154000,059924,-87325,040069,092101,074448,088605
0000000156,0000155000,080669,-80286,012287,094360,075423,085370
0000000157,0000156000,094092,-64924,-16496,095756,077330,082068
0000000158,0000157000,099001,-42741,-43586,096155,079983,079016
0000000159,0000158000,094925,-15932,-66320,095516,083123,076514
0000000160,0000159000,082208,012836,-82374,093904,086439,074811
0000000161,0000160000,062091,040800,-90222,091474,089608,074071
0000000162,0000161000,036546,065256,-89134,088464,092324,074365
0000000163,0000162000,008115,083755,-79199,085171,094317,075665
0000000164,0000163000,-20418,094478,-61387,081918,095391,077845
0000000165,0000164000,-46338,096392,-37380,079018,095443,080692
0000000166,0000165000,-67069,089331,-09590,076759,094469,083926
0000000167,0000166000,-80542,074015,019197,075362,092564,087227
0000000168,0000167000,-85454,051834,046289,074964,089911,090279
0000000169,0000168000,-81350,024984,069035,075602,086772,092780
0000000170,0000169000,-68668,-03761,085101,077212,083458,094484
0000000171,0000170000,-48569,-31711,092954,079641,080288,095224
0000000172,0000171000,-22985,-56216,091874,082651,077573,094930
0000000173,0000172000,005439,-74717,081950,085942,075581,093631
0000000174,0000173000,033947,-85416,064138,089195,074506,091453
0000000175,0000174000,059906,-87368,040131,092094,074453,088606
0000000176,0000175000,080656,-80329,012344,094353,075427,085374
0000000177,0000176000,094102,-64979,-16450,095749,077331,082073
0000000178,0000177000,099040,-42813,-43554,096149,079982,079023
0000000179,0000178000,094969,-15992,-66305,095512,083120,076522
0000000180,0000179000,082261,012790,-82381,093902,086434,074818
0000000181,0000180000,062163,040754,-90249,091475,089602,074077
0000000182,0000181000,036613,065232,-89176,088466,092317,074370
0000000183,0000182000,008165,083763,-79257,085176,094309,075668
0000000184,0000183000,-20368,094496,-61454,081925,095384,077845
0000000185,0000184000,-46304,096425,-37447,079026,095437,080691
0000000186,0000185000,-67068,089394,-09653,076767,094465,083922
0000000187,0000186000,-80556,074083,019143,075370,092562,087221
0000000188,0000187000,-85482,051897,046253,074971,089912,090271
0000000189,0000188000,-81407,025056,069020,075606,086775,092772
0000000190,0000189000,-68738,-03697,085107,077215,083463,094476
0000000191,0000190000,-48635,-31674,092983,079641,080296,095217
0000000192,0000191000,-23059,-56192,091924,082648,077581,094925
0000000193,0000192000,005367,-74710,082014,085937,075589,093628
0000000194,0000193000,033901,-85443,064212,089187,074514,091452
0000000195,0000194000,059877,-87416,040208,092085,074460,088609
0000000196,0000195000,080640,-80384,012414,094344,075431,085379
0000000197,0000196000,094120,-65055,-16392,095741,077332,082080
0000000198,0000197000,099084,-42898,-43513,096141,079981,079031
0000000199,0000198000,095022,-16062,-66287,095507,083116,076531
0000000200,0000199000,082333,012727,-82390,093899,086427,074827
0000000201,0000200000,062251,040699,-90281,091475,089593,074085
0000000202,0000201000,036690,065208,-89230,088469,092308,074376
0000000203,0000202000,008233,083767,-79329,085182,094300,075672
0000000204,0000203000,-20306,094515,-61536,081933,095375,077846
0000000205,0000204000,-46269,096473,-37531,079035,095430,080688
0000000206,0000205000,-67065,089469,-09732,076776,094461,083917
0000000207,0000206000,-80570,074162,019078,075380,092560,087214
0000000208,0000207000,-85521,051980,046209,074978,089913,090262
0000000209,0000208000,-81478,025146,069001,075612,086780,092762
0000000210,0000209000,-68818,-03625,085115,077218,083470,094466
0000000211,0000210000,-48719,-31627,093019,079641,080305,095208
0000000212,0000211000,-23152,-56159,091984,082644,077592,094918
0000000213,0000212000,005285,-74707,082092,085930,075599,093624
0000000214,0000213000,033844,-85477,064302,089179,074524,091452
0000000215,0000214000,059836,-87469,040301,092075,074467,088611
0000000216,0000215000,080625,-80454,012500,094333,075436,085384
0000000217,0000216000,094144,-65150,-16322,095731,077334,082089
0000000218,0000217000,099133,-42996,-43463,096133,079980,079042
0000000219,0000218000,095088,-16148,-66267,095500,083112,076542
0000000220,0000219000,082425,012646,-82400,093896,086419,074838
0000000221,0000220000,062353,040636,-90320,091475,089583,074095
0000000222,0000221000,036782,065181,-89295,088473,092297,074384
0000000223,0000222000,008320,083768,-79416,085189,094288,075676
0000000224,0000223000,-20232,094541,-61636,081942,095364,077847
0000000225,0000224000,-46229,096535,-37632,079046,095422,080685
0000000226,0000225000,-67057,089555,-09827,076788,094455,083910
0000000227,0000226000,-80586,074256,019000,075391,092558,087204
0000000228,0000227000,-85573,052085,046157,074988,089915,090251
0000000229,0000228000,-81561,025252,068978,075619,086785,092750
0000000230,0000229000,-68912,-03541,085125,077221,083479,094454
0000000231,0000230000,-48824,-31565,093063,079640,080316,095198
0000000232,0000231000,-23263,-56119,092056,082640,077604,094910
0000000233,0000232000,005192,-74707,082186,085923,075612,093619
0000000234,0000233000,033773,-85515,064411,089168,074535,091451
0000000235,0000234000,059786,-87530,040413,092063,074477,088614
0000000236,0000235000,080611,-80543,012602,094320,075442,085391
0000000237,0000236000,094172,-65262,-16237,095719,077336,082099
0000000238,0000237000,099187,-43109,-43404,096122,079978,079054
0000000239,0000238000,095169,-16254,-66242,095493,083106,076555
0000000240,0000239000,082535,012548,-82412,093893,086410,074851
0000000241,0000240000,062470,040564,-90366,091476,089572,074106
0000000242,0000241000,036894,065148,-89373,088478,092283,074392
0000000243,0000242000,008425,083766,-79520,085197,094275,075681
0000000244,0000243000,-20148,094574,-61753,081954,095352,077848
0000000245,0000244000,-46182,096609,-37752,079060,095412,080682
0000000246,0000245000,-67043,089654,-09940,076802,094449,083903
0000000247,0000246000,-80607,074369,018907,075404,092556,087194
0000000248,0000247000,-85637,052212,046093,074999,089917,090238
0000000249,0000248000,-81654,025374,068950,075627,086791,092736
0000000250,0000249000,-69023,-03443,085138,077225,083489,094440
0000000251,0000250000,-48952,-31488,093114,079639,080329,095185
0000000252,0000251000,-23392,-56074,092140,082635,077618,094901
0000000253,0000252000,005083,-74709,082297,085914,075626,093614
0000000254,0000253000,033686,-85556,064539,089155,074548,091450
0000000255,0000254000,059726,-87602,040544,092048,074487,088618
0000000256,0000255000,080597,-80650,012723,094306,075449,085399
0000000257,0000256000,094201,-65393,-16136,095704,077339,082110
0000000258,0000257000,099249,-43241,-43334,096110,079976,079068
0000000259,0000258000,095268,-16382,-66213,095485,083099,076570
0000000260,0000259000,082663,012432,-82425,093889,086399,074866
0000000261,0000260000,062605,040483,-90420,091476,089558,074119
0000000262,0000261000,037028,065106,-89465,088483,092268,074402
0000000263,0000262000,008550,083761,-79640,085207,094259,075687
0000000264,0000263000,-20052,094615,-61890,081967,095338,077849
0000000265,0000264000,-46126,096694,-37894,079075,095401,080678
0000000266,0000265000,-67024,089766,-10071,076818,094441,083894
0000000267,0000266000,-80634,074504,018800,075419,092553,087181
0000000268,0000267000,-85711,052361,046019,075012,089920,090222
0000000269,0000268000,-81760,025513,068917,075636,086799,092719
0000000270,0000269000,-69154,-03326,085152,077229,083501,094424
0000000271,0000270000,-49102,-31397,093172,079639,080344,095171
0000000272,0000271000,-23540,-56024,092238,082629,077635,094890
0000000273,0000272000,004955,-74710,082426,085903,075643,093608
0000000274,0000273000,033581,-85600,064688,089141,074564,091449
0000000275,0000274000,059659,-87686,040695,092032,074500,088622
0000000276,0000275000,080582,-80775,012863,094288,075457,085409
0000000277,0000276000,094232,-65541,-16019,095688,077342,082124
0000000278,0000277000,099322,-43394,-43254,096097,079973,079084
0000000279,0000278000,095385,-16533,-66178,095475,083091,076588
0000000280,0000279000,082809,012301,-82439,093884,086387,074883
0000000281,0000280000,062761,040390,-90482,091477,089542,074134
0000000282,0000281000,037185,065054,-89570,088490,092250,074414
0000000283,0000282000,008694,083756,-79779,085219,094241,075694
0000000284,0000283000,-19943,094665,-62049,081982,095322,077850
0000000285,0000284000,-46058,096789,-38058,079093,095387,080673
0000000286,0000285000,-67001,089895,-10222,076837,094433,083884
0000000287,0000286000,-80667,074661,018675,075437,092550,087167
0000000288,0000287000,-85794,052531,045932,075026,089922,090205
0000000289,0000288000,-81881,025671,068879,075646,086807,092700
0000000290,0000289000,-69307,-03189,085168,077234,083514,094406
0000000291,0000290000,-49275,-31291,093239,079638,080361,095155
0000000292,0000291000,-23707,-55969,092349,082622,077654,094878
0000000293,0000292000,004806,-74710,082575,085891,075662,093601
0000000294,0000293000,033460,-85649,064858,089125,074581,091448
0000000295,0000294000,059584,-87785,040869,092013,074514,088627
0000000296,0000295000,080563,-80919,013025,094268,075466,085419
0000000297,0000296000,094265,-65708,-15885,095669,077345,082139
0000000298,0000297000,099406,-43571,-43161,096081,079970,079103
0000000299,0000298000,095518,-16707,-66138,095464,083082,076608
0000000300,0000299000,082973,012153,-82455,093879,086372,074903
0000000301,0000300000,062940,040282,-90553,091478,089524,074152
