DIgSILENT PowerFactory,21000900,2000
6,06A,00D
1,TTPP_200000_100:Secondary Voltage A,,,V,0.010000000,-71.469658,0.000000,-85624,99998,1,1,P
2,TTPP_200000_100:Secondary Voltage B,,,V,0.010000000,-76.662125,0.000000,-86459,99998,1,1,P
3,TTPP_200000_100:Secondary Voltage C,,,V,0.10000000,-9022.256836,0.000000,79089,99998,1,1,P
4,TTCC_300_1:Secondary Current A,,,A,0.00010000000,-5.128417,0.000000,-19445,99998,1,1,P
5,TTCC_300_1:Secondary Current B,,,A,0.00010000000,-4.875707,0.000000,-2485,99998,1,1,P
6,TTCC_300_1:Secondary Current C,,,A,0.00010000000,-4.940597,0.000000,-1286,99998,1,1,P
50
1
1000.000000,1101
30/06/2023,06:02:13.000000
30/06/2023,06:02:13.000000
ASCII
1.000000
0000000001,0000000000,078209,022418,081641,030354,034767,084325
0000000002,0000001000,056868,049592,081057,040108,025489,083852
0000000003,0000002000,030465,072893,081368,050946,018492,080009
0000000004,0000003000,001892,089688,082545,061827,014448,073174
0000000005,0000004000,-26035,098302,084478,071667,013774,064005
0000000006,0000005000,-50915,098213,086975,079519,016524,053405
0000000007,0000006000,-70117,089348,089781,084600,022423,042424
0000000008,0000007000,-81575,072278,092634,086428,030894,032126
0000000009,0000008000,-84428,048894,095256,084799,041139,023510
0000000010,0000009000,-78439,021660,097382,079906,052109,017432
0000000011,0000010000,-63964,-07039,098804,072207,062749,014492
0000000012,0000011000,-42439,-34410,099389,062453,072029,014965
0000000013,0000012000,-16220,-57503,099077,051601,079040,018807
0000000014,0000013000,012310,-74269,097900,040738,083066,025643
0000000015,0000014000,040431,-83068,095968,030890,083746,034812
0000000016,0000015000,065225,-82902,093471,023036,081000,045411
0000000017,0000016000,084306,-73902,090663,017955,075100,056392
0000000018,0000017000,095938,-57012,087811,016138,066619,066690
0000000019,0000018000,098759,-33614,085189,017751,056389,075306
0000000020,0000019000,092649,-06235,083063,022654,045410,081383
0000000021,0000020000,078276,022354,081641,030354,034769,084325
0000000022,0000021000,056815,049657,081057,040104,025492,083851
0000000023,0000022000,030423,072928,081368,050954,018485,080009
0000000024,0000023000,001980,089609,082545,061827,014447,073173
0000000025,0000024000,-26045,098312,084478,071665,013777,064005
0000000026,0000025000,-50989,098282,086975,079519,016522,053405
0000000027,0000026000,-70076,089305,089782,084608,022415,042424
0000000028,0000027000,-81534,072235,092634,086424,030898,032126
0000000029,0000028000,-84483,048959,095256,084801,041137,023510
0000000030,0000029000,-78451,021669,097382,079910,052105,017432
0000000031,0000030000,-63908,-07097,098804,072211,062745,014491
0000000032,0000031000,-42465,-34380,099389,062451,072032,014964
0000000033,0000032000,-16248,-57480,099077,051606,079035,018807
0000000034,0000033000,012337,-74300,097900,040741,083064,025642
0000000035,0000034000,040436,-83078,095968,030892,083745,034810
0000000036,0000035000,065199,-82870,093471,023038,081000,045409
0000000037,0000036000,084329,-73926,090664,017959,075098,056391
0000000038,0000037000,095935,-57016,087812,016139,066620,066688
0000000039,0000038000,098749,-33599,085189,017754,056389,075304
0000000040,0000039000,092664,-06251,083063,022655,045410,081382
0000000041,0000040000,078282,022346,081641,030353,034770,084324
0000000042,0000041000,056788,049684,081057,040106,025492,083850
0000000043,0000042000,030449,072909,081368,050955,018484,080008
0000000044,0000043000,001998,089596,082545,061825,014449,073173
0000000045,0000044000,-26084,098348,084478,071665,013777,064005
0000000046,0000045000,-50981,098281,086974,079522,016520,053405
0000000047,0000046000,-70038,089269,089781,084607,022416,042425
0000000048,0000047000,-81567,072268,092634,086422,030899,032127
0000000049,0000048000,-84509,048986,095256,084805,041132,023511
0000000050,0000049000,-78406,021624,097382,079911,052103,017433
0000000051,0000050000,-63914,-07090,098804,072209,062746,014492
0000000052,0000051000,-42516,-34335,099389,062454,072028,014965
0000000053,0000052000,-16221,-57510,099077,051611,079029,018806
0000000054,0000053000,012363,-74329,097901,040741,083065,025642
0000000055,0000054000,040390,-83036,095968,030895,083744,034809
0000000056,0000055000,065197,-82871,093471,023044,080996,045408
0000000057,0000056000,084371,-73973,090664,017961,075097,056389
0000000058,0000057000,095915,-56995,087812,016139,066622,066686
0000000059,0000058000,098729,-33579,085189,017758,056387,075302
0000000060,0000059000,092701,-06290,083063,022657,045411,081379
0000000061,0000060000,078288,022342,081641,030352,034774,084321
0000000062,0000061000,056762,049713,081056,040106,025494,083848
0000000063,0000062000,030474,072889,081367,050956,018485,080007
0000000064,0000063000,002012,089584,082544,061822,014453,073172
0000000065,0000064000,-26104,098376,084477,071663,013779,064005
0000000066,0000065000,-50973,098280,086973,079521,016519,053407
0000000067,0000066000,-70024,089255,089781,084604,022417,042427
0000000068,0000067000,-81591,072295,092633,086420,030898,032130
0000000069,0000068000,-84512,048991,095256,084805,041129,023514
0000000070,0000069000,-78392,021609,097382,079911,052100,017436
0000000071,0000070000,-63940,-07069,098805,072210,062743,014495
0000000072,0000071000,-42529,-34323,099389,062457,072023,014967
0000000073,0000072000,-16200,-57535,099078,051614,079025,018808
0000000074,0000073000,012345,-74322,097902,040744,083062,025642
0000000075,0000074000,040366,-83020,095969,030901,083739,034808
0000000076,0000075000,065223,-82903,093472,023049,080993,045405
0000000077,0000076000,084376,-73985,090665,017964,075098,056385
0000000078,0000077000,095888,-56973,087813,016144,066622,066681
0000000079,0000078000,098751,-33602,085189,017763,056387,075297
0000000080,0000079000,092730,-06318,083063,022658,045415,081375
0000000081,0000080000,078267,022365,081641,030352,034779,084317
0000000082,0000081000,056768,049714,081055,040107,025497,083844
0000000083,0000082000,030513,072858,081367,050953,018490,080005
0000000084,0000083000,002003,089602,082543,061817,014459,073171
0000000085,0000084000,-26119,098402,084476,071660,013781,064006
0000000086,0000085000,-50945,098261,086973,079516,016521,053410
0000000087,0000086000,-70024,089262,089780,084598,022419,042431
0000000088,0000087000,-81622,072333,092633,086416,030897,032135
0000000089,0000088000,-84505,048987,095255,084803,041125,023520
0000000090,0000089000,-78388,021603,097382,079908,052097,017442
0000000091,0000090000,-63974,-07039,098805,072210,062737,014500
0000000092,0000091000,-42538,-34321,099390,062461,072015,014971
0000000093,0000092000,-16192,-57555,099079,051618,079019,018810
0000000094,0000093000,012321,-74310,097903,040749,083056,025642
0000000095,0000094000,040355,-83019,095970,030909,083733,034806
0000000096,0000095000,065241,-82933,093473,023057,080989,045401
0000000097,0000096000,084370,-73991,090666,017971,075097,056379
0000000098,0000097000,095882,-56972,087813,016151,066622,066674
0000000099,0000098000,098779,-33633,085189,017768,056390,075289
0000000100,0000099000,092742,-06331,083063,022659,045421,081367
0000000101,0000100000,078263,022375,081640,030353,034785,084309
0000000102,0000101000,056797,049696,081054,040105,025503,083839
0000000103,0000102000,030534,072848,081366,050947,018499,080001
0000000104,0000103000,001992,089627,082542,061810,014466,073170
0000000105,0000104000,-26107,098407,084474,071653,013786,064008
0000000106,0000105000,-50926,098255,086971,079507,016526,053414
0000000107,0000106000,-70045,089294,089779,084589,022421,042437
0000000108,0000107000,-81636,072356,092632,086410,030894,032143
0000000109,0000108000,-84495,048981,095255,084798,041121,023529
0000000110,0000109000,-78412,021624,097383,079905,052091,017451
0000000111,0000110000,-64007,-07012,098806,072211,062728,014508
0000000112,0000111000,-42537,-34333,099391,062465,072004,014977
0000000113,0000112000,-16204,-57560,099080,051623,079010,018814
0000000114,0000113000,012288,-74294,097905,040758,083047,025643
0000000115,0000114000,040357,-83039,095972,030920,083724,034803
0000000116,0000115000,065252,-82963,093475,023067,080985,045396
0000000117,0000116000,084357,-73991,090667,017981,075095,056371
0000000118,0000117000,095891,-56990,087814,016161,066622,066664
0000000119,0000118000,098812,-33670,085190,017774,056395,075278
0000000120,0000119000,092750,-06337,083063,022662,045430,081355
0000000121,0000120000,078275,022373,081639,030354,034794,084299
0000000122,0000121000,056834,049673,081053,040102,025515,083831
0000000123,0000122000,030549,072850,081364,050939,018512,079996
0000000124,0000123000,001993,089649,082540,061801,014477,073169
0000000125,0000124000,-26085,098408,084472,071642,013794,064011
0000000126,0000125000,-50919,098268,086969,079494,016532,053420
0000000127,0000126000,-70066,089332,089777,084577,022423,042447
0000000128,0000127000,-81641,072375,092630,086401,030892,032155
0000000129,0000128000,-84502,048992,095255,084790,041115,023542
0000000130,0000129000,-78449,021657,097383,079901,052082,017464
0000000131,0000130000,-64032,-06995,098807,072213,062715,014519
0000000132,0000131000,-42547,-34340,099393,062470,071991,014986
0000000133,0000132000,-16236,-57552,099083,051631,078996,018819
0000000134,0000133000,012263,-74293,097907,040771,083033,025644
0000000135,0000134000,040362,-83069,095974,030935,083713,034800
0000000136,0000135000,065247,-82983,093477,023081,080978,045388
0000000137,0000136000,084349,-74003,090669,017996,075092,056359
0000000138,0000137000,095917,-57029,087815,016174,066623,066650
0000000139,0000138000,098838,-33704,085191,017783,056402,075262
0000000140,0000139000,092760,-06344,083062,022667,045440,081340
0000000141,0000140000,078309,022353,081638,030355,034807,084286
0000000142,0000141000,056875,049651,081051,040096,025531,083821
0000000143,0000142000,030562,072862,081361,050929,018528,079990
0000000144,0000143000,002010,089663,082537,061789,014491,073168
0000000145,0000144000,-26058,098412,084469,071626,013806,064015
0000000146,0000145000,-50923,098298,086967,079476,016541,053429
0000000147,0000146000,-70082,089373,089775,084561,022426,042460
0000000148,0000147000,-81644,072395,092629,086387,030889,032171
0000000149,0000148000,-84526,049021,095254,084779,041108,023560
0000000150,0000149000,-78491,021697,097383,079896,052070,017482
0000000151,0000150000,-64058,-06983,098808,072214,062698,014535
0000000152,0000151000,-42573,-34338,099395,062475,071973,014998
0000000153,0000152000,-16278,-57540,099086,051643,078978,018826
0000000154,0000153000,012242,-74306,097910,040788,083015,025645
0000000155,0000154000,040358,-83101,095978,030953,083699,034796
0000000156,0000155000,065234,-83004,093481,023100,080969,045378
0000000157,0000156000,084354,-74033,090672,018015,075088,056344
0000000158,0000157000,095947,-57078,087817,016190,066625,066631
0000000159,0000158000,098861,-33736,085192,017794,056411,075242
0000000160,0000159000,092787,-06365,083062,022674,045454,081320
0000000161,0000160000,078358,022320,081636,030355,034825,084268
0000000162,0000161000,056914,049637,081049,040089,025552,083807
0000000163,0000162000,030585,072874,081358,050916,018550,079981
0000000164,0000163000,002044,089670,082533,061771,014510,073166
0000000165,0000164000,-26035,098428,084465,071604,013823,064020
0000000166,0000165000,-50930,098343,086963,079454,016552,053441
0000000167,0000166000,-70090,089413,089772,084541,022429,042477
0000000168,0000167000,-81655,072426,092627,086369,030886,032192
0000000169,0000168000,-84566,049068,095253,084766,041099,023583
0000000170,0000169000,-78536,021737,097384,079890,052053,017504
0000000171,0000170000,-64090,-06968,098810,072215,062677,014555
0000000172,0000171000,-42619,-34323,099398,062483,071950,015014
0000000173,0000172000,-16324,-57531,099090,051658,078953,018836
0000000174,0000173000,012221,-74328,097915,040808,082992,025647
0000000175,0000174000,040342,-83132,095983,030976,083682,034790
0000000176,0000175000,065220,-83031,093485,023126,080957,045365
0000000177,0000176000,084369,-74081,090675,018040,075082,056325
0000000178,0000177000,095978,-57133,087820,016210,066629,066607
0000000179,0000178000,098888,-33772,085193,017809,056422,075216
0000000180,0000179000,092831,-06402,083061,022682,045471,081294
0000000181,0000180000,078416,022282,081634,030354,034848,084245
0000000182,0000181000,056956,049627,081045,040080,025579,083789
0000000183,0000182000,030623,072881,081353,050901,018576,079971
0000000184,0000183000,002086,089677,082528,061749,014534,073164
0000000185,0000184000,-26016,098459,084460,071577,013843,064026
0000000186,0000185000,-50933,098393,086958,079426,016566,053455
0000000187,0000186000,-70095,089457,089768,084515,022434,042498
0000000188,0000187000,-81679,072475,092624,086346,030883,032219
0000000189,0000188000,-84615,049128,095252,084750,041087,023611
0000000190,0000189000,-78582,021778,097384,079882,052032,017533
0000000191,0000190000,-64138,-06944,098812,072215,062651,014580
0000000192,0000191000,-42681,-34299,099402,062493,071921,015033
0000000193,0000192000,-16374,-57530,099094,051677,078923,018847
0000000194,0000193000,012192,-74355,097920,040833,082965,025650
0000000195,0000194000,040315,-83162,095988,031005,083660,034783
0000000196,0000195000,065209,-83072,093490,023157,080942,045348
0000000197,0000196000,084390,-74145,090679,018070,075076,056301
0000000198,0000197000,096008,-57193,087823,016235,066634,066578
0000000199,0000198000,098925,-33821,085194,017827,056436,075184
0000000200,0000199000,092892,-06455,083060,022691,045493,081263
0000000201,0000200000,078480,022242,081632,030353,034877,084217
0000000202,0000201000,057008,049616,081041,040069,025612,083768
0000000203,0000202000,030678,072881,081348,050881,018608,079958
0000000204,0000203000,002134,089690,082521,061721,014565,073161
0000000205,0000204000,-25997,098502,084454,071545,013868,064034
0000000206,0000205000,-50929,098449,086952,079393,016581,053473
0000000207,0000206000,-70102,089511,089763,084482,022440,042525
0000000208,0000207000,-81715,072542,092621,086318,030879,032251
0000000209,0000208000,-84669,049196,095251,084730,041071,023646
0000000210,0000209000,-78637,021825,097385,079872,052008,017567
0000000211,0000210000,-64205,-06906,098815,072216,062620,014611
0000000212,0000211000,-42754,-34271,099407,062505,071885,015057
0000000213,0000212000,-16428,-57534,099100,051699,078886,018861
0000000214,0000213000,012150,-74382,097927,040863,082932,025653
0000000215,0000214000,040280,-83197,095995,031041,083633,034774
0000000216,0000215000,065204,-83129,093496,023195,080924,045329
0000000217,0000216000,084411,-74220,090685,018105,075069,056272
0000000218,0000217000,096039,-57260,087826,016265,066639,066543
0000000219,0000218000,098977,-33886,085195,017849,056452,075145
0000000220,0000219000,092966,-06521,083060,022702,045520,081225
0000000221,0000220000,078552,022200,081629,030351,034912,084184
0000000222,0000221000,057076,049599,081036,040056,025650,083742
0000000223,0000222000,030748,072877,081341,050857,018648,079943
0000000224,0000223000,002186,089712,082514,061688,014601,073158
0000000225,0000224000,-25972,098553,084446,071506,013898,064043
0000000226,0000225000,-50919,098509,086945,079352,016601,053494
0000000227,0000226000,-70115,089581,089757,084443,022448,042556
0000000228,0000227000,-81761,072627,092617,086285,030873,032290
0000000229,0000228000,-84729,049273,095249,084707,041053,023689
0000000230,0000229000,-78705,021884,097386,079860,051978,017609
0000000231,0000230000,-64290,-06856,098818,072217,062583,014647
0000000232,0000231000,-42836,-34242,099412,062520,071842,015085
0000000233,0000232000,-16494,-57540,099107,051726,078843,018878
0000000234,0000233000,012093,-74408,097935,040899,082892,025656
0000000235,0000234000,040241,-83241,096004,031084,083601,034763
0000000236,0000235000,065200,-83202,093504,023240,080902,045305
0000000237,0000236000,084432,-74304,090691,018148,075062,056238
0000000238,0000237000,096077,-57341,087831,016301,066645,066500
0000000239,0000238000,099043,-33970,085197,017875,056472,075100
0000000240,0000239000,093050,-06596,083059,022715,045552,081180
0000000241,0000240000,078636,022152,081625,030350,034954,084144
0000000242,0000241000,057163,049573,081030,040040,025696,083711
0000000243,0000242000,030831,072872,081333,050828,018695,079925
0000000244,0000243000,002243,089743,082505,061648,014644,073155
0000000245,0000244000,-25938,098611,084437,071460,013932,064055
0000000246,0000245000,-50905,098579,086937,079304,016623,053520
0000000247,0000246000,-70135,089670,089751,084397,022457,042594
0000000248,0000247000,-81812,072725,092612,086246,030866,032335
0000000249,0000248000,-84795,049359,095247,084679,041031,023738
0000000250,0000249000,-78790,021958,097387,079846,051944,017657
0000000251,0000250000,-64390,-06794,098822,072219,062538,014690
0000000252,0000251000,-42930,-34213,099418,062537,071792,015117
0000000253,0000252000,-16574,-57545,099116,051757,078793,018897
0000000254,0000253000,012024,-74435,097945,040942,082846,025659
0000000255,0000254000,040199,-83297,096013,031134,083563,034751
0000000256,0000255000,065194,-83287,093513,023292,080878,045278
0000000257,0000256000,084451,-74398,090699,018197,075053,056198
0000000258,0000257000,096124,-57439,087836,016343,066652,066451
0000000259,0000258000,099123,-34070,085199,017905,056495,075046
0000000260,0000259000,093144,-06679,083058,022730,045589,081128
0000000261,0000260000,078735,022096,081621,030348,035001,084098
0000000262,0000261000,057268,049538,081023,040021,025750,083676
0000000263,0000262000,030924,072870,081324,050794,018749,079904
0000000264,0000263000,002311,089780,082495,061602,014694,073151
0000000265,0000264000,-25893,098673,084426,071406,013972,064068
0000000266,0000265000,-50890,098662,086927,079247,016650,053550
0000000267,0000266000,-70161,089776,089742,084344,022467,042637
0000000268,0000267000,-81868,072837,092607,086202,030858,032388
0000000269,0000268000,-84872,049460,095245,084647,041005,023795
0000000270,0000269000,-78893,022048,097388,079830,051904,017713
0000000271,0000270000,-64504,-06724,098827,072221,062487,014739
0000000272,0000271000,-43037,-34180,099426,062558,071734,015155
0000000273,0000272000,-16671,-57546,099126,051794,078734,018919
0000000274,0000273000,011943,-74467,097956,040991,082793,025663
0000000275,0000274000,040153,-83365,096025,031192,083520,034736
0000000276,0000275000,065184,-83383,093524,023352,080850,045246
0000000277,0000276000,084472,-74506,090707,018254,075043,056151
0000000278,0000277000,096182,-57556,087841,016391,066661,066395
0000000279,0000278000,099213,-34187,085201,017939,056522,074985
0000000280,0000279000,093251,-06774,083056,022746,045633,081068
0000000281,0000280000,078853,022026,081616,030346,035056,084046
0000000282,0000281000,057390,049496,081015,040000,025812,083636
0000000283,0000282000,031029,072869,081314,050754,018812,079881
0000000284,0000283000,002391,089821,082483,061549,014751,073147
0000000285,0000284000,-25838,098742,084414,071345,014018,064084
0000000286,0000285000,-50875,098760,086916,079183,016680,053584
0000000287,0000286000,-70190,089898,089733,084283,022478,042687
0000000288,0000287000,-81928,072963,092600,086151,030848,032449
0000000289,0000288000,-84963,049578,095242,084610,040976,023861
0000000290,0000289000,-79013,022155,097390,079812,051858,017777
0000000291,0000290000,-64633,-06646,098832,072224,062428,014795
0000000292,0000291000,-43161,-34141,099434,062581,071668,015198
0000000293,0000292000,-16786,-57544,099137,051835,078668,018944
0000000294,0000293000,011852,-74504,097969,041048,082732,025667
0000000295,0000294000,040100,-83444,096038,031258,083471,034719
0000000296,0000295000,065168,-83490,093536,023421,080818,045209
0000000297,0000296000,084496,-74631,090717,018318,075031,056098
0000000298,0000297000,096250,-57694,087848,016446,066671,066330
0000000299,0000298000,099314,-34318,085205,017978,056554,074915
0000000300,0000299000,093373,-06883,083055,022765,045682,081000
0000000301,0000300000,078991,021943,081610,030343,035119,083986
