DIgSILENT PowerFactory,21000900,2000
6,06A,00D
1,TTPP_200000_100:Secondary Voltage A,,,V,0.10000000,-8356.492188,0.000000,69031,99998,1,1,P
2,TTPP_200000_100:Secondary Voltage B,,,V,0.10000000,-8419.104492,0.000000,70303,99998,1,1,P
3,TTPP_200000_100:Secondary Voltage C,,,V,0.10000000,-8456.915039,0.000000,67046,99998,1,1,P
4,TTCC_500_5:Secondary Current A,,,A,0.0010000000,-79.265404,0.000000,65035,99998,1,1,P
5,TTCC_500_5:Secondary Current B,,,A,0.0010000000,-84.504822,0.000000,69087,99998,1,1,P
6,TTCC_500_5:Secondary Current C,,,A,0.0010000000,-84.881027,0.000000,69783,99998,1,1,P
50
1
1000.000000,1101
30/06/2023,06:08:59.000000
30/06/2023,06:08:59.000000
ASCII
1.000000
0000000001,0000000000,089077,087832,075417,085181,089184,074286
0000000002,0000001000,086528,090265,075531,082164,091903,074585
0000000003,0000002000,083680,092117,076529,078868,093893,075890
0000000004,0000003000,080828,093185,078312,075612,094963,078076
0000000005,0000004000,078248,093364,080714,072705,095016,080930
0000000006,0000005000,076176,092657,083492,070446,094036,084169
0000000007,0000006000,074831,091126,086367,069054,092121,087476
0000000008,0000007000,074354,088899,089073,068657,089463,090531
0000000009,0000008000,074765,086217,091342,069297,086320,093034
0000000010,0000009000,076033,083351,092942,070916,082998,094737
0000000011,0000010000,078053,080551,093721,073355,079822,095475
0000000012,0000011000,080611,078106,093607,076368,077107,095176
0000000013,0000012000,083443,076272,092611,079665,075116,093871
0000000014,0000013000,086296,075202,090826,082926,074040,091685
0000000015,0000014000,088894,075007,088425,085827,073993,088831
0000000016,0000015000,090951,075727,085647,088086,074974,085591
0000000017,0000016000,092288,077266,082771,089482,076884,082285
0000000018,0000017000,092787,079473,080066,089878,079543,079230
0000000019,0000018000,092367,082161,077796,089234,082690,076727
0000000020,0000019000,091085,085044,076196,087617,086010,075024
0000000021,0000020000,089083,087825,075417,085182,089183,074286
0000000022,0000021000,086528,090266,075531,082164,091902,074585
0000000023,0000022000,083676,092122,076528,078867,093894,075890
0000000024,0000023000,080831,093182,078312,075610,094965,078076
0000000025,0000024000,078250,093362,080714,072706,095015,080930
0000000026,0000025000,076173,092661,083491,070446,094036,084169
0000000027,0000026000,074832,091126,086367,069052,092123,087476
0000000028,0000027000,074355,088897,089073,068656,089464,090531
0000000029,0000028000,074764,086219,091342,069298,086320,093034
0000000030,0000029000,076033,083350,092942,070916,082998,094737
0000000031,0000030000,078053,080551,093722,073352,079824,095475
0000000032,0000031000,080609,078108,093608,076367,077108,095176
0000000033,0000032000,083444,076270,092610,079666,075115,093871
0000000034,0000033000,086298,075200,090826,082924,074041,091685
0000000035,0000034000,088889,075010,088425,085826,073994,088831
0000000036,0000035000,090951,075727,085647,088086,074973,085592
0000000037,0000036000,092294,077261,082771,089482,076884,082285
0000000038,0000037000,092784,079476,080066,089877,079544,079231
0000000039,0000038000,092364,082165,077797,089234,082690,076727
0000000040,0000039000,091090,085039,076196,087618,086009,075024
0000000041,0000040000,089084,087824,075417,085181,089183,074287
0000000042,0000041000,086522,090272,075531,082164,091902,074585
0000000043,0000042000,083678,092120,076527,078867,093894,075890
0000000044,0000043000,080836,093178,078311,075610,094966,078076
0000000045,0000044000,078245,093367,080714,072706,095015,080930
0000000046,0000045000,076171,092663,083491,070447,094035,084169
0000000047,0000046000,074838,091121,086367,069052,092123,087476
0000000048,0000047000,074353,088899,089073,068655,089465,090531
0000000049,0000048000,074759,086224,091342,069298,086319,093034
0000000050,0000049000,076037,083347,092942,070916,082998,094737
0000000051,0000050000,078054,080550,093722,073351,079826,095475
0000000052,0000051000,080604,078113,093608,076367,077108,095176
0000000053,0000052000,083445,076269,092611,079666,075114,093871
0000000054,0000053000,086301,075197,090827,082923,074043,091686
0000000055,0000054000,088886,075013,088426,085824,073995,088832
0000000056,0000055000,090950,075727,085647,088086,074973,085592
0000000057,0000056000,092297,077257,082771,089481,076884,082286
0000000058,0000057000,092783,079477,080066,089875,079545,079231
0000000059,0000058000,092363,082166,077797,089233,082690,076728
0000000060,0000059000,091093,085036,076196,087617,086009,075025
0000000061,0000060000,089084,087824,075417,085181,089183,074287
0000000062,0000061000,086521,090274,075530,082164,091901,074586
0000000063,0000062000,083681,092118,076527,078868,093893,075891
0000000064,0000063000,080837,093177,078311,075610,094965,078076
0000000065,0000064000,078243,093370,080713,072707,095015,080930
0000000066,0000065000,076172,092663,083490,070447,094035,084169
0000000067,0000066000,074839,091120,086367,069052,092124,087475
0000000068,0000067000,074350,088902,089072,068656,089465,090530
0000000069,0000068000,074760,086224,091341,069299,086320,093033
0000000070,0000069000,076038,083345,092942,070916,082999,094736
0000000071,0000070000,078051,080552,093722,073350,079827,095474
0000000072,0000071000,080603,078114,093609,076367,077109,095175
0000000073,0000072000,083447,076266,092611,079665,075116,093871
0000000074,0000073000,086299,075198,090828,082921,074044,091686
0000000075,0000074000,088883,075015,088427,085823,073996,088832
0000000076,0000075000,090953,075724,085648,088084,074974,085593
0000000077,0000076000,092297,077256,082772,089479,076885,082287
0000000078,0000077000,092780,079479,080067,089874,079545,079232
0000000079,0000078000,092365,082163,077797,089233,082689,076730
0000000080,0000079000,091096,085033,076196,087616,086008,075027
0000000081,0000080000,089082,087826,075416,085180,089182,074289
0000000082,0000081000,086522,090274,075529,082165,091899,074587
0000000083,0000082000,083685,092115,076526,078868,093891,075891
0000000084,0000083000,080836,093179,078310,075611,094965,078076
0000000085,0000084000,078242,093372,080711,072709,095013,080929
0000000086,0000085000,076176,092661,083489,070449,094034,084168
0000000087,0000086000,074838,091121,086366,069053,092124,087474
0000000088,0000087000,074347,088907,089072,068657,089466,090528
0000000089,0000088000,074760,086224,091341,069300,086320,093031
0000000090,0000089000,076038,083345,092942,070916,083001,094734
0000000091,0000090000,078047,080556,093723,073350,079829,095472
0000000092,0000091000,080602,078114,093610,076366,077111,095174
0000000093,0000092000,083448,076264,092613,079663,075118,093870
0000000094,0000093000,086296,075199,090830,082919,074046,091685
0000000095,0000094000,088882,075015,088428,085822,073997,088833
0000000096,0000095000,090955,075720,085650,088082,074975,085594
0000000097,0000096000,092297,077255,082774,089477,076886,082289
0000000098,0000097000,092780,079478,080067,089873,079544,079235
0000000099,0000098000,092368,082160,077797,089232,082688,076732
0000000100,0000099000,091098,085031,076196,087615,086007,075029
0000000101,0000100000,089082,087827,075415,085181,089180,074291
0000000102,0000101000,086525,090272,075528,082166,091897,074588
0000000103,0000102000,083687,092114,076524,078869,093889,075892
0000000104,0000103000,080836,093182,078308,075612,094962,078076
0000000105,0000104000,078243,093373,080709,072711,095011,080929
0000000106,0000105000,076177,092661,083487,070451,094033,084167
0000000107,0000106000,074836,091125,086364,069055,092124,087472
0000000108,0000107000,074345,088909,089070,068660,089466,090526
0000000109,0000108000,074761,086224,091340,069301,086321,093029
0000000110,0000109000,076035,083348,092943,070916,083003,094732
0000000111,0000110000,078043,080559,093723,073350,079831,095470
0000000112,0000111000,080601,078113,093611,076365,077113,095173
0000000113,0000112000,083446,076264,092615,079661,075121,093869
0000000114,0000113000,086292,075200,090832,082917,074049,091685
0000000115,0000114000,088882,075012,088430,085819,073999,088833
0000000116,0000115000,090956,075717,085652,088079,074976,085596
0000000117,0000116000,092295,077254,082776,089474,076887,082291
0000000118,0000117000,092781,079476,080069,089870,079543,079237
0000000119,0000118000,092372,082155,077798,089230,082687,076735
0000000120,0000119000,091099,085030,076196,087614,086005,075032
0000000121,0000120000,089084,087826,075414,085181,089177,074293
0000000122,0000121000,086530,090269,075526,082167,091893,074591
0000000123,0000122000,083689,092114,076522,078871,093886,075894
0000000124,0000123000,080836,093184,078305,075615,094959,078077
0000000125,0000124000,078246,093373,080706,072715,095009,080928
0000000126,0000125000,076178,092663,083484,070455,094032,084165
0000000127,0000126000,074834,091129,086362,069059,092123,087469
0000000128,0000127000,074344,088912,089068,068663,089466,090522
0000000129,0000128000,074759,086226,091340,069303,086323,093025
0000000130,0000129000,076031,083352,092943,070917,083006,094728
0000000131,0000130000,078040,080561,093725,073350,079835,095467
0000000132,0000131000,080599,078113,093613,076364,077117,095170
0000000133,0000132000,083442,076265,092618,079658,075126,093867
0000000134,0000133000,086289,075200,090835,082914,074053,091685
0000000135,0000134000,088882,075009,088434,085815,074002,088834
0000000136,0000135000,090955,075714,085656,088074,074979,085598
0000000137,0000136000,092295,077252,082778,089470,076887,082294
0000000138,0000137000,092784,079471,080071,089867,079543,079242
0000000139,0000138000,092375,082151,077799,089227,082685,076740
0000000140,0000139000,091101,085028,076196,087613,086002,075036
0000000141,0000140000,089089,087823,075413,085181,089173,074297
0000000142,0000141000,086535,090267,075523,082168,091889,074594
0000000143,0000142000,083692,092115,076518,078874,093882,075895
0000000144,0000143000,080839,093186,078301,075620,094955,078077
0000000145,0000144000,078249,093374,080702,072719,095005,080927
0000000146,0000145000,076178,092667,083481,070459,094030,084162
0000000147,0000146000,074832,091134,086358,069064,092122,087465
0000000148,0000147000,074344,088915,089066,068667,089467,090518
0000000149,0000148000,074756,086230,091339,069306,086326,093020
0000000150,0000149000,076025,083357,092943,070919,083010,094723
0000000151,0000150000,078036,080563,093726,073350,079839,095462
0000000152,0000151000,080595,078114,093617,076362,077123,095167
0000000153,0000152000,083437,076266,092622,079655,075131,093865
0000000154,0000153000,086286,075199,090840,082909,074057,091685
0000000155,0000154000,088881,075005,088439,085809,074006,088836
0000000156,0000155000,090953,075711,085660,088068,074982,085601
0000000157,0000156000,092295,077248,082782,089464,076888,082299
0000000158,0000157000,092788,079465,080073,089862,079542,079247
0000000159,0000158000,092378,082147,077800,089223,082683,076745
0000000160,0000159000,091105,085025,076195,087611,085998,075042
0000000161,0000160000,089095,087819,075411,085181,089167,074303
0000000162,0000161000,086540,090265,075520,082170,091883,074598
0000000163,0000162000,083695,092116,076514,078878,093876,075898
0000000164,0000163000,080843,093187,078295,075625,094949,078078
0000000165,0000164000,078252,093377,080697,072725,095001,080925
0000000166,0000165000,076177,092672,083476,070466,094027,084159
0000000167,0000166000,074831,091140,086354,069070,092121,087460
0000000168,0000167000,074342,088920,089063,068672,089468,090512
0000000169,0000168000,074751,086236,091338,069309,086329,093013
0000000170,0000169000,076020,083362,092944,070921,083014,094716
0000000171,0000170000,078032,080565,093729,073350,079845,095456
0000000172,0000171000,080589,078116,093621,076359,077130,095162
0000000173,0000172000,083431,076267,092627,079651,075138,093863
0000000174,0000173000,086283,075196,090846,082903,074064,091684
0000000175,0000174000,088879,075001,088445,085802,074011,088837
0000000176,0000175000,090952,075707,085666,088061,074985,085605
0000000177,0000176000,092297,077242,082787,089458,076889,082304
0000000178,0000177000,092791,079458,080076,089856,079541,079254
0000000179,0000178000,092382,082142,077802,089219,082679,076753
0000000180,0000179000,091111,085020,076194,087609,085992,075050
0000000181,0000180000,089103,087814,075408,085181,089161,074309
0000000182,0000181000,086546,090263,075516,082173,091876,074603
0000000183,0000182000,083700,092117,076508,078883,093868,075901
0000000184,0000183000,080849,093188,078289,075631,094942,078078
0000000185,0000184000,078255,093381,080690,072733,094995,080924
0000000186,0000185000,076177,092679,083469,070474,094023,084155
0000000187,0000186000,074831,091146,086349,069078,092119,087454
0000000188,0000187000,074339,088926,089060,068678,089469,090504
0000000189,0000188000,074745,086244,091336,069314,086332,093005
0000000190,0000189000,076013,083368,092944,070923,083020,094708
0000000191,0000190000,078025,080569,093732,073350,079853,095449
0000000192,0000191000,080581,078119,093625,076356,077138,095157
0000000193,0000192000,083424,076267,092634,079646,075146,093859
0000000194,0000193000,086279,075193,090853,082896,074072,091683
0000000195,0000194000,088875,074997,088453,085794,074018,088840
0000000196,0000195000,090950,075702,085673,088052,074989,085610
0000000197,0000196000,092300,077233,082792,089449,076891,082311
0000000198,0000197000,092795,079450,080081,089849,079540,079262
0000000199,0000198000,092387,082135,077803,089214,082675,076762
0000000200,0000199000,091119,085013,076193,087607,085986,075059
0000000201,0000200000,089111,087809,075405,085182,089152,074317
0000000202,0000201000,086553,090262,075510,082176,091867,074609
0000000203,0000202000,083708,092116,076501,078889,093858,075904
0000000204,0000203000,080855,093190,078281,075639,094933,078079
0000000205,0000204000,078258,093386,080681,072742,094988,080921
0000000206,0000205000,076178,092686,083461,070484,094018,084150
0000000207,0000206000,074830,091153,086342,069087,092118,087447
0000000208,0000207000,074334,088935,089056,068686,089470,090495
0000000209,0000208000,074738,086253,091334,069320,086337,092995
0000000210,0000209000,076006,083374,092945,070926,083027,094698
0000000211,0000210000,078016,080574,093735,073349,079862,095440
0000000212,0000211000,080572,078122,093631,076353,077149,095150
0000000213,0000212000,083417,076267,092642,079639,075157,093855
0000000214,0000213000,086273,075190,090862,082887,074081,091683
0000000215,0000214000,088870,074992,088462,085783,074026,088842
0000000216,0000215000,090949,075694,085681,088042,074994,085615
0000000217,0000216000,092302,077224,082800,089439,076893,082320
0000000218,0000217000,092799,079441,080086,089840,079539,079273
0000000219,0000218000,092394,082126,077805,089208,082670,076773
0000000220,0000219000,091129,085004,076192,087604,085978,075070
0000000221,0000220000,089121,087803,075401,085182,089142,074327
0000000222,0000221000,086562,090259,075504,082180,091855,074616
0000000223,0000222000,083717,092116,076492,078896,093847,075909
0000000224,0000223000,080862,093192,078271,075649,094923,078080
0000000225,0000224000,078261,093393,080671,072753,094980,080918
0000000226,0000225000,076180,092694,083452,070496,094012,084143
0000000227,0000226000,074828,091162,086335,069098,092116,087438
0000000228,0000227000,074328,088946,089050,068695,089472,090484
0000000229,0000228000,074730,086263,091332,069327,086342,092982
0000000230,0000229000,075997,083382,092946,070929,083036,094686
0000000231,0000230000,078005,080581,093740,073349,079873,095430
0000000232,0000231000,080561,078126,093638,076349,077161,095142
0000000233,0000232000,083408,076267,092651,079631,075169,093851
0000000234,0000233000,086265,075186,090873,082876,074093,091682
0000000235,0000234000,088865,074987,088473,085771,074035,088845
0000000236,0000235000,090949,075685,085692,088029,075000,085622
0000000237,0000236000,092304,077213,082808,089426,076895,082330
0000000238,0000237000,092804,079430,080091,089830,079537,079285
0000000239,0000238000,092403,082115,077808,089200,082665,076786
0000000240,0000239000,091140,084994,076191,087600,085969,075082
0000000241,0000240000,089132,087797,075396,085182,089131,074338
0000000242,0000241000,086574,090255,075496,082185,091842,074625
0000000243,0000242000,083728,092115,076482,078904,093833,075914
0000000244,0000243000,080870,093196,078259,075660,094911,078081
0000000245,0000244000,078266,093400,080659,072767,094970,080915
0000000246,0000245000,076182,092703,083441,070509,094006,084136
0000000247,0000246000,074825,091174,086325,069111,092113,087427
0000000248,0000247000,074322,088959,089044,068707,089474,090470
0000000249,0000248000,074721,086274,091329,069335,086348,092968
0000000250,0000249000,075985,083392,092948,070933,083046,094672
0000000251,0000250000,077992,080589,093745,073348,079886,095418
0000000252,0000251000,080548,078130,093647,076344,077175,095132
0000000253,0000252000,083397,076266,092662,079622,075184,093845
0000000254,0000253000,086256,075183,090886,082864,074106,091681
0000000255,0000254000,088860,074979,088486,085757,074045,088849
0000000256,0000255000,090948,075674,085704,088014,075007,085630
0000000257,0000256000,092307,077200,082818,089412,076898,082341
0000000258,0000257000,092811,079417,080098,089818,079534,079299
0000000259,0000258000,092413,082101,077811,089192,082658,076802
0000000260,0000259000,091152,084983,076190,087596,085958,075097
0000000261,0000260000,089145,087789,075391,085183,089117,074351
0000000262,0000261000,086588,090250,075487,082190,091826,074635
0000000263,0000262000,083740,092115,076470,078914,093818,075920
0000000264,0000263000,080879,093201,078245,075673,094896,078082
0000000265,0000264000,078272,093408,080645,072782,094958,080911
0000000266,0000265000,076184,092714,083428,070526,093998,084127
0000000267,0000266000,074822,091188,086315,069126,092111,087414
0000000268,0000267000,074315,088974,089036,068719,089477,090455
0000000269,0000268000,074711,086288,091326,069344,086356,092952
0000000270,0000269000,075972,083404,092949,070937,083058,094656
0000000271,0000270000,077977,080598,093751,073347,079901,095403
0000000272,0000271000,080534,078135,093657,076338,077192,095122
0000000273,0000272000,083384,076266,092675,079612,075201,093839
0000000274,0000273000,086245,075179,090901,082850,074121,091680
0000000275,0000274000,088853,074970,088501,085740,074058,088853
0000000276,0000275000,090946,075661,085718,087996,075015,085640
0000000277,0000276000,092310,077186,082830,089396,076901,082355
0000000278,0000277000,092818,079401,080106,089804,079532,079315
0000000279,0000278000,092425,082086,077814,089182,082650,076819
0000000280,0000279000,091166,084970,076189,087591,085946,075115
0000000281,0000280000,089161,087780,075385,085184,089101,074366
0000000282,0000281000,086604,090245,075476,082197,091808,074646
0000000283,0000282000,083754,092115,076456,078925,093800,075926
0000000284,0000283000,080890,093206,078229,075689,094880,078083
0000000285,0000284000,078279,093417,080629,072800,094945,080906
0000000286,0000285000,076186,092727,083412,070544,093990,084117
0000000287,0000286000,074819,091204,086302,069144,092108,087400
0000000288,0000287000,074307,088991,089028,068734,089479,090438
0000000289,0000288000,074699,086304,091322,069354,086364,092933
0000000290,0000289000,075956,083418,092951,070942,083071,094638
0000000291,0000290000,077960,080609,093757,073346,079918,095387
0000000292,0000291000,080517,078140,093668,076331,077211,095110
0000000293,0000292000,083368,076267,092690,079599,075220,093832
0000000294,0000293000,086233,075174,090918,082833,074139,091679
0000000295,0000294000,088846,074960,088519,085721,074071,088858
0000000296,0000295000,090944,075647,085734,087977,075024,085650
0000000297,0000296000,092313,077169,082843,089377,076904,082370
0000000298,0000297000,092827,079383,080115,089789,079529,079334
0000000299,0000298000,092438,082069,077818,089171,082641,076839
0000000300,0000299000,091182,084956,076187,087586,085931,075134
0000000301,0000300000,089179,087768,075377,085185,089083,074383
