DIgSILENT PowerFactory,21000900,2000
6,06A,00D
1,TTPP_200000_100:Secondary Voltage A,,,V,0.10000000,-8364.757813,0.000000,67079,99998,1,1,P
2,TTPP_200000_100:Secondary Voltage B,,,V,0.10000000,-8017.334961,0.000000,63185,99998,1,1,P
3,TTPP_200000_100:Secondary Voltage C,,,V,0.10000000,-8328.788086,0.000000,65796,99998,1,1,P
4,TTCC_500_5:Secondary Current A,,,A,0.0010000000,-87.510452,0.000000,69613,99998,1,1,P
5,TTCC_500_5:Secondary Current B,,,A,0.0010000000,-85.168053,0.000000,70246,99998,1,1,P
6,TTCC_500_5:Secondary Current C,,,A,0.0010000000,-84.738754,0.000000,69360,99998,1,1,P
50
1
1000.000000,1101
30/06/2023,06:08:53.000000
30/06/2023,06:08:53.000000
ASCII
1.000000
0000000001,0000000000,089160,083814,074135,093426,089847,074144
0000000002,0000001000,086611,086247,074250,090411,092563,074442
0000000003,0000002000,083760,088103,075248,087111,094558,075748
0000000004,0000003000,080915,089164,077030,083856,095628,077933
0000000005,0000004000,078331,089347,079432,080952,095678,080787
0000000006,0000005000,076258,088640,082210,078691,094699,084027
0000000007,0000006000,074912,087110,085086,077297,092786,087334
0000000008,0000007000,074439,084879,087791,076902,090126,090389
0000000009,0000008000,074847,082201,090060,077543,086982,092892
0000000010,0000009000,076115,079334,091661,079161,083661,094595
0000000011,0000010000,078134,076535,092440,081599,080486,095332
0000000012,0000011000,080696,074086,092326,084613,077771,095034
0000000013,0000012000,083524,072256,091329,087911,075777,093728
0000000014,0000013000,086378,071185,089545,091170,074704,091543
0000000015,0000014000,088975,070990,087144,094072,074656,088689
0000000016,0000015000,091035,071708,084366,096330,075638,085449
0000000017,0000016000,092370,073249,081490,097728,077546,082143
0000000018,0000017000,092869,075456,078785,098123,080207,079088
0000000019,0000018000,092450,078143,076515,097479,083354,076585
0000000020,0000019000,091168,081026,074915,095862,086673,074882
0000000021,0000020000,089165,083808,074136,093428,089845,074144
0000000022,0000021000,086611,086248,074249,090409,092566,074442
0000000023,0000022000,083759,088104,075247,087112,094557,075748
0000000024,0000023000,080914,089164,077030,083855,095629,077934
0000000025,0000024000,078333,089344,079433,080952,095678,080788
0000000026,0000025000,076255,088644,082210,078690,094700,084027
0000000027,0000026000,074915,087108,085086,077297,092786,087334
0000000028,0000027000,074437,084880,087792,076901,090127,090389
0000000029,0000028000,074847,082201,090060,077543,086982,092892
0000000030,0000029000,076116,079333,091660,079161,083662,094595
0000000031,0000030000,078136,076533,092440,081597,080487,095333
0000000032,0000031000,080691,074091,092327,084613,077771,095034
0000000033,0000032000,083527,072253,091329,087911,075778,093729
0000000034,0000033000,086380,071183,089545,091169,074705,091543
0000000035,0000034000,088972,070993,087144,094071,074657,088689
0000000036,0000035000,091033,071709,084366,096331,075637,085449
0000000037,0000036000,092376,073243,081490,097727,077547,082143
0000000038,0000037000,092866,075458,078785,098122,080207,079088
0000000039,0000038000,092447,078147,076516,097479,083354,076585
0000000040,0000039000,091173,081021,074915,095863,086672,074882
0000000041,0000040000,089167,083806,074136,093426,089846,074144
0000000042,0000041000,086605,086254,074249,090409,092565,074443
0000000043,0000042000,083761,088102,075246,087112,094557,075748
0000000044,0000043000,080919,089160,077030,083855,095629,077934
0000000045,0000044000,078328,089349,079432,080951,095679,080788
0000000046,0000045000,076254,088646,082210,078692,094699,084027
0000000047,0000046000,074921,087103,085085,077297,092787,087334
0000000048,0000047000,074436,084882,087791,076901,090128,090388
0000000049,0000048000,074842,082206,090060,077543,086983,092891
0000000050,0000049000,076119,079329,091660,079161,083661,094594
0000000051,0000050000,078137,076532,092440,081596,080489,095332
0000000052,0000051000,080687,074095,092327,084612,077772,095034
0000000053,0000052000,083528,072252,091330,087911,075778,093729
0000000054,0000053000,086383,071179,089546,091168,074706,091543
0000000055,0000054000,088968,070996,087144,094069,074658,088689
0000000056,0000055000,091033,071710,084366,096331,075636,085450
0000000057,0000056000,092379,073240,081490,097726,077547,082144
0000000058,0000057000,092865,075459,078785,098120,080208,079089
0000000059,0000058000,092445,078148,076516,097478,083353,076586
0000000060,0000059000,091176,081018,074915,095863,086672,074883
0000000061,0000060000,089167,083806,074136,093426,089846,074145
0000000062,0000061000,086604,086256,074249,090409,092564,074443
0000000063,0000062000,083763,088100,075245,087113,094556,075748
0000000064,0000063000,080920,089159,077030,083855,095629,077934
0000000065,0000064000,078326,089352,079431,080952,095678,080787
0000000066,0000065000,076255,088645,082209,078692,094698,084027
0000000067,0000066000,074921,087102,085085,077297,092787,087333
0000000068,0000067000,074433,084885,087791,076901,090129,090388
0000000069,0000068000,074842,082207,090060,077544,086983,092891
0000000070,0000069000,076121,079328,091661,079161,083663,094594
0000000071,0000070000,078133,076535,092441,081596,080490,095331
0000000072,0000071000,080685,074097,092327,084612,077772,095033
0000000073,0000072000,083530,072249,091330,087910,075779,093728
0000000074,0000073000,086381,071180,089547,091166,074708,091543
0000000075,0000074000,088966,070997,087145,094069,074659,088690
0000000076,0000075000,091036,071706,084367,096330,075637,085451
0000000077,0000076000,092380,073238,081491,097724,077548,082145
0000000078,0000077000,092863,075461,078786,098119,080208,079090
0000000079,0000078000,092448,078145,076516,097478,083352,076587
0000000080,0000079000,091179,081014,074915,095861,086672,074884
0000000081,0000080000,089165,083808,074135,093426,089845,074146
0000000082,0000081000,086605,086256,074248,090410,092563,074444
0000000083,0000082000,083768,088097,075244,087113,094555,075749
0000000084,0000083000,080919,089161,077028,083856,095628,077934
0000000085,0000084000,078325,089355,079430,080954,095677,080787
0000000086,0000085000,076258,088643,082207,078694,094697,084026
0000000087,0000086000,074921,087103,085084,077298,092787,087332
0000000088,0000087000,074429,084889,087790,076902,090129,090386
0000000089,0000088000,074843,082206,090059,077545,086983,092889
0000000090,0000089000,076121,079327,091661,079161,083664,094592
0000000091,0000090000,078129,076538,092441,081595,080492,095330
0000000092,0000091000,080684,074097,092328,084611,077774,095032
0000000093,0000092000,083530,072247,091332,087908,075781,093728
0000000094,0000093000,086378,071182,089549,091164,074710,091543
0000000095,0000094000,088964,070997,087147,094067,074660,088690
0000000096,0000095000,091037,071702,084369,096327,075638,085452
0000000097,0000096000,092379,073237,081493,097722,077549,082146
0000000098,0000097000,092862,075461,078786,098118,080207,079092
0000000099,0000098000,092451,078142,076516,097477,083351,076590
0000000100,0000099000,091181,081013,074915,095860,086670,074886
0000000101,0000100000,089165,083809,074134,093426,089843,074148
0000000102,0000101000,086608,086254,074246,090411,092560,074446
0000000103,0000102000,083770,088096,075243,087114,094553,075750
0000000104,0000103000,080919,089164,077026,083857,095626,077934
0000000105,0000104000,078326,089355,079427,080956,095675,080787
0000000106,0000105000,076260,088643,082206,078696,094696,084025
0000000107,0000106000,074919,087107,085083,077300,092787,087330
0000000108,0000107000,074428,084892,087789,076905,090129,090384
0000000109,0000108000,074843,082206,090059,077546,086985,092886
0000000110,0000109000,076118,079330,091661,079161,083667,094589
0000000111,0000110000,078126,076541,092442,081595,080494,095328
0000000112,0000111000,080684,074096,092330,084611,077777,095030
0000000113,0000112000,083528,072247,091334,087906,075785,093727
0000000114,0000113000,086375,071183,089551,091162,074712,091543
0000000115,0000114000,088965,070995,087149,094064,074662,088691
0000000116,0000115000,091038,071699,084371,096324,075640,085454
0000000117,0000116000,092378,073237,081495,097719,077550,082149
0000000118,0000117000,092864,075458,078788,098116,080207,079095
0000000119,0000118000,092455,078137,076517,097475,083350,076593
0000000120,0000119000,091182,081012,074915,095859,086668,074890
0000000121,0000120000,089167,083808,074133,093426,089840,074151
0000000122,0000121000,086613,086251,074245,090412,092557,074448
0000000123,0000122000,083772,088096,075241,087116,094550,075751
0000000124,0000123000,080919,089166,077023,083860,095622,077934
0000000125,0000124000,078329,089356,079424,080960,095672,080786
0000000126,0000125000,076261,088645,082203,078700,094695,084023
0000000127,0000126000,074917,087112,085080,077304,092786,087327
0000000128,0000127000,074427,084894,087787,076908,090129,090380
0000000129,0000128000,074842,082208,090058,077548,086986,092883
0000000130,0000129000,076113,079334,091661,079162,083670,094586
0000000131,0000130000,078122,076543,092443,081595,080498,095324
0000000132,0000131000,080682,074095,092332,084609,077781,095028
0000000133,0000132000,083524,072248,091337,087903,075789,093725
0000000134,0000133000,086371,071183,089554,091159,074716,091543
0000000135,0000134000,088965,070991,087153,094060,074665,088692
0000000136,0000135000,091037,071696,084375,096319,075642,085456
0000000137,0000136000,092377,073234,081497,097715,077551,082152
0000000138,0000137000,092867,075453,078790,098112,080206,079099
0000000139,0000138000,092458,078133,076518,097472,083348,076597
0000000140,0000139000,091184,081010,074915,095858,086665,074894
0000000141,0000140000,089172,083805,074131,093426,089836,074155
0000000142,0000141000,086618,086249,074242,090413,092552,074451
0000000143,0000142000,083774,088097,075237,087119,094545,075753
0000000144,0000143000,080922,089168,077019,083865,095618,077935
0000000145,0000144000,078332,089357,079420,080964,095668,080785
0000000146,0000145000,076261,088649,082199,078704,094693,084020
0000000147,0000146000,074915,087117,085077,077309,092785,087323
0000000148,0000147000,074426,084897,087785,076912,090130,090376
0000000149,0000148000,074839,082212,090057,077551,086989,092877
0000000150,0000149000,076108,079339,091662,079164,083673,094581
0000000151,0000150000,078119,076545,092445,081595,080502,095320
0000000152,0000151000,080678,074096,092335,084607,077786,095024
0000000153,0000152000,083519,072249,091341,087900,075794,093723
0000000154,0000153000,086369,071181,089559,091154,074721,091542
0000000155,0000154000,088964,070987,087158,094054,074669,088693
0000000156,0000155000,091036,071694,084379,096314,075645,085459
0000000157,0000156000,092378,073230,081501,097709,077551,082157
0000000158,0000157000,092870,075447,078792,098107,080205,079105
0000000159,0000158000,092461,078129,076519,097468,083346,076603
0000000160,0000159000,091188,081007,074914,095856,086661,074900
0000000161,0000160000,089178,083801,074129,093426,089830,074160
0000000162,0000161000,086623,086247,074239,090415,092547,074455
0000000163,0000162000,083778,088098,075233,087123,094539,075756
0000000164,0000163000,080926,089169,077014,083870,095612,077935
0000000165,0000164000,078335,089359,079415,080970,095664,080783
0000000166,0000165000,076260,088655,082194,078711,094690,084017
0000000167,0000166000,074914,087122,085072,077315,092784,087318
0000000168,0000167000,074425,084902,087782,076917,090131,090369
0000000169,0000168000,074834,082219,090056,077554,086992,092871
0000000170,0000169000,076102,079345,091662,079166,083678,094574
0000000171,0000170000,078114,076548,092447,081595,080508,095314
0000000172,0000171000,080672,074098,092339,084604,077793,095020
0000000173,0000172000,083513,072250,091346,087896,075801,093720
0000000174,0000173000,086365,071179,089565,091148,074727,091542
0000000175,0000174000,088961,070983,087164,094047,074675,088695
0000000176,0000175000,091034,071690,084385,096306,075648,085463
0000000177,0000176000,092380,073224,081506,097703,077553,082162
0000000178,0000177000,092874,075440,078795,098101,080204,079112
0000000179,0000178000,092465,078124,076521,097464,083343,076611
0000000180,0000179000,091194,081002,074913,095854,086656,074907
0000000181,0000180000,089185,083796,074127,093426,089824,074167
0000000182,0000181000,086629,086245,074235,090418,092539,074460
0000000183,0000182000,083783,088099,075227,087128,094531,075759
0000000184,0000183000,080932,089170,077007,083876,095605,077936
0000000185,0000184000,078338,089363,079408,080978,095658,080781
0000000186,0000185000,076260,088661,082188,078719,094686,084013
0000000187,0000186000,074914,087128,085067,077323,092782,087312
0000000188,0000187000,074421,084909,087778,076923,090132,090362
0000000189,0000188000,074828,082226,090055,077559,086996,092862
0000000190,0000189000,076096,079350,091663,079168,083683,094566
0000000191,0000190000,078107,076551,092450,081595,080516,095307
0000000192,0000191000,080663,074101,092344,084601,077802,095014
0000000193,0000192000,083506,072250,091352,087891,075810,093717
0000000194,0000193000,086361,071175,089572,091141,074735,091541
0000000195,0000194000,088957,070980,087172,094039,074681,088697
0000000196,0000195000,091033,071684,084392,096297,075652,085467
0000000197,0000196000,092382,073216,081511,097694,077554,082169
0000000198,0000197000,092878,075432,078800,098094,080203,079120
0000000199,0000198000,092470,078117,076522,097459,083339,076620
0000000200,0000199000,091202,080995,074912,095852,086649,074916
0000000201,0000200000,089194,083791,074124,093427,089816,074175
0000000202,0000201000,086636,086244,074229,090421,092530,074466
0000000203,0000202000,083791,088099,075219,087134,094521,075762
0000000204,0000203000,080938,089172,076999,083884,095596,077937
0000000205,0000204000,078340,089369,079400,080987,095652,080779
0000000206,0000205000,076261,088668,082180,078729,094681,084007
0000000207,0000206000,074913,087135,085061,077332,092781,087304
0000000208,0000207000,074417,084918,087774,076931,090134,090353
0000000209,0000208000,074821,082235,090053,077565,087000,092852
0000000210,0000209000,076089,079357,091664,079171,083690,094556
0000000211,0000210000,078098,076557,092454,081594,080525,095298
0000000212,0000211000,080654,074105,092350,084598,077812,095008
0000000213,0000212000,083499,072250,091360,087884,075820,093713
0000000214,0000213000,086355,071172,089581,091132,074745,091540
0000000215,0000214000,088953,070975,087181,094028,074689,088700
0000000216,0000215000,091032,071676,084400,096287,075657,085473
0000000217,0000216000,092385,073206,081519,097684,077556,082177
0000000218,0000217000,092882,075423,078805,098085,080202,079130
0000000219,0000218000,092477,078108,076524,097453,083334,076631
0000000220,0000219000,091211,080986,074911,095849,086641,074927
0000000221,0000220000,089203,083785,074120,093427,089806,074184
0000000222,0000221000,086645,086241,074222,090425,092518,074474
0000000223,0000222000,083800,088098,075211,087141,094510,075767
0000000224,0000223000,080945,089175,076989,083894,095586,077937
0000000225,0000224000,078344,089375,079390,080998,095643,080776
0000000226,0000225000,076263,088676,082170,078741,094676,084001
0000000227,0000226000,074911,087145,085053,077343,092779,087295
0000000228,0000227000,074411,084929,087769,076940,090135,090341
0000000229,0000228000,074813,082245,090050,077572,087005,092840
0000000230,0000229000,076079,079365,091665,079174,083699,094544
0000000231,0000230000,078087,076564,092458,081594,080536,095288
0000000232,0000231000,080643,074109,092357,084594,077824,095000
0000000233,0000232000,083490,072249,091370,087876,075832,093709
0000000234,0000233000,086348,071169,089592,091122,074756,091540
0000000235,0000234000,088948,070969,087192,094016,074698,088703
0000000236,0000235000,091031,071667,084411,096274,075663,085480
0000000237,0000236000,092387,073195,081527,097672,077558,082187
0000000238,0000237000,092887,075412,078810,098075,080200,079142
0000000239,0000238000,092485,078097,076527,097446,083328,076644
0000000240,0000239000,091222,080976,074910,095845,086632,074940
0000000241,0000240000,089214,083779,074115,093427,089794,074196
0000000242,0000241000,086657,086237,074215,090430,092505,074482
0000000243,0000242000,083811,088097,075200,087149,094497,075772
0000000244,0000243000,080953,089179,076978,083905,095574,077938
0000000245,0000244000,078349,089382,079378,081012,095633,080773
0000000246,0000245000,076265,088685,082159,078754,094669,083994
0000000247,0000246000,074908,087157,085044,077356,092776,087284
0000000248,0000247000,074404,084942,087762,076952,090137,090328
0000000249,0000248000,074804,082257,090048,077580,087011,092826
0000000250,0000249000,076068,079375,091666,079178,083709,094530
0000000251,0000250000,078074,076572,092463,081593,080549,095275
0000000252,0000251000,080631,074113,092365,084589,077838,094990
0000000253,0000252000,083479,072249,091381,087867,075847,093703
0000000254,0000253000,086338,071165,089605,091109,074769,091539
0000000255,0000254000,088942,070961,087205,094002,074709,088707
0000000256,0000255000,091030,071656,084423,096259,075670,085488
0000000257,0000256000,092389,073182,081537,097657,077561,082199
0000000258,0000257000,092893,075399,078817,098063,080198,079157
0000000259,0000258000,092496,078084,076530,097437,083321,076659
0000000260,0000259000,091235,080965,074909,095841,086621,074955
0000000261,0000260000,089228,083771,074110,093428,089780,074209
0000000262,0000261000,086671,086232,074205,090435,092489,074492
0000000263,0000262000,083823,088097,075189,087159,094481,075777
0000000264,0000263000,080962,089183,076964,083919,095560,077939
0000000265,0000264000,078355,089391,079363,081027,095622,080769
0000000266,0000265000,076267,088696,082146,078771,094662,083985
0000000267,0000266000,074905,087171,085033,077371,092774,087272
0000000268,0000267000,074397,084957,087755,076964,090140,090313
0000000269,0000268000,074794,082270,090044,077589,087019,092810
0000000270,0000269000,076054,079387,091668,079182,083721,094514
0000000271,0000270000,078059,076581,092469,081592,080564,095261
0000000272,0000271000,080617,074117,092375,084583,077855,094980
0000000273,0000272000,083466,072249,091394,087857,075864,093697
0000000274,0000273000,086328,071161,089620,091095,074785,091538
0000000275,0000274000,088936,070952,087220,093985,074721,088711
0000000276,0000275000,091028,071643,084437,096241,075678,085497
0000000277,0000276000,092392,073168,081549,097641,077564,082213
0000000278,0000277000,092901,075383,078825,098049,080195,079173
0000000279,0000278000,092508,078068,076533,097427,083313,076677
0000000280,0000279000,091249,080952,074908,095836,086609,074972
0000000281,0000280000,089244,083762,074103,093429,089764,074224
0000000282,0000281000,086687,086227,074195,090442,092472,074504
0000000283,0000282000,083837,088097,075175,087170,094463,075784
0000000284,0000283000,080973,089188,076948,083934,095543,077940
0000000285,0000284000,078362,089400,079347,081045,095608,080764
0000000286,0000285000,076268,088709,082131,078789,094653,083975
0000000287,0000286000,074901,087187,085021,077389,092771,087257
0000000288,0000287000,074389,084973,087746,076979,090143,090295
0000000289,0000288000,074782,082286,090041,077599,087027,092791
0000000290,0000289000,076039,079401,091669,079187,083734,094496
0000000291,0000290000,078042,076591,092476,081591,080581,095245
0000000292,0000291000,080600,074123,092386,084576,077874,094967
0000000293,0000292000,083451,072249,091409,087844,075883,093690
0000000294,0000293000,086316,071156,089637,091079,074802,091537
0000000295,0000294000,088929,070942,087238,093966,074735,088716
0000000296,0000295000,091026,071629,084453,096222,075687,085508
0000000297,0000296000,092395,073152,081562,097622,077567,082228
0000000298,0000297000,092910,075365,078834,098034,080192,079192
0000000299,0000298000,092521,078051,076537,097416,083304,076697
0000000300,0000299000,091265,080938,074906,095831,086595,074992
0000000301,0000300000,089262,083750,074096,093430,089746,074241
