DIgSILENT PowerFactory,21000900,2000
6,06A,00D
1,TTPP_200000_100:Secondary Voltage A,,,V,0.010000000,-71.429794,0.000000,-85630,99998,1,1,P
2,TTPP_200000_100:Secondary Voltage B,,,V,0.010000000,-20.320721,0.000000,-91646,99998,1,1,P
3,TTPP_200000_100:Secondary Voltage C,,,V,0.10000000,-8995.157227,0.000000,79905,99998,1,1,P
4,TTCC_300_1:Secondary Current A,,,A,0.00010000000,-4.287938,0.000000,-41089,99998,1,1,P
5,TTCC_300_1:Secondary Current B,,,A,0.00010000000,-4.929985,0.000000,-1366,99998,1,1,P
6,TTCC_300_1:Secondary Current C,,,A,0.00010000000,-4.879022,0.000000,-2309,99998,1,1,P
50
1
1000.000000,1101
30/06/2023,06:01:58.000000
30/06/2023,06:01:58.000000
ASCII
1.000000
0000000001,0000000000,078209,016785,081370,021942,035320,083708
0000000002,0000001000,056862,043971,080786,031697,026036,083237
0000000003,0000002000,030494,067232,081097,042534,019038,079398
0000000004,0000003000,001916,084044,082273,053406,015000,072565
0000000005,0000004000,-26067,092705,084207,063253,014317,063399
0000000006,0000005000,-50950,092602,086704,071107,017062,052800
0000000007,0000006000,-70128,083720,089511,076197,022955,041817
0000000008,0000007000,-81555,066621,092363,078021,031430,031519
0000000009,0000008000,-84405,043245,094985,076398,041670,022901
0000000010,0000009000,-78468,016050,097112,071501,052647,016821
0000000011,0000010000,-63980,-12661,098533,063812,063280,013878
0000000012,0000011000,-42447,-40038,099118,054058,072563,014348
0000000013,0000012000,-16227,-63149,098807,043208,079575,018186
0000000014,0000013000,012313,-79911,097629,032343,083607,025020
0000000015,0000014000,040453,-88728,095696,022496,084287,034187
0000000016,0000015000,065224,-88532,093200,014632,081552,044785
0000000017,0000016000,084280,-79517,090393,009554,075649,055767
0000000018,0000017000,095913,-62628,087541,007738,067166,066065
0000000019,0000018000,098801,-39289,084918,009345,056941,074683
0000000020,0000019000,092656,-11883,082791,014240,045966,080763
0000000021,0000020000,078254,016746,081369,021941,035321,083708
0000000022,0000021000,056814,044019,080785,031690,026043,083237
0000000023,0000022000,030429,067289,081097,042537,019035,079398
0000000024,0000023000,001944,084008,082273,053414,014991,072564
0000000025,0000024000,-26041,092669,084206,063254,014317,063398
0000000026,0000025000,-50960,092618,086703,071106,017064,052799
0000000027,0000026000,-70100,083688,089510,076197,022954,041818
0000000028,0000027000,-81570,066634,092363,078019,031431,031520
0000000029,0000028000,-84481,043310,094986,076400,041668,022901
0000000030,0000029000,-78449,016024,097112,071510,052638,016821
0000000031,0000030000,-63926,-12719,098533,063815,063278,013877
0000000032,0000031000,-42460,-40027,099118,054054,072567,014347
0000000033,0000032000,-16244,-63128,098806,043210,079573,018186
0000000034,0000033000,012309,-79913,097630,032346,083604,025019
0000000035,0000034000,040432,-88713,095697,022498,084287,034185
0000000036,0000035000,065217,-88530,093200,014639,081547,044784
0000000037,0000036000,084326,-79558,090393,009558,075647,055765
0000000038,0000037000,095933,-62646,087540,007734,067172,066064
0000000039,0000038000,098758,-39244,084918,009346,056942,074682
0000000040,0000039000,092645,-11870,082792,014245,045963,080762
0000000041,0000040000,078278,016720,081369,021943,035321,083706
0000000042,0000041000,056811,044026,080785,031691,026043,083236
0000000043,0000042000,030444,067281,081096,042539,019034,079397
0000000044,0000043000,001973,083989,082273,053411,014994,072564
0000000045,0000044000,-26074,092703,084206,063252,014319,063398
0000000046,0000045000,-50986,092647,086703,071110,017060,052800
0000000047,0000046000,-70071,083661,089510,076199,022951,041819
0000000048,0000047000,-81556,066622,092362,078018,031432,031520
0000000049,0000048000,-84493,043328,094985,076400,041667,022902
0000000050,0000049000,-78446,016023,097111,071511,052636,016822
0000000051,0000050000,-63933,-12713,098534,063814,063277,013878
0000000052,0000051000,-42490,-40003,099119,054058,072563,014348
0000000053,0000052000,-16235,-63140,098807,043215,079568,018186
0000000054,0000053000,012340,-79947,097630,032347,083604,025019
0000000055,0000054000,040416,-88700,095697,022499,084287,034184
0000000056,0000055000,065196,-88512,093200,014643,081544,044782
0000000057,0000056000,084338,-79577,090393,009561,075646,055763
0000000058,0000057000,095929,-62647,087541,007737,067171,066061
0000000059,0000058000,098753,-39242,084918,009350,056941,074678
0000000060,0000059000,092678,-11900,082791,014246,045965,080759
0000000061,0000060000,078284,016715,081369,021941,035325,083704
0000000062,0000061000,056784,044056,080785,031691,026045,083234
0000000063,0000062000,030453,067275,081096,042540,019034,079395
0000000064,0000063000,001995,083970,082273,053409,014997,072564
0000000065,0000064000,-26081,092715,084206,063250,014321,063399
0000000066,0000065000,-50984,092652,086703,071108,017061,052801
0000000067,0000066000,-70057,083653,089510,076196,022953,041821
0000000068,0000067000,-81579,066645,092362,078015,031431,031523
0000000069,0000068000,-84512,043348,094985,076401,041663,022905
0000000070,0000069000,-78427,016002,097111,071511,052633,016825
0000000071,0000070000,-63933,-12716,098534,063814,063275,013881
0000000072,0000071000,-42516,-39980,099119,054060,072559,014350
0000000073,0000072000,-16234,-63146,098807,043219,079563,018187
0000000074,0000073000,012339,-79955,097631,032351,083600,025019
0000000075,0000074000,040394,-88688,095698,022504,084283,034183
0000000076,0000075000,065206,-88527,093201,014649,081541,044779
0000000077,0000076000,084361,-79604,090393,009565,075646,055759
0000000078,0000077000,095916,-62638,087541,007740,067173,066057
0000000079,0000078000,098746,-39237,084918,009354,056942,074674
0000000080,0000079000,092702,-11923,082791,014249,045967,080754
0000000081,0000080000,078290,016711,081369,021941,035329,083699
0000000082,0000081000,056783,044063,080784,031691,026049,083230
0000000083,0000082000,030477,067261,081095,042537,019039,079393
0000000084,0000083000,002002,083971,082272,053404,015002,072563
0000000085,0000084000,-26098,092742,084205,063246,014324,063400
0000000086,0000085000,-50976,092653,086702,071104,017062,052804
0000000087,0000086000,-70043,083646,089509,076191,022954,041825
0000000088,0000087000,-81596,066668,092362,078011,031431,031528
0000000089,0000088000,-84522,043362,094985,076399,041660,022911
0000000090,0000089000,-78424,015999,097111,071510,052628,016831
0000000091,0000090000,-63956,-12699,098535,063814,063269,013886
0000000092,0000091000,-42536,-39967,099120,054064,072551,014354
0000000093,0000092000,-16225,-63164,098808,043224,079556,018190
0000000094,0000093000,012332,-79960,097632,032356,083595,025019
0000000095,0000094000,040372,-88678,095699,022511,084278,034181
0000000096,0000095000,065211,-88543,093202,014658,081536,044776
0000000097,0000096000,084370,-79625,090395,009572,075644,055753
0000000098,0000097000,095910,-62639,087542,007746,067173,066049
0000000099,0000098000,098761,-39253,084919,009359,056944,074666
0000000100,0000099000,092728,-11948,082791,014251,045973,080746
0000000101,0000100000,078291,016714,081368,021941,035337,083692
0000000102,0000101000,056789,044067,080783,031689,026056,083225
0000000103,0000102000,030505,067246,081094,042533,019047,079390
0000000104,0000103000,002011,083976,082270,053397,015010,072562
0000000105,0000104000,-26102,092762,084203,063238,014330,063401
0000000106,0000105000,-50963,092656,086700,071096,017065,052808
0000000107,0000106000,-70044,083658,089508,076182,022956,041832
0000000108,0000107000,-81619,066699,092361,078004,031429,031537
0000000109,0000108000,-84528,043373,094984,076395,041655,022920
0000000110,0000109000,-78428,016000,097112,071507,052622,016840
0000000111,0000110000,-63984,-12678,098535,063814,063261,013894
0000000112,0000111000,-42557,-39957,099121,054068,072541,014360
0000000113,0000112000,-16230,-63175,098810,043230,079546,018193
0000000114,0000113000,012313,-79960,097634,032364,083586,025020
0000000115,0000114000,040358,-88681,095701,022522,084269,034178
0000000116,0000115000,065223,-88571,093204,014669,081531,044770
0000000117,0000116000,084374,-79645,090396,009581,075643,055745
0000000118,0000117000,095906,-62645,087543,007756,067174,066039
0000000119,0000118000,098783,-39278,084919,009367,056948,074655
0000000120,0000119000,092754,-11972,082791,014254,045981,080735
0000000121,0000120000,078302,016712,081368,021941,035347,083682
0000000122,0000121000,056812,044059,080782,031686,026067,083217
0000000123,0000122000,030534,067236,081092,042526,019059,079385
0000000124,0000123000,002016,083992,082268,053387,015022,072561
0000000125,0000124000,-26098,092781,084201,063227,014338,063404
0000000126,0000125000,-50949,092662,086698,071084,017071,052814
0000000127,0000126000,-70051,083681,089506,076170,022959,041841
0000000128,0000127000,-81640,066732,092360,077994,031427,031548
0000000129,0000128000,-84538,043388,094984,076388,041649,022933
0000000130,0000129000,-78447,016016,097112,071503,052613,016853
0000000131,0000130000,-64020,-12653,098536,063815,063249,013905
0000000132,0000131000,-42577,-39953,099122,054074,072526,014369
0000000133,0000132000,-16243,-63185,098812,043238,079532,018199
0000000134,0000133000,012286,-79960,097636,032376,083573,025021
0000000135,0000134000,040344,-88693,095704,022537,084258,034175
0000000136,0000135000,065230,-88603,093206,014684,081523,044762
0000000137,0000136000,084376,-79667,090398,009595,075640,055734
0000000138,0000137000,095914,-62666,087544,007768,067176,066025
0000000139,0000138000,098813,-39314,084919,009376,056954,074639
0000000140,0000139000,092780,-11996,082791,014258,045992,080720
0000000141,0000140000,078321,016705,081366,021941,035361,083668
0000000142,0000141000,056847,044045,080780,031682,026082,083206
0000000143,0000142000,030565,067229,081089,042516,019075,079379
0000000144,0000143000,002028,084009,082265,053373,015037,072559
0000000145,0000144000,-26085,092799,084198,063212,014350,063408
0000000146,0000145000,-50938,092679,086695,071066,017079,052823
0000000147,0000146000,-70065,083717,089504,076153,022962,041854
0000000148,0000147000,-81660,066769,092358,077981,031425,031565
0000000149,0000148000,-84553,043410,094983,076378,041641,022951
0000000150,0000149000,-78479,016043,097113,071497,052601,016871
0000000151,0000150000,-64061,-12625,098538,063816,063233,013921
0000000152,0000151000,-42604,-39948,099125,054080,072508,014381
0000000153,0000152000,-16270,-63189,098815,043249,079514,018206
0000000154,0000153000,012255,-79963,097640,032391,083556,025022
0000000155,0000154000,040333,-88716,095707,022556,084243,034171
0000000156,0000155000,065233,-88639,093209,014703,081514,044752
0000000157,0000156000,084376,-79695,090401,009614,075637,055719
0000000158,0000157000,095931,-62700,087546,007785,067178,066006
0000000159,0000158000,098849,-39357,084920,009388,056962,074619
0000000160,0000159000,092812,-12024,082790,014264,046006,080699
0000000161,0000160000,078354,016689,081365,021941,035379,083650
0000000162,0000161000,056892,044027,080777,031675,026103,083192
0000000163,0000162000,030600,067229,081086,042502,019097,079370
0000000164,0000163000,002046,084030,082261,053356,015056,072557
0000000165,0000164000,-26064,092820,084194,063191,014365,063413
0000000166,0000165000,-50929,092707,086691,071044,017090,052835
0000000167,0000166000,-70081,083764,089501,076132,022967,041871
0000000168,0000167000,-81681,066812,092356,077963,031421,031586
0000000169,0000168000,-84578,043443,094982,076365,041631,022974
0000000170,0000169000,-78524,016082,097113,071490,052586,016894
0000000171,0000170000,-64108,-12596,098540,063817,063211,013941
0000000172,0000171000,-42639,-39942,099127,054088,072484,014397
0000000173,0000172000,-16309,-63189,098819,043264,079490,018215
0000000174,0000173000,012219,-79971,097644,032412,083533,025024
0000000175,0000174000,040320,-88748,095712,022580,084225,034165
0000000176,0000175000,065231,-88680,093214,014728,081502,044739
0000000177,0000176000,084380,-79734,090404,009638,075632,055699
0000000178,0000177000,095957,-62749,087548,007806,067181,065982
0000000179,0000178000,098890,-39408,084921,009403,056974,074593
0000000180,0000179000,092851,-12058,082790,014271,046024,080674
0000000181,0000180000,078401,016662,081363,021941,035402,083628
0000000182,0000181000,056946,044005,080774,031666,026129,083175
0000000183,0000182000,030640,067231,081082,042486,019124,079360
0000000184,0000183000,002076,084051,082256,053333,015081,072555
0000000185,0000184000,-26038,092845,084189,063165,014385,063419
0000000186,0000185000,-50924,092748,086687,071016,017104,052849
0000000187,0000186000,-70099,083820,089497,076105,022972,041893
0000000188,0000187000,-81705,066862,092353,077941,031417,031612
0000000189,0000188000,-84614,043490,094981,076348,041619,023003
0000000190,0000189000,-78579,016131,097114,071482,052566,016922
0000000191,0000190000,-64163,-12563,098542,063818,063185,013966
0000000192,0000191000,-42688,-39931,099131,054098,072455,014416
0000000193,0000192000,-16361,-63187,098824,043282,079460,018227
0000000194,0000193000,012178,-79986,097650,032437,083506,025027
0000000195,0000194000,040302,-88787,095717,022610,084202,034158
0000000196,0000195000,065225,-88727,093219,014759,081488,044723
0000000197,0000196000,084388,-79784,090409,009668,075626,055675
0000000198,0000197000,095990,-62812,087551,007831,067184,065953
0000000199,0000198000,098937,-39467,084922,009421,056988,074561
0000000200,0000199000,092901,-12101,082789,014280,046047,080642
0000000201,0000200000,078463,016626,081360,021940,035430,083600
0000000202,0000201000,057011,043982,080770,031655,026161,083153
0000000203,0000202000,030689,067236,081076,042465,019157,079347
0000000204,0000203000,002116,084073,082250,053306,015111,072552
0000000205,0000204000,-26007,092877,084182,063132,014410,063427
0000000206,0000205000,-50920,092801,086681,070981,017121,052867
0000000207,0000206000,-70117,083886,089492,076073,022978,041919
0000000208,0000207000,-81734,066924,092350,077913,031412,031644
0000000209,0000208000,-84663,043551,094980,076328,041604,023038
0000000210,0000209000,-78645,016189,097115,071472,052541,016956
0000000211,0000210000,-64228,-12526,098544,063819,063153,013997
0000000212,0000211000,-42751,-39914,099136,054110,072419,014440
0000000213,0000212000,-16424,-63184,098830,043304,079424,018241
0000000214,0000213000,012132,-80007,097657,032468,083472,025029
0000000215,0000214000,040278,-88833,095724,022646,084175,034149
0000000216,0000215000,065216,-88782,093225,014797,081470,044703
0000000217,0000216000,084402,-79850,090414,009704,075619,055646
0000000218,0000217000,096031,-62888,087555,007862,067189,065918
0000000219,0000218000,098990,-39536,084924,009442,057005,074522
0000000220,0000219000,092965,-12156,082788,014292,046073,080604
0000000221,0000220000,078540,016580,081357,021939,035464,083566
0000000222,0000221000,057085,043957,080765,031642,026201,083127
0000000223,0000222000,030750,067241,081070,042441,019197,079332
0000000224,0000223000,002167,084097,082243,053273,015147,072549
0000000225,0000224000,-25973,092919,084175,063093,014439,063437
0000000226,0000225000,-50915,092867,086674,070940,017140,052889
0000000227,0000226000,-70135,083963,089486,076034,022985,041950
0000000228,0000227000,-81769,066999,092346,077880,031407,031683
0000000229,0000228000,-84723,043627,094978,076304,041586,023080
0000000230,0000229000,-78722,016257,097115,071460,052512,016998
0000000231,0000230000,-64305,-12481,098548,063821,063115,014033
0000000232,0000231000,-42830,-39890,099141,054125,072377,014468
0000000233,0000232000,-16499,-63181,098837,043331,079381,018257
0000000234,0000233000,012079,-80035,097665,032505,083432,025033
0000000235,0000234000,040247,-88885,095733,022688,084143,034138
0000000236,0000235000,065204,-88848,093233,014841,081449,044680
0000000237,0000236000,084420,-79930,090420,009746,075611,055612
0000000238,0000237000,096078,-62978,087559,007898,067196,065876
0000000239,0000238000,099053,-39617,084926,009468,057025,074477
0000000240,0000239000,093043,-12224,082787,014305,046105,080560
0000000241,0000240000,078632,016525,081353,021938,035505,083527
0000000242,0000241000,057172,043929,080759,031626,026247,083097
0000000243,0000242000,030824,067245,081062,042412,019244,079314
0000000244,0000243000,002230,084124,082234,053234,015190,072546
0000000245,0000244000,-25934,092970,084166,063047,014474,063448
0000000246,0000245000,-50909,092945,086666,070892,017163,052914
0000000247,0000246000,-70154,084051,089479,075988,022993,041988
0000000248,0000247000,-81813,067090,092341,077841,031400,031729
0000000249,0000248000,-84796,043718,094977,076276,041564,023130
0000000250,0000249000,-78810,016335,097116,071446,052477,017046
0000000251,0000250000,-64398,-12428,098552,063822,063071,014076
0000000252,0000251000,-42926,-39859,099148,054142,072327,014500
0000000253,0000252000,-16585,-63178,098846,043362,079330,018277
0000000254,0000253000,012016,-80068,097674,032547,083386,025036
0000000255,0000254000,040207,-88944,095743,022738,084106,034126
0000000256,0000255000,065191,-88925,093242,014893,081424,044652
0000000257,0000256000,084443,-80027,090427,009796,075602,055572
0000000258,0000257000,096130,-63082,087564,007939,067203,065827
0000000259,0000258000,099126,-39711,084928,009498,057048,074423
0000000260,0000259000,093137,-12306,082786,014320,046142,080507
0000000261,0000260000,078738,016461,081349,021936,035553,083481
0000000262,0000261000,057273,043897,080752,031607,026301,083062
0000000263,0000262000,030913,067247,081053,042378,019298,079293
0000000264,0000263000,002304,084154,082223,053188,015239,072542
0000000265,0000264000,-25890,093032,084155,062993,014514,063462
0000000266,0000265000,-50901,093034,086656,070836,017190,052944
0000000267,0000266000,-70175,084153,089471,075935,023003,042031
0000000268,0000267000,-81866,067198,092336,077796,031392,031781
0000000269,0000268000,-84880,043826,094974,076244,041539,023187
0000000270,0000269000,-78911,016424,097118,071431,052437,017102
0000000271,0000270000,-64507,-12364,098556,063825,063019,014125
0000000272,0000271000,-43038,-39822,099155,054162,072269,014538
0000000273,0000272000,-16684,-63177,098855,043399,079272,018299
0000000274,0000273000,011941,-80105,097685,032597,083333,025040
0000000275,0000274000,040158,-89010,095754,022795,084063,034111
0000000276,0000275000,065176,-89016,093253,014954,081396,044620
0000000277,0000276000,084469,-80140,090436,009853,075591,055525
0000000278,0000277000,096188,-63201,087570,007987,067212,065770
0000000279,0000278000,099211,-39822,084930,009532,057075,074362
0000000280,0000279000,093247,-12403,082785,014337,046185,080447
0000000281,0000280000,078859,016387,081344,021933,035608,083428
0000000282,0000281000,057389,043861,080744,031585,026363,083022
0000000283,0000282000,031018,067247,081042,042340,019360,079270
0000000284,0000283000,002389,084189,082211,053135,015296,072538
0000000285,0000284000,-25839,093104,084143,062931,014560,063478
0000000286,0000285000,-50888,093136,086645,070771,017219,052978
0000000287,0000286000,-70199,084271,089462,075875,023014,042081
0000000288,0000287000,-81928,067324,092329,077745,031383,031842
0000000289,0000288000,-84975,043949,094971,076208,041510,023252
0000000290,0000289000,-79027,016527,097119,071413,052390,017166
0000000291,0000290000,-64634,-12288,098561,063827,062961,014181
0000000292,0000291000,-43167,-39778,099164,054185,072203,014581
0000000293,0000292000,-16797,-63176,098867,043441,079205,018323
0000000294,0000293000,011853,-80146,097698,032653,083272,025045
0000000295,0000294000,040100,-89085,095767,022861,084015,034094
0000000296,0000295000,065160,-89122,093265,015022,081364,044583
0000000297,0000296000,084498,-80270,090446,009918,075580,055472
0000000298,0000297000,096253,-63336,087578,008042,067222,065705
0000000299,0000298000,099308,-39950,084933,009571,057106,074292
0000000300,0000299000,093373,-12516,082784,014356,046234,080379
0000000301,0000300000,078997,016303,081339,021930,035671,083368
