DIgSILENT PowerFactory,21000900,2000
6,06A,00D
1,TTPP_200000_100:Secondary Voltage A,,,V,0.10000000,-8265.181641,0.000000,68107,99998,1,1,P
2,TTPP_200000_100:Secondary Voltage B,,,V,0.10000000,-8405.196289,0.000000,68723,99998,1,1,P
3,TTPP_200000_100:Secondary Voltage C,,,V,0.10000000,-8146.645508,0.000000,59612,99998,1,1,P
4,TTCC_500_5:Secondary Current A,,,A,0.0010000000,-79.380974,0.000000,65612,99998,1,1,P
5,TTCC_500_5:Secondary Current B,,,A,0.0010000000,-84.340248,0.000000,68924,99998,1,1,P
6,TTCC_500_5:Secondary Current C,,,A,0.0010000000,-84.974106,0.000000,70045,99998,1,1,P
50
1
1000.000000,1101
30/06/2023,06:11:56.000000
30/06/2023,06:11:56.000000
ASCII
1.000000
0000000001,0000000000,088164,087693,072314,085297,089020,074379
0000000002,0000001000,085616,090125,072428,082281,091737,074678
0000000003,0000002000,082765,091981,073426,078984,093728,075983
0000000004,0000003000,079916,093045,075209,075725,094802,078169
0000000005,0000004000,077338,093222,077611,072823,094850,081023
0000000006,0000005000,075260,092521,080389,070562,093871,084262
0000000007,0000006000,073917,090987,083264,069167,091959,087569
0000000008,0000007000,073443,088757,085970,068773,089298,090624
0000000009,0000008000,073851,086079,088239,069414,086154,093127
0000000010,0000009000,075119,083213,089840,071031,082834,094830
0000000011,0000010000,077140,080412,090619,073470,079658,095568
0000000012,0000011000,079698,077967,090505,076483,076943,095269
0000000013,0000012000,082530,076132,089508,079781,074950,093964
0000000014,0000013000,085382,075064,087723,083042,073875,091778
0000000015,0000014000,087980,074868,085322,085942,073829,088924
0000000016,0000015000,090039,075587,082544,088201,074810,085685
0000000017,0000016000,091375,077127,079668,089599,076718,082378
0000000018,0000017000,091873,079335,076963,089993,079379,079323
0000000019,0000018000,091455,082021,074694,089349,082526,076820
0000000020,0000019000,090172,084905,073094,087734,085845,075117
0000000021,0000020000,088169,087686,072314,085298,089018,074379
0000000022,0000021000,085615,090127,072428,082280,091738,074678
0000000023,0000022000,082762,091983,073425,078982,093730,075983
0000000024,0000023000,079919,093043,075209,075726,094801,078169
0000000025,0000024000,077337,093223,077611,072823,094850,081023
0000000026,0000025000,075259,092523,080389,070561,093872,084262
0000000027,0000026000,073919,090986,083264,069167,091959,087569
0000000028,0000027000,073442,088758,085970,068772,089299,090624
0000000029,0000028000,073850,086080,088239,069413,086155,093127
0000000030,0000029000,075120,083211,089839,071031,082834,094830
0000000031,0000030000,077140,080411,090619,073468,079659,095568
0000000032,0000031000,079696,077969,090505,076483,076943,095269
0000000033,0000032000,082531,076132,089508,079781,074950,093964
0000000034,0000033000,085385,075061,087723,083040,073877,091779
0000000035,0000034000,087976,074871,085323,085941,073830,088924
0000000036,0000035000,090038,075588,082544,088202,074809,085685
0000000037,0000036000,091380,077122,079668,089598,076719,082378
0000000038,0000037000,091871,079337,076963,089992,079380,079324
0000000039,0000038000,091451,082025,074694,089349,082526,076820
0000000040,0000039000,090177,084900,073093,087733,085845,075117
0000000041,0000040000,088171,087685,072314,085297,089019,074380
0000000042,0000041000,085609,090133,072428,082280,091737,074678
0000000043,0000042000,082765,091981,073425,078983,093729,075983
0000000044,0000043000,079923,093038,075209,075725,094801,078169
0000000045,0000044000,077332,093228,077611,072822,094851,081023
0000000046,0000045000,075258,092524,080388,070562,093871,084262
0000000047,0000046000,073925,090981,083264,069168,091959,087569
0000000048,0000047000,073440,088760,085970,068771,089300,090624
0000000049,0000048000,073846,086085,088239,069414,086155,093127
0000000050,0000049000,075124,083207,089839,071032,082834,094830
0000000051,0000050000,077141,080410,090619,073467,079661,095568
0000000052,0000051000,079691,077974,090506,076482,076944,095269
0000000053,0000052000,082532,076130,089508,079781,074950,093964
0000000054,0000053000,085388,075058,087724,083039,073878,091779
0000000055,0000054000,087973,074874,085323,085940,073830,088925
0000000056,0000055000,090037,075588,082545,088201,074808,085685
0000000057,0000056000,091384,077118,079669,089597,076720,082379
0000000058,0000057000,091870,079338,076963,089991,079380,079324
0000000059,0000058000,091449,082027,074694,089349,082525,076821
0000000060,0000059000,090180,084897,073093,087733,085844,075118
0000000061,0000060000,088171,087685,072314,085296,089018,074380
0000000062,0000061000,085608,090135,072427,082280,091737,074679
0000000063,0000062000,082767,091979,073424,078983,093728,075984
0000000064,0000063000,079924,093038,075208,075726,094801,078169
0000000065,0000064000,077330,093231,077610,072822,094850,081023
0000000066,0000065000,075259,092524,080387,070563,093870,084262
0000000067,0000066000,073926,090981,083264,069168,091959,087568
0000000068,0000067000,073437,088763,085970,068771,089301,090623
0000000069,0000068000,073846,086085,088239,069414,086155,093126
0000000070,0000069000,075125,083206,089839,071031,082835,094829
0000000071,0000070000,077138,080413,090620,073466,079663,095567
0000000072,0000071000,079689,077975,090506,076482,076945,095268
0000000073,0000072000,082534,076127,089509,079780,074951,093964
0000000074,0000073000,085386,075059,087725,083037,073880,091779
0000000075,0000074000,087970,074876,085324,085939,073831,088925
0000000076,0000075000,090040,075585,082545,088200,074809,085686
0000000077,0000076000,091384,077117,079670,089595,076720,082380
0000000078,0000077000,091867,079339,076964,089990,079380,079326
0000000079,0000078000,091452,082024,074694,089349,082524,076823
0000000080,0000079000,090183,084893,073093,087732,085844,075120
0000000081,0000080000,088169,087687,072314,085296,089017,074382
0000000082,0000081000,085609,090135,072426,082281,091735,074680
0000000083,0000082000,082772,091976,073423,078984,093727,075984
0000000084,0000083000,079923,093040,075207,075726,094800,078169
0000000085,0000084000,077329,093233,077608,072824,094849,081022
0000000086,0000085000,075262,092522,080386,070565,093870,084261
0000000087,0000086000,073925,090982,083263,069169,091959,087567
0000000088,0000087000,073433,088768,085969,068773,089301,090621
0000000089,0000088000,073847,086085,088238,069415,086156,093124
0000000090,0000089000,075125,083206,089840,071031,082837,094827
0000000091,0000090000,077134,080417,090620,073466,079664,095565
0000000092,0000091000,079688,077975,090507,076482,076946,095267
0000000093,0000092000,082535,076125,089510,079779,074953,093963
0000000094,0000093000,085383,075060,087727,083035,073882,091779
0000000095,0000094000,087969,074876,085325,085937,073832,088926
0000000096,0000095000,090042,075581,082547,088198,074810,085687
0000000097,0000096000,091384,077116,079671,089592,076721,082382
0000000098,0000097000,091866,079339,076965,089988,079380,079328
0000000099,0000098000,091455,082021,074695,089347,082523,076825
0000000100,0000099000,090185,084892,073093,087731,085843,075122
0000000101,0000100000,088169,087688,072313,085296,089015,074384
0000000102,0000101000,085612,090133,072425,082282,091732,074681
0000000103,0000102000,082774,091974,073422,078985,093725,075985
0000000104,0000103000,079923,093043,075205,075728,094798,078169
0000000105,0000104000,077330,093234,077606,072827,094847,081022
0000000106,0000105000,075264,092522,080384,070567,093869,084260
0000000107,0000106000,073923,090986,083261,069171,091959,087565
0000000108,0000107000,073432,088770,085968,068775,089301,090619
0000000109,0000108000,073847,086085,088238,069417,086157,093122
0000000110,0000109000,075122,083209,089840,071032,082839,094825
0000000111,0000110000,077130,080420,090621,073466,079667,095563
0000000112,0000111000,079688,077974,090508,076481,076949,095266
0000000113,0000112000,082533,076125,089513,079777,074957,093962
0000000114,0000113000,085379,075061,087729,083032,073885,091778
0000000115,0000114000,087969,074873,085328,085935,073834,088927
0000000116,0000115000,090043,075578,082550,088194,074812,085689
0000000117,0000116000,091382,077115,079673,089589,076722,082384
0000000118,0000117000,091868,079337,076966,089986,079379,079331
0000000119,0000118000,091459,082016,074695,089345,082522,076828
0000000120,0000119000,090186,084891,073093,087730,085841,075125
0000000121,0000120000,088171,087687,072312,085296,089012,074387
0000000122,0000121000,085617,090130,072423,082283,091729,074684
0000000123,0000122000,082776,091975,073419,078987,093722,075987
0000000124,0000123000,079923,093045,075202,075731,094795,078170
0000000125,0000124000,077333,093234,077603,072830,094844,081021
0000000126,0000125000,075265,092524,080382,070570,093867,084258
0000000127,0000126000,073921,090990,083259,069174,091959,087562
0000000128,0000127000,073431,088773,085966,068778,089301,090616
0000000129,0000128000,073846,086087,088237,069419,086159,093118
0000000130,0000129000,075117,083213,089840,071033,082842,094821
0000000131,0000130000,077127,080422,090622,073466,079670,095560
0000000132,0000131000,079686,077974,090511,076480,076953,095263
0000000133,0000132000,082529,076126,089516,079774,074961,093960
0000000134,0000133000,085376,075061,087733,083029,073888,091778
0000000135,0000134000,087969,074870,085331,085930,073837,088928
0000000136,0000135000,090042,075575,082553,088190,074814,085691
0000000137,0000136000,091381,077113,079676,089585,076723,082388
0000000138,0000137000,091871,079332,076968,089983,079378,079335
0000000139,0000138000,091462,082012,074696,089342,082520,076833
0000000140,0000139000,090188,084889,073093,087728,085837,075130
0000000141,0000140000,088176,087684,072310,085297,089008,074390
0000000142,0000141000,085622,090128,072421,082284,091724,074687
0000000143,0000142000,082779,091976,073416,078989,093717,075989
0000000144,0000143000,079926,093047,075198,075735,094790,078170
0000000145,0000144000,077336,093235,077599,072835,094841,081020
0000000146,0000145000,075265,092528,080378,070575,093865,084255
0000000147,0000146000,073919,090995,083256,069179,091958,087558
0000000148,0000147000,073431,088776,085964,068782,089302,090611
0000000149,0000148000,073843,086091,088236,069421,086161,093113
0000000150,0000149000,075112,083218,089841,071034,082845,094816
0000000151,0000150000,077123,080424,090624,073466,079674,095555
0000000152,0000151000,079682,077974,090514,076477,076958,095260
0000000153,0000152000,082523,076127,089520,079770,074966,093958
0000000154,0000153000,085373,075060,087737,083025,073893,091778
0000000155,0000154000,087968,074866,085336,085925,073841,088929
0000000156,0000155000,090040,075572,082558,088184,074817,085694
0000000157,0000156000,091382,077109,079679,089580,076724,082392
0000000158,0000157000,091875,079326,076970,089978,079377,079340
0000000159,0000158000,091465,082008,074697,089339,082518,076839
0000000160,0000159000,090192,084886,073092,087727,085833,075135
0000000161,0000160000,088182,087680,072308,085297,089003,074396
0000000162,0000161000,085627,090126,072417,082286,091719,074691
0000000163,0000162000,082782,091977,073411,078993,093711,075991
0000000164,0000163000,079930,093047,075193,075740,094784,078171
0000000165,0000164000,077339,093238,077594,072841,094836,081018
0000000166,0000165000,075264,092533,080373,070581,093862,084252
0000000167,0000166000,073918,091000,083251,069186,091956,087554
0000000168,0000167000,073429,088780,085961,068787,089303,090605
0000000169,0000168000,073838,086097,088235,069425,086164,093106
0000000170,0000169000,075106,083223,089841,071036,082850,094809
0000000171,0000170000,077118,080426,090626,073466,079680,095549
0000000172,0000171000,079676,077977,090518,076475,076965,095255
0000000173,0000172000,082517,076128,089525,079766,074973,093956
0000000174,0000173000,085370,075057,087743,083019,073899,091777
0000000175,0000174000,087966,074862,085342,085918,073847,088931
0000000176,0000175000,090039,075568,082563,088177,074820,085698
0000000177,0000176000,091384,077103,079684,089573,076725,082398
0000000178,0000177000,091878,079318,076974,089972,079377,079347
0000000179,0000178000,091469,082003,074699,089335,082515,076846
0000000180,0000179000,090198,084881,073092,087725,085828,075143
0000000181,0000180000,088189,087675,072305,085297,088996,074402
0000000182,0000181000,085633,090124,072413,082288,091711,074696
0000000183,0000182000,082787,091978,073405,078998,093703,075994
0000000184,0000183000,079936,093049,075186,075747,094777,078171
0000000185,0000184000,077342,093242,077587,072848,094831,081017
0000000186,0000185000,075264,092540,080367,070589,093858,084248
0000000187,0000186000,073918,091006,083246,069193,091955,087547
0000000188,0000187000,073426,088787,085957,068794,089304,090597
0000000189,0000188000,073832,086105,088234,069430,086168,093098
0000000190,0000189000,075100,083228,089842,071039,082855,094801
0000000191,0000190000,077112,080430,090629,073465,079688,095542
0000000192,0000191000,079668,077980,090523,076472,076974,095250
0000000193,0000192000,082511,076128,089531,079761,074982,093952
0000000194,0000193000,085366,075054,087750,083012,073907,091777
0000000195,0000194000,087962,074858,085350,085909,073853,088933
0000000196,0000195000,090037,075563,082570,088168,074825,085703
0000000197,0000196000,091386,077094,079690,089565,076726,082404
0000000198,0000197000,091882,079311,076978,089965,079375,079355
0000000199,0000198000,091474,081996,074701,089329,082511,076855
0000000200,0000199000,090206,084874,073091,087722,085821,075152
0000000201,0000200000,088198,087670,072302,085297,088988,074410
0000000202,0000201000,085640,090122,072408,082291,091702,074702
0000000203,0000202000,082795,091977,073398,079004,093694,075998
0000000204,0000203000,079942,093050,075178,075755,094768,078172
0000000205,0000204000,077344,093247,077579,072858,094824,081014
0000000206,0000205000,075265,092547,080359,070599,093854,084243
0000000207,0000206000,073917,091014,083240,069203,091953,087540
0000000208,0000207000,073421,088796,085953,068802,089306,090588
0000000209,0000208000,073825,086114,088232,069435,086172,093088
0000000210,0000209000,075093,083235,089842,071042,082863,094791
0000000211,0000210000,077103,080435,090633,073465,079697,095533
0000000212,0000211000,079658,077983,090529,076468,076984,095243
0000000213,0000212000,082503,076128,089539,079755,074992,093949
0000000214,0000213000,085360,075051,087760,083003,073917,091776
0000000215,0000214000,087957,074853,085359,085899,073861,088935
0000000216,0000215000,090036,075555,082579,088157,074830,085708
0000000217,0000216000,091389,077085,079697,089554,076728,082413
0000000218,0000217000,091886,079301,076983,089956,079374,079366
0000000219,0000218000,091481,081987,074703,089323,082506,076866
0000000220,0000219000,090216,084865,073090,087719,085814,075163
0000000221,0000220000,088207,087664,072298,085297,088978,074420
0000000222,0000221000,085649,090120,072401,082295,091691,074709
0000000223,0000222000,082804,091977,073389,079011,093682,076002
0000000224,0000223000,079949,093053,075168,075764,094758,078173
0000000225,0000224000,077348,093254,077569,072869,094815,081011
0000000226,0000225000,075267,092555,080349,070611,093848,084236
0000000227,0000226000,073915,091023,083232,069214,091951,087531
0000000228,0000227000,073415,088807,085947,068811,089308,090577
0000000229,0000228000,073817,086124,088229,069442,086177,093076
0000000230,0000229000,075084,083243,089844,071045,082871,094779
0000000231,0000230000,077092,080442,090637,073464,079708,095523
0000000232,0000231000,079648,077987,090536,076464,076996,095235
0000000233,0000232000,082494,076127,089548,079747,075005,093944
0000000234,0000233000,085352,075047,087771,082992,073928,091775
0000000235,0000234000,087952,074847,085370,085887,073870,088938
0000000236,0000235000,090036,075546,082589,088144,074836,085715
0000000237,0000236000,091391,077074,079705,089542,076731,082423
0000000238,0000237000,091891,079291,076989,089945,079372,079378
0000000239,0000238000,091490,081976,074705,089316,082500,076879
0000000240,0000239000,090227,084855,073089,087715,085804,075176
0000000241,0000240000,088219,087658,072294,085298,088966,074431
0000000242,0000241000,085661,090116,072393,082300,091677,074718
0000000243,0000242000,082815,091976,073379,079020,093669,076007
0000000244,0000243000,079957,093057,075156,075776,094746,078174
0000000245,0000244000,077353,093261,077556,072882,094805,081008
0000000246,0000245000,075268,092564,080338,070625,093841,084229
0000000247,0000246000,073912,091035,083223,069227,091949,087520
0000000248,0000247000,073409,088820,085941,068822,089310,090563
0000000249,0000248000,073808,086135,088226,069450,086184,093061
0000000250,0000249000,075072,083253,089845,071049,082881,094765
0000000251,0000250000,077078,080450,090642,073463,079721,095511
0000000252,0000251000,079635,077991,090544,076459,077011,095226
0000000253,0000252000,082484,076127,089559,079738,075019,093938
0000000254,0000253000,085343,075044,087783,082980,073942,091774
0000000255,0000254000,087947,074840,085383,085872,073881,088942
0000000256,0000255000,090035,075534,082601,088129,074842,085723
0000000257,0000256000,091394,077061,079716,089528,076733,082434
0000000258,0000257000,091897,079277,076996,089934,079370,079392
0000000259,0000258000,091500,081962,074708,089308,082493,076895
0000000260,0000259000,090239,084844,073087,087711,085794,075191
0000000261,0000260000,088232,087650,072288,085299,088952,074444
0000000262,0000261000,085675,090111,072384,082306,091662,074728
0000000263,0000262000,082827,091976,073367,079029,093653,076013
0000000264,0000263000,079966,093062,075143,075789,094732,078175
0000000265,0000264000,077359,093269,077542,072898,094794,081004
0000000266,0000265000,075270,092575,080325,070641,093834,084220
0000000267,0000266000,073909,091049,083212,069242,091946,087507
0000000268,0000267000,073401,088835,085934,068835,089312,090548
0000000269,0000268000,073798,086149,088223,069459,086191,093045
0000000270,0000269000,075059,083265,089846,071053,082893,094749
0000000271,0000270000,077063,080459,090648,073463,079736,095497
0000000272,0000271000,079621,077996,090554,076453,077027,095215
0000000273,0000272000,082471,076127,089572,079727,075036,093932
0000000274,0000273000,085332,075040,087798,082965,073957,091773
0000000275,0000274000,087940,074831,085399,085856,073893,088947
0000000276,0000275000,090033,075522,082615,088112,074851,085733
0000000277,0000276000,091396,077047,079727,089511,076736,082448
0000000278,0000277000,091905,079262,077004,089920,079367,079408
0000000279,0000278000,091512,081947,074711,089298,082485,076912
0000000280,0000279000,090253,084831,073086,087706,085781,075208
0000000281,0000280000,088248,087640,072282,085300,088936,074459
0000000282,0000281000,085691,090106,072373,082312,091644,074739
0000000283,0000282000,082841,091976,073353,079041,093635,076019
0000000284,0000283000,079977,093067,075127,075804,094715,078176
0000000285,0000284000,077366,093278,077526,072916,094781,080999
0000000286,0000285000,075272,092588,080310,070660,093826,084210
0000000287,0000286000,073906,091065,083199,069259,091943,087493
0000000288,0000287000,073394,088852,085925,068850,089315,090531
0000000289,0000288000,073786,086165,088219,069470,086200,093026
0000000290,0000289000,075043,083279,089848,071058,082906,094731
0000000291,0000290000,077047,080470,090654,073462,079753,095480
0000000292,0000291000,079604,078001,090565,076446,077046,095203
0000000293,0000292000,082455,076128,089587,079715,075055,093925
0000000294,0000293000,085320,075035,087815,082949,073974,091772
0000000295,0000294000,087933,074821,085416,085837,073907,088952
0000000296,0000295000,090031,075508,082632,088092,074860,085743
0000000297,0000296000,091400,077030,079741,089493,076739,082463
0000000298,0000297000,091914,079244,077013,089904,079364,079427
0000000299,0000298000,091525,081930,074716,089287,082476,076933
0000000300,0000299000,090269,084817,073084,087701,085767,075227
0000000301,0000300000,088266,087629,072275,085301,088918,074477
