DIgSILENT PowerFactory,21000900,2000
6,06A,00D
1,TTPP_200000_100:Secondary Voltage A,,,V,0.010000000,-71.429611,0.000000,-85630,99998,1,1,P
2,TTPP_200000_100:Secondary Voltage B,,,V,0.010000000,-30.341278,0.000000,-90639,99998,1,1,P
3,TTPP_200000_100:Secondary Voltage C,,,V,0.10000000,-8995.569336,0.000000,79918,99998,1,1,P
4,TTCC_300_1:Secondary Current A,,,A,0.00010000000,-4.332716,0.000000,-40015,99998,1,1,P
5,TTCC_300_1:Secondary Current B,,,A,0.00010000000,-4.927125,0.000000,-1412,99998,1,1,P
6,TTCC_300_1:Secondary Current C,,,A,0.00010000000,-4.880081,0.000000,-2299,99998,1,1,P
50
1
1000.000000,1101
30/06/2023,06:05:04.000000
30/06/2023,06:05:04.000000
ASCII
1.000000
0000000001,0000000000,078209,017787,081374,022390,035291,083719
0000000002,0000001000,056862,044973,080790,032144,026008,083248
0000000003,0000002000,030494,068234,081101,042981,019010,079408
0000000004,0000003000,001917,085046,082277,053853,014971,072575
0000000005,0000004000,-26067,093707,084211,063701,014288,063409
0000000006,0000005000,-50950,093605,086708,071555,017034,052811
0000000007,0000006000,-70128,084721,089515,076644,022926,041828
0000000008,0000007000,-81555,067623,092367,078469,031401,031530
0000000009,0000008000,-84405,044248,094989,076846,041641,022912
0000000010,0000009000,-78467,017052,097116,071949,052618,016832
0000000011,0000010000,-63980,-11659,098538,064260,063251,013888
0000000012,0000011000,-42447,-39036,099123,054506,072534,014359
0000000013,0000012000,-16227,-62147,098811,043655,079547,018197
0000000014,0000013000,012313,-78909,097633,032791,083578,025030
0000000015,0000014000,040453,-87726,095700,022944,084258,034197
0000000016,0000015000,065224,-87530,093204,015080,081523,044796
0000000017,0000016000,084280,-78515,090397,010002,075620,055777
0000000018,0000017000,095913,-61626,087545,008185,067137,066076
0000000019,0000018000,098800,-38287,084922,009793,056913,074693
0000000020,0000019000,092656,-10881,082795,014688,045938,080773
0000000021,0000020000,078254,017748,081373,022389,035292,083718
0000000022,0000021000,056814,045021,080789,032138,026014,083248
0000000023,0000022000,030429,068291,081101,042985,019006,079408
0000000024,0000023000,001944,085010,082278,053862,014963,072575
0000000025,0000024000,-26041,093671,084211,063702,014288,063408
0000000026,0000025000,-50960,093620,086707,071554,017035,052810
0000000027,0000026000,-70100,084690,089514,076645,022925,041829
0000000028,0000027000,-81570,067636,092367,078467,031402,031530
0000000029,0000028000,-84481,044312,094990,076848,041640,022912
0000000030,0000029000,-78449,017026,097116,071958,052610,016831
0000000031,0000030000,-63926,-11717,098537,064263,063249,013887
0000000032,0000031000,-42460,-39025,099122,054502,072539,014358
0000000033,0000032000,-16245,-62126,098811,043658,079545,018197
0000000034,0000033000,012309,-78911,097634,032794,083576,025030
0000000035,0000034000,040432,-87711,095701,022945,084258,034196
0000000036,0000035000,065217,-87528,093204,015087,081518,044794
0000000037,0000036000,084326,-78556,090397,010005,075618,055775
0000000038,0000037000,095933,-61644,087545,008182,067143,066074
0000000039,0000038000,098758,-38242,084922,009794,056913,074692
0000000040,0000039000,092645,-10868,082796,014693,045934,080772
0000000041,0000040000,078278,017722,081373,022390,035292,083717
0000000042,0000041000,056811,045028,080789,032139,026015,083246
0000000043,0000042000,030444,068283,081101,042987,019005,079407
0000000044,0000043000,001973,084991,082277,053859,014966,072575
0000000045,0000044000,-26074,093705,084211,063700,014290,063409
0000000046,0000045000,-50986,093649,086708,071557,017031,052810
0000000047,0000046000,-70071,084663,089514,076647,022923,041829
0000000048,0000047000,-81556,067624,092367,078465,031403,031531
0000000049,0000048000,-84493,044330,094989,076848,041638,022913
0000000050,0000049000,-78446,017025,097115,071959,052608,016833
0000000051,0000050000,-63933,-11711,098538,064262,063248,013888
0000000052,0000051000,-42490,-39001,099123,054506,072534,014358
0000000053,0000052000,-16235,-62138,098811,043663,079539,018197
0000000054,0000053000,012340,-78945,097634,032795,083575,025029
0000000055,0000054000,040416,-87698,095701,022947,084258,034195
0000000056,0000055000,065196,-87510,093204,015091,081516,044793
0000000057,0000056000,084338,-78575,090397,010009,075617,055773
0000000058,0000057000,095929,-61645,087545,008185,067143,066072
0000000059,0000058000,098753,-38240,084922,009798,056912,074689
0000000060,0000059000,092678,-10898,082795,014694,045936,080769
0000000061,0000060000,078284,017717,081373,022389,035296,083714
0000000062,0000061000,056784,045058,080789,032139,026016,083244
0000000063,0000062000,030453,068277,081100,042988,019006,079406
0000000064,0000063000,001995,084972,082277,053857,014968,072574
0000000065,0000064000,-26081,093717,084210,063698,014292,063409
0000000066,0000065000,-50984,093654,086707,071555,017032,052811
0000000067,0000066000,-70057,084655,089514,076644,022924,041832
0000000068,0000067000,-81579,067647,092366,078463,031403,031534
0000000069,0000068000,-84512,044350,094989,076849,041635,022916
0000000070,0000069000,-78427,017005,097115,071959,052604,016836
0000000071,0000070000,-63933,-11714,098538,064262,063246,013891
0000000072,0000071000,-42516,-38978,099123,054508,072530,014360
0000000073,0000072000,-16234,-62144,098811,043666,079535,018198
0000000074,0000073000,012339,-78953,097635,032799,083572,025029
0000000075,0000074000,040394,-87686,095702,022952,084254,034193
0000000076,0000075000,065206,-87525,093205,015097,081512,044790
0000000077,0000076000,084361,-78602,090398,010012,075617,055770
0000000078,0000077000,095916,-61635,087546,008188,067144,066067
0000000079,0000078000,098746,-38235,084922,009802,056913,074684
0000000080,0000079000,092702,-10921,082795,014696,045938,080764
0000000081,0000080000,078290,017713,081373,022389,035301,083710
0000000082,0000081000,056783,045065,080788,032138,026021,083241
0000000083,0000082000,030477,068263,081099,042985,019011,079404
0000000084,0000083000,002002,084973,082276,053852,014973,072574
0000000085,0000084000,-26098,093744,084209,063693,014295,063410
0000000086,0000085000,-50976,093655,086706,071552,017033,052814
0000000087,0000086000,-70043,084648,089513,076639,022925,041836
0000000088,0000087000,-81596,067670,092366,078458,031402,031539
0000000089,0000088000,-84522,044364,094989,076847,041631,022922
0000000090,0000089000,-78424,017001,097116,071958,052600,016842
0000000091,0000090000,-63956,-11697,098539,064262,063241,013896
0000000092,0000091000,-42536,-38965,099124,054512,072523,014364
0000000093,0000092000,-16225,-62162,098812,043671,079527,018200
0000000094,0000093000,012332,-78958,097636,032803,083566,025030
0000000095,0000094000,040372,-87676,095703,022959,084249,034192
0000000096,0000095000,065211,-87541,093206,015106,081508,044786
0000000097,0000096000,084370,-78623,090399,010019,075616,055764
0000000098,0000097000,095910,-61637,087546,008194,067145,066060
0000000099,0000098000,098761,-38251,084923,009807,056915,074676
0000000100,0000099000,092728,-10946,082795,014698,045944,080757
0000000101,0000100000,078291,017716,081373,022388,035308,083703
0000000102,0000101000,056789,045069,080787,032137,026027,083235
0000000103,0000102000,030505,068248,081098,042981,019018,079401
0000000104,0000103000,002011,084978,082275,053845,014982,072573
0000000105,0000104000,-26102,093764,084207,063686,014301,063412
0000000106,0000105000,-50963,093658,086704,071544,017037,052819
0000000107,0000106000,-70044,084660,089512,076630,022927,041842
0000000108,0000107000,-81619,067701,092365,078452,031401,031547
0000000109,0000108000,-84528,044375,094988,076843,041626,022931
0000000110,0000109000,-78428,017002,097116,071955,052594,016851
0000000111,0000110000,-63984,-11676,098540,064262,063233,013904
0000000112,0000111000,-42557,-38955,099125,054516,072512,014371
0000000113,0000112000,-16230,-62173,098814,043678,079517,018204
0000000114,0000113000,012313,-78958,097638,032812,083557,025030
0000000115,0000114000,040358,-87679,095705,022970,084241,034189
0000000116,0000115000,065223,-87569,093208,015117,081502,044781
0000000117,0000116000,084374,-78643,090400,010029,075614,055756
0000000118,0000117000,095906,-61643,087547,008203,067146,066050
0000000119,0000118000,098783,-38276,084923,009815,056919,074665
0000000120,0000119000,092754,-10970,082795,014702,045952,080746
0000000121,0000120000,078302,017714,081372,022388,035319,083693
0000000122,0000121000,056812,045061,080786,032134,026038,083227
0000000123,0000122000,030534,068238,081096,042973,019030,079396
0000000124,0000123000,002016,084994,082272,053835,014993,072571
0000000125,0000124000,-26098,093783,084205,063675,014309,063415
0000000126,0000125000,-50949,093664,086702,071531,017042,052825
0000000127,0000126000,-70051,084683,089510,076617,022930,041852
0000000128,0000127000,-81640,067734,092364,078442,031399,031559
0000000129,0000128000,-84538,044390,094988,076836,041620,022944
0000000130,0000129000,-78447,017018,097116,071951,052585,016864
0000000131,0000130000,-64020,-11651,098541,064263,063220,013916
0000000132,0000131000,-42577,-38951,099126,054522,072498,014380
0000000133,0000132000,-16243,-62183,098816,043686,079504,018209
0000000134,0000133000,012286,-78958,097641,032823,083545,025031
0000000135,0000134000,040344,-87691,095708,022985,084229,034186
0000000136,0000135000,065230,-87601,093210,015132,081495,044773
0000000137,0000136000,084376,-78665,090402,010043,075612,055744
0000000138,0000137000,095914,-61664,087549,008216,067147,066035
0000000139,0000138000,098813,-38312,084924,009824,056925,074650
0000000140,0000139000,092780,-10994,082795,014706,045963,080730
0000000141,0000140000,078321,017707,081371,022388,035332,083679
0000000142,0000141000,056846,045047,080784,032130,026053,083217
0000000143,0000142000,030565,068231,081094,042963,019047,079389
0000000144,0000143000,002028,085011,082270,053821,015008,072570
0000000145,0000144000,-26085,093801,084202,063659,014321,063418
0000000146,0000145000,-50938,093681,086699,071514,017051,052834
0000000147,0000146000,-70065,084719,089508,076601,022934,041865
0000000148,0000147000,-81660,067771,092362,078428,031396,031575
0000000149,0000148000,-84553,044412,094987,076826,041612,022962
0000000150,0000149000,-78479,017046,097117,071945,052573,016881
0000000151,0000150000,-64061,-11623,098542,064263,063204,013931
0000000152,0000151000,-42604,-38946,099129,054528,072479,014392
0000000153,0000152000,-16270,-62187,098819,043697,079485,018217
0000000154,0000153000,012255,-78961,097644,032839,083527,025033
0000000155,0000154000,040333,-87714,095711,023004,084214,034181
0000000156,0000155000,065233,-87637,093214,015151,081486,044763
0000000157,0000156000,084376,-78693,090405,010062,075608,055729
0000000158,0000157000,095931,-61698,087550,008233,067149,066017
0000000159,0000158000,098849,-38355,084924,009836,056934,074629
0000000160,0000159000,092812,-11022,082795,014711,045978,080710
0000000161,0000160000,078354,017691,081369,022388,035350,083661
0000000162,0000161000,056892,045029,080781,032123,026074,083203
0000000163,0000162000,030599,068231,081090,042950,019068,079381
0000000164,0000163000,002046,085032,082266,053803,015028,072568
0000000165,0000164000,-26064,093822,084198,063639,014337,063423
0000000166,0000165000,-50929,093709,086696,071492,017062,052845
0000000167,0000166000,-70081,084766,089505,076579,022938,041882
0000000168,0000167000,-81681,067814,092360,078411,031393,031596
0000000169,0000168000,-84578,044445,094986,076812,041602,022985
0000000170,0000169000,-78524,017084,097117,071938,052557,016904
0000000171,0000170000,-64108,-11594,098544,064264,063183,013952
0000000172,0000171000,-42639,-38940,099132,054536,072455,014407
0000000173,0000172000,-16309,-62187,098823,043712,079461,018226
0000000174,0000173000,012219,-78969,097648,032860,083505,025035
0000000175,0000174000,040320,-87746,095716,023028,084196,034175
0000000176,0000175000,065231,-87678,093218,015176,081474,044750
0000000177,0000176000,084380,-78732,090408,010086,075604,055710
0000000178,0000177000,095957,-61747,087553,008254,067152,065993
0000000179,0000178000,098890,-38406,084925,009850,056945,074603
0000000180,0000179000,092851,-11056,082794,014719,045996,080684
0000000181,0000180000,078401,017664,081367,022388,035373,083638
0000000182,0000181000,056946,045007,080778,032114,026100,083185
0000000183,0000182000,030640,068233,081086,042933,019096,079370
0000000184,0000183000,002075,085053,082261,053781,015052,072566
0000000185,0000184000,-26038,093847,084193,063613,014357,063430
0000000186,0000185000,-50924,093750,086691,071464,017076,052860
0000000187,0000186000,-70099,084822,089501,076553,022943,041903
0000000188,0000187000,-81705,067864,092357,078388,031389,031622
0000000189,0000188000,-84614,044492,094985,076796,041590,023014
0000000190,0000189000,-78579,017133,097118,071930,052537,016932
0000000191,0000190000,-64163,-11561,098546,064266,063157,013977
0000000192,0000191000,-42688,-38929,099135,054546,072426,014427
0000000193,0000192000,-16361,-62185,098828,043730,079432,018238
0000000194,0000193000,012178,-78984,097654,032885,083477,025037
0000000195,0000194000,040302,-87785,095721,023058,084174,034168
0000000196,0000195000,065225,-87725,093223,015207,081459,044734
0000000197,0000196000,084388,-78782,090413,010115,075598,055686
0000000198,0000197000,095990,-61810,087555,008279,067156,065964
0000000199,0000198000,098937,-38465,084927,009868,056959,074572
0000000200,0000199000,092901,-11099,082793,014728,046018,080653
0000000201,0000200000,078463,017628,081364,022388,035401,083610
0000000202,0000201000,057011,044984,080774,032103,026133,083164
0000000203,0000202000,030689,068238,081081,042913,019129,079358
0000000204,0000203000,002116,085075,082254,053754,015082,072563
0000000205,0000204000,-26007,093879,084186,063580,014381,063438
0000000206,0000205000,-50920,093804,086685,071429,017092,052878
0000000207,0000206000,-70117,084888,089496,076521,022949,041929
0000000208,0000207000,-81734,067926,092354,078361,031384,031655
0000000209,0000208000,-84663,044553,094984,076776,041575,023049
0000000210,0000209000,-78645,017191,097119,071920,052513,016967
0000000211,0000210000,-64228,-11523,098549,064267,063125,014007
0000000212,0000211000,-42751,-38912,099140,054558,072390,014450
0000000213,0000212000,-16424,-62182,098834,043752,079396,018252
0000000214,0000213000,012132,-79005,097661,032916,083444,025040
0000000215,0000214000,040278,-87831,095728,023094,084147,034160
0000000216,0000215000,065216,-87780,093230,015244,081441,044714
0000000217,0000216000,084402,-78848,090418,010151,075591,055657
0000000218,0000217000,096031,-61886,087559,008310,067161,065928
0000000219,0000218000,098990,-38534,084928,009890,056976,074533
0000000220,0000219000,092965,-11154,082792,014739,046045,080615
0000000221,0000220000,078540,017582,081361,022387,035436,083577
0000000222,0000221000,057085,044959,080769,032090,026172,083138
0000000223,0000222000,030750,068243,081074,042889,019168,079342
0000000224,0000223000,002167,085099,082247,053721,015118,072560
0000000225,0000224000,-25973,093921,084179,063541,014411,063447
0000000226,0000225000,-50915,093869,086678,071388,017112,052899
0000000227,0000226000,-70135,084965,089490,076482,022956,041961
0000000228,0000227000,-81769,068001,092350,078328,031378,031694
0000000229,0000228000,-84723,044629,094983,076752,041557,023091
0000000230,0000229000,-78722,017259,097120,071908,052483,017008
0000000231,0000230000,-64305,-11479,098552,064268,063087,014044
0000000232,0000231000,-42830,-38888,099145,054572,072348,014478
0000000233,0000232000,-16499,-62179,098841,043779,079352,018268
0000000234,0000233000,012079,-79033,097669,032952,083404,025043
0000000235,0000234000,040247,-87883,095737,023136,084115,034149
0000000236,0000235000,065204,-87846,093237,015289,081420,044690
0000000237,0000236000,084420,-78928,090424,010194,075582,055623
0000000238,0000237000,096078,-61976,087563,008346,067167,065886
0000000239,0000238000,099053,-38615,084930,009916,056996,074487
0000000240,0000239000,093043,-11221,082791,014752,046077,080570
0000000241,0000240000,078632,017527,081357,022385,035477,083537
0000000242,0000241000,057172,044931,080763,032074,026218,083108
0000000243,0000242000,030824,068247,081066,042860,019215,079324
0000000244,0000243000,002230,085126,082238,053682,015161,072557
0000000245,0000244000,-25934,093972,084170,063495,014445,063459
0000000246,0000245000,-50909,093947,086670,071340,017135,052925
0000000247,0000246000,-70154,085053,089484,076436,022965,041998
0000000248,0000247000,-81813,068092,092345,078289,031371,031739
0000000249,0000248000,-84796,044720,094981,076724,041536,023140
0000000250,0000249000,-78810,017337,097121,071894,052448,017057
0000000251,0000250000,-64398,-11426,098556,064270,063042,014087
0000000252,0000251000,-42926,-38857,099152,054590,072298,014511
0000000253,0000252000,-16585,-62176,098850,043810,079302,018287
0000000254,0000253000,012016,-79066,097678,032995,083357,025047
0000000255,0000254000,040207,-87942,095747,023186,084077,034136
0000000256,0000255000,065191,-87923,093246,015341,081396,044663
0000000257,0000256000,084443,-79025,090432,010244,075573,055582
0000000258,0000257000,096130,-62079,087569,008387,067174,065837
0000000259,0000258000,099126,-38709,084932,009945,057019,074434
0000000260,0000259000,093137,-11304,082790,014767,046114,080518
0000000261,0000260000,078738,017463,081353,022384,035525,083491
0000000262,0000261000,057273,044900,080756,032055,026272,083073
0000000263,0000262000,030913,068249,081057,042826,019270,079304
0000000264,0000263000,002304,085156,082227,053636,015211,072553
0000000265,0000264000,-25890,094034,084159,063441,014486,063472
0000000266,0000265000,-50901,094036,086660,071283,017161,052954
0000000267,0000266000,-70175,085155,089475,076383,022974,042042
0000000268,0000267000,-81866,068200,092340,078244,031364,031792
0000000269,0000268000,-84880,044828,094978,076692,041510,023197
0000000270,0000269000,-78911,017426,097122,071879,052408,017113
0000000271,0000270000,-64507,-11362,098560,064272,062991,014136
0000000272,0000271000,-43038,-38820,099159,054610,072241,014548
0000000273,0000272000,-16684,-62175,098860,043847,079243,018309
0000000274,0000273000,011941,-79103,097690,033045,083304,025051
0000000275,0000274000,040158,-88008,095758,023243,084035,034122
0000000276,0000275000,065176,-88014,093257,015402,081367,044631
0000000277,0000276000,084469,-79138,090440,010301,075563,055536
0000000278,0000277000,096188,-62198,087575,008435,067183,065780
0000000279,0000278000,099211,-38820,084935,009980,057047,074372
0000000280,0000279000,093247,-11401,082789,014784,046157,080458
0000000281,0000280000,078859,017389,081348,022381,035580,083439
0000000282,0000281000,057389,044863,080748,032033,026334,083033
0000000283,0000282000,031018,068249,081046,042787,019332,079280
0000000284,0000283000,002389,085191,082215,053583,015268,072549
0000000285,0000284000,-25839,094106,084147,063379,014532,063488
0000000286,0000285000,-50888,094138,086649,071219,017191,052989
0000000287,0000286000,-70199,085273,089466,076323,022985,042091
0000000288,0000287000,-81928,068326,092333,078193,031354,031853
0000000289,0000288000,-84975,044951,094976,076655,041481,023263
0000000290,0000289000,-79027,017529,097123,071861,052362,017177
0000000291,0000290000,-64634,-11286,098565,064275,062932,014192
0000000292,0000291000,-43167,-38776,099168,054633,072175,014591
0000000293,0000292000,-16797,-62174,098871,043889,079176,018334
0000000294,0000293000,011853,-79144,097702,033101,083243,025055
0000000295,0000294000,040100,-88083,095771,023309,083986,034105
0000000296,0000295000,065160,-88120,093269,015470,081335,044594
0000000297,0000296000,084498,-79268,090450,010365,075551,055483
0000000298,0000297000,096253,-62334,087582,008489,067194,065716
0000000299,0000298000,099308,-38948,084938,010019,057078,074303
0000000300,0000299000,093373,-11514,082788,014803,046206,080390
0000000301,0000300000,078997,017305,081343,022378,035643,083379
