DIgSILENT PowerFactory,21000900,2000
6,06A,00D
1,TTPP_200000_100:Secondary Voltage A,,,V,0.010000000,-71.426216,0.000000,-85630,99998,1,1,P
2,TTPP_200000_100:Secondary Voltage B,,,V,0.010000000,-49.835697,0.000000,-88797,99998,1,1,P
3,TTPP_200000_100:Secondary Voltage C,,,V,0.10000000,-8994.587891,0.000000,79324,99998,1,1,P
4,TTCC_300_1:Secondary Current A,,,A,0.00010000000,-3.802996,0.000000,-55706,99998,1,1,P
5,TTCC_300_1:Secondary Current B,,,A,0.00010000000,-4.955353,0.000000,-933,99998,1,1,P
6,TTCC_300_1:Secondary Current C,,,A,0.00010000000,-4.878787,0.000000,-2434,99998,1,1,P
50
1
1000.000000,1101
30/06/2023,06:04:38.000000
30/06/2023,06:04:38.000000
ASCII
1.000000
0000000001,0000000000,078208,019736,081364,017093,035572,083706
0000000002,0000001000,056857,046923,080780,026848,026289,083235
0000000003,0000002000,030491,070186,081092,037684,019293,079394
0000000004,0000003000,001910,086990,082267,048558,015252,072562
0000000005,0000004000,-26067,095652,084201,058406,014569,063395
0000000006,0000005000,-50959,095556,086698,066258,017318,052796
0000000007,0000006000,-70111,086651,089505,071348,023209,041814
0000000008,0000007000,-81549,069563,092356,073171,031685,031516
0000000009,0000008000,-84438,046227,094979,071545,041929,022898
0000000010,0000009000,-78479,019002,097106,066655,052898,016819
0000000011,0000010000,-63972,-09724,098528,058965,063531,013875
0000000012,0000011000,-42430,-37108,099112,049204,072822,014345
0000000013,0000012000,-16213,-60208,098800,038357,079829,018185
0000000014,0000013000,012287,-76936,097623,027491,083862,025019
0000000015,0000014000,040433,-85760,095691,017644,084543,034186
0000000016,0000015000,065215,-85580,093194,009788,081799,044784
0000000017,0000016000,084298,-76583,090387,004706,075901,055765
0000000018,0000017000,095944,-59708,087534,002884,067423,066064
0000000019,0000018000,098791,-36324,084912,004495,057195,074682
0000000020,0000019000,092622,-08899,082786,009391,046219,080761
0000000021,0000020000,078244,019704,081364,017095,035572,083705
0000000022,0000021000,056828,046954,080780,026845,026293,083234
0000000023,0000022000,030453,070220,081091,037688,019289,079394
0000000024,0000023000,001953,086956,082267,048563,015248,072561
0000000025,0000024000,-26060,095640,084201,058405,014571,063395
0000000026,0000025000,-50982,095591,086698,066259,017316,052796
0000000027,0000026000,-70095,086633,089505,071351,023206,041814
0000000028,0000027000,-81546,069564,092357,073170,031686,031516
0000000029,0000028000,-84467,046253,094980,071549,041925,022898
0000000030,0000029000,-78461,018990,097106,066659,052894,016818
0000000031,0000030000,-63943,-09750,098528,058964,063533,013874
0000000032,0000031000,-42462,-37076,099113,049206,072820,014345
0000000033,0000032000,-16233,-60186,098801,038361,079826,018184
0000000034,0000033000,012324,-76975,097624,027493,083860,025018
0000000035,0000034000,040431,-85757,095691,017646,084542,034184
0000000036,0000035000,065197,-85561,093194,009790,081799,044783
0000000037,0000036000,084320,-76603,090387,004708,075899,055764
0000000038,0000037000,095941,-59704,087535,002886,067423,066062
0000000039,0000038000,098766,-36301,084912,004497,057194,074680
0000000040,0000039000,092648,-08921,082786,009395,046217,080760
0000000041,0000040000,078269,019678,081364,017094,035574,083704
0000000042,0000041000,056800,046986,080780,026844,026295,083233
0000000043,0000042000,030444,070229,081091,037691,019287,079394
0000000044,0000043000,001983,086930,082267,048563,015248,072561
0000000045,0000044000,-26071,095652,084201,058403,014573,063395
0000000046,0000045000,-50991,095604,086698,066260,017315,052796
0000000047,0000046000,-70073,086614,089504,071351,023206,041815
0000000048,0000047000,-81558,069573,092357,073168,031686,031517
0000000049,0000048000,-84493,046280,094980,071551,041922,022899
0000000050,0000049000,-78442,018970,097106,066661,052891,016819
0000000051,0000050000,-63930,-09763,098528,058964,063532,013875
0000000052,0000051000,-42495,-37046,099113,049208,072817,014346
0000000053,0000052000,-16235,-60188,098801,038365,079822,018184
0000000054,0000053000,012342,-76998,097624,027496,083858,025017
0000000055,0000054000,040412,-85745,095692,017648,084540,034183
0000000056,0000055000,065195,-85559,093195,009793,081797,044781
0000000057,0000056000,084343,-76630,090387,004711,075899,055762
0000000058,0000057000,095929,-59695,087535,002887,067424,066060
0000000059,0000058000,098749,-36287,084912,004500,057194,074677
0000000060,0000059000,092677,-08948,082786,009397,046217,080757
0000000061,0000060000,078282,019667,081364,017093,035577,083702
0000000062,0000061000,056781,047009,080779,026843,026297,083231
0000000063,0000062000,030457,070222,081090,037692,019287,079392
0000000064,0000063000,001999,086917,082267,048561,015250,072560
0000000065,0000064000,-26087,095673,084200,058401,014575,063395
0000000066,0000065000,-50988,095606,086697,066259,017314,052797
0000000067,0000066000,-70053,086599,089504,071348,023206,041817
0000000068,0000067000,-81578,069594,092357,073166,031686,031520
0000000069,0000068000,-84511,046300,094979,071551,041918,022902
0000000070,0000069000,-78425,018952,097106,066661,052888,016822
0000000071,0000070000,-63937,-09761,098528,058963,063530,013878
0000000072,0000071000,-42521,-37024,099113,049210,072813,014348
0000000073,0000072000,-16228,-60199,098801,038369,079817,018185
0000000074,0000073000,012344,-77008,097625,027500,083855,025017
0000000075,0000074000,040389,-85731,095692,017653,084537,034182
0000000076,0000075000,065202,-85571,093195,009799,081794,044778
0000000077,0000076000,084361,-76655,090388,004715,075898,055758
0000000078,0000077000,095915,-59686,087536,002891,067425,066055
0000000079,0000078000,098748,-36287,084913,004505,057194,074672
0000000080,0000079000,092706,-08976,082786,009399,046220,080752
0000000081,0000080000,078285,019666,081363,017092,035582,083697
0000000082,0000081000,056776,047020,080779,026843,026302,083228
0000000083,0000082000,030481,070208,081089,037690,019292,079390
0000000084,0000083000,002006,086917,082266,048556,015256,072560
0000000085,0000084000,-26100,095696,084199,058397,014578,063396
0000000086,0000085000,-50975,095604,086696,066255,017316,052800
0000000087,0000086000,-70043,086596,089503,071342,023208,041822
0000000088,0000087000,-81601,069623,092356,073161,031686,031525
0000000089,0000088000,-84521,046312,094979,071550,041914,022908
0000000090,0000089000,-78417,018944,097106,066660,052883,016828
0000000091,0000090000,-63958,-09746,098529,058963,063525,013883
0000000092,0000091000,-42541,-37010,099114,049214,072806,014352
0000000093,0000092000,-16223,-60215,098802,038373,079810,018188
0000000094,0000093000,012332,-77010,097626,027505,083849,025018
0000000095,0000094000,040369,-85723,095694,017661,084531,034180
0000000096,0000095000,065214,-85594,093196,009808,081789,044774
0000000097,0000096000,084371,-76675,090389,004721,075898,055752
0000000098,0000097000,095904,-59683,087536,002897,067426,066048
0000000099,0000098000,098761,-36302,084913,004511,057196,074664
0000000100,0000099000,092731,-09001,082786,009402,046225,080744
0000000101,0000100000,078288,019668,081363,017092,035590,083690
0000000102,0000101000,056786,047020,080778,026841,026308,083222
0000000103,0000102000,030508,070193,081088,037685,019300,079387
0000000104,0000103000,002010,086927,082265,048549,015264,072559
0000000105,0000104000,-26105,095716,084198,058390,014583,063398
0000000106,0000105000,-50960,095604,086694,066247,017319,052805
0000000107,0000106000,-70043,086608,089502,071333,023210,041828
0000000108,0000107000,-81624,069654,092355,073155,031684,031533
0000000109,0000108000,-84527,046323,094979,071545,041909,022917
0000000110,0000109000,-78424,018948,097106,066657,052877,016837
0000000111,0000110000,-63988,-09723,098530,058964,063516,013891
0000000112,0000111000,-42558,-37004,099115,049218,072795,014358
0000000113,0000112000,-16226,-60227,098804,038379,079800,018192
0000000114,0000113000,012310,-77007,097628,027513,083840,025018
0000000115,0000114000,040354,-85726,095695,017672,084523,034177
0000000116,0000115000,065225,-85623,093198,009819,081784,044769
0000000117,0000116000,084373,-76693,090390,004731,075896,055744
0000000118,0000117000,095902,-59690,087537,002906,067427,066038
0000000119,0000118000,098785,-36329,084913,004518,057200,074653
0000000120,0000119000,092755,-09023,082785,009405,046233,080733
0000000121,0000120000,078296,019668,081362,017092,035600,083680
0000000122,0000121000,056811,047011,080776,026838,026319,083214
0000000123,0000122000,030537,070182,081086,037677,019312,079382
0000000124,0000123000,002014,086944,082263,048538,015275,072558
0000000125,0000124000,-26099,095734,084195,058379,014592,063400
0000000126,0000125000,-50945,095610,086692,066235,017325,052811
0000000127,0000126000,-70053,086633,089500,071320,023213,041838
0000000128,0000127000,-81644,069687,092354,073145,031682,031545
0000000129,0000128000,-84534,046336,094978,071538,041903,022930
0000000130,0000129000,-78445,018965,097106,066653,052869,016850
0000000131,0000130000,-64024,-09697,098531,058964,063504,013903
0000000132,0000131000,-42576,-37002,099117,049223,072781,014367
0000000133,0000132000,-16241,-60235,098806,038388,079787,018197
0000000134,0000133000,012282,-77005,097631,027525,083827,025019
0000000135,0000134000,040343,-85741,095698,017687,084511,034174
0000000136,0000135000,065233,-85655,093200,009834,081777,044761
0000000137,0000136000,084373,-76714,090393,004745,075894,055732
0000000138,0000137000,095911,-59711,087539,002919,067428,066024
0000000139,0000138000,098816,-36365,084914,004527,057206,074638
0000000140,0000139000,092780,-09046,082785,009409,046245,080718
0000000141,0000140000,078316,019660,081361,017092,035613,083666
0000000142,0000141000,056848,046995,080774,026834,026335,083204
0000000143,0000142000,030567,070178,081084,037667,019329,079376
0000000144,0000143000,002024,086964,082260,048525,015290,072556
0000000145,0000144000,-26084,095751,084192,058363,014603,063404
0000000146,0000145000,-50934,095627,086689,066218,017334,052820
0000000147,0000146000,-70067,086671,089498,071304,023217,041851
0000000148,0000147000,-81663,069723,092352,073131,031679,031561
0000000149,0000148000,-84549,046357,094977,071528,041895,022948
0000000150,0000149000,-78479,018995,097107,066647,052857,016868
0000000151,0000150000,-64064,-09670,098532,058965,063487,013918
0000000152,0000151000,-42601,-36999,099119,049230,072762,014379
0000000153,0000152000,-16269,-60238,098809,038399,079768,018204
0000000154,0000153000,012250,-77007,097634,027541,083810,025021
0000000155,0000154000,040334,-85765,095701,017706,084496,034169
0000000156,0000155000,065235,-85690,093204,009853,081767,044751
0000000157,0000156000,084373,-76741,090395,004764,075890,055717
0000000158,0000157000,095930,-59748,087540,002936,067430,066005
0000000159,0000158000,098852,-36409,084914,004539,057215,074617
0000000160,0000159000,092809,-09071,082785,009415,046259,080698
0000000161,0000160000,078350,019643,081359,017092,035631,083648
0000000162,0000161000,056894,046975,080771,026827,026355,083190
0000000163,0000162000,030599,070179,081081,037654,019350,079367
0000000164,0000163000,002043,086984,082256,048507,015310,072554
0000000165,0000164000,-26062,095769,084188,058343,014619,063409
0000000166,0000165000,-50927,095656,086686,066195,017345,052831
0000000167,0000166000,-70084,086718,089495,071283,023221,041868
0000000168,0000167000,-81682,069764,092350,073114,031676,031582
0000000169,0000168000,-84575,046391,094977,071515,041886,022971
0000000170,0000169000,-78525,019035,097107,066640,052841,016891
0000000171,0000170000,-64109,-09642,098534,058967,063466,013938
0000000172,0000171000,-42636,-36993,099122,049238,072738,014395
0000000173,0000172000,-16311,-60236,098813,038413,079745,018214
0000000174,0000173000,012215,-77016,097639,027561,083787,025023
0000000175,0000174000,040322,-85798,095706,017730,084478,034164
0000000176,0000175000,065232,-85730,093208,009878,081756,044738
0000000177,0000176000,084376,-76778,090399,004788,075885,055698
0000000178,0000177000,095957,-59798,087543,002957,067433,065981
0000000179,0000178000,098892,-36459,084915,004553,057226,074591
0000000180,0000179000,092847,-09104,082784,009422,046277,080672
0000000181,0000180000,078399,019615,081357,017092,035654,083625
0000000182,0000181000,056949,046953,080768,026818,026382,083172
0000000183,0000182000,030638,070183,081076,037637,019377,079357
0000000184,0000183000,002073,087005,082251,048485,015334,072552
0000000185,0000184000,-26035,095793,084183,058316,014639,063416
0000000186,0000185000,-50923,095698,086681,066167,017358,052846
0000000187,0000186000,-70102,086774,089491,071256,023226,041889
0000000188,0000187000,-81704,069812,092347,073091,031672,031609
0000000189,0000188000,-84612,046438,094976,071498,041874,023000
0000000190,0000189000,-78581,019085,097108,066632,052821,016919
0000000191,0000190000,-64162,-09611,098536,058968,063440,013964
0000000192,0000191000,-42685,-36982,099125,049248,072709,014414
0000000193,0000192000,-16363,-60233,098818,038431,079715,018225
0000000194,0000193000,012176,-77031,097644,027587,083759,025025
0000000195,0000194000,040305,-85838,095712,017760,084456,034156
0000000196,0000195000,065224,-85775,093213,009909,081741,044722
0000000197,0000196000,084385,-76830,090403,004818,075879,055674
0000000198,0000197000,095992,-59862,087546,002982,067437,065952
0000000199,0000198000,098937,-36517,084917,004571,057240,074559
0000000200,0000199000,092897,-09146,082784,009432,046299,080641
0000000201,0000200000,078463,019577,081354,017092,035682,083598
0000000202,0000201000,057012,046931,080764,026807,026414,083151
0000000203,0000202000,030686,070189,081071,037617,019410,079344
0000000204,0000203000,002115,087025,082244,048458,015364,072549
0000000205,0000204000,-26004,095826,084177,058284,014664,063424
0000000206,0000205000,-50921,095753,086675,066132,017375,052864
0000000207,0000206000,-70119,086840,089486,071224,023232,041915
0000000208,0000207000,-81732,069873,092344,073064,031667,031641
0000000209,0000208000,-84662,046501,094974,071478,041859,023035
0000000210,0000209000,-78647,019143,097109,066622,052796,016953
0000000211,0000210000,-64226,-09575,098539,058969,063408,013994
0000000212,0000211000,-42750,-36964,099130,049260,072674,014438
0000000213,0000212000,-16427,-60229,098824,038453,079679,018239
0000000214,0000213000,012131,-77054,097651,027618,083726,025028
0000000215,0000214000,040280,-85884,095719,017795,084429,034148
0000000216,0000215000,065213,-85829,093220,009946,081723,044702
0000000217,0000216000,084400,-76896,090408,004854,075872,055645
0000000218,0000217000,096033,-59939,087549,003012,067442,065917
0000000219,0000218000,098989,-36584,084918,004593,057257,074521
0000000220,0000219000,092961,-09201,082783,009443,046326,080603
0000000221,0000220000,078541,019530,081351,017091,035717,083564
0000000222,0000221000,057085,046907,080759,026793,026453,083125
0000000223,0000222000,030747,070194,081064,037593,019450,079329
0000000224,0000223000,002168,087048,082237,048425,015400,072546
0000000225,0000224000,-25971,095868,084169,058244,014693,063433
0000000226,0000225000,-50917,095820,086668,066091,017395,052885
0000000227,0000226000,-70136,086915,089481,071185,023239,041947
0000000228,0000227000,-81767,069948,092340,073031,031661,031680
0000000229,0000228000,-84724,046579,094973,071454,041841,023077
0000000230,0000229000,-78723,019210,097110,066610,052767,016995
0000000231,0000230000,-64302,-09532,098542,058970,063370,014031
0000000232,0000231000,-42830,-36939,099136,049274,072631,014466
0000000233,0000232000,-16502,-60226,098831,038480,079635,018256
0000000234,0000233000,012079,-77083,097659,027654,083686,025031
0000000235,0000234000,040247,-85935,095727,017838,084397,034137
0000000236,0000235000,065201,-85894,093228,009991,081702,044678
0000000237,0000236000,084420,-76978,090414,004897,075864,055611
0000000238,0000237000,096080,-60029,087554,003048,067448,065874
0000000239,0000238000,099051,-36664,084920,004619,057277,074475
0000000240,0000239000,093040,-09270,082782,009456,046358,080558
0000000241,0000240000,078633,019475,081348,017089,035758,083525
0000000242,0000241000,057171,046880,080753,026777,026500,083095
0000000243,0000242000,030822,070198,081056,037564,019497,079311
0000000244,0000243000,002232,087073,082228,048386,015443,072543
0000000245,0000244000,-25933,095920,084160,058198,014728,063445
0000000246,0000245000,-50912,095898,086660,066043,017417,052911
0000000247,0000246000,-70154,087002,089474,071140,023248,041984
0000000248,0000247000,-81812,070039,092336,072992,031655,031725
0000000249,0000248000,-84798,046671,094971,071426,041819,023126
0000000250,0000249000,-78810,019287,097111,066597,052732,017043
0000000251,0000250000,-64395,-09478,098546,058972,063326,014073
0000000252,0000251000,-42927,-36907,099142,049291,072582,014498
0000000253,0000252000,-16587,-60224,098840,038512,079585,018275
0000000254,0000253000,012016,-77117,097669,027697,083640,025035
0000000255,0000254000,040206,-85993,095737,017887,084360,034125
0000000256,0000255000,065188,-85971,093237,010043,081677,044651
0000000257,0000256000,084443,-77076,090422,004946,075854,055571
0000000258,0000257000,096131,-60132,087559,003090,067456,065825
0000000259,0000258000,099123,-36758,084922,004649,057301,074422
0000000260,0000259000,093136,-09353,082780,009471,046395,080506
0000000261,0000260000,078738,019411,081343,017087,035806,083479
0000000262,0000261000,057271,046850,080746,026759,026554,083060
0000000263,0000262000,030912,070199,081047,037530,019551,079290
0000000264,0000263000,002306,087103,082218,048340,015493,072539
0000000265,0000264000,-25890,095983,084149,058144,014768,063458
0000000266,0000265000,-50902,095988,086650,065987,017444,052940
0000000267,0000266000,-70174,087103,089466,071087,023257,042028
0000000268,0000267000,-81866,070148,092330,072947,031647,031778
0000000269,0000268000,-84882,046779,094969,071394,041794,023184
0000000270,0000269000,-78910,019375,097112,066581,052691,017099
0000000271,0000270000,-64505,-09414,098550,058974,063274,014123
0000000272,0000271000,-43040,-36869,099150,049311,072524,014536
0000000273,0000272000,-16685,-60224,098850,038548,079526,018297
0000000274,0000273000,011942,-77155,097680,027746,083587,025039
0000000275,0000274000,040156,-86058,095748,017945,084317,034110
0000000276,0000275000,065174,-86063,093247,010104,081649,044619
0000000277,0000276000,084470,-77190,090430,005003,075844,055524
0000000278,0000277000,096188,-60250,087565,003138,067465,065769
0000000279,0000278000,099208,-36868,084925,004683,057328,074360
0000000280,0000279000,093246,-09452,082779,009488,046438,080446
0000000281,0000280000,078859,019338,081339,017085,035861,083426
0000000282,0000281000,057387,046813,080738,026737,026616,083019
0000000283,0000282000,031018,070198,081037,037491,019613,079267
0000000284,0000283000,002391,087138,082206,048287,015550,072535
0000000285,0000284000,-25840,096056,084137,058083,014814,063474
0000000286,0000285000,-50889,096088,086639,065923,017474,052975
0000000287,0000286000,-70197,087220,089456,071026,023268,042077
0000000288,0000287000,-81928,070275,092324,072896,031637,031839
0000000289,0000288000,-84976,046902,094966,071358,041765,023249
0000000290,0000289000,-79025,019477,097113,066563,052645,017163
0000000291,0000290000,-64633,-09337,098556,058977,063216,014179
0000000292,0000291000,-43169,-36824,099158,049335,072458,014578
0000000293,0000292000,-16798,-60224,098861,038590,079459,018322
0000000294,0000293000,011854,-77196,097693,027802,083526,025043
0000000295,0000294000,040098,-86132,095762,018011,084268,034093
0000000296,0000295000,065159,-86169,093259,010172,081617,044582
0000000297,0000296000,084499,-77320,090441,005068,075833,055471
0000000298,0000297000,096253,-60384,087572,003192,067475,065704
0000000299,0000298000,099307,-36997,084928,004722,057359,074291
0000000300,0000299000,093373,-09565,082778,009507,046487,080378
0000000301,0000300000,078996,019254,081333,017081,035924,083366
