DIgSILENT PowerFactory,21000900,2000
6,06A,00D
1,TTPP_200000_100:Secondary Voltage A,,,V,0.10000000,-8563.632813,0.000000,72700,99998,1,1,P
2,TTPP_200000_100:Secondary Voltage B,,,V,0.10000000,-8618.653320,0.000000,74499,99998,1,1,P
3,TTPP_200000_100:Secondary Voltage C,,,V,0.10000000,-8539.906250,0.000000,68896,99998,1,1,P
4,TTCC_300_1:Secondary Current A,,,A,0.00010000000,-5.305029,0.000000,-14401,99998,1,1,P
5,TTCC_300_1:Secondary Current B,,,A,0.00010000000,-4.867852,0.000000,-2888,99998,1,1,P
6,TTCC_300_1:Secondary Current C,,,A,0.00010000000,-4.972560,0.000000,-661,99998,1,1,P
50
1
1000.000000,1101
30/06/2023,06:10:54.000000
30/06/2023,06:10:54.000000
ASCII
1.000000
0000000001,0000000000,092743,087662,076818,032120,034689,084645
0000000002,0000001000,090609,090379,076233,041873,025411,084171
0000000003,0000002000,087967,092710,076545,052712,018413,080329
0000000004,0000003000,085112,094388,077721,063592,014370,073493
0000000005,0000004000,082318,095250,079655,073434,013694,064324
0000000006,0000005000,079830,095241,082151,081283,016448,053725
0000000007,0000006000,077909,094356,084958,086369,022342,042744
0000000008,0000007000,076765,092647,087811,088192,030817,032446
0000000009,0000008000,076479,090309,090432,086568,041058,023830
0000000010,0000009000,077077,087587,092558,081670,052033,017752
0000000011,0000010000,078525,084716,093980,073976,062667,014812
0000000012,0000011000,080678,081978,094565,064217,071952,015284
0000000013,0000012000,083300,079670,094253,053368,078959,019127
0000000014,0000013000,086151,077994,093076,042503,082989,025963
0000000015,0000014000,088965,077112,091144,032659,083665,035131
0000000016,0000015000,091445,077129,088647,024801,080924,045730
0000000017,0000016000,093352,078030,085839,019722,075021,056712
0000000018,0000017000,094514,079720,082988,017903,066541,067010
0000000019,0000018000,094799,082057,080366,019519,056309,075626
0000000020,0000019000,094187,084796,078240,024418,045333,081703
0000000021,0000020000,092749,087656,076817,032120,034690,084645
0000000022,0000021000,090602,090386,076233,041870,025413,084171
0000000023,0000022000,087966,092711,076545,052720,018406,080328
0000000024,0000023000,085119,094381,077721,063592,014370,073493
0000000025,0000024000,082316,095252,079654,073432,013698,064325
0000000026,0000025000,079823,095248,082151,081286,016443,053725
0000000027,0000026000,077915,094349,084958,086374,022337,042743
0000000028,0000027000,076767,092645,087810,088189,030820,032446
0000000029,0000028000,076472,090316,090433,086568,041057,023829
0000000030,0000029000,077078,087586,092558,081677,052026,017752
0000000031,0000030000,078531,084710,093980,073976,062667,014811
0000000032,0000031000,080674,081983,094565,064216,071953,015284
0000000033,0000032000,083297,079672,094254,053374,078955,019126
0000000034,0000033000,086157,077989,093077,042507,082986,025962
0000000035,0000034000,088965,077113,091144,032658,083667,035130
0000000036,0000035000,091440,077134,088647,024804,080921,045729
0000000037,0000036000,093355,078026,085840,019726,075018,056710
0000000038,0000037000,094516,079718,082988,017904,066542,067008
0000000039,0000038000,094795,082061,080366,019519,056311,075624
0000000040,0000039000,094188,084795,078240,024422,045331,081702
0000000041,0000040000,092751,087653,076817,032120,034692,084643
0000000042,0000041000,090600,090388,076233,041871,025414,084170
0000000043,0000042000,087966,092712,076544,052721,018406,080328
0000000044,0000043000,085122,094379,077721,063592,014370,073492
0000000045,0000044000,082314,095254,079654,073431,013699,064324
0000000046,0000045000,079823,095249,082150,081287,016442,053725
0000000047,0000046000,077917,094347,084958,086373,022337,042744
0000000048,0000047000,076766,092646,087810,088188,030820,032447
0000000049,0000048000,076471,090318,090432,086570,041054,023830
0000000050,0000049000,077080,087583,092558,081677,052024,017753
0000000051,0000050000,078530,084711,093981,073976,062666,014811
0000000052,0000051000,080671,081986,094566,064220,071950,015284
0000000053,0000052000,083300,079669,094253,053377,078952,019126
0000000054,0000053000,086157,077988,093077,042507,082986,025961
0000000055,0000054000,088961,077116,091145,032662,083665,035129
0000000056,0000055000,091442,077132,088647,024810,080918,045727
0000000057,0000056000,093358,078023,085840,019727,075019,056708
0000000058,0000057000,094513,079721,082989,017906,066543,067005
0000000059,0000058000,094795,082061,080366,019524,056309,075621
0000000060,0000059000,094192,084791,078239,024423,045333,081699
0000000061,0000060000,092750,087655,076817,032118,034696,084641
0000000062,0000061000,090598,090391,076233,041872,025415,084167
0000000063,0000062000,087970,092708,076544,052722,018407,080326
0000000064,0000063000,085123,094379,077721,063588,014375,073492
0000000065,0000064000,082311,095258,079653,073429,013700,064325
0000000066,0000065000,079825,095247,082150,081287,016441,053727
0000000067,0000066000,077920,094345,084957,086370,022338,042747
0000000068,0000067000,076762,092650,087810,088186,030820,032450
0000000069,0000068000,076470,090319,090432,086571,041050,023834
0000000070,0000069000,077083,087580,092558,081677,052021,017756
0000000071,0000070000,078528,084713,093981,073975,062664,014814
0000000072,0000071000,080668,081988,094566,064223,071944,015286
0000000073,0000072000,083302,079666,094254,053381,078946,019127
0000000074,0000073000,086157,077987,093078,042510,082983,025961
0000000075,0000074000,088958,077118,091145,032667,083661,035127
0000000076,0000075000,091444,077130,088648,024816,080914,045725
0000000077,0000076000,093360,078021,085841,019731,075019,056704
0000000078,0000077000,094511,079723,082989,017910,066544,067001
0000000079,0000078000,094796,082060,080366,019529,056309,075616
0000000080,0000079000,094195,084788,078239,024424,045336,081694
0000000081,0000080000,092749,087656,076817,032118,034700,084636
0000000082,0000081000,090598,090391,076232,041872,025418,084164
0000000083,0000082000,087973,092706,076543,052719,018412,080324
0000000084,0000083000,085122,094380,077720,063583,014380,073491
0000000085,0000084000,082310,095260,079652,073426,013703,064326
0000000086,0000085000,079827,095246,082149,081282,016443,053729
0000000087,0000086000,077919,094346,084957,086364,022340,042751
0000000088,0000087000,076760,092653,087809,088182,030818,032455
0000000089,0000088000,076471,090318,090432,086569,041046,023839
0000000090,0000089000,077083,087580,092559,081674,052018,017762
0000000091,0000090000,078524,084716,093982,073976,062658,014819
0000000092,0000091000,080668,081988,094566,064227,071936,015290
0000000093,0000092000,083302,079664,094255,053384,078941,019130
0000000094,0000093000,086153,077989,093079,042516,082978,025961
0000000095,0000094000,088957,077118,091146,032675,083654,035125
0000000096,0000095000,091446,077126,088649,024823,080911,045721
0000000097,0000096000,093358,078021,085842,019737,075019,056699
0000000098,0000097000,094510,079723,082990,017917,066543,066994
0000000099,0000098000,094800,082056,080366,019534,056311,075609
0000000100,0000099000,094196,084787,078239,024425,045343,081686
0000000101,0000100000,092748,087658,076816,032119,034707,084629
0000000102,0000101000,090601,090389,076231,041871,025425,084159
0000000103,0000102000,087975,092705,076542,052713,018421,080321
0000000104,0000103000,085121,094383,077718,063576,014388,073490
0000000105,0000104000,082311,095261,079651,073419,013707,064328
0000000106,0000105000,079829,095245,082148,081273,016447,053734
0000000107,0000106000,077917,094349,084956,086355,022342,042757
0000000108,0000107000,076758,092656,087808,088177,030815,032463
0000000109,0000108000,076472,090318,090432,086564,041042,023849
0000000110,0000109000,077080,087582,092559,081671,052013,017771
0000000111,0000110000,078521,084719,093982,073978,062649,014827
0000000112,0000111000,080668,081987,094568,064232,071926,015297
0000000113,0000112000,083301,079664,094257,053390,078931,019133
0000000114,0000113000,086150,077991,093081,042524,082968,025962
0000000115,0000114000,088957,077116,091148,032687,083645,035123
0000000116,0000115000,091447,077124,088651,024833,080906,045715
0000000117,0000116000,093357,078021,085844,019747,075017,056690
0000000118,0000117000,094511,079721,082990,017927,066543,066983
0000000119,0000118000,094803,082053,080367,019540,056316,075597
0000000120,0000119000,094196,084786,078239,024428,045351,081675
0000000121,0000120000,092749,087657,076815,032120,034716,084619
0000000122,0000121000,090605,090387,076229,041868,025436,084151
0000000123,0000122000,087976,092705,076540,052705,018433,080316
0000000124,0000123000,085121,094385,077716,063567,014398,073489
0000000125,0000124000,082313,095261,079648,073408,013716,064331
0000000126,0000125000,079830,095247,082146,081260,016454,053740
0000000127,0000126000,077915,094353,084954,086343,022345,042767
0000000128,0000127000,076758,092657,087807,088167,030813,032475
0000000129,0000128000,076471,090319,090431,086556,041037,023862
0000000130,0000129000,077077,087586,092559,081667,052004,017784
0000000131,0000130000,078518,084720,093983,073979,062636,014839
0000000132,0000131000,080667,081986,094569,064236,071912,015306
0000000133,0000132000,083298,079665,094259,053398,078918,019139
0000000134,0000133000,086148,077991,093083,042537,082954,025963
0000000135,0000134000,088958,077113,091151,032701,083635,035119
0000000136,0000135000,091446,077122,088654,024847,080900,045708
0000000137,0000136000,093356,078020,085846,019762,075014,056679
0000000138,0000137000,094513,079717,082992,017940,066545,066969
0000000139,0000138000,094805,082049,080367,019549,056324,075582
0000000140,0000139000,094198,084786,078239,024433,045362,081660
0000000141,0000140000,092753,087655,076814,032121,034729,084605
0000000142,0000141000,090609,090385,076228,041862,025452,084140
0000000143,0000142000,087978,092706,076538,052695,018450,080310
0000000144,0000143000,085123,094386,077713,063555,014412,073487
0000000145,0000144000,082316,095261,079645,073392,013728,064334
0000000146,0000145000,079829,095250,082143,081242,016463,053749
0000000147,0000146000,077913,094357,084951,086328,022347,042780
0000000148,0000147000,076757,092659,087805,088154,030810,032491
0000000149,0000148000,076469,090322,090431,086545,041030,023879
0000000150,0000149000,077072,087590,092560,081662,051991,017801
0000000151,0000150000,078516,084722,093984,073980,062619,014855
0000000152,0000151000,080664,081986,094572,064242,071894,015318
0000000153,0000152000,083294,079666,094262,053409,078899,019146
0000000154,0000153000,086146,077989,093087,042554,082936,025965
0000000155,0000154000,088958,077110,091154,032719,083621,035115
0000000156,0000155000,091445,077120,088657,024867,080891,045697
0000000157,0000156000,093357,078017,085848,019782,075009,056664
0000000158,0000157000,094516,079712,082994,017956,066547,066951
0000000159,0000158000,094808,082046,080368,019560,056333,075561
0000000160,0000159000,094200,084783,078238,024440,045375,081639
0000000161,0000160000,092758,087652,076812,032121,034747,084587
0000000162,0000161000,090613,090384,076225,041855,025474,084126
0000000163,0000162000,087980,092707,076534,052682,018471,080301
0000000164,0000163000,085126,094387,077709,063537,014431,073486
0000000165,0000164000,082318,095263,079641,073370,013744,064339
0000000166,0000165000,079829,095254,082139,081220,016474,053760
0000000167,0000166000,077913,094361,084948,086307,022351,042797
0000000168,0000167000,076756,092662,087803,088135,030807,032512
0000000169,0000168000,076465,090327,090430,086532,041020,023902
0000000170,0000169000,077068,087594,092560,081656,051974,017824
0000000171,0000170000,078513,084723,093986,073981,062598,014875
0000000172,0000171000,080660,081988,094575,064249,071871,015334
0000000173,0000172000,083289,079667,094266,053424,078875,019155
0000000174,0000173000,086144,077987,093091,042574,082913,025967
0000000175,0000174000,088956,077107,091159,032742,083603,035109
0000000176,0000175000,091443,077117,088661,024892,080879,045684
0000000177,0000176000,093359,078012,085852,019806,075004,056644
0000000178,0000177000,094520,079707,082996,017976,066551,066927
0000000179,0000178000,094810,082043,080369,019575,056344,075535
0000000180,0000179000,094205,084780,078238,024448,045393,081614
0000000181,0000180000,092763,087648,076810,032120,034770,084565
0000000182,0000181000,090617,090383,076222,041846,025501,084109
0000000183,0000182000,087984,092708,076530,052667,018497,080291
0000000184,0000183000,085130,094388,077704,063515,014456,073483
0000000185,0000184000,082320,095266,079636,073343,013765,064346
0000000186,0000185000,079828,095259,082135,081192,016487,053775
0000000187,0000186000,077912,094366,084944,086281,022355,042818
0000000188,0000187000,076754,092667,087801,088112,030804,032539
0000000189,0000188000,076460,090333,090429,086516,041008,023931
0000000190,0000189000,077063,087598,092561,081648,051954,017852
0000000191,0000190000,078508,084725,093989,073981,062573,014900
0000000192,0000191000,080653,081990,094579,064259,071842,015353
0000000193,0000192000,083284,079667,094271,053443,078844,019167
0000000194,0000193000,086141,077984,093097,042599,082886,025969
0000000195,0000194000,088953,077104,091165,032772,083581,035102
0000000196,0000195000,091443,077113,088666,024923,080863,045668
0000000197,0000196000,093361,078005,085856,019836,074998,056621
0000000198,0000197000,094522,079701,082999,018001,066555,066898
0000000199,0000198000,094814,082038,080370,019593,056358,075503
0000000200,0000199000,094211,084774,078237,024457,045415,081582
0000000201,0000200000,092770,087644,076808,032119,034799,084537
0000000202,0000201000,090622,090382,076218,041835,025533,084087
0000000203,0000202000,087989,092708,076524,052647,018530,080278
0000000204,0000203000,085135,094389,077698,063487,014486,073481
0000000205,0000204000,082322,095270,079630,073311,013790,064354
0000000206,0000205000,079829,095265,082129,081159,016503,053793
0000000207,0000206000,077912,094371,084939,086248,022362,042845
0000000208,0000207000,076750,092674,087798,088084,030800,032571
0000000209,0000208000,076455,090340,090427,086496,040992,023966
0000000210,0000209000,077058,087602,092561,081639,051929,017887
0000000211,0000210000,078501,084729,093992,073982,062541,014931
0000000212,0000211000,080646,081993,094583,064271,071806,015376
0000000213,0000212000,083279,079666,094277,053466,078808,019181
0000000214,0000213000,086137,077982,093104,042630,082853,025972
0000000215,0000214000,088950,077100,091172,032807,083554,035093
0000000216,0000215000,091442,077107,088673,024962,080845,045648
0000000217,0000216000,093363,077998,085861,019871,074991,056592
0000000218,0000217000,094525,079694,083003,018031,066561,066862
0000000219,0000218000,094819,082031,080372,019615,056374,075465
0000000220,0000219000,094218,084768,078236,024468,045441,081545
0000000221,0000220000,092777,087640,076805,032117,034834,084503
0000000222,0000221000,090629,090380,076213,041822,025572,084061
0000000223,0000222000,087997,092708,076518,052623,018569,080263
0000000224,0000223000,085140,094391,077691,063453,014523,073478
0000000225,0000224000,082324,095275,079622,073272,013819,064363
0000000226,0000225000,079830,095271,082122,081118,016522,053814
0000000227,0000226000,077910,094378,084934,086209,022369,042876
0000000228,0000227000,076745,092683,087794,088051,030794,032609
0000000229,0000228000,076449,090347,090426,086473,040974,024008
0000000230,0000229000,077051,087608,092562,081626,051900,017928
0000000231,0000230000,078493,084734,093995,073983,062504,014967
0000000232,0000231000,080638,081996,094589,064286,071764,015404
0000000233,0000232000,083272,079666,094284,053492,078764,019197
0000000234,0000233000,086131,077979,093112,042666,082814,025975
0000000235,0000234000,088946,077096,091180,032850,083522,035083
0000000236,0000235000,091442,077100,088680,025006,080824,045625
0000000237,0000236000,093365,077990,085868,019914,074983,056557
0000000238,0000237000,094529,079686,083007,018067,066567,066820
0000000239,0000238000,094826,082023,080373,019641,056393,075419
0000000240,0000239000,094227,084760,078235,024481,045473,081500
0000000241,0000240000,092785,087635,076801,032116,034875,084464
0000000242,0000241000,090638,090377,076206,041806,025618,084031
0000000243,0000242000,088005,092707,076510,052594,018616,080245
0000000244,0000243000,085146,094394,077682,063414,014566,073474
0000000245,0000244000,082328,095281,079613,073226,013854,064375
0000000246,0000245000,079831,095278,082113,081070,016545,053840
0000000247,0000246000,077908,094387,084927,086163,022378,042913
0000000248,0000247000,076740,092693,087789,088012,030788,032655
0000000249,0000248000,076442,090356,090424,086445,040952,024058
0000000250,0000249000,077043,087616,092564,081612,051865,017977
0000000251,0000250000,078483,084741,093999,073985,062460,015010
0000000252,0000251000,080629,081999,094595,064304,071713,015437
0000000253,0000252000,083264,079665,094292,053524,078714,019216
0000000254,0000253000,086124,077976,093122,042708,082768,025979
0000000255,0000254000,088942,077090,091190,032900,083484,035070
0000000256,0000255000,091441,077091,088689,025059,080799,045597
0000000257,0000256000,093367,077980,085875,019963,074974,056517
0000000258,0000257000,094534,079676,083012,018109,066574,066771
0000000259,0000258000,094834,082013,080375,019671,056417,075366
0000000260,0000259000,094236,084752,078234,024496,045511,081448
0000000261,0000260000,092795,087630,076797,032114,034923,084418
0000000262,0000261000,090648,090374,076200,041787,025671,083996
0000000263,0000262000,088014,092707,076501,052560,018671,080224
0000000264,0000263000,085153,094398,077671,063368,014616,073471
0000000265,0000264000,082332,095287,079603,073172,013893,064388
0000000266,0000265000,079833,095286,082103,081013,016571,053870
0000000267,0000266000,077905,094398,084919,086110,022388,042957
0000000268,0000267000,076735,092704,087783,087968,030779,032708
0000000269,0000268000,076434,090366,090421,086413,040927,024115
0000000270,0000269000,077032,087625,092565,081596,051825,018033
0000000271,0000270000,078471,084748,094003,073987,062408,015059
0000000272,0000271000,080618,082002,094602,064324,071655,015475
0000000273,0000272000,083255,079665,094302,053560,078656,019238
0000000274,0000273000,086116,077973,093133,042758,082714,025983
0000000275,0000274000,088937,077083,091201,032958,083441,035055
0000000276,0000275000,091440,077082,088700,025119,080771,045565
0000000277,0000276000,093369,077969,085884,020020,074964,056470
0000000278,0000277000,094540,079664,083018,018157,066583,066714
0000000279,0000278000,094843,082001,080378,019705,056444,075305
0000000280,0000279000,094247,084743,078233,024512,045554,081388
0000000281,0000280000,092807,087623,076792,032112,034978,084365
0000000282,0000281000,090661,090369,076192,041766,025733,083956
0000000283,0000282000,088024,092707,076490,052520,018734,080201
0000000284,0000283000,085161,094402,077659,063315,014673,073466
0000000285,0000284000,082338,095294,079590,073111,013939,064404
0000000286,0000285000,079834,095296,082092,080949,016601,053904
0000000287,0000286000,077903,094410,084910,086049,022399,043007
0000000288,0000287000,076729,092716,087777,087917,030769,032768
0000000289,0000288000,076425,090378,090419,086377,040898,024181
0000000290,0000289000,077020,087635,092566,081579,051779,018097
0000000291,0000290000,078458,084755,094008,073990,062349,015115
0000000292,0000291000,080606,082006,094611,064347,071589,015517
0000000293,0000292000,083243,079666,094314,053602,078589,019263
0000000294,0000293000,086107,077970,093146,042814,082654,025987
0000000295,0000294000,088932,077075,091215,033024,083393,035038
0000000296,0000295000,091438,077071,088712,025187,080739,045528
0000000297,0000296000,093371,077957,085894,020084,074953,056417
0000000298,0000297000,094547,079651,083025,018212,066593,066649
0000000299,0000298000,094853,081988,080381,019744,056475,075235
0000000300,0000299000,094259,084732,078232,024531,045604,081319
0000000301,0000300000,092821,087614,076787,032109,035041,084306
