DIgSILENT PowerFactory,21000900,2000
6,06A,00D
1,TTPP_200000_100:Secondary Voltage A,,,V,0.010000000,-67.867477,0.000000,-86353,99998,1,1,P
2,TTPP_200000_100:Secondary Voltage B,,,V,0.010000000,-40.967228,0.000000,-89487,99998,1,1,P
3,TTPP_200000_100:Secondary Voltage C,,,V,0.010000000,-13.210435,0.000000,-98782,99998,1,1,P
4,TTCC_500_5:Secondary Current A,,,A,0.0010000000,-85.470299,0.000000,64046,99998,1,1,P
5,TTCC_500_5:Secondary Current B,,,A,0.0010000000,-84.937103,0.000000,69902,99998,1,1,P
6,TTCC_500_5:Secondary Current C,,,A,0.0010000000,-84.639946,0.000000,69256,99998,1,1,P
50
1
1000.000000,1101
30/06/2023,06:02:43.000000
30/06/2023,06:02:43.000000
ASCII
1.000000
0000000001,0000000000,061920,040487,-90203,091387,089615,074045
0000000002,0000001000,036441,064825,-89067,088372,092332,074343
0000000003,0000002000,007911,083395,-79088,085073,094326,075648
0000000004,0000003000,-20531,094000,-61263,081817,095397,077834
0000000005,0000004000,-46347,095813,-37249,078913,095447,080687
0000000006,0000005000,-67096,088772,-09472,076650,094470,083927
0000000007,0000006000,-80585,073495,019290,075258,092555,087234
0000000008,0000007000,-85315,051172,046343,074862,089896,090289
0000000009,0000008000,-81170,024333,069031,075503,086752,092792
0000000010,0000009000,-68567,-04266,085041,077119,083433,094495
0000000011,0000010000,-48383,-32255,092839,079558,080256,095234
0000000012,0000011000,-22750,-56751,091714,082572,077540,094935
0000000013,0000012000,005596,-75130,081740,085870,075548,093630
0000000014,0000013000,034053,-85749,063901,089128,074474,091445
0000000015,0000014000,060035,-87722,039894,092031,074425,088591
0000000016,0000015000,080656,-80574,012117,094291,075405,085351
0000000017,0000016000,094042,-65185,-16649,095687,077316,082045
0000000018,0000017000,098979,-43072,-43707,096083,079975,078990
0000000019,0000018000,094804,-16207,-66390,095439,083122,076487
0000000020,0000019000,082012,012589,-82400,093824,086440,074783
0000000021,0000020000,061976,040427,-90201,091388,089614,074045
0000000022,0000021000,036433,064840,-89066,088370,092334,074344
0000000023,0000022000,007902,083401,-79099,085073,094326,075648
0000000024,0000023000,-20527,094001,-61262,081817,095397,077834
0000000025,0000024000,-46353,095807,-37249,078913,095447,080688
0000000026,0000025000,-67116,088795,-09473,076651,094470,083927
0000000027,0000026000,-80543,073459,019285,075257,092556,087234
0000000028,0000027000,-85323,051179,046344,074861,089897,090289
0000000029,0000028000,-81219,024385,069038,075503,086752,092792
0000000030,0000029000,-68537,-04299,085039,077120,083432,094495
0000000031,0000030000,-48345,-32285,092841,079556,080258,095234
0000000032,0000031000,-22794,-56713,091713,082571,077541,094935
0000000033,0000032000,005566,-75103,081744,085870,075547,093630
0000000034,0000033000,034106,-85807,063904,089128,074474,091445
0000000035,0000034000,060025,-87717,039893,092029,074426,088591
0000000036,0000035000,080627,-80541,012119,094290,075405,085352
0000000037,0000036000,094057,-65207,-16647,095687,077315,082045
0000000038,0000037000,098993,-43085,-43700,096082,079975,078990
0000000039,0000038000,094787,-16190,-66392,095439,083122,076487
0000000040,0000039000,082028,012578,-82402,093823,086440,074784
0000000041,0000040000,061987,040415,-90200,091388,089614,074046
0000000042,0000041000,036401,064869,-89068,088370,092333,074344
0000000043,0000042000,007926,083384,-79103,085073,094326,075649
0000000044,0000043000,-20502,093976,-61269,081816,095397,077834
0000000045,0000044000,-46384,095842,-37249,078912,095447,080688
0000000046,0000045000,-67132,088813,-09477,076652,094469,083927
0000000047,0000046000,-80498,073419,019282,075257,092556,087233
0000000048,0000047000,-85332,051191,046342,074861,089898,090289
0000000049,0000048000,-81260,024426,069036,075503,086753,092792
0000000050,0000049000,-68517,-04318,085042,077120,083432,094495
0000000051,0000050000,-48335,-32301,092842,079555,080259,095233
0000000052,0000051000,-22823,-56685,091716,082571,077542,094935
0000000053,0000052000,005563,-75105,081746,085869,075548,093630
0000000054,0000053000,034121,-85829,063911,089127,074475,091445
0000000055,0000054000,060002,-87700,039900,092028,074427,088592
0000000056,0000055000,080630,-80547,012120,094290,075405,085352
0000000057,0000056000,094081,-65232,-16642,095686,077316,082046
0000000058,0000057000,098974,-43072,-43695,096081,079976,078991
0000000059,0000058000,094780,-16183,-66391,095439,083121,076488
0000000060,0000059000,082066,012541,-82404,093823,086440,074785
0000000061,0000060000,061988,040415,-90202,091387,089614,074046
0000000062,0000061000,036376,064898,-89071,088370,092333,074344
0000000063,0000062000,007954,083361,-79110,085074,094325,075649
0000000064,0000063000,-20479,093961,-61275,081816,095397,077834
0000000065,0000064000,-46409,095873,-37258,078913,095447,080687
0000000066,0000065000,-67131,088821,-09484,076653,094468,083927
0000000067,0000066000,-80476,073402,019277,075258,092557,087233
0000000068,0000067000,-85350,051213,046338,074861,089899,090288
0000000069,0000068000,-81274,024445,069033,075503,086753,092791
0000000070,0000069000,-68505,-04332,085042,077120,083433,094494
0000000071,0000070000,-48354,-32287,092848,079555,080260,095233
0000000072,0000071000,-22845,-56668,091720,082570,077543,094935
0000000073,0000072000,005577,-75125,081753,085868,075549,093630
0000000074,0000073000,034113,-85832,063922,089125,074477,091445
0000000075,0000074000,059972,-87681,039910,092027,074428,088592
0000000076,0000075000,080646,-80571,012129,094289,075406,085353
0000000077,0000076000,094098,-65259,-16634,095684,077316,082047
0000000078,0000077000,098953,-43057,-43689,096079,079976,078992
0000000079,0000078000,094786,-16192,-66389,095438,083120,076489
0000000080,0000079000,082101,012507,-82404,093822,086439,074786
0000000081,0000080000,061988,040420,-90206,091386,089613,074048
0000000082,0000081000,036374,064909,-89081,088371,092331,074345
0000000083,0000082000,007985,083341,-79121,085075,094323,075650
0000000084,0000083000,-20473,093965,-61286,081817,095396,077834
0000000085,0000084000,-46418,095898,-37272,078914,095446,080687
0000000086,0000085000,-67115,088818,-09498,076655,094467,083926
0000000087,0000086000,-80474,073409,019269,075259,092557,087232
0000000088,0000087000,-85377,051247,046331,074862,089899,090286
0000000089,0000088000,-81274,024450,069027,075504,086754,092789
0000000090,0000089000,-68503,-04335,085044,077120,083434,094493
0000000091,0000090000,-48390,-32258,092855,079554,080262,095231
0000000092,0000091000,-22863,-56659,091729,082570,077544,094933
0000000093,0000092000,005585,-75147,081766,085867,075551,093630
0000000094,0000093000,034091,-85828,063939,089123,074479,091445
0000000095,0000094000,059949,-87674,039926,092025,074429,088593
0000000096,0000095000,080661,-80603,012145,094287,075406,085354
0000000097,0000096000,094104,-65279,-16619,095682,077317,082049
0000000098,0000097000,098944,-43057,-43680,096077,079976,078994
0000000099,0000098000,094810,-16218,-66385,095437,083119,076492
0000000100,0000099000,082127,012481,-82404,093821,086438,074788
0000000101,0000100000,061991,040424,-90212,091386,089611,074050
0000000102,0000101000,036397,064900,-89095,088372,092328,074347
0000000103,0000102000,008017,083325,-79137,085076,094321,075651
0000000104,0000103000,-20473,093984,-61305,081819,095394,077834
0000000105,0000104000,-46414,095915,-37294,078917,095444,080687
0000000106,0000105000,-67093,088817,-09518,076657,094466,083925
0000000107,0000106000,-80485,073435,019253,075261,092557,087230
0000000108,0000107000,-85402,051285,046319,074864,089899,090284
0000000109,0000108000,-81275,024457,069021,075506,086755,092787
0000000110,0000109000,-68519,-04322,085047,077121,083437,094490
0000000111,0000110000,-48430,-32226,092863,079554,080265,095229
0000000112,0000111000,-22880,-56656,091743,082569,077547,094932
0000000113,0000112000,005575,-75159,081788,085865,075554,093628
0000000114,0000113000,034061,-85822,063963,089121,074482,091445
0000000115,0000114000,059938,-87686,039950,092023,074431,088593
0000000116,0000115000,080672,-80638,012169,094283,075408,085356
0000000117,0000116000,094099,-65296,-16598,095678,077318,082051
0000000118,0000117000,098950,-43075,-43667,096075,079975,078997
0000000119,0000118000,094844,-16259,-66380,095435,083118,076495
0000000120,0000119000,082149,012460,-82405,093820,086436,074791
0000000121,0000120000,062005,040421,-90224,091387,089608,074052
0000000122,0000121000,036437,064880,-89114,088373,092325,074349
0000000123,0000122000,008048,083317,-79161,085078,094318,075652
0000000124,0000123000,-20468,094008,-61334,081821,095391,077835
0000000125,0000124000,-46397,095930,-37325,078920,095441,080686
0000000126,0000125000,-67077,088828,-09546,076660,094464,083923
0000000127,0000126000,-80502,073475,019230,075264,092556,087227
0000000128,0000127000,-85421,051322,046301,074867,089900,090280
0000000129,0000128000,-81286,024474,069014,075508,086757,092783
0000000130,0000129000,-68555,-04291,085051,077121,083440,094486
0000000131,0000130000,-48472,-32196,092875,079554,080268,095225
0000000132,0000131000,-22902,-56657,091765,082568,077551,094929
0000000133,0000132000,005545,-75160,081819,085862,075558,093627
0000000134,0000133000,034024,-85819,063997,089117,074485,091445
0000000135,0000134000,059930,-87713,039984,092019,074434,088594
0000000136,0000135000,080675,-80674,012203,094279,075410,085358
0000000137,0000136000,094094,-65318,-16570,095674,077319,082055
0000000138,0000137000,098969,-43113,-43649,096072,079974,079002
0000000139,0000138000,094884,-16307,-66371,095432,083116,076499
0000000140,0000139000,082175,012436,-82408,093818,086433,074796
0000000141,0000140000,062038,040404,-90240,091387,089604,074056
0000000142,0000141000,036488,064855,-89140,088375,092320,074352
0000000143,0000142000,008081,083318,-79194,085080,094313,075654
0000000144,0000143000,-20450,094031,-61374,081825,095387,077835
0000000145,0000144000,-46371,095945,-37367,078925,095438,080685
0000000146,0000145000,-67069,088857,-09583,076665,094462,083920
0000000147,0000146000,-80522,073527,019198,075269,092555,087223
0000000148,0000147000,-85437,051362,046277,074871,089900,090276
0000000149,0000148000,-81310,024507,069005,075511,086759,092778
0000000150,0000149000,-68605,-04245,085055,077123,083443,094481
0000000151,0000150000,-48518,-32167,092892,079554,080273,095221
0000000152,0000151000,-22936,-56653,091795,082566,077556,094926
0000000153,0000152000,005499,-75154,081860,085859,075564,093625
0000000154,0000153000,033986,-85826,064042,089113,074490,091444
0000000155,0000154000,059921,-87750,040031,092013,074438,088596
0000000156,0000155000,080669,-80714,012249,094273,075413,085361
0000000157,0000156000,094093,-65354,-16533,095669,077320,082059
0000000158,0000157000,099000,-43168,-43624,096067,079973,079007
0000000159,0000158000,094925,-16361,-66358,095429,083113,076505
0000000160,0000159000,082212,012405,-82413,093817,086429,074802
0000000161,0000160000,062092,040372,-90261,091387,089599,074062
0000000162,0000161000,036547,064829,-89174,088377,092314,074356
0000000163,0000162000,008119,083325,-79239,085084,094307,075656
0000000164,0000163000,-20416,094050,-61428,081831,095381,077836
0000000165,0000164000,-46338,095967,-37421,078931,095433,080683
0000000166,0000165000,-67067,088904,-09632,076671,094459,083917
0000000167,0000166000,-80540,073587,019155,075275,092554,087218
0000000168,0000167000,-85456,051410,046248,074877,089901,090270
0000000169,0000168000,-81350,024559,068994,075514,086762,092771
0000000170,0000169000,-68667,-04188,085061,077125,083448,094475
0000000171,0000170000,-48571,-32136,092914,079554,080279,095215
0000000172,0000171000,-22988,-56640,091835,082563,077563,094921
0000000173,0000172000,005438,-75145,081911,085854,075571,093622
0000000174,0000173000,033945,-85843,064100,089107,074496,091444
0000000175,0000174000,059903,-87794,040093,092006,074443,088598
0000000176,0000175000,080656,-80758,012306,094265,075417,085365
0000000177,0000176000,094102,-65409,-16487,095662,077321,082065
0000000178,0000177000,099039,-43240,-43592,096061,079972,079014
0000000179,0000178000,094971,-16421,-66343,095424,083110,076513
0000000180,0000179000,082264,012360,-82420,093815,086424,074809
0000000181,0000180000,062163,040327,-90288,091387,089592,074068
0000000182,0000181000,036614,064804,-89216,088379,092307,074361
0000000183,0000182000,008169,083333,-79297,085089,094300,075659
0000000184,0000183000,-20367,094069,-61495,081837,095374,077836
0000000185,0000184000,-46304,095999,-37489,078939,095427,080681
0000000186,0000185000,-67066,088966,-09695,076679,094456,083913
0000000187,0000186000,-80555,073656,019102,075283,092553,087212
0000000188,0000187000,-85483,051473,046212,074883,089902,090262
0000000189,0000188000,-81407,024630,068979,075519,086766,092763
0000000190,0000189000,-68738,-04124,085067,077127,083454,094467
0000000191,0000190000,-48638,-32098,092943,079554,080286,095208
0000000192,0000191000,-23060,-56618,091885,082560,077571,094916
0000000193,0000192000,005367,-75138,081976,085849,075579,093619
0000000194,0000193000,033898,-85870,064174,089100,074504,091443
0000000195,0000194000,059875,-87842,040170,091998,074450,088600
0000000196,0000195000,080641,-80814,012377,094256,075421,085370
0000000197,0000196000,094119,-65483,-16430,095653,077322,082071
0000000198,0000197000,099084,-43325,-43551,096054,079971,079022
0000000199,0000198000,095024,-16492,-66326,095419,083106,076522
0000000200,0000199000,082335,012297,-82429,093812,086417,074818
0000000201,0000200000,062251,040271,-90320,091388,089583,074076
0000000202,0000201000,036693,064779,-89270,088382,092298,074367
0000000203,0000202000,008236,083338,-79369,085094,094290,075663
0000000204,0000203000,-20305,094089,-61577,081845,095365,077837
0000000205,0000204000,-46267,096046,-37572,078948,095421,080679
0000000206,0000205000,-67063,089041,-09773,076689,094451,083907
0000000207,0000206000,-80570,073736,019036,075292,092551,087204
0000000208,0000207000,-85522,051556,046168,074891,089904,090253
0000000209,0000208000,-81477,024719,068961,075524,086770,092753
0000000210,0000209000,-68819,-04051,085075,077130,083461,094457
0000000211,0000210000,-48721,-32051,092979,079553,080295,095199
0000000212,0000211000,-23153,-56586,091945,082557,077582,094909
0000000213,0000212000,005284,-75134,082054,085843,075590,093615
0000000214,0000213000,033841,-85903,064264,089091,074514,091443
0000000215,0000214000,059835,-87896,040263,091987,074458,088602
0000000216,0000215000,080625,-80884,012463,094246,075426,085375
0000000217,0000216000,094143,-65577,-16359,095643,077324,082080
0000000218,0000217000,099133,-43424,-43501,096045,079970,079033
0000000219,0000218000,095090,-16579,-66305,095413,083102,076533
0000000220,0000219000,082425,012217,-82439,093809,086409,074829
0000000221,0000220000,062354,040208,-90359,091388,089573,074086
0000000222,0000221000,036786,064752,-89335,088386,092287,074375
0000000223,0000222000,008322,083340,-79457,085102,094279,075667
0000000224,0000223000,-20231,094115,-61677,081855,095355,077838
0000000225,0000224000,-46227,096107,-37673,078959,095412,080676
0000000226,0000225000,-67055,089128,-09868,076701,094445,083901
0000000227,0000226000,-80586,073831,018958,075303,092549,087195
0000000228,0000227000,-85573,051660,046115,074900,089905,090241
0000000229,0000228000,-81560,024825,068937,075531,086776,092741
0000000230,0000229000,-68914,-03966,085085,077133,083469,094445
0000000231,0000230000,-48826,-31990,093023,079553,080306,095189
0000000232,0000231000,-23264,-56546,092017,082552,077594,094901
0000000233,0000232000,005189,-75133,082148,085835,075602,093610
0000000234,0000233000,033771,-85941,064373,089080,074525,091442
0000000235,0000234000,059785,-87958,040375,091975,074467,088605
0000000236,0000235000,080611,-80972,012565,094233,075432,085382
0000000237,0000236000,094170,-65690,-16274,095631,077326,082090
0000000238,0000237000,099188,-43539,-43442,096035,079968,079045
0000000239,0000238000,095171,-16685,-66280,095406,083096,076546
0000000240,0000239000,082535,012119,-82451,093806,086400,074842
0000000241,0000240000,062472,040135,-90405,091388,089562,074097
0000000242,0000241000,036897,064718,-89413,088391,092273,074383
0000000243,0000242000,008427,083338,-79560,085110,094265,075672
0000000244,0000243000,-20146,094147,-61794,081866,095342,077839
0000000245,0000244000,-46180,096180,-37794,078972,095402,080673
0000000246,0000245000,-67041,089227,-09981,076715,094439,083894
0000000247,0000246000,-80607,073944,018866,075317,092546,087184
0000000248,0000247000,-85636,051786,046052,074911,089907,090228
0000000249,0000248000,-81654,024948,068909,075539,086782,092726
0000000250,0000249000,-69025,-03867,085097,077137,083479,094431
0000000251,0000250000,-48953,-31914,093074,079552,080319,095176
0000000252,0000251000,-23393,-56501,092101,082547,077609,094892
0000000253,0000252000,005080,-75134,082259,085826,075617,093605
0000000254,0000253000,033684,-85983,064501,089068,074539,091441
0000000255,0000254000,059726,-88030,040506,091961,074478,088609
0000000256,0000255000,080596,-81078,012685,094218,075439,085390
0000000257,0000256000,094200,-65820,-16174,095617,077329,082102
0000000258,0000257000,099250,-43671,-43372,096023,079966,079059
0000000259,0000258000,095269,-16812,-66251,095397,083089,076561
0000000260,0000259000,082663,012004,-82464,093801,086389,074857
0000000261,0000260000,062607,040054,-90459,091389,089548,074110
0000000262,0000261000,037030,064676,-89505,088396,092258,074393
0000000263,0000262000,008551,083334,-79681,085120,094249,075678
0000000264,0000263000,-20050,094188,-61931,081880,095328,077840
0000000265,0000264000,-46123,096266,-37935,078988,095391,080669
0000000266,0000265000,-67023,089340,-10112,076731,094431,083885
0000000267,0000266000,-80634,074078,018758,075332,092544,087172
0000000268,0000267000,-85710,051934,045977,074924,089910,090213
0000000269,0000268000,-81761,025087,068877,075548,086789,092710
0000000270,0000269000,-69156,-03750,085112,077142,083491,094415
0000000271,0000270000,-49103,-31823,093133,079551,080334,095162
0000000272,0000271000,-23541,-56451,092199,082541,077625,094881
0000000273,0000272000,004952,-75136,082388,085815,075633,093599
0000000274,0000273000,033580,-86028,064650,089054,074554,091440
0000000275,0000274000,059659,-88114,040657,091944,074490,088613
0000000276,0000275000,080581,-81203,012826,094201,075447,085400
0000000277,0000276000,094232,-65969,-16057,095600,077332,082115
0000000278,0000277000,099323,-43824,-43292,096009,079963,079075
0000000279,0000278000,095385,-16962,-66216,095387,083081,076579
0000000280,0000279000,082809,011873,-82478,093797,086377,074874
0000000281,0000280000,062763,039960,-90521,091390,089532,074125
0000000282,0000281000,037187,064625,-89610,088403,092240,074405
0000000283,0000282000,008695,083329,-79819,085131,094231,075685
0000000284,0000283000,-19941,094237,-62090,081895,095312,077841
0000000285,0000284000,-46056,096361,-38099,079006,095378,080664
0000000286,0000285000,-67001,089470,-10264,076750,094423,083875
0000000287,0000286000,-80666,074235,018634,075349,092541,087157
0000000288,0000287000,-85793,052104,045891,074939,089913,090196
0000000289,0000288000,-81882,025246,068838,075559,086798,092691
0000000290,0000289000,-69308,-03614,085127,077147,083504,094396
0000000291,0000290000,-49275,-31717,093199,079550,080351,095146
0000000292,0000291000,-23709,-56394,092310,082535,077644,094869
0000000293,0000292000,004804,-75136,082536,085803,075653,093592
0000000294,0000293000,033459,-86077,064820,089037,074571,091439
0000000295,0000294000,059583,-88213,040831,091925,074504,088618
0000000296,0000295000,080562,-81346,012988,094181,075456,085410
0000000297,0000296000,094265,-66137,-15922,095582,077335,082130
0000000298,0000297000,099407,-44000,-43199,095994,079960,079094
0000000299,0000298000,095518,-17135,-66176,095376,083072,076599
0000000300,0000299000,082974,011724,-82494,093791,086362,074894
0000000301,0000300000,062942,039852,-90592,091391,089514,074143
