DIgSILENT PowerFactory,21000900,2000
6,06A,00D
1,TTPP_200000_100:Secondary Voltage A,,,V,0.10000000,-8404.771484,0.000000,68002,99998,1,1,P
2,TTPP_200000_100:Secondary Voltage B,,,V,0.10000000,-8410.444336,0.000000,69047,99998,1,1,P
3,TTPP_200000_100:Secondary Voltage C,,,V,0.10000000,-8440.072266,0.000000,66052,99998,1,1,P
4,TTCC_500_5:Secondary Current A,,,A,0.0010000000,-86.089355,0.000000,65836,99998,1,1,P
5,TTCC_500_5:Secondary Current B,,,A,0.0010000000,-85.016670,0.000000,70053,99998,1,1,P
6,TTCC_500_5:Secondary Current C,,,A,0.0010000000,-84.656609,0.000000,69316,99998,1,1,P
50
1
1000.000000,1101
30/06/2023,06:07:14.000000
30/06/2023,06:07:14.000000
ASCII
1.000000
0000000001,0000000000,089560,087745,075248,092005,089696,074061
0000000002,0000001000,087011,090179,075362,088990,092412,074360
0000000003,0000002000,084160,092034,076361,085690,094407,075666
0000000004,0000003000,081315,093095,078143,082435,095476,077851
0000000005,0000004000,078731,093278,080545,079530,095527,080706
0000000006,0000005000,076658,092571,083323,077270,094547,083945
0000000007,0000006000,075312,091041,086199,075876,092634,087252
0000000008,0000007000,074839,088810,088904,075481,089975,090307
0000000009,0000008000,075248,086131,091173,076122,086831,092810
0000000010,0000009000,076515,083265,092774,077740,083509,094513
0000000011,0000010000,078535,080466,093553,080178,080335,095250
0000000012,0000011000,081096,078017,093439,083192,077619,094952
0000000013,0000012000,083925,076186,092442,086490,075626,093646
0000000014,0000013000,086778,075116,090658,089750,074552,091460
0000000015,0000014000,089376,074921,088256,092651,074505,088606
0000000016,0000015000,091435,075639,085478,094910,075486,085367
0000000017,0000016000,092770,077181,082602,096307,077395,082060
0000000018,0000017000,093269,079387,079897,096702,080056,079005
0000000019,0000018000,092850,082074,077628,096058,083203,076502
0000000020,0000019000,091568,084957,076028,094441,086522,074799
0000000021,0000020000,089564,087739,075249,092007,089694,074062
0000000022,0000021000,087011,090180,075362,088988,092414,074360
0000000023,0000022000,084159,092035,076359,085690,094406,075666
0000000024,0000023000,081315,093095,078143,082434,095477,077852
0000000025,0000024000,078732,093276,080546,079531,095526,080706
0000000026,0000025000,076656,092574,083323,077269,094548,083945
0000000027,0000026000,075315,091039,086199,075876,092634,087252
0000000028,0000027000,074837,088811,088905,075480,089976,090307
0000000029,0000028000,075247,086133,091173,076122,086831,092810
0000000030,0000029000,076517,083264,092773,077740,083510,094513
0000000031,0000030000,078536,080464,093553,080176,080336,095250
0000000032,0000031000,081091,078022,093440,083192,077619,094952
0000000033,0000032000,083927,076184,092442,086490,075626,093646
0000000034,0000033000,086781,075114,090658,089748,074554,091461
0000000035,0000034000,089372,074924,088257,092650,074506,088607
0000000036,0000035000,091433,075641,085479,094910,075485,085367
0000000037,0000036000,092777,077174,082602,096306,077396,082061
0000000038,0000037000,093267,079389,079897,096700,080057,079006
0000000039,0000038000,092846,082078,077628,096058,083202,076503
0000000040,0000039000,091573,084952,076028,094442,086521,074800
0000000041,0000040000,089567,087737,075248,092005,089695,074062
0000000042,0000041000,087005,090186,075362,088988,092414,074361
0000000043,0000042000,084161,092033,076359,085691,094405,075666
0000000044,0000043000,081320,093091,078143,082434,095477,077852
0000000045,0000044000,078728,093280,080545,079530,095527,080706
0000000046,0000045000,076653,092577,083323,077270,094547,083945
0000000047,0000046000,075321,091034,086199,075876,092635,087252
0000000048,0000047000,074836,088812,088904,075479,089977,090306
0000000049,0000048000,075242,086137,091173,076122,086831,092809
0000000050,0000049000,076519,083260,092773,077740,083510,094512
0000000051,0000050000,078537,080463,093553,080175,080337,095250
0000000052,0000051000,081087,078026,093440,083191,077620,094952
0000000053,0000052000,083928,076183,092442,086490,075626,093646
0000000054,0000053000,086783,075111,090659,089747,074554,091461
0000000055,0000054000,089369,074926,088257,092649,074507,088607
0000000056,0000055000,091433,075641,085479,094910,075485,085368
0000000057,0000056000,092779,077171,082603,096305,077396,082061
0000000058,0000057000,093265,079390,079898,096699,080057,079007
0000000059,0000058000,092846,082079,077628,096057,083202,076504
0000000060,0000059000,091576,084949,076028,094441,086521,074801
0000000061,0000060000,089567,087738,075248,092005,089695,074063
0000000062,0000061000,087004,090187,075362,088988,092413,074361
0000000063,0000062000,084164,092031,076358,085691,094405,075666
0000000064,0000063000,081320,093091,078143,082434,095477,077852
0000000065,0000064000,078726,093283,080544,079531,095527,080705
0000000066,0000065000,076656,092575,083322,077271,094547,083945
0000000067,0000066000,075321,091033,086198,075876,092635,087251
0000000068,0000067000,074832,088816,088904,075480,089977,090306
0000000069,0000068000,075243,086137,091173,076123,086831,092809
0000000070,0000069000,076521,083258,092773,077740,083511,094512
0000000071,0000070000,078533,080466,093554,080175,080339,095249
0000000072,0000071000,081085,078028,093440,083191,077621,094951
0000000073,0000072000,083930,076179,092443,086489,075628,093646
0000000074,0000073000,086782,075112,090660,089745,074556,091461
0000000075,0000074000,089366,074929,088258,092648,074507,088607
0000000076,0000075000,091436,075637,085480,094909,075485,085368
0000000077,0000076000,092780,077169,082604,096303,077397,082062
0000000078,0000077000,093263,079392,079898,096698,080057,079008
0000000079,0000078000,092848,082077,077628,096057,083201,076505
0000000080,0000079000,091579,084946,076028,094440,086520,074802
0000000081,0000080000,089565,087740,075248,092004,089694,074064
0000000082,0000081000,087005,090187,075361,088989,092411,074362
0000000083,0000082000,084168,092028,076358,085692,094403,075667
0000000084,0000083000,081319,093092,078141,082434,095476,077852
0000000085,0000084000,078725,093286,080543,079532,095525,080705
0000000086,0000085000,076658,092574,083321,077273,094546,083944
0000000087,0000086000,075321,091034,086197,075877,092636,087250
0000000088,0000087000,074830,088820,088903,075481,089977,090304
0000000089,0000088000,075243,086137,091172,076124,086832,092807
0000000090,0000089000,076521,083258,092774,077740,083513,094510
0000000091,0000090000,078530,080469,093554,080174,080341,095248
0000000092,0000091000,081084,078028,093441,083191,077622,094950
0000000093,0000092000,083931,076178,092445,086488,075630,093645
0000000094,0000093000,086779,075113,090661,089743,074558,091461
0000000095,0000094000,089365,074928,088260,092646,074509,088608
0000000096,0000095000,091438,075634,085481,094906,075487,085370
0000000097,0000096000,092779,077169,082605,096301,077398,082064
0000000098,0000097000,093262,079392,079899,096697,080056,079010
0000000099,0000098000,092851,082073,077629,096056,083200,076507
0000000100,0000099000,091581,084944,076028,094439,086519,074804
0000000101,0000100000,089565,087740,075247,092004,089692,074066
0000000102,0000101000,087008,090185,075359,088990,092409,074364
0000000103,0000102000,084170,092027,076356,085693,094401,075668
0000000104,0000103000,081318,093095,078139,082436,095474,077852
0000000105,0000104000,078726,093286,080541,079535,095523,080705
0000000106,0000105000,076660,092574,083319,077275,094545,083943
0000000107,0000106000,075319,091038,086196,075879,092635,087248
0000000108,0000107000,074828,088823,088902,075483,089977,090302
0000000109,0000108000,075244,086137,091172,076125,086833,092804
0000000110,0000109000,076518,083261,092774,077740,083515,094507
0000000111,0000110000,078526,080472,093555,080174,080343,095246
0000000112,0000111000,081084,078027,093443,083190,077625,094948
0000000113,0000112000,083929,076177,092447,086485,075633,093644
0000000114,0000113000,086775,075114,090664,089741,074561,091461
0000000115,0000114000,089365,074926,088262,092643,074511,088609
0000000116,0000115000,091439,075630,085484,094903,075488,085371
0000000117,0000116000,092778,077168,082607,096298,077399,082066
0000000118,0000117000,093264,079389,079900,096694,080055,079013
0000000119,0000118000,092855,082069,077630,096054,083199,076511
0000000120,0000119000,091582,084943,076028,094438,086517,074807
0000000121,0000120000,089567,087740,075246,092005,089689,074069
0000000122,0000121000,087013,090182,075358,088991,092406,074366
0000000123,0000122000,084172,092027,076354,085695,094398,075669
0000000124,0000123000,081319,093097,078136,082439,095471,077852
0000000125,0000124000,078729,093287,080537,079538,095521,080704
0000000126,0000125000,076661,092576,083316,077278,094544,083941
0000000127,0000126000,075317,091043,086193,075883,092635,087245
0000000128,0000127000,074827,088825,088900,075487,089978,090298
0000000129,0000128000,075242,086139,091171,076127,086835,092801
0000000130,0000129000,076513,083265,092774,077741,083518,094504
0000000131,0000130000,078523,080474,093556,080174,080346,095242
0000000132,0000131000,081082,078026,093445,083188,077629,094946
0000000133,0000132000,083925,076179,092450,086483,075637,093643
0000000134,0000133000,086772,075114,090667,089738,074564,091460
0000000135,0000134000,089365,074922,088265,092639,074514,088610
0000000136,0000135000,091438,075628,085487,094898,075491,085373
0000000137,0000136000,092777,077166,082610,096294,077399,082070
0000000138,0000137000,093267,079384,079902,096691,080055,079017
0000000139,0000138000,092858,082065,077631,096051,083197,076515
0000000140,0000139000,091584,084942,076027,094437,086514,074812
0000000141,0000140000,089572,087737,075244,092005,089685,074073
0000000142,0000141000,087018,090180,075355,088992,092401,074369
0000000143,0000142000,084174,092028,076350,085698,094394,075671
0000000144,0000143000,081322,093099,078132,082443,095467,077853
0000000145,0000144000,078732,093288,080533,079543,095517,080703
0000000146,0000145000,076661,092580,083312,077283,094541,083938
0000000147,0000146000,075315,091048,086190,075888,092634,087241
0000000148,0000147000,074827,088828,088898,075491,089978,090294
0000000149,0000148000,075239,086143,091170,076130,086837,092795
0000000150,0000149000,076508,083270,092775,077743,083521,094498
0000000151,0000150000,078519,080476,093558,080174,080351,095238
0000000152,0000151000,081078,078027,093448,083186,077635,094942
0000000153,0000152000,083919,076180,092454,086479,075643,093641
0000000154,0000153000,086769,075112,090671,089733,074569,091460
0000000155,0000154000,089364,074918,088270,092634,074518,088611
0000000156,0000155000,091436,075625,085492,094893,075494,085376
0000000157,0000156000,092778,077162,082614,096288,077400,082074
0000000158,0000157000,093270,079378,079905,096686,080054,079022
0000000159,0000158000,092861,082060,077632,096047,083195,076521
0000000160,0000159000,091588,084938,076027,094435,086510,074818
0000000161,0000160000,089578,087732,075242,092005,089679,074078
0000000162,0000161000,087023,090178,075352,088994,092395,074373
0000000163,0000162000,084178,092030,076346,085701,094388,075674
0000000164,0000163000,081326,093100,078127,082449,095461,077853
0000000165,0000164000,078735,093290,080528,079549,095513,080701
0000000166,0000165000,076660,092586,083307,077289,094538,083935
0000000167,0000166000,075314,091053,086186,075894,092632,087236
0000000168,0000167000,074825,088833,088895,075496,089979,090288
0000000169,0000168000,075234,086150,091169,076133,086840,092789
0000000170,0000169000,076502,083275,092775,077745,083526,094492
0000000171,0000170000,078515,080478,093560,080174,080357,095232
0000000172,0000171000,081072,078029,093452,083184,077642,094938
0000000173,0000172000,083913,076181,092459,086475,075650,093638
0000000174,0000173000,086766,075109,090677,089728,074575,091459
0000000175,0000174000,089361,074915,088277,092626,074523,088613
0000000176,0000175000,091434,075621,085498,094885,075497,085380
0000000177,0000176000,092780,077155,082618,096282,077401,082080
0000000178,0000177000,093274,079371,079908,096680,080053,079029
0000000179,0000178000,092865,082055,077633,096043,083192,076528
0000000180,0000179000,091594,084933,076026,094433,086505,074825
0000000181,0000180000,089585,087728,075240,092005,089673,074085
0000000182,0000181000,087028,090177,075347,088996,092388,074378
0000000183,0000182000,084183,092030,076340,085706,094380,075677
0000000184,0000183000,081332,093101,078120,082455,095454,077854
0000000185,0000184000,078738,093294,080521,079556,095507,080699
0000000186,0000185000,076660,092592,083301,077297,094535,083931
0000000187,0000186000,075314,091059,086180,075902,092631,087230
0000000188,0000187000,074822,088840,088891,075502,089980,090280
0000000189,0000188000,075228,086157,091168,076138,086844,092780
0000000190,0000189000,076496,083281,092776,077747,083532,094484
0000000191,0000190000,078508,080482,093563,080174,080364,095225
0000000192,0000191000,081064,078032,093457,083181,077650,094932
0000000193,0000192000,083907,076181,092465,086470,075658,093635
0000000194,0000193000,086762,075106,090685,089720,074583,091459
0000000195,0000194000,089358,074911,088284,092618,074530,088615
0000000196,0000195000,091433,075615,085504,094877,075501,085385
0000000197,0000196000,092782,077147,082624,096273,077403,082087
0000000198,0000197000,093278,079363,079912,096673,080052,079038
0000000199,0000198000,092870,082048,077635,096038,083187,076537
0000000200,0000199000,091602,084926,076025,094430,086498,074834
0000000201,0000200000,089594,087722,075237,092005,089665,074093
0000000202,0000201000,087036,090175,075342,089000,092379,074384
0000000203,0000202000,084191,092030,076332,085712,094370,075680
0000000204,0000203000,081338,093103,078112,082463,095445,077855
0000000205,0000204000,078740,093300,080513,079566,095500,080697
0000000206,0000205000,076661,092599,083293,077307,094530,083925
0000000207,0000206000,075313,091066,086174,075911,092629,087223
0000000208,0000207000,074817,088849,088887,075510,089982,090271
0000000209,0000208000,075221,086166,091166,076144,086848,092770
0000000210,0000209000,076489,083287,092777,077750,083539,094474
0000000211,0000210000,078499,080488,093567,080173,080374,095216
0000000212,0000211000,081054,078036,093463,083177,077660,094925
0000000213,0000212000,083899,076181,092473,086463,075668,093631
0000000214,0000213000,086756,075103,090694,089711,074593,091458
0000000215,0000214000,089353,074906,088294,092607,074538,088618
0000000216,0000215000,091432,075608,085513,094866,075506,085391
0000000217,0000216000,092785,077137,082631,096263,077405,082095
0000000218,0000217000,093282,079354,079917,096664,080051,079048
0000000219,0000218000,092877,082039,077637,096032,083183,076549
0000000220,0000219000,091611,084917,076024,094427,086490,074845
0000000221,0000220000,089603,087717,075233,092006,089655,074102
0000000222,0000221000,087045,090172,075335,089004,092367,074392
0000000223,0000222000,084200,092029,076324,085719,094359,075685
0000000224,0000223000,081345,093106,078102,082473,095435,077856
0000000225,0000224000,078744,093306,080503,079577,095492,080694
0000000226,0000225000,076663,092607,083283,077319,094524,083919
0000000227,0000226000,075311,091076,086166,075922,092627,087213
0000000228,0000227000,074811,088860,088882,075519,089984,090259
0000000229,0000228000,075213,086176,091163,076151,086854,092758
0000000230,0000229000,076480,083296,092778,077753,083547,094462
0000000231,0000230000,078488,080494,093571,080173,080385,095205
0000000232,0000231000,081043,078040,093470,083173,077673,094917
0000000233,0000232000,083890,076180,092482,086456,075681,093626
0000000234,0000233000,086748,075100,090705,089701,074605,091457
0000000235,0000234000,089348,074900,088305,092595,074547,088621
0000000236,0000235000,091431,075598,085523,094853,075512,085398
0000000237,0000236000,092787,077126,082640,096250,077407,082105
0000000238,0000237000,093287,079343,079923,096654,080049,079060
0000000239,0000238000,092886,082028,077639,096024,083177,076562
0000000240,0000239000,091622,084907,076023,094424,086481,074858
0000000241,0000240000,089614,087710,075228,092006,089643,074114
0000000242,0000241000,087057,090169,075327,089008,092354,074400
0000000243,0000242000,084211,092028,076313,085728,094345,075690
0000000244,0000243000,081353,093110,078091,082484,095422,077856
0000000245,0000244000,078749,093314,080491,079590,095482,080691
0000000246,0000245000,076665,092616,083272,077333,094518,083912
0000000247,0000246000,075308,091088,086157,075935,092625,087203
0000000248,0000247000,074805,088873,088875,075530,089986,090246
0000000249,0000248000,075204,086188,091161,076159,086860,092744
0000000250,0000249000,076468,083306,092779,077757,083557,094448
0000000251,0000250000,078474,080503,093576,080172,080397,095193
0000000252,0000251000,081031,078044,093478,083168,077687,094908
0000000253,0000252000,083880,076180,092494,086446,075695,093621
0000000254,0000253000,086739,075097,090718,089688,074618,091456
0000000255,0000254000,089342,074893,088318,092581,074557,088624
0000000256,0000255000,091430,075587,085535,094838,075519,085406
0000000257,0000256000,092789,077114,082650,096236,077410,082117
0000000258,0000257000,093293,079330,079930,096642,080047,079074
0000000259,0000258000,092896,082015,077642,096016,083170,076577
0000000260,0000259000,091635,084896,076022,094419,086470,074873
0000000261,0000260000,089628,087702,075223,092007,089629,074127
0000000262,0000261000,087071,090164,075318,089014,092338,074410
0000000263,0000262000,084223,092028,076302,085737,094330,075695
0000000264,0000263000,081362,093114,078077,082497,095408,077857
0000000265,0000264000,078755,093322,080476,079606,095470,080687
0000000266,0000265000,076667,092627,083259,077349,094510,083903
0000000267,0000266000,075305,091102,086146,075950,092622,087190
0000000268,0000267000,074797,088887,088868,075543,089988,090231
0000000269,0000268000,075194,086201,091157,076168,086867,092728
0000000270,0000269000,076455,083318,092781,077762,083569,094432
0000000271,0000270000,078459,080512,093582,080171,080412,095179
0000000272,0000271000,081017,078048,093488,083162,077703,094897
0000000273,0000272000,083866,076180,092507,086436,075712,093615
0000000274,0000273000,086728,075092,090732,089674,074633,091455
0000000275,0000274000,089336,074884,088333,092564,074569,088629
0000000276,0000275000,091429,075574,085550,094821,075527,085415
0000000277,0000276000,092792,077099,082661,096220,077413,082130
0000000278,0000277000,093301,079314,079938,096628,080044,079091
0000000279,0000278000,092908,082000,077646,096006,083162,076595
0000000280,0000279000,091649,084884,076020,094415,086458,074890
0000000281,0000280000,089643,087693,075216,092008,089613,074142
0000000282,0000281000,087087,090158,075308,089020,092320,074422
0000000283,0000282000,084237,092028,076288,085749,094312,075702
0000000284,0000283000,081373,093119,078061,082513,095392,077858
0000000285,0000284000,078762,093331,080460,079624,095457,080682
0000000286,0000285000,076668,092640,083244,077368,094502,083893
0000000287,0000286000,075301,091118,086134,075968,092619,087176
0000000288,0000287000,074790,088904,088859,075558,089991,090213
0000000289,0000288000,075182,086217,091154,076178,086876,092709
0000000290,0000289000,076439,083332,092782,077766,083583,094414
0000000291,0000290000,078442,080522,093589,080171,080429,095163
0000000292,0000291000,081000,078053,093499,083155,077723,094885
0000000293,0000292000,083851,076180,092522,086424,075731,093608
0000000294,0000293000,086716,075087,090749,089658,074651,091454
0000000295,0000294000,089329,074873,088350,092545,074583,088634
0000000296,0000295000,091426,075561,085566,094801,075536,085426
0000000297,0000296000,092795,077083,082675,096201,077416,082146
0000000298,0000297000,093310,079296,079947,096613,080041,079109
0000000299,0000298000,092921,081982,077650,095995,083153,076615
0000000300,0000299000,091665,084869,076019,094409,086444,074910
0000000301,0000300000,089662,087682,075209,092009,089595,074159
