DIgSILENT PowerFactory,21000900,2000
6,06A,00D
1,TTPP_200000_100:Secondary Voltage A,,,V,0.10000000,-8388.986328,0.000000,69422,99998,1,1,P
2,TTPP_200000_100:Secondary Voltage B,,,V,0.10000000,-8435.217773,0.000000,70528,99998,1,1,P
3,TTPP_200000_100:Secondary Voltage C,,,V,0.10000000,-8444.843750,0.000000,66949,99998,1,1,P
4,TTCC_500_5:Secondary Current A,,,A,0.0010000000,-79.431282,0.000000,65172,99998,1,1,P
5,TTCC_500_5:Secondary Current B,,,A,0.0010000000,-84.510857,0.000000,69101,99998,1,1,P
6,TTCC_500_5:Secondary Current C,,,A,0.0010000000,-84.870605,0.000000,69762,99998,1,1,P
50
1
1000.000000,1101
30/06/2023,06:11:02.000000
30/06/2023,06:11:02.000000
ASCII
1.000000
0000000001,0000000000,089402,087993,075296,085347,089190,074276
0000000002,0000001000,086854,090426,075410,082330,091908,074574
0000000003,0000002000,084005,092279,076408,079034,093899,075880
0000000004,0000003000,081153,093346,078191,075778,094970,078065
0000000005,0000004000,078573,093525,080593,072871,095022,080919
0000000006,0000005000,076501,092818,083371,070612,094042,084159
0000000007,0000006000,075155,091287,086246,069220,092127,087465
0000000008,0000007000,074679,089060,088952,068822,089470,090520
0000000009,0000008000,075092,086377,091221,069463,086326,093024
0000000010,0000009000,076357,083512,092822,071083,083003,094726
0000000011,0000010000,078377,080714,093600,073520,079829,095464
0000000012,0000011000,080937,078266,093487,076533,077114,095166
0000000013,0000012000,083768,076432,092490,079832,075121,093860
0000000014,0000013000,086620,075364,090705,083092,074046,091675
0000000015,0000014000,089218,075169,088304,085993,073999,088821
0000000016,0000015000,091277,075888,085526,088251,074981,085581
0000000017,0000016000,092614,077427,082650,089649,076889,082274
0000000018,0000017000,093111,079635,079945,090045,079549,079220
0000000019,0000018000,092692,082323,077676,089399,082697,076716
0000000020,0000019000,091410,085204,076076,087783,086016,075013
0000000021,0000020000,089408,087986,075296,085349,089188,074276
0000000022,0000021000,086852,090428,075410,082330,091908,074574
0000000023,0000022000,084001,092283,076407,079032,093901,075880
0000000024,0000023000,081157,093342,078191,075776,094971,078065
0000000025,0000024000,078575,093523,080593,072873,095020,080919
0000000026,0000025000,076497,092823,083371,070611,094042,084159
0000000027,0000026000,075157,091286,086246,069218,092129,087466
0000000028,0000027000,074680,089058,088952,068822,089470,090521
0000000029,0000028000,075089,086380,091221,069464,086325,093024
0000000030,0000029000,076358,083512,092821,071082,083004,094727
0000000031,0000030000,078378,080712,093601,073518,079831,095464
0000000032,0000031000,080934,078269,093487,076534,077113,095166
0000000033,0000032000,083769,076432,092490,079832,075121,093860
0000000034,0000033000,086623,075361,090705,083090,074048,091675
0000000035,0000034000,089215,075171,088305,085992,074000,088821
0000000036,0000035000,091276,075888,085526,088252,074979,085581
0000000037,0000036000,092618,077423,082650,089648,076890,082275
0000000038,0000037000,093109,079637,079945,090042,079550,079220
0000000039,0000038000,092689,082326,077676,089400,082696,076717
0000000040,0000039000,091415,085200,076075,087784,086015,075014
0000000041,0000040000,089409,087985,075296,085347,089189,074276
0000000042,0000041000,086847,090433,075410,082330,091908,074575
0000000043,0000042000,084003,092281,076407,079033,093899,075880
0000000044,0000043000,081161,093339,078191,075776,094972,078066
0000000045,0000044000,078570,093528,080593,072872,095022,080919
0000000046,0000045000,076496,092824,083370,070612,094041,084159
0000000047,0000046000,075163,091282,086246,069218,092129,087465
0000000048,0000047000,074678,089060,088952,068821,089471,090520
0000000049,0000048000,075084,086385,091221,069464,086325,093023
0000000050,0000049000,076362,083508,092821,071082,083004,094726
0000000051,0000050000,078379,080711,093601,073517,079832,095464
0000000052,0000051000,080929,078274,093488,076533,077114,095166
0000000053,0000052000,083770,076430,092490,079832,075121,093860
0000000054,0000053000,086626,075358,090706,083089,074049,091675
0000000055,0000054000,089211,075174,088305,085990,074001,088821
0000000056,0000055000,091275,075888,085527,088252,074979,085582
0000000057,0000056000,092622,077418,082651,089647,076890,082276
0000000058,0000057000,093108,079638,079945,090041,079551,079221
0000000059,0000058000,092688,082327,077676,089399,082696,076718
0000000060,0000059000,091418,085197,076075,087783,086015,075015
0000000061,0000060000,089409,087985,075296,085347,089189,074277
0000000062,0000061000,086846,090435,075409,082330,091907,074575
0000000063,0000062000,084005,092279,076406,079034,093899,075880
0000000064,0000063000,081162,093338,078190,075776,094971,078066
0000000065,0000064000,078568,093531,080592,072873,095021,080919
0000000066,0000065000,076497,092824,083369,070613,094041,084158
0000000067,0000066000,075164,091281,086246,069218,092130,087465
0000000068,0000067000,074675,089064,088952,068822,089471,090519
0000000069,0000068000,075084,086385,091221,069465,086326,093022
0000000070,0000069000,076363,083506,092821,071082,083005,094725
0000000071,0000070000,078376,080713,093602,073516,079833,095463
0000000072,0000071000,080928,078275,093488,076533,077115,095165
0000000073,0000072000,083772,076427,092491,079831,075122,093860
0000000074,0000073000,086624,075359,090707,083087,074050,091675
0000000075,0000074000,089208,075176,088306,085989,074002,088822
0000000076,0000075000,091278,075885,085527,088250,074980,085583
0000000077,0000076000,092622,077417,082652,089645,076891,082277
0000000078,0000077000,093105,079640,079946,090040,079551,079222
0000000079,0000078000,092690,082325,077676,089399,082695,076719
0000000080,0000079000,091421,085194,076075,087782,086014,075016
0000000081,0000080000,089407,087987,075296,085346,089188,074278
0000000082,0000081000,086847,090435,075408,082331,091905,074576
0000000083,0000082000,084010,092276,076405,079034,093897,075881
0000000084,0000083000,081161,093340,078189,075776,094971,078066
0000000085,0000084000,078567,093533,080590,072874,095020,080919
0000000086,0000085000,076500,092822,083368,070615,094040,084158
0000000087,0000086000,075163,091282,086245,069219,092130,087464
0000000088,0000087000,074672,089068,088951,068823,089472,090518
0000000089,0000088000,075085,086385,091220,069466,086326,093021
0000000090,0000089000,076363,083506,092821,071082,083007,094724
0000000091,0000090000,078372,080717,093602,073516,079835,095462
0000000092,0000091000,080926,078275,093489,076532,077117,095164
0000000093,0000092000,083773,076425,092492,079829,075124,093860
0000000094,0000093000,086621,075360,090709,083085,074052,091675
0000000095,0000094000,089207,075176,088307,085988,074003,088822
0000000096,0000095000,091280,075881,085529,088248,074981,085584
0000000097,0000096000,092622,077416,082653,089643,076892,082278
0000000098,0000097000,093104,079640,079947,090039,079550,079224
0000000099,0000098000,092693,082321,077677,089398,082694,076721
0000000100,0000099000,091423,085192,076075,087781,086013,075018
0000000101,0000100000,089407,087988,075295,085346,089186,074280
0000000102,0000101000,086850,090433,075407,082332,091903,074578
0000000103,0000102000,084012,092275,076404,079035,093895,075882
0000000104,0000103000,081161,093343,078187,075778,094969,078066
0000000105,0000104000,078568,093534,080588,072877,095017,080918
0000000106,0000105000,076502,092822,083366,070617,094039,084156
0000000107,0000106000,075161,091286,086243,069221,092130,087462
0000000108,0000107000,074670,089071,088950,068825,089472,090515
0000000109,0000108000,075086,086385,091220,069467,086327,093018
0000000110,0000109000,076360,083509,092822,071082,083009,094721
0000000111,0000110000,078368,080720,093603,073516,079837,095459
0000000112,0000111000,080926,078274,093490,076531,077119,095162
0000000113,0000112000,083771,076425,092495,079827,075127,093859
0000000114,0000113000,086617,075362,090711,083083,074055,091675
0000000115,0000114000,089207,075173,088310,085985,074005,088823
0000000116,0000115000,091281,075878,085532,088245,074982,085585
0000000117,0000116000,092620,077415,082655,089640,076893,082281
0000000118,0000117000,093106,079637,079948,090036,079549,079227
0000000119,0000118000,092697,082317,077677,089396,082693,076725
0000000120,0000119000,091424,085191,076075,087780,086011,075022
0000000121,0000120000,089409,087987,075294,085347,089183,074283
0000000122,0000121000,086855,090430,075405,082333,091900,074580
0000000123,0000122000,084014,092275,076401,079037,093892,075883
0000000124,0000123000,081161,093345,078184,075781,094965,078066
0000000125,0000124000,078571,093535,080585,072881,095015,080918
0000000126,0000125000,076503,092824,083364,070620,094038,084155
0000000127,0000126000,075159,091290,086241,069225,092129,087459
0000000128,0000127000,074669,089073,088948,068829,089472,090512
0000000129,0000128000,075084,086387,091219,069469,086329,093014
0000000130,0000129000,076355,083513,092822,071083,083012,094717
0000000131,0000130000,078365,080722,093604,073516,079841,095456
0000000132,0000131000,080924,078274,093493,076530,077123,095160
0000000133,0000132000,083767,076426,092498,079824,075132,093857
0000000134,0000133000,086614,075362,090715,083079,074059,091675
0000000135,0000134000,089207,075170,088313,085981,074008,088824
0000000136,0000135000,091280,075875,085535,088240,074985,085588
0000000137,0000136000,092620,077413,082658,089635,076893,082284
0000000138,0000137000,093109,079632,079950,090033,079549,079231
0000000139,0000138000,092700,082312,077678,089393,082691,076729
0000000140,0000139000,091426,085189,076075,087779,086008,075026
0000000141,0000140000,089414,087985,075292,085347,089179,074287
0000000142,0000141000,086860,090428,075403,082334,091895,074583
0000000143,0000142000,084017,092276,076398,079040,093888,075885
0000000144,0000143000,081164,093347,078180,075785,094961,078067
0000000145,0000144000,078574,093536,080581,072885,095011,080916
0000000146,0000145000,076503,092828,083360,070625,094036,084152
0000000147,0000146000,075157,091295,086238,069230,092128,087455
0000000148,0000147000,074669,089076,088945,068833,089473,090507
0000000149,0000148000,075081,086391,091218,069472,086332,093009
0000000150,0000149000,076350,083518,092822,071085,083016,094712
0000000151,0000150000,078361,080724,093606,073516,079845,095452
0000000152,0000151000,080920,078275,093496,076528,077129,095156
0000000153,0000152000,083761,076427,092502,079821,075137,093855
0000000154,0000153000,086611,075360,090719,083075,074063,091674
0000000155,0000154000,089206,075166,088318,085975,074012,088825
0000000156,0000155000,091278,075872,085540,088234,074988,085591
0000000157,0000156000,092620,077409,082661,089630,076894,082288
0000000158,0000157000,093113,079626,079952,090028,079548,079237
0000000159,0000158000,092703,082308,077679,089389,082689,076735
0000000160,0000159000,091430,085186,076074,087777,086004,075032
0000000161,0000160000,089420,087980,075290,085347,089173,074292
0000000162,0000161000,086865,090426,075399,082336,091889,074587
0000000163,0000162000,084020,092277,076393,079044,093882,075887
0000000164,0000163000,081168,093348,078175,075791,094955,078067
0000000165,0000164000,078577,093538,080576,072891,095007,080915
0000000166,0000165000,076502,092833,083355,070631,094033,084149
0000000167,0000166000,075156,091301,086233,069236,092127,087450
0000000168,0000167000,074667,089081,088943,068838,089474,090501
0000000169,0000168000,075076,086397,091217,069475,086335,093003
0000000170,0000169000,076345,083523,092823,071087,083020,094706
0000000171,0000170000,078357,080726,093608,073516,079851,095446
0000000172,0000171000,080914,078277,093500,076525,077136,095152
0000000173,0000172000,083755,076428,092507,079817,075144,093852
0000000174,0000173000,086608,075357,090725,083069,074070,091674
0000000175,0000174000,089204,075162,088324,085968,074017,088827
0000000176,0000175000,091277,075869,085545,088227,074991,085594
0000000177,0000176000,092622,077403,082666,089623,076895,082294
0000000178,0000177000,093116,079619,079956,090022,079547,079243
0000000179,0000178000,092707,082303,077681,089385,082685,076742
0000000180,0000179000,091436,085181,076074,087775,085999,075039
0000000181,0000180000,089427,087975,075287,085347,089167,074299
0000000182,0000181000,086871,090424,075395,082339,091882,074592
0000000183,0000182000,084025,092278,076387,079048,093874,075890
0000000184,0000183000,081174,093349,078168,075797,094948,078068
0000000185,0000184000,078580,093542,080569,072898,095001,080913
0000000186,0000185000,076502,092840,083348,070640,094029,084144
0000000187,0000186000,075156,091307,086228,069244,092125,087444
0000000188,0000187000,074664,089087,088939,068844,089475,090494
0000000189,0000188000,075070,086405,091216,069480,086338,092994
0000000190,0000189000,076338,083529,092824,071089,083026,094698
0000000191,0000190000,078350,080730,093611,073515,079859,095439
0000000192,0000191000,080906,078280,093505,076522,077144,095146
0000000193,0000192000,083749,076429,092513,079811,075152,093849
0000000194,0000193000,086604,075354,090732,083062,074078,091673
0000000195,0000194000,089200,075158,088332,085960,074024,088829
0000000196,0000195000,091275,075863,085552,088218,074995,085599
0000000197,0000196000,092624,077395,082672,089615,076897,082301
0000000198,0000197000,093120,079611,079960,090015,079546,079252
0000000199,0000198000,092712,082296,077683,089380,082681,076752
0000000200,0000199000,091444,085174,076073,087773,085992,075048
0000000201,0000200000,089436,087970,075284,085347,089158,074307
0000000202,0000201000,086878,090423,075390,082342,091873,074598
0000000203,0000202000,084033,092278,076380,079054,093864,075894
0000000204,0000203000,081180,093351,078160,075805,094939,078069
0000000205,0000204000,078583,093547,080561,072908,094994,080911
0000000206,0000205000,076503,092847,083341,070650,094024,084139
0000000207,0000206000,075155,091314,086222,069253,092124,087436
0000000208,0000207000,074659,089096,088935,068852,089476,090484
0000000209,0000208000,075063,086414,091214,069486,086343,092984
0000000210,0000209000,076331,083535,092824,071092,083033,094688
0000000211,0000210000,078341,080735,093615,073515,079868,095430
0000000212,0000211000,080897,078284,093511,076519,077155,095139
0000000213,0000212000,083741,076428,092521,079805,075163,093845
0000000214,0000213000,086598,075351,090742,083053,074087,091672
0000000215,0000214000,089195,075154,088341,085949,074032,088832
0000000216,0000215000,091274,075855,085561,088208,075000,085605
0000000217,0000216000,092627,077385,082679,089605,076899,082309
0000000218,0000217000,093124,079602,079965,090006,079545,079262
0000000219,0000218000,092719,082287,077685,089374,082676,076763
0000000220,0000219000,091454,085165,076072,087769,085984,075059
0000000221,0000220000,089445,087964,075280,085348,089149,074316
0000000222,0000221000,086887,090420,075383,082346,091861,074606
0000000223,0000222000,084042,092277,076371,079062,093853,075898
0000000224,0000223000,081187,093354,078150,075815,094929,078069
0000000225,0000224000,078586,093554,080550,072919,094986,080908
0000000226,0000225000,076505,092855,083331,070661,094018,084133
0000000227,0000226000,075153,091324,086214,069264,092122,087427
0000000228,0000227000,074653,089108,088929,068861,089478,090473
0000000229,0000228000,075055,086424,091211,069493,086348,092972
0000000230,0000229000,076322,083543,092826,071095,083042,094676
0000000231,0000230000,078330,080742,093619,073514,079879,095419
0000000232,0000231000,080886,078287,093518,076515,077167,095131
0000000233,0000232000,083733,076428,092530,079797,075175,093840
0000000234,0000233000,086590,075348,090753,083042,074099,091671
0000000235,0000234000,089190,075148,088352,085937,074041,088835
0000000236,0000235000,091274,075846,085571,088195,075006,085612
0000000237,0000236000,092629,077374,082687,089592,076901,082319
0000000238,0000237000,093129,079591,079971,089996,079543,079274
0000000239,0000238000,092728,082276,077687,089366,082671,076776
0000000240,0000239000,091465,085155,076071,087766,085975,075072
0000000241,0000240000,089457,087958,075276,085348,089137,074328
0000000242,0000241000,086899,090416,075375,082350,091848,074614
0000000243,0000242000,084053,092276,076361,079070,093839,075903
0000000244,0000243000,081195,093357,078138,075826,094917,078070
0000000245,0000244000,078591,093561,080538,072932,094976,080905
0000000246,0000245000,076507,092864,083320,070675,094012,084126
0000000247,0000246000,075150,091335,086205,069277,092119,087416
0000000248,0000247000,074647,089120,088923,068872,089480,090460
0000000249,0000248000,075046,086436,091208,069500,086354,092958
0000000250,0000249000,076310,083553,092827,071099,083052,094662
0000000251,0000250000,078317,080750,093624,073514,079892,095407
0000000252,0000251000,080873,078291,093526,076510,077181,095122
0000000253,0000252000,083722,076427,092541,079788,075190,093835
0000000254,0000253000,086581,075344,090765,083030,074112,091671
0000000255,0000254000,089185,075140,088365,085923,074051,088839
0000000256,0000255000,091273,075835,085583,088180,075013,085620
0000000257,0000256000,092632,077361,082698,089578,076904,082331
0000000258,0000257000,093136,079578,079978,089984,079540,079289
0000000259,0000258000,092738,082263,077690,089358,082664,076791
0000000260,0000259000,091477,085144,076069,087761,085964,075087
0000000261,0000260000,089470,087950,075270,085349,089123,074341
0000000262,0000261000,086913,090412,075366,082356,091832,074624
0000000263,0000262000,084065,092276,076349,079080,093824,075909
0000000264,0000263000,081204,093362,078125,075839,094902,078071
0000000265,0000264000,078597,093569,080524,072948,094964,080900
0000000266,0000265000,076509,092875,083307,070691,094005,084117
0000000267,0000266000,075147,091349,086194,069292,092117,087404
0000000268,0000267000,074640,089135,088915,068885,089483,090445
0000000269,0000268000,075036,086449,091205,069510,086362,092941
0000000270,0000269000,076297,083565,092828,071103,083064,094646
0000000271,0000270000,078301,080759,093630,073513,079907,095393
0000000272,0000271000,080859,078296,093536,076504,077198,095111
0000000273,0000272000,083709,076427,092554,079777,075207,093829
0000000274,0000273000,086570,075340,090780,083016,074127,091669
0000000275,0000274000,089178,075131,088380,085906,074064,088843
0000000276,0000275000,091271,075822,085597,088162,075021,085629
0000000277,0000276000,092634,077347,082709,089562,076907,082344
0000000278,0000277000,093143,079562,079986,089970,079538,079305
0000000279,0000278000,092750,082247,077693,089348,082656,076809
0000000280,0000279000,091491,085131,076068,087757,085952,075104
0000000281,0000280000,089486,087941,075264,085350,089107,074356
0000000282,0000281000,086929,090406,075355,082362,091814,074636
0000000283,0000282000,084079,092276,076335,079091,093806,075916
0000000284,0000283000,081215,093367,078109,075855,094886,078072
0000000285,0000284000,078604,093579,080508,072966,094951,080896
0000000286,0000285000,076511,092888,083292,070710,093996,084107
0000000287,0000286000,075144,091365,086181,069310,092114,087389
0000000288,0000287000,074632,089152,088907,068900,089485,090427
0000000289,0000288000,075024,086465,091201,069520,086370,092923
0000000290,0000289000,076281,083580,092830,071108,083077,094627
0000000291,0000290000,078285,080770,093636,073512,079924,095377
0000000292,0000291000,080842,078301,093547,076497,077217,095099
0000000293,0000292000,083693,076428,092569,079765,075226,093822
0000000294,0000293000,086558,075335,090797,082999,074145,091668
0000000295,0000294000,089171,075121,088398,085887,074077,088848
0000000296,0000295000,091269,075808,085614,088143,075030,085640
0000000297,0000296000,092638,077330,082723,089543,076910,082360
0000000298,0000297000,093152,079544,079995,089955,079535,079324
0000000299,0000298000,092763,082230,077698,089337,082647,076829
0000000300,0000299000,091507,085117,076066,087751,085937,075124
0000000301,0000300000,089504,087930,075257,085351,089089,074373
