DIgSILENT PowerFactory,21000900,2000
6,06A,00D
1,TTPP_200000_100:Secondary Voltage A,,,V,0.10000000,-8230.348633,0.000000,63785,99998,1,1,P
2,TTPP_200000_100:Secondary Voltage B,,,V,0.10000000,-8319.268555,0.000000,64972,99998,1,1,P
3,TTPP_200000_100:Secondary Voltage C,,,V,0.10000000,-8126.416504,0.000000,59748,99998,1,1,P
4,TTCC_500_5:Secondary Current A,,,A,0.0010000000,-79.522942,0.000000,66011,99998,1,1,P
5,TTCC_500_5:Secondary Current B,,,A,0.0010000000,-84.184258,0.000000,67783,99998,1,1,P
6,TTCC_500_5:Secondary Current C,,,A,0.0010000000,-84.961662,0.000000,70174,99998,1,1,P
50
1
1000.000000,1101
30/06/2023,06:11:52.000000
30/06/2023,06:11:52.000000
ASCII
1.000000
0000000001,0000000000,087815,086833,072112,085439,088864,074367
0000000002,0000001000,085267,089267,072226,082423,091580,074665
0000000003,0000002000,082415,091122,073224,079124,093574,075971
0000000004,0000003000,079570,092183,075007,075868,094645,078156
0000000005,0000004000,076987,092366,077408,072965,094693,081010
0000000006,0000005000,074913,091660,080187,070703,093716,084250
0000000007,0000006000,073569,090128,083062,069311,091801,087557
0000000008,0000007000,073093,087900,085768,068914,089143,090612
0000000009,0000008000,073505,085218,088037,069556,085998,093115
0000000010,0000009000,074769,082355,089637,071174,082677,094818
0000000011,0000010000,076792,079553,090416,073611,079503,095555
0000000012,0000011000,079351,077107,090302,076626,076786,095257
0000000013,0000012000,082181,075274,089305,079923,074794,093951
0000000014,0000013000,085034,074205,087521,083184,073719,091766
0000000015,0000014000,087632,074009,085120,086084,073673,088912
0000000016,0000015000,089691,074727,082342,088344,074653,085672
0000000017,0000016000,091026,076269,079466,089741,076563,082365
0000000018,0000017000,091526,078475,076761,090136,079223,079311
0000000019,0000018000,091106,081163,074491,089491,082370,076807
0000000020,0000019000,089824,084045,072891,087875,085690,075104
0000000021,0000020000,087821,086827,072112,085441,088861,074367
0000000022,0000021000,085266,089268,072226,082421,091582,074665
0000000023,0000022000,082415,091123,073223,079124,093574,075971
0000000024,0000023000,079570,092184,075007,075868,094645,078157
0000000025,0000024000,076989,092363,077409,072964,094694,081011
0000000026,0000025000,074911,091663,080186,070703,093716,084250
0000000027,0000026000,073571,090127,083062,069309,091803,087557
0000000028,0000027000,073093,087899,085768,068914,089143,090612
0000000029,0000028000,073502,085221,088037,069555,085999,093115
0000000030,0000029000,074772,082352,089637,071174,082677,094818
0000000031,0000030000,076792,079552,090416,073610,079504,095556
0000000032,0000031000,079348,077110,090303,076625,076787,095257
0000000033,0000032000,082183,075272,089305,079924,074794,093951
0000000034,0000033000,085037,074202,087521,083182,073721,091766
0000000035,0000034000,087628,074012,085120,086083,073673,088912
0000000036,0000035000,089689,074729,082342,088344,074653,085672
0000000037,0000036000,091032,076263,079466,089740,076563,082366
0000000038,0000037000,091522,078478,076761,090134,079224,079311
0000000039,0000038000,091102,081166,074492,089491,082370,076808
0000000040,0000039000,089829,084041,072891,087875,085689,075105
0000000041,0000040000,087823,086826,072112,085439,088863,074367
0000000042,0000041000,085261,089274,072226,082422,091581,074666
0000000043,0000042000,082417,091121,073222,079125,093573,075971
0000000044,0000043000,079575,092179,075006,075867,094645,078157
0000000045,0000044000,076984,092369,077409,072964,094695,081011
0000000046,0000045000,074909,091665,080186,070704,093715,084250
0000000047,0000046000,073576,090122,083062,069310,091803,087556
0000000048,0000047000,073092,087901,085768,068913,089144,090611
0000000049,0000048000,073498,085225,088037,069556,085999,093114
0000000050,0000049000,074775,082348,089637,071174,082678,094817
0000000051,0000050000,076793,079551,090417,073609,079505,095555
0000000052,0000051000,079343,077115,090303,076625,076788,095257
0000000053,0000052000,082184,075271,089306,079924,074794,093951
0000000054,0000053000,085039,074199,087522,083181,073722,091766
0000000055,0000054000,087625,074015,085121,086082,073674,088912
0000000056,0000055000,089689,074729,082342,088343,074653,085673
0000000057,0000056000,091035,076259,079466,089739,076564,082367
0000000058,0000057000,091521,078478,076761,090133,079224,079312
0000000059,0000058000,091101,081168,074492,089491,082369,076809
0000000060,0000059000,089832,084037,072891,087875,085688,075106
0000000061,0000060000,087823,086826,072112,085438,088863,074368
0000000062,0000061000,085260,089276,072225,082422,091581,074666
0000000063,0000062000,082419,091119,073222,079125,093572,075971
0000000064,0000063000,079576,092179,075006,075867,094645,078157
0000000065,0000064000,076982,092371,077408,072964,094694,081010
0000000066,0000065000,074911,091664,080185,070705,093714,084250
0000000067,0000066000,073577,090121,083062,069310,091803,087556
0000000068,0000067000,073088,087904,085767,068913,089145,090611
0000000069,0000068000,073498,085226,088036,069556,085999,093113
0000000070,0000069000,074777,082347,089637,071174,082679,094817
0000000071,0000070000,076789,079554,090417,073608,079507,095554
0000000072,0000071000,079341,077116,090304,076624,076788,095256
0000000073,0000072000,082186,075268,089306,079922,074795,093951
0000000074,0000073000,085037,074200,087523,083179,073724,091766
0000000075,0000074000,087622,074017,085122,086081,073675,088913
0000000076,0000075000,089692,074725,082343,088342,074653,085674
0000000077,0000076000,091036,076257,079467,089737,076565,082368
0000000078,0000077000,091518,078480,076762,090132,079224,079313
0000000079,0000078000,091104,081165,074492,089491,082368,076810
0000000080,0000079000,089835,084034,072891,087874,085688,075107
0000000081,0000080000,087821,086828,072111,085438,088862,074369
0000000082,0000081000,085260,089276,072224,082423,091579,074667
0000000083,0000082000,082423,091116,073221,079126,093571,075972
0000000084,0000083000,079575,092181,075005,075868,094644,078157
0000000085,0000084000,076980,092374,077406,072966,094693,081010
0000000086,0000085000,074914,091662,080184,070707,093714,084249
0000000087,0000086000,073577,090123,083061,069311,091803,087555
0000000088,0000087000,073085,087908,085767,068915,089145,090609
0000000089,0000088000,073499,085225,088036,069557,085999,093112
0000000090,0000089000,074777,082346,089637,071173,082681,094815
0000000091,0000090000,076785,079557,090418,073608,079508,095553
0000000092,0000091000,079340,077116,090305,076624,076790,095255
0000000093,0000092000,082187,075266,089308,079921,074797,093951
0000000094,0000093000,085034,074201,087525,083177,073726,091766
0000000095,0000094000,087620,074017,085123,086079,073676,088913
0000000096,0000095000,089694,074722,082345,088340,074654,085675
0000000097,0000096000,091035,076257,079469,089734,076565,082369
0000000098,0000097000,091518,078480,076762,090130,079224,079315
0000000099,0000098000,091107,081161,074492,089489,082367,076812
0000000100,0000099000,089837,084032,072891,087873,085687,075109
0000000101,0000100000,087821,086829,072111,085438,088860,074371
0000000102,0000101000,085264,089274,072223,082423,091576,074669
0000000103,0000102000,082426,091115,073219,079127,093569,075973
0000000104,0000103000,079574,092183,075003,075870,094642,078157
0000000105,0000104000,076982,092375,077404,072969,094691,081009
0000000106,0000105000,074916,091662,080182,070709,093713,084248
0000000107,0000106000,073575,090126,083059,069313,091803,087553
0000000108,0000107000,073084,087911,085765,068917,089145,090607
0000000109,0000108000,073499,085225,088035,069559,086001,093109
0000000110,0000109000,074774,082349,089638,071174,082683,094812
0000000111,0000110000,076782,079560,090418,073608,079511,095551
0000000112,0000111000,079340,077115,090306,076623,076793,095253
0000000113,0000112000,082184,075266,089310,079919,074801,093950
0000000114,0000113000,085031,074202,087527,083174,073728,091766
0000000115,0000114000,087621,074014,085125,086077,073678,088914
0000000116,0000115000,089694,074719,082347,088336,074656,085676
0000000117,0000116000,091034,076256,079471,089731,076566,082372
0000000118,0000117000,091520,078477,076764,090128,079223,079318
0000000119,0000118000,091111,081157,074493,089487,082366,076816
0000000120,0000119000,089838,084031,072891,087872,085685,075113
0000000121,0000120000,087823,086828,072109,085438,088856,074374
0000000122,0000121000,085269,089271,072221,082425,091573,074671
0000000123,0000122000,082428,091115,073217,079129,093566,075974
0000000124,0000123000,079575,092186,075000,075873,094639,078157
0000000125,0000124000,076985,092375,077401,072972,094688,081009
0000000126,0000125000,074917,091664,080179,070712,093711,084246
0000000127,0000126000,073572,090131,083057,069316,091803,087550
0000000128,0000127000,073083,087914,085763,068920,089145,090603
0000000129,0000128000,073498,085227,088035,069561,086003,093105
0000000130,0000129000,074769,082354,089638,071175,082686,094809
0000000131,0000130000,076778,079563,090420,073608,079514,095547
0000000132,0000131000,079338,077114,090308,076622,076797,095251
0000000133,0000132000,082180,075267,089313,079916,074805,093948
0000000134,0000133000,085028,074202,087530,083171,073732,091766
0000000135,0000134000,087621,074010,085129,086073,073681,088915
0000000136,0000135000,089694,074716,082351,088332,074658,085679
0000000137,0000136000,091033,076254,079473,089727,076567,082375
0000000138,0000137000,091523,078472,076766,090125,079222,079322
0000000139,0000138000,091114,081153,074494,089484,082364,076820
0000000140,0000139000,089840,084030,072891,087870,085682,075117
0000000141,0000140000,087827,086825,072108,085439,088852,074378
0000000142,0000141000,085273,089268,072218,082426,091569,074674
0000000143,0000142000,082430,091117,073214,079131,093561,075976
0000000144,0000143000,079578,092187,074996,075877,094634,078158
0000000145,0000144000,076988,092376,077397,072977,094685,081008
0000000146,0000145000,074916,091668,080176,070717,093709,084243
0000000147,0000146000,073571,090136,083053,069321,091801,087546
0000000148,0000147000,073082,087917,085761,068924,089146,090599
0000000149,0000148000,073495,085232,088034,069563,086005,093100
0000000150,0000149000,074764,082358,089638,071176,082689,094803
0000000151,0000150000,076775,079564,090421,073608,079518,095543
0000000152,0000151000,079334,077115,090311,076620,076802,095247
0000000153,0000152000,082175,075268,089317,079913,074810,093946
0000000154,0000153000,085025,074200,087535,083167,073737,091765
0000000155,0000154000,087620,074007,085134,086067,073685,088916
0000000156,0000155000,089692,074713,082355,088326,074661,085682
0000000157,0000156000,091034,076250,079477,089722,076568,082379
0000000158,0000157000,091526,078466,076768,090120,079222,079328
0000000159,0000158000,091117,081149,074495,089481,082362,076826
0000000160,0000159000,089844,084027,072890,087869,085677,075123
0000000161,0000160000,087834,086821,072106,085439,088847,074383
0000000162,0000161000,085279,089266,072215,082428,091563,074678
0000000163,0000162000,082434,091118,073209,079135,093555,075979
0000000164,0000163000,079582,092188,074990,075882,094628,078158
0000000165,0000164000,076991,092378,077392,072983,094680,081006
0000000166,0000165000,074916,091674,080171,070723,093706,084240
0000000167,0000166000,073570,090141,083049,069327,091800,087541
0000000168,0000167000,073081,087921,085758,068929,089147,090592
0000000169,0000168000,073490,085238,088033,069567,086008,093094
0000000170,0000169000,074758,082364,089639,071178,082694,094797
0000000171,0000170000,076770,079567,090424,073608,079524,095537
0000000172,0000171000,079328,077117,090315,076617,076809,095243
0000000173,0000172000,082169,075269,089322,079908,074817,093943
0000000174,0000173000,085022,074198,087541,083161,073743,091765
0000000175,0000174000,087617,074003,085140,086060,073691,088918
0000000176,0000175000,089690,074709,082361,088319,074665,085685
0000000177,0000176000,091036,076243,079482,089715,076569,082385
0000000178,0000177000,091530,078459,076772,090114,079221,079334
0000000179,0000178000,091120,081143,074497,089477,082359,076833
0000000180,0000179000,089850,084021,072889,087867,085672,075130
0000000181,0000180000,087841,086816,072103,085439,088840,074390
0000000182,0000181000,085284,089265,072211,082430,091555,074683
0000000183,0000182000,082439,091118,073203,079140,093547,075982
0000000184,0000183000,079588,092189,074984,075889,094621,078159
0000000185,0000184000,076993,092382,077385,072990,094675,081004
0000000186,0000185000,074916,091680,080164,070731,093702,084236
0000000187,0000186000,073569,090147,083044,069335,091799,087535
0000000188,0000187000,073077,087928,085755,068936,089148,090585
0000000189,0000188000,073483,085246,088031,069572,086012,093085
0000000190,0000189000,074752,082369,089639,071181,082699,094789
0000000191,0000190000,076764,079570,090427,073607,079532,095530
0000000192,0000191000,079320,077121,090320,076614,076818,095237
0000000193,0000192000,082163,075269,089329,079903,074826,093940
0000000194,0000193000,085017,074195,087548,083154,073751,091764
0000000195,0000194000,087613,073999,085148,086051,073697,088920
0000000196,0000195000,089689,074703,082368,088310,074669,085690
0000000197,0000196000,091038,076235,079487,089707,076570,082392
0000000198,0000197000,091534,078451,076776,090106,079220,079343
0000000199,0000198000,091126,081137,074498,089471,082355,076843
0000000200,0000199000,089858,084014,072888,087864,085665,075139
0000000201,0000200000,087849,086811,072100,085439,088832,074398
0000000202,0000201000,085291,089263,072205,082433,091546,074689
0000000203,0000202000,082447,091118,073196,079146,093538,075985
0000000204,0000203000,079594,092191,074976,075897,094613,078160
0000000205,0000204000,076996,092388,077376,072999,094668,081002
0000000206,0000205000,074917,091687,080156,070741,093697,084230
0000000207,0000206000,073568,090155,083037,069345,091797,087527
0000000208,0000207000,073073,087937,085751,068943,089150,090576
0000000209,0000208000,073477,085254,088029,069577,086016,093075
0000000210,0000209000,074745,082376,089640,071184,082706,094779
0000000211,0000210000,076755,079576,090430,073607,079541,095521
0000000212,0000211000,079310,077124,090326,076610,076828,095230
0000000213,0000212000,082155,075269,089336,079897,074836,093936
0000000214,0000213000,085011,074191,087557,083145,073761,091763
0000000215,0000214000,087609,073994,085157,086041,073705,088923
0000000216,0000215000,089688,074696,082376,088299,074674,085696
0000000217,0000216000,091041,076225,079495,089696,076572,082400
0000000218,0000217000,091538,078442,076781,090098,079218,079353
0000000219,0000218000,091133,081128,074500,089465,082350,076854
0000000220,0000219000,089867,084006,072887,087861,085658,075150
0000000221,0000220000,087859,086805,072096,085439,088822,074407
0000000222,0000221000,085301,089261,072199,082437,091535,074697
0000000223,0000222000,082456,091117,073187,079153,093526,075989
0000000224,0000223000,079601,092194,074966,075906,094602,078160
0000000225,0000224000,077000,092395,077366,073011,094659,080999
0000000226,0000225000,074918,091695,080147,070753,093692,084224
0000000227,0000226000,073567,090164,083030,069356,091795,087518
0000000228,0000227000,073067,087948,085745,068953,089151,090564
0000000229,0000228000,073469,085265,088027,069584,086021,093063
0000000230,0000229000,074735,082384,089641,071187,082715,094767
0000000231,0000230000,076743,079583,090435,073606,079552,095511
0000000232,0000231000,079299,077128,090333,076606,076840,095222
0000000233,0000232000,082146,075268,089346,079889,074848,093931
0000000234,0000233000,085004,074188,087568,083134,073772,091762
0000000235,0000234000,087604,073988,085168,086029,073714,088926
0000000236,0000235000,089687,074686,082387,088286,074680,085703
0000000237,0000236000,091043,076214,079503,089684,076575,082410
0000000238,0000237000,091543,078431,076786,090087,079216,079365
0000000239,0000238000,091141,081116,074503,089458,082344,076867
0000000240,0000239000,089878,083996,072886,087857,085648,075163
0000000241,0000240000,087870,086798,072091,085440,088810,074419
0000000242,0000241000,085312,089257,072191,082442,091521,074705
0000000243,0000242000,082467,091117,073177,079162,093513,075995
0000000244,0000243000,079608,092198,074954,075918,094590,078161
0000000245,0000244000,077005,092402,077354,073024,094649,080996
0000000246,0000245000,074920,091705,080136,070767,093685,084217
0000000247,0000246000,073564,090176,083020,069369,091793,087507
0000000248,0000247000,073060,087961,085739,068964,089153,090551
0000000249,0000248000,073460,085276,088024,069592,086028,093049
0000000250,0000249000,074724,082394,089643,071191,082725,094753
0000000251,0000250000,076730,079591,090440,073606,079565,095498
0000000252,0000251000,079287,077132,090342,076601,076855,095213
0000000253,0000252000,082135,075268,089357,079880,074863,093926
0000000254,0000253000,084994,074185,087581,083122,073786,091762
0000000255,0000254000,087598,073981,085181,086014,073725,088930
0000000256,0000255000,089686,074675,082399,088271,074687,085711
0000000257,0000256000,091045,076202,079513,089670,076577,082422
0000000258,0000257000,091549,078418,076793,090076,079214,079379
0000000259,0000258000,091152,081103,074506,089450,082337,076882
0000000260,0000259000,089891,083985,072885,087853,085638,075178
0000000261,0000260000,087883,086791,072086,085441,088796,074432
0000000262,0000261000,085326,089252,072182,082448,091506,074715
0000000263,0000262000,082479,091116,073165,079171,093497,076000
0000000264,0000263000,079618,092203,074940,075931,094576,078162
0000000265,0000264000,077011,092410,077340,073040,094638,080992
0000000266,0000265000,074922,091716,080123,070783,093678,084208
0000000267,0000266000,073561,090190,083010,069384,091790,087495
0000000268,0000267000,073053,087976,085731,068977,089156,090536
0000000269,0000268000,073450,085290,088021,069601,086035,093032
0000000270,0000269000,074710,082406,089644,071195,082737,094737
0000000271,0000270000,076715,079600,090445,073605,079580,095484
0000000272,0000271000,079273,077136,090352,076595,076871,095202
0000000273,0000272000,082122,075268,089370,079869,074880,093920
0000000274,0000273000,084984,074181,087596,083107,073801,091760
0000000275,0000274000,087592,073972,085196,085998,073737,088934
0000000276,0000275000,089685,074663,082413,088254,074695,085720
0000000277,0000276000,091048,076188,079525,089653,076580,082435
0000000278,0000277000,091557,078403,076801,090062,079211,079396
0000000279,0000278000,091164,081088,074509,089440,082329,076900
0000000280,0000279000,089905,083972,072884,087848,085625,075195
0000000281,0000280000,087899,086781,072080,085441,088780,074447
0000000282,0000281000,085342,089246,072171,082454,091488,074727
0000000283,0000282000,082493,091116,073151,079183,093479,076007
0000000284,0000283000,079628,092208,074924,075946,094559,078163
0000000285,0000284000,077018,092419,077324,073057,094625,080987
0000000286,0000285000,074924,091729,080108,070801,093669,084198
0000000287,0000286000,073557,090206,082997,069401,091787,087480
0000000288,0000287000,073045,087992,085723,068992,089159,090518
0000000289,0000288000,073438,085305,088017,069612,086044,093014
0000000290,0000289000,074695,082420,089646,071200,082750,094719
0000000291,0000290000,076698,079610,090452,073604,079597,095468
0000000292,0000291000,079256,077142,090363,076588,076890,095190
0000000293,0000292000,082107,075268,089385,079857,074899,093913
0000000294,0000293000,084972,074176,087613,083091,073818,091759
0000000295,0000294000,087585,073961,085214,085979,073751,088939
0000000296,0000295000,089682,074649,082429,088234,074704,085731
0000000297,0000296000,091051,076171,079538,089635,076583,082451
0000000298,0000297000,091566,078384,076811,090046,079208,079415
0000000299,0000298000,091177,081070,074513,089429,082320,076920
0000000300,0000299000,089921,083957,072882,087843,085611,075215
0000000301,0000300000,087918,086770,072073,085443,088762,074464
