DIgSILENT PowerFactory,21000900,2000
6,06A,00D
1,TTPP_200000_100:Secondary Voltage A,,,V,0.10000000,-8521.544922,0.000000,72249,99998,1,1,P
2,TTPP_200000_100:Secondary Voltage B,,,V,0.10000000,-8614.586914,0.000000,73500,99998,1,1,P
3,TTPP_200000_100:Secondary Voltage C,,,V,0.10000000,-8452.748047,0.000000,66973,99998,1,1,P
4,TTCC_300_1:Secondary Current A,,,A,0.00010000000,-5.353572,0.000000,-14038,99998,1,1,P
5,TTCC_300_1:Secondary Current B,,,A,0.00010000000,-4.860935,0.000000,-3005,99998,1,1,P
6,TTCC_300_1:Secondary Current C,,,A,0.00010000000,-4.984457,0.000000,-430,99998,1,1,P
50
1
1000.000000,1101
30/06/2023,06:09:21.000000
30/06/2023,06:09:21.000000
ASCII
1.000000
0000000001,0000000000,092322,087621,075946,032606,034620,084764
0000000002,0000001000,090188,090338,075361,042358,025342,084290
0000000003,0000002000,087546,092670,075673,053198,018344,080448
0000000004,0000003000,084691,094347,076850,064077,014301,073613
0000000005,0000004000,081897,095209,078783,073920,013625,064443
0000000006,0000005000,079409,095201,081280,081768,016378,053844
0000000007,0000006000,077488,094315,084086,086854,022272,042863
0000000008,0000007000,076344,092606,086939,088677,030748,032565
0000000009,0000008000,076059,090268,089561,087053,040989,023949
0000000010,0000009000,076656,087546,091687,082155,051963,017871
0000000011,0000010000,078104,084676,093109,074462,062598,014931
0000000012,0000011000,080257,081937,093694,064703,071883,015403
0000000013,0000012000,082879,079629,093382,053854,078890,019246
0000000014,0000013000,085730,077954,092205,042988,082920,026082
0000000015,0000014000,088545,077072,090273,033145,083595,035250
0000000016,0000015000,091024,077089,087776,025286,080855,045849
0000000017,0000016000,092931,077989,084968,020207,074952,056831
0000000018,0000017000,094093,079679,082117,018389,066472,067128
0000000019,0000018000,094378,082016,079494,020004,056240,075745
0000000020,0000019000,093766,084756,077368,024903,045265,081822
0000000021,0000020000,092328,087615,075946,032605,034621,084764
0000000022,0000021000,090182,090345,075362,042356,025344,084290
0000000023,0000022000,087545,092671,075673,053205,018337,080447
0000000024,0000023000,084698,094341,076849,064077,014301,073612
0000000025,0000024000,081895,095211,078783,073917,013628,064444
0000000026,0000025000,079402,095207,081280,081772,016374,053844
0000000027,0000026000,077494,094309,084086,086859,022268,042862
0000000028,0000027000,076346,092604,086938,088674,030751,032565
0000000029,0000028000,076052,090276,089561,087054,040988,023949
0000000030,0000029000,076657,087545,091687,082162,051957,017871
0000000031,0000030000,078110,084669,093109,074462,062598,014930
0000000032,0000031000,080253,081943,093694,064702,071884,015403
0000000033,0000032000,082876,079631,093382,053859,078886,019245
0000000034,0000033000,085736,077948,092205,042992,082917,026081
0000000035,0000034000,088544,077072,090273,033143,083598,035249
0000000036,0000035000,091019,077093,087776,025290,080852,045848
0000000037,0000036000,092935,077986,084969,020211,074949,056829
0000000038,0000037000,094095,079677,082117,018389,066473,067127
0000000039,0000038000,094374,082020,079494,020005,056241,075743
0000000040,0000039000,093767,084755,077368,024907,045262,081821
0000000041,0000040000,092330,087613,075946,032605,034623,084762
0000000042,0000041000,090179,090348,075361,042356,025345,084289
0000000043,0000042000,087545,092671,075673,053207,018337,080447
0000000044,0000043000,084701,094338,076850,064077,014301,073611
0000000045,0000044000,081893,095213,078782,073916,013630,064443
0000000046,0000045000,079402,095208,081279,081772,016373,053844
0000000047,0000046000,077496,094307,084086,086859,022267,042863
0000000048,0000047000,076345,092605,086939,088674,030750,032566
0000000049,0000048000,076050,090277,089561,087056,040985,023949
0000000050,0000049000,076659,087543,091687,082163,051955,017872
0000000051,0000050000,078109,084670,093109,074462,062597,014930
0000000052,0000051000,080250,081945,093694,064705,071881,015403
0000000053,0000052000,082879,079629,093382,053862,078882,019245
0000000054,0000053000,085736,077947,092206,042993,082916,026080
0000000055,0000054000,088540,077075,090273,033147,083596,035247
0000000056,0000055000,091021,077092,087776,025295,080849,045846
0000000057,0000056000,092937,077983,084969,020213,074950,056827
0000000058,0000057000,094092,079680,082117,018391,066474,067124
0000000059,0000058000,094374,082021,079494,020010,056240,075740
0000000060,0000059000,093771,084750,077368,024908,045264,081818
0000000061,0000060000,092329,087614,075946,032604,034627,084760
0000000062,0000061000,090177,090351,075361,042358,025346,084286
0000000063,0000062000,087549,092667,075672,053207,018338,080446
0000000064,0000063000,084702,094338,076849,064073,014305,073611
0000000065,0000064000,081890,095218,078782,073915,013631,064444
0000000066,0000065000,079404,095207,081278,081772,016371,053846
0000000067,0000066000,077499,094304,084086,086855,022269,042866
0000000068,0000067000,076341,092609,086938,088671,030750,032569
0000000069,0000068000,076049,090278,089561,087057,040981,023953
0000000070,0000069000,076662,087540,091687,082162,051952,017875
0000000071,0000070000,078107,084672,093110,074461,062595,014933
0000000072,0000071000,080247,081948,093694,064709,071875,015405
0000000073,0000072000,082881,079625,093383,053866,078877,019246
0000000074,0000073000,085736,077947,092206,042995,082914,026080
0000000075,0000074000,088537,077078,090274,033152,083592,035246
0000000076,0000075000,091023,077089,087777,025301,080845,045844
0000000077,0000076000,092939,077980,084970,020216,074950,056823
0000000078,0000077000,094090,079682,082117,018395,066475,067119
0000000079,0000078000,094376,082019,079494,020014,056240,075735
0000000080,0000079000,093774,084747,077368,024909,045267,081813
0000000081,0000080000,092328,087616,075945,032603,034631,084755
0000000082,0000081000,090177,090351,075360,042358,025349,084283
0000000083,0000082000,087552,092665,075672,053204,018342,080443
0000000084,0000083000,084701,094339,076848,064068,014311,073610
0000000085,0000084000,081889,095219,078781,073911,013633,064445
0000000086,0000085000,079406,095205,081277,081767,016373,053849
0000000087,0000086000,077498,094306,084085,086849,022271,042870
0000000088,0000087000,076339,092612,086938,088668,030749,032574
0000000089,0000088000,076050,090278,089560,087055,040977,023958
0000000090,0000089000,076662,087540,091687,082160,051949,017881
0000000091,0000090000,078103,084675,093110,074462,062589,014938
0000000092,0000091000,080247,081947,093695,064713,071867,015409
0000000093,0000092000,082882,079624,093384,053870,078871,019248
0000000094,0000093000,085733,077948,092208,043001,082908,026080
0000000095,0000094000,088536,077077,090275,033161,083585,035244
0000000096,0000095000,091025,077086,087778,025308,080842,045840
0000000097,0000096000,092938,077980,084971,020222,074950,056817
0000000098,0000097000,094089,079682,082118,018403,066474,067112
0000000099,0000098000,094379,082016,079494,020019,056242,075727
0000000100,0000099000,093775,084746,077368,024910,045274,081805
0000000101,0000100000,092327,087617,075945,032604,034638,084748
0000000102,0000101000,090181,090349,075359,042357,025356,084278
0000000103,0000102000,087554,092664,075670,053198,018352,080440
0000000104,0000103000,084700,094342,076847,064062,014318,073609
0000000105,0000104000,081890,095220,078779,073904,013638,064447
0000000106,0000105000,079408,095205,081276,081758,016378,053853
0000000107,0000106000,077496,094309,084084,086840,022273,042876
0000000108,0000107000,076337,092615,086937,088662,030746,032582
0000000109,0000108000,076051,090277,089560,087050,040973,023968
0000000110,0000109000,076660,087542,091687,082156,051943,017890
0000000111,0000110000,078100,084678,093111,074463,062580,014946
0000000112,0000111000,080247,081946,093696,064717,071856,015416
0000000113,0000112000,082880,079623,093385,053875,078862,019252
0000000114,0000113000,085729,077950,092209,043010,082899,026081
0000000115,0000114000,088537,077075,090277,033172,083576,035242
0000000116,0000115000,091026,077083,087780,025319,080837,045834
0000000117,0000116000,092936,077980,084972,020233,074948,056809
0000000118,0000117000,094090,079680,082119,018413,066474,067102
0000000119,0000118000,094382,082012,079495,020026,056247,075716
0000000120,0000119000,093776,084746,077368,024913,045282,081794
0000000121,0000120000,092328,087617,075944,032605,034647,084738
0000000122,0000121000,090184,090346,075358,042353,025367,084270
0000000123,0000122000,087556,092664,075669,053190,018364,080435
0000000124,0000123000,084700,094344,076845,064052,014329,073608
0000000125,0000124000,081892,095220,078777,073893,013646,064450
0000000126,0000125000,079409,095206,081274,081745,016385,053859
0000000127,0000126000,077494,094313,084082,086829,022275,042886
0000000128,0000127000,076337,092617,086935,088653,030743,032594
0000000129,0000128000,076051,090278,089560,087042,040967,023981
0000000130,0000129000,076656,087545,091688,082153,051934,017903
0000000131,0000130000,078098,084680,093112,074465,062567,014958
0000000132,0000131000,080246,081945,093698,064722,071843,015425
0000000133,0000132000,082877,079624,093388,053883,078849,019258
0000000134,0000133000,085727,077950,092212,043023,082885,026082
0000000135,0000134000,088537,077072,090279,033186,083565,035238
0000000136,0000135000,091025,077081,087782,025333,080831,045826
0000000137,0000136000,092936,077979,084974,020248,074945,056798
0000000138,0000137000,094093,079676,082120,018426,066476,067088
0000000139,0000138000,094385,082009,079496,020034,056254,075701
0000000140,0000139000,093777,084745,077367,024918,045293,081778
0000000141,0000140000,092332,087614,075942,032606,034660,084724
0000000142,0000141000,090188,090344,075356,042347,025383,084259
0000000143,0000142000,087557,092666,075666,053180,018381,080429
0000000144,0000143000,084702,094346,076841,064040,014343,073607
0000000145,0000144000,081895,095220,078774,073877,013659,064453
0000000146,0000145000,079408,095209,081271,081728,016394,053868
0000000147,0000146000,077492,094317,084080,086813,022278,042899
0000000148,0000147000,076336,092619,086934,088639,030741,032610
0000000149,0000148000,076048,090281,089559,087031,040961,023999
0000000150,0000149000,076651,087549,091688,082148,051922,017920
0000000151,0000150000,078095,084681,093113,074466,062550,014974
0000000152,0000151000,080243,081945,093700,064727,071825,015437
0000000153,0000152000,082873,079625,093391,053895,078830,019265
0000000154,0000153000,085725,077949,092215,043039,082867,026084
0000000155,0000154000,088537,077069,090283,033205,083551,035234
0000000156,0000155000,091024,077079,087786,025352,080822,045816
0000000157,0000156000,092936,077976,084977,020267,074940,056782
0000000158,0000157000,094096,079671,082122,018442,066478,067069
0000000159,0000158000,094387,082006,079497,020045,056264,075680
0000000160,0000159000,093779,084743,077367,024925,045306,081758
0000000161,0000160000,092337,087611,075941,032606,034678,084706
0000000162,0000161000,090192,090343,075353,042340,025405,084245
0000000163,0000162000,087559,092667,075663,053168,018402,080420
0000000164,0000163000,084705,094346,076837,064023,014362,073605
0000000165,0000164000,081897,095222,078770,073856,013675,064458
0000000166,0000165000,079408,095214,081268,081705,016404,053879
0000000167,0000166000,077492,094321,084077,086793,022281,042916
0000000168,0000167000,076335,092622,086932,088621,030738,032631
0000000169,0000168000,076044,090286,089558,087018,040951,024021
0000000170,0000169000,076647,087553,091689,082142,051905,017943
0000000171,0000170000,078092,084682,093115,074467,062529,014994
0000000172,0000171000,080239,081947,093703,064735,071802,015453
0000000173,0000172000,082868,079626,093395,053910,078806,019274
0000000174,0000173000,085723,077946,092220,043060,082844,026086
0000000175,0000174000,088535,077066,090288,033228,083534,035228
0000000176,0000175000,091023,077076,087790,025377,080810,045803
0000000177,0000176000,092938,077971,084980,020292,074935,056763
0000000178,0000177000,094099,079666,082124,018462,066482,067046
0000000179,0000178000,094389,082002,079497,020060,056275,075654
0000000180,0000179000,093784,084739,077366,024933,045324,081733
0000000181,0000180000,092342,087607,075939,032605,034701,084684
0000000182,0000181000,090196,090342,075350,042331,025432,084228
0000000183,0000182000,087563,092667,075658,053152,018428,080410
0000000184,0000183000,084709,094347,076832,064000,014387,073603
0000000185,0000184000,081899,095225,078765,073829,013696,064465
0000000186,0000185000,079407,095219,081263,081678,016418,053894
0000000187,0000186000,077491,094325,084073,086766,022286,042937
0000000188,0000187000,076333,092627,086929,088598,030735,032658
0000000189,0000188000,076039,090292,089557,087001,040939,024050
0000000190,0000189000,076643,087557,091689,082134,051884,017971
0000000191,0000190000,078087,084685,093117,074467,062503,015019
0000000192,0000191000,080233,081949,093707,064744,071773,015472
0000000193,0000192000,082863,079626,093399,053929,078775,019286
0000000194,0000193000,085720,077944,092225,043085,082817,026088
0000000195,0000194000,088532,077063,090293,033257,083512,035221
0000000196,0000195000,091022,077072,087795,025409,080794,045787
0000000197,0000196000,092940,077965,084984,020321,074929,056739
0000000198,0000197000,094102,079660,082128,018487,066486,067016
0000000199,0000198000,094393,081997,079499,020078,056289,075622
0000000200,0000199000,093790,084734,077365,024943,045346,081701
0000000201,0000200000,092349,087603,075936,032604,034730,084656
0000000202,0000201000,090202,090341,075346,042320,025464,084206
0000000203,0000202000,087569,092667,075653,053132,018461,080397
0000000204,0000203000,084714,094348,076826,063972,014417,073600
0000000205,0000204000,081901,095229,078759,073796,013721,064473
0000000206,0000205000,079408,095224,081257,081644,016434,053912
0000000207,0000206000,077491,094330,084068,086734,022292,042964
0000000208,0000207000,076329,092634,086926,088570,030731,032690
0000000209,0000208000,076034,090299,089556,086982,040923,024085
0000000210,0000209000,076637,087562,091690,082124,051860,018006
0000000211,0000210000,078080,084689,093120,074468,062472,015050
0000000212,0000211000,080225,081952,093712,064757,071737,015495
0000000213,0000212000,082858,079626,093405,053951,078739,019300
0000000214,0000213000,085716,077941,092232,043115,082784,026091
0000000215,0000214000,088529,077060,090300,033293,083485,035212
0000000216,0000215000,091021,077066,087801,025447,080776,045767
0000000217,0000216000,092942,077957,084990,020357,074922,056711
0000000218,0000217000,094105,079653,082131,018517,066492,066981
0000000219,0000218000,094398,081991,079500,020101,056305,075584
0000000220,0000219000,093797,084727,077364,024954,045372,081663
0000000221,0000220000,092356,087599,075933,032603,034765,084622
0000000222,0000221000,090208,090339,075341,042307,025503,084180
0000000223,0000222000,087576,092667,075646,053108,018500,080382
0000000224,0000223000,084719,094350,076819,063939,014454,073597
0000000225,0000224000,081903,095235,078751,073757,013750,064482
0000000226,0000225000,079409,095230,081250,081603,016453,053933
0000000227,0000226000,077489,094337,084062,086694,022300,042995
0000000228,0000227000,076325,092642,086922,088536,030725,032729
0000000229,0000228000,076028,090307,089554,086958,040904,024127
0000000230,0000229000,076630,087568,091691,082112,051830,018047
0000000231,0000230000,078072,084694,093123,074469,062435,015086
0000000232,0000231000,080217,081955,093717,064772,071694,015523
0000000233,0000232000,082851,079625,093412,053978,078695,019316
0000000234,0000233000,085710,077938,092240,043151,082745,026094
0000000235,0000234000,088525,077055,090309,033336,083453,035201
0000000236,0000235000,091021,077059,087809,025492,080755,045744
0000000237,0000236000,092944,077949,084996,020399,074914,056676
0000000238,0000237000,094108,079645,082135,018553,066498,066939
0000000239,0000238000,094405,081982,079502,020127,056324,075538
0000000240,0000239000,093806,084720,077363,024966,045404,081619
0000000241,0000240000,092364,087595,075930,032601,034806,084583
0000000242,0000241000,090217,090337,075335,042291,025549,084150
0000000243,0000242000,087584,092666,075638,053079,018547,080364
0000000244,0000243000,084725,094354,076810,063899,014497,073593
0000000245,0000244000,081907,095240,078742,073711,013784,064494
0000000246,0000245000,079410,095237,081242,081555,016475,053959
0000000247,0000246000,077487,094346,084055,086648,022309,043033
0000000248,0000247000,076319,092652,086917,088498,030718,032774
0000000249,0000248000,076021,090315,089552,086931,040883,024177
0000000250,0000249000,076622,087575,091692,082098,051796,018096
0000000251,0000250000,078062,084700,093127,074471,062390,015129
0000000252,0000251000,080208,081958,093723,064789,071644,015556
0000000253,0000252000,082843,079625,093421,054009,078645,019335
0000000254,0000253000,085703,077936,092250,043194,082698,026098
0000000255,0000254000,088521,077050,090318,033386,083415,035189
0000000256,0000255000,091020,077050,087818,025544,080730,045716
0000000257,0000256000,092946,077939,085003,020448,074905,056636
0000000258,0000257000,094113,079635,082140,018595,066505,066890
0000000259,0000258000,094413,081972,079504,020157,056348,075485
0000000260,0000259000,093815,084711,077362,024981,045442,081566
0000000261,0000260000,092374,087589,075926,032599,034854,084537
0000000262,0000261000,090228,090333,075328,042273,025602,084115
0000000263,0000262000,087593,092666,075629,053045,018602,080343
0000000264,0000263000,084732,094357,076800,063853,014547,073590
0000000265,0000264000,081911,095247,078731,073658,013824,064507
0000000266,0000265000,079412,095245,081232,081499,016502,053989
0000000267,0000266000,077485,094357,084047,086595,022319,043076
0000000268,0000267000,076314,092663,086912,088453,030710,032827
0000000269,0000268000,076014,090325,089550,086899,040857,024234
0000000270,0000269000,076611,087584,091693,082082,051756,018152
0000000271,0000270000,078050,084707,093132,074473,062339,015178
0000000272,0000271000,080197,081961,093731,064810,071586,015593
0000000273,0000272000,082834,079625,093431,054046,078587,019357
0000000274,0000273000,085695,077933,092261,043243,082645,026102
0000000275,0000274000,088516,077043,090330,033444,083372,035174
0000000276,0000275000,091019,077041,087829,025604,080702,045684
0000000277,0000276000,092948,077929,085012,020505,074895,056589
0000000278,0000277000,094119,079624,082146,018643,066514,066833
0000000279,0000278000,094422,081961,079506,020191,056375,075423
0000000280,0000279000,093826,084702,077361,024998,045485,081506
0000000281,0000280000,092386,087582,075921,032597,034909,084484
0000000282,0000281000,090240,090329,075320,042251,025664,084075
0000000283,0000282000,087604,092666,075619,053006,018664,080320
0000000284,0000283000,084740,094361,076788,063800,014603,073585
0000000285,0000284000,081917,095253,078719,073596,013870,064523
0000000286,0000285000,079413,095255,081221,081434,016532,054023
0000000287,0000286000,077482,094369,084038,086534,022330,043126
0000000288,0000287000,076308,092676,086905,088402,030700,032888
0000000289,0000288000,076004,090337,089547,086862,040828,024300
0000000290,0000289000,076599,087595,091694,082064,051710,018216
0000000291,0000290000,078037,084715,093137,074476,062280,015234
0000000292,0000291000,080185,081965,093739,064833,071520,015636
0000000293,0000292000,082822,079625,093442,054087,078520,019382
0000000294,0000293000,085686,077929,092274,043300,082584,026106
0000000295,0000294000,088511,077035,090343,033510,083323,035157
0000000296,0000295000,091018,077030,087841,025673,080670,045647
0000000297,0000296000,092950,077916,085022,020570,074884,056536
0000000298,0000297000,094126,079610,082153,018697,066524,066768
0000000299,0000298000,094432,081947,079509,020229,056406,075354
0000000300,0000299000,093838,084691,077360,025017,045535,081438
0000000301,0000300000,092400,087573,075915,032594,034972,084425
