DIgSILENT PowerFactory,21000900,2000
6,06A,00D
1,TTPP_200000_100:Secondary Voltage A,,,V,0.010000000,-67.890022,0.000000,-86352,99998,1,1,P
2,TTPP_200000_100:Secondary Voltage B,,,V,0.010000000,18.199059,0.000000,-96105,99998,1,1,P
3,TTPP_200000_100:Secondary Voltage C,,,V,0.10000000,-8985.318359,0.000000,79660,99998,1,1,P
4,TTCC_500_5:Secondary Current A,,,A,0.0010000000,-81.510345,0.000000,52463,99998,1,1,P
5,TTCC_500_5:Secondary Current B,,,A,0.0010000000,-84.702690,0.000000,69409,99998,1,1,P
6,TTCC_500_5:Secondary Current C,,,A,0.0010000000,-84.678444,0.000000,69352,99998,1,1,P
50
1
1000.000000,1101
30/06/2023,06:04:53.000000
30/06/2023,06:04:53.000000
ASCII
1.000000
0000000001,0000000000,061931,034561,080701,087428,089380,074084
0000000002,0000001000,036438,058915,080814,084414,092096,074382
0000000003,0000002000,007940,077455,081812,081113,094092,075686
0000000004,0000003000,-20542,088100,083594,077858,095162,077871
0000000005,0000004000,-46306,089866,085995,074956,095211,080725
0000000006,0000005000,-67062,082837,088773,072690,094237,083965
0000000007,0000006000,-80563,067579,091649,071298,092322,087271
0000000008,0000007000,-85348,045304,094355,070903,089662,090327
0000000009,0000008000,-81189,018447,096624,071542,086519,092830
0000000010,0000009000,-68543,-10198,098225,073161,083197,094533
0000000011,0000010000,-48381,-38162,099004,075596,080024,095272
0000000012,0000011000,-22770,-62643,098892,078611,077307,094974
0000000013,0000012000,005547,-81010,097896,081910,075312,093669
0000000014,0000013000,034064,-91686,096112,085168,074240,091484
0000000015,0000014000,060057,-93670,093711,088070,074191,088630
0000000016,0000015000,080670,-86507,090934,090330,075171,085391
0000000017,0000016000,094009,-71080,088057,091726,077081,082084
0000000018,0000017000,098968,-48987,085352,092124,079739,079029
0000000019,0000018000,094834,-22159,083083,091480,082886,076526
0000000020,0000019000,082029,006654,081481,089863,086206,074822
0000000021,0000020000,061972,034519,080701,087429,089378,074084
0000000022,0000021000,036424,058929,080814,084411,092099,074382
0000000023,0000022000,007928,077464,081811,081114,094091,075686
0000000024,0000023000,-20515,088079,083594,077858,095162,077872
0000000025,0000024000,-46335,089887,085995,074953,095213,080725
0000000026,0000025000,-67108,082884,088773,072692,094235,083965
0000000027,0000026000,-80541,067551,091649,071298,092323,087271
0000000028,0000027000,-85321,045276,094355,070901,089664,090327
0000000029,0000028000,-81220,018476,096624,071543,086519,092830
0000000030,0000029000,-68541,-10203,098225,073159,083199,094533
0000000031,0000030000,-48355,-38189,099005,075595,080024,095272
0000000032,0000031000,-22795,-62627,098893,078611,077307,094974
0000000033,0000032000,005546,-81005,097896,081908,075314,093669
0000000034,0000033000,034090,-91716,096112,085168,074239,091484
0000000035,0000034000,060032,-93646,093712,088069,074192,088631
0000000036,0000035000,080639,-86478,090934,090329,075171,085391
0000000037,0000036000,094042,-71112,088058,091727,077080,082085
0000000038,0000037000,098983,-49000,085352,092122,079740,079030
0000000039,0000038000,094808,-22133,083083,091479,082886,076526
0000000040,0000039000,082045,006644,081481,089864,086205,074823
0000000041,0000040000,061992,034497,080701,087428,089379,074084
0000000042,0000041000,036407,058950,080814,084411,092098,074382
0000000043,0000042000,007936,077461,081810,081114,094090,075687
0000000044,0000043000,-20487,088057,083593,077857,095163,077872
0000000045,0000044000,-46360,089914,085995,074953,095213,080725
0000000046,0000045000,-67127,082905,088772,072692,094235,083965
0000000047,0000046000,-80509,067525,091648,071298,092323,087271
0000000048,0000047000,-85324,045277,094354,070901,089664,090326
0000000049,0000048000,-81247,018506,096624,071542,086520,092830
0000000050,0000049000,-68530,-10217,098225,073160,083199,094533
0000000051,0000050000,-48350,-38198,099005,075595,080025,095272
0000000052,0000051000,-22822,-62605,098893,078610,077308,094974
0000000053,0000052000,005553,-81015,097896,081908,075314,093669
0000000054,0000053000,034106,-91736,096113,085166,074241,091485
0000000055,0000054000,060003,-93625,093712,088068,074193,088631
0000000056,0000055000,080630,-86473,090934,090329,075171,085392
0000000057,0000056000,094070,-71146,088058,091725,077081,082085
0000000058,0000057000,098979,-48999,085353,092121,079740,079030
0000000059,0000058000,094793,-22119,083083,091479,082886,076527
0000000060,0000059000,082070,006621,081481,089863,086205,074823
0000000061,0000060000,062001,034488,080701,087428,089379,074085
0000000062,0000061000,036394,058968,080814,084411,092098,074383
0000000063,0000062000,007958,077448,081810,081115,094090,075687
0000000064,0000063000,-20470,088046,083593,077857,095162,077872
0000000065,0000064000,-46381,089943,085994,074953,095213,080725
0000000066,0000065000,-67126,082912,088772,072693,094234,083964
0000000067,0000066000,-80487,067509,091648,071298,092323,087271
0000000068,0000067000,-85340,045298,094354,070901,089665,090325
0000000069,0000068000,-81266,018528,096624,071543,086520,092829
0000000070,0000069000,-68518,-10228,098225,073160,083199,094532
0000000071,0000070000,-48362,-38191,099006,075594,080027,095271
0000000072,0000071000,-22847,-62584,098893,078609,077309,094973
0000000073,0000072000,005561,-81031,097897,081908,075315,093669
0000000074,0000073000,034105,-91746,096114,085165,074242,091485
0000000075,0000074000,059975,-93608,093713,088066,074193,088631
0000000076,0000075000,080635,-86487,090935,090328,075171,085393
0000000077,0000076000,094090,-71175,088059,091724,077081,082087
0000000078,0000077000,098967,-48995,085353,092119,079740,079032
0000000079,0000078000,094795,-22122,083083,091478,082885,076528
0000000080,0000079000,082098,006592,081481,089863,086204,074825
0000000081,0000080000,062005,034488,080701,087427,089378,074086
0000000082,0000081000,036393,058976,080813,084412,092096,074384
0000000083,0000082000,007987,077430,081808,081116,094088,075688
0000000084,0000083000,-20460,088047,083592,077858,095161,077872
0000000085,0000084000,-46395,089970,085993,074955,095212,080725
0000000086,0000085000,-67114,082913,088770,072695,094233,083963
0000000087,0000086000,-80477,067508,091647,071299,092323,087269
0000000088,0000087000,-85364,045329,094353,070902,089665,090324
0000000089,0000088000,-81277,018544,096623,071544,086521,092827
0000000090,0000089000,-68516,-10232,098225,073160,083201,094531
0000000091,0000090000,-48389,-38172,099006,075594,080029,095269
0000000092,0000091000,-22869,-62570,098894,078609,077311,094972
0000000093,0000092000,005565,-81047,097898,081906,075317,093668
0000000094,0000093000,034090,-91747,096116,085163,074244,091485
0000000095,0000094000,059952,-93602,093715,088065,074195,088632
0000000096,0000095000,080646,-86513,090937,090326,075172,085394
0000000097,0000096000,094100,-71200,088060,091722,077082,082088
0000000098,0000097000,098959,-48997,085354,092117,079740,079034
0000000099,0000098000,094812,-22142,083083,091477,082884,076531
0000000100,0000099000,082127,006564,081481,089862,086202,074827
0000000101,0000100000,062011,034488,080700,087427,089376,074088
0000000102,0000101000,036410,058973,080812,084413,092094,074385
0000000103,0000102000,008020,077414,081807,081117,094086,075689
0000000104,0000103000,-20453,088059,083590,077860,095160,077872
0000000105,0000104000,-46397,089993,085991,074957,095210,080724
0000000106,0000105000,-67096,082916,088768,072697,094232,083962
0000000107,0000106000,-80479,067526,091645,071301,092323,087267
0000000108,0000107000,-85389,045366,094352,070904,089666,090321
0000000109,0000108000,-81286,018559,096623,071545,086522,092824
0000000110,0000109000,-68529,-10222,098225,073160,083203,094528
0000000111,0000110000,-48426,-38144,099007,075593,080031,095267
0000000112,0000111000,-22892,-62563,098896,078608,077313,094970
0000000113,0000112000,005556,-81060,097900,081904,075320,093667
0000000114,0000113000,034062,-91745,096118,085160,074247,091484
0000000115,0000114000,059934,-93608,093717,088062,074197,088633
0000000116,0000115000,080656,-86547,090939,090323,075173,085395
0000000117,0000116000,094103,-71223,088062,091718,077083,082091
0000000118,0000117000,098960,-49011,085355,092115,079740,079037
0000000119,0000118000,094841,-22177,083084,091475,082882,076534
0000000120,0000119000,082157,006536,081481,089861,086200,074830
0000000121,0000120000,062027,034483,080699,087427,089373,074091
0000000122,0000121000,036443,058960,080810,084414,092090,074387
0000000123,0000122000,008056,077403,081804,081119,094083,075690
0000000124,0000123000,-20444,088079,083587,077862,095157,077873
0000000125,0000124000,-46387,090014,085988,074961,095207,080723
0000000126,0000125000,-67080,082928,088765,072701,094230,083960
0000000127,0000126000,-80490,067560,091643,071305,092322,087265
0000000128,0000127000,-85413,045407,094350,070907,089666,090318
0000000129,0000128000,-81298,018580,096622,071548,086523,092821
0000000130,0000129000,-68558,-10197,098226,073161,083206,094524
0000000131,0000130000,-48470,-38113,099009,075593,080035,095264
0000000132,0000131000,-22918,-62557,098898,078607,077317,094968
0000000133,0000132000,005533,-81066,097903,081902,075324,093666
0000000134,0000133000,034027,-91745,096122,085156,074251,091484
0000000135,0000134000,059920,-93628,093721,088058,074200,088634
0000000136,0000135000,080662,-86586,090942,090318,075175,085398
0000000137,0000136000,094103,-71252,088065,091714,077084,082094
0000000138,0000137000,098973,-49042,085357,092112,079739,079041
0000000139,0000138000,094879,-22224,083085,091473,082880,076538
0000000140,0000139000,082189,006505,081481,089859,086198,074835
0000000141,0000140000,062057,034469,080697,087427,089369,074095
0000000142,0000141000,036490,058939,080807,084415,092085,074391
0000000143,0000142000,008094,077399,081801,081121,094078,075692
0000000144,0000143000,-20427,088101,083583,077866,095152,077873
0000000145,0000144000,-46365,090035,085983,074966,095204,080722
0000000146,0000145000,-67067,082953,088762,072706,094228,083958
0000000147,0000146000,-80507,067608,091640,071309,092321,087261
0000000148,0000147000,-85435,045454,094348,070911,089667,090313
0000000149,0000148000,-81321,018612,096621,071550,086525,092816
0000000150,0000149000,-68603,-10157,098226,073162,083210,094519
0000000151,0000150000,-48521,-38079,099010,075593,080039,095259
0000000152,0000151000,-22954,-62551,098901,078605,077322,094964
0000000153,0000152000,005492,-81067,097908,081898,075330,093664
0000000154,0000153000,033986,-91749,096126,085152,074256,091484
0000000155,0000154000,059905,-93660,093725,088053,074204,088635
0000000156,0000155000,080662,-86631,090947,090313,075178,085401
0000000157,0000156000,094104,-71289,088069,091708,077085,082098
0000000158,0000157000,098998,-49092,085360,092107,079738,079046
0000000159,0000158000,094924,-22280,083086,091469,082878,076544
0000000160,0000159000,082229,006469,081480,089857,086194,074841
0000000161,0000160000,062104,034442,080695,087428,089364,074100
0000000162,0000161000,036550,058914,080803,084417,092079,074395
0000000163,0000162000,008138,077399,081796,081125,094072,075694
0000000164,0000163000,-20398,088124,083578,077871,095147,077873
0000000165,0000164000,-46336,090060,085978,074972,095199,080721
0000000166,0000165000,-67058,082994,088757,072712,094225,083954
0000000167,0000166000,-80526,067669,091636,071315,092320,087256
0000000168,0000167000,-85460,045508,094345,070917,089667,090307
0000000169,0000168000,-81357,018660,096620,071554,086528,092809
0000000170,0000169000,-68662,-10104,098227,073164,083214,094513
0000000171,0000170000,-48580,-38042,099012,075593,080045,095253
0000000172,0000171000,-23004,-62540,098905,078603,077329,094960
0000000173,0000172000,005437,-81064,097913,081894,075337,093661
0000000174,0000173000,033940,-91762,096132,085146,074262,091483
0000000175,0000174000,059887,-93702,093731,088046,074209,088637
0000000176,0000175000,080655,-86682,090953,090305,075182,085404
0000000177,0000176000,094109,-71342,088074,091702,077086,082104
0000000178,0000177000,099033,-49159,085363,092101,079737,079053
0000000179,0000178000,094975,-22345,083087,091465,082875,076552
0000000180,0000179000,082282,006423,081480,089855,086188,074848
0000000181,0000180000,062171,034403,080692,087428,089357,074107
0000000182,0000181000,036621,058886,080799,084420,092072,074400
0000000183,0000182000,008191,077403,081791,081130,094065,075697
0000000184,0000183000,-20354,088148,083571,077878,095139,077874
0000000185,0000184000,-46301,090093,085971,074979,095193,080719
0000000186,0000185000,-67052,083050,088750,072720,094221,083950
0000000187,0000186000,-80546,067742,091630,071323,092319,087250
0000000188,0000187000,-85489,045574,094341,070923,089668,090300
0000000189,0000188000,-81408,018725,096618,071559,086532,092801
0000000190,0000189000,-68735,-10039,098228,073167,083220,094505
0000000191,0000190000,-48650,-38000,099015,075593,080053,095246
0000000192,0000191000,-23072,-62521,098910,078600,077338,094954
0000000193,0000192000,005366,-81058,097919,081888,075345,093658
0000000194,0000193000,033888,-91783,096139,085139,074270,091482
0000000195,0000194000,059861,-93753,093739,088037,074215,088639
0000000196,0000195000,080643,-86741,090960,090296,075186,085409
0000000197,0000196000,094121,-71412,088079,091693,077088,082111
0000000198,0000197000,099077,-49243,085367,092094,079736,079062
0000000199,0000198000,095033,-22422,083089,091460,082871,076561
0000000200,0000199000,082350,006364,081479,089853,086182,074857
0000000201,0000200000,062255,034351,080689,087428,089348,074115
0000000202,0000201000,036704,058857,080794,084423,092063,074406
0000000203,0000202000,008257,077408,081784,081135,094055,075701
0000000204,0000203000,-20297,088174,083563,077886,095131,077875
0000000205,0000204000,-46260,090137,085963,074989,095186,080717
0000000206,0000205000,-67047,083122,088743,072730,094217,083945
0000000207,0000206000,-80565,067827,091624,071332,092317,087242
0000000208,0000207000,-85527,045656,094337,070931,089670,090290
0000000209,0000208000,-81474,018810,096616,071564,086537,092791
0000000210,0000209000,-68820,-09962,098228,073169,083227,094495
0000000211,0000210000,-48736,-37950,099019,075592,080062,095237
0000000212,0000211000,-23159,-62494,098916,078596,077348,094948
0000000213,0000212000,005282,-81053,097927,081882,075356,093654
0000000214,0000213000,033828,-91813,096148,085130,074280,091482
0000000215,0000214000,059825,-93810,093748,088027,074223,088642
0000000216,0000215000,080629,-86813,090968,090285,075191,085415
0000000217,0000216000,094140,-71501,088086,091683,077089,082119
0000000218,0000217000,099129,-49344,085372,092085,079734,079072
0000000219,0000218000,095102,-22512,083091,091453,082866,076572
0000000220,0000219000,082436,006288,081478,089850,086174,074868
0000000221,0000220000,062358,034288,080685,087429,089338,074124
0000000222,0000221000,036801,058824,080787,084427,092051,074413
0000000223,0000222000,008340,077412,081775,081143,094044,075705
0000000224,0000223000,-20225,088202,083553,077896,095120,077876
0000000225,0000224000,-46215,090193,085953,075000,095178,080714
0000000226,0000225000,-67040,083209,088733,072742,094211,083939
0000000227,0000226000,-80586,067926,091616,071344,092315,087233
0000000228,0000227000,-85575,045757,094332,070941,089672,090279
0000000229,0000228000,-81555,018913,096614,071571,086542,092779
0000000230,0000229000,-68919,-09873,098229,073173,083236,094483
0000000231,0000230000,-48839,-37889,099023,075592,080073,095227
0000000232,0000231000,-23267,-62459,098923,078592,077360,094940
0000000233,0000232000,005183,-81048,097937,081874,075368,093649
0000000234,0000233000,033756,-91849,096159,085120,074291,091481
0000000235,0000234000,059779,-93876,093760,088014,074232,088645
0000000236,0000235000,080612,-86899,090979,090272,075197,085422
0000000237,0000236000,094165,-71610,088095,091671,077092,082129
0000000238,0000237000,099188,-49462,085378,092075,079733,079084
0000000239,0000238000,095183,-22619,083094,091446,082860,076585
0000000240,0000239000,082542,006194,081476,089846,086165,074881
0000000241,0000240000,062479,034214,080681,087429,089326,074136
0000000242,0000241000,036915,058788,080780,084432,092038,074422
0000000243,0000242000,008442,077414,081765,081151,094030,075710
0000000244,0000243000,-20140,088235,083541,077907,095108,077876
0000000245,0000244000,-46165,090263,085941,075013,095168,080710
0000000246,0000245000,-67029,083311,088722,072755,094205,083931
0000000247,0000246000,-80608,068041,091607,071357,092312,087222
0000000248,0000247000,-85634,045880,094325,070952,089674,090266
0000000249,0000248000,-81651,019036,096611,071579,086548,092764
0000000250,0000249000,-69034,-09770,098231,073177,083246,094469
0000000251,0000250000,-48963,-37816,099028,075591,080085,095215
0000000252,0000251000,-23395,-62415,098931,078586,077375,094930
0000000253,0000252000,005070,-81046,097948,081865,075383,093644
0000000254,0000253000,033671,-91892,096172,085107,074304,091480
0000000255,0000254000,059723,-93952,093773,088000,074243,088648
0000000256,0000255000,080594,-87003,090991,090257,075204,085430
0000000257,0000256000,094194,-71739,088105,091657,077094,082141
0000000258,0000257000,099254,-49597,085385,092063,079730,079098
0000000259,0000258000,095280,-22745,083097,091437,082854,076601
0000000260,0000259000,082668,006082,081475,089842,086154,074896
0000000261,0000260000,062618,034129,080675,087430,089313,074149
0000000262,0000261000,037048,058746,080770,084437,092023,074432
0000000263,0000262000,008563,077414,081752,081161,094015,075716
0000000264,0000263000,-20041,088274,083527,077921,095093,077877
0000000265,0000264000,-46107,090345,085926,075029,095156,080706
0000000266,0000265000,-67015,083428,088709,072772,094197,083923
0000000267,0000266000,-80634,068175,091596,071372,092310,087209
0000000268,0000267000,-85704,046024,094318,070964,089676,090251
0000000269,0000268000,-81760,019178,096608,071588,086556,092748
0000000270,0000269000,-69165,-09652,098232,073181,083257,094453
0000000271,0000270000,-49109,-37729,099034,075591,080100,095201
0000000272,0000271000,-23544,-62364,098941,078581,077391,094920
0000000273,0000272000,004939,-81044,097961,081854,075399,093638
0000000274,0000273000,033570,-91939,096187,085093,074320,091479
0000000275,0000274000,059656,-94037,093788,087983,074255,088653
0000000276,0000275000,080576,-87124,091005,090240,075212,085439
0000000277,0000276000,094227,-71889,088116,091640,077097,082154
0000000278,0000277000,099329,-49753,085393,092049,079728,079115
0000000279,0000278000,095392,-22892,083100,091428,082846,076618
0000000280,0000279000,082814,005951,081474,089837,086141,074913
0000000281,0000280000,062777,034032,080669,087431,089297,074164
0000000282,0000281000,037203,058696,080760,084443,092005,074443
0000000283,0000282000,008705,077411,081739,081172,093997,075723
0000000284,0000283000,-19929,088320,083511,077936,095077,077878
0000000285,0000284000,-46039,090441,085910,075046,095143,080702
0000000286,0000285000,-66995,083560,088694,072790,094189,083913
0000000287,0000286000,-80664,068330,091583,071390,092307,087195
0000000288,0000287000,-85786,046193,094309,070979,089679,090233
0000000289,0000288000,-81884,019340,096604,071598,086564,092729
0000000290,0000289000,-69317,-09515,098233,073186,083271,094434
0000000291,0000290000,-49279,-37626,099041,075590,080117,095185
0000000292,0000291000,-23715,-62306,098952,078574,077410,094907
0000000293,0000292000,004790,-81043,097975,081842,075419,093631
0000000294,0000293000,033452,-91991,096204,085076,074337,091478
0000000295,0000294000,059580,-94135,093805,087964,074269,088658
0000000296,0000295000,080555,-87265,091021,090220,075221,085450
0000000297,0000296000,094263,-72059,088130,091622,077100,082170
0000000298,0000297000,099413,-49930,085402,092034,079725,079133
0000000299,0000298000,095522,-23063,083104,091417,082837,076638
0000000300,0000299000,082980,005801,081472,089832,086127,074933
0000000301,0000300000,062957,033922,080662,087432,089279,074181
