DIgSILENT PowerFactory,21000900,2000
6,06A,00D
1,TTPP_200000_100:Secondary Voltage A,,,V,0.10000000,-8409.401367,0.000000,67864,99998,1,1,P
2,TTPP_200000_100:Secondary Voltage B,,,V,0.10000000,-8403.432617,0.000000,68944,99998,1,1,P
3,TTPP_200000_100:Secondary Voltage C,,,V,0.10000000,-8438.455078,0.000000,66220,99998,1,1,P
4,TTCC_500_5:Secondary Current A,,,A,0.0010000000,-86.155685,0.000000,66076,99998,1,1,P
5,TTCC_500_5:Secondary Current B,,,A,0.0010000000,-85.026276,0.000000,70071,99998,1,1,P
6,TTCC_500_5:Secondary Current C,,,A,0.0010000000,-84.661736,0.000000,69317,99998,1,1,P
50
1
1000.000000,1101
30/06/2023,06:08:13.000000
30/06/2023,06:08:13.000000
ASCII
1.000000
0000000001,0000000000,089606,087675,075232,092071,089706,074067
0000000002,0000001000,087058,090108,075346,089056,092422,074365
0000000003,0000002000,084206,091964,076344,085756,094417,075671
0000000004,0000003000,081361,093025,078127,082501,095486,077857
0000000005,0000004000,078777,093208,080529,079597,095536,080711
0000000006,0000005000,076704,092501,083307,077336,094557,083950
0000000007,0000006000,075359,090971,086182,075943,092644,087257
0000000008,0000007000,074886,088739,088888,075547,089984,090312
0000000009,0000008000,075294,086061,091157,076188,086840,092815
0000000010,0000009000,076561,083195,092758,077807,083519,094518
0000000011,0000010000,078581,080396,093536,080244,080344,095255
0000000012,0000011000,081143,077947,093423,083258,077629,094957
0000000013,0000012000,083971,076116,092426,086557,075636,093651
0000000014,0000013000,086825,075046,090641,089816,074562,091466
0000000015,0000014000,089422,074851,088240,092718,074514,088612
0000000016,0000015000,091482,075569,085462,094976,075496,085372
0000000017,0000016000,092817,077110,082586,096374,077405,082065
0000000018,0000017000,093315,079317,079881,096768,080065,079010
0000000019,0000018000,092897,082004,077612,096124,083212,076507
0000000020,0000019000,091614,084887,076012,094507,086532,074804
0000000021,0000020000,089611,087669,075232,092073,089703,074067
0000000022,0000021000,087057,090110,075346,089054,092424,074365
0000000023,0000022000,084205,091965,076343,085757,094416,075671
0000000024,0000023000,081361,093025,078127,082500,095487,077857
0000000025,0000024000,078779,093205,080529,079597,095536,080711
0000000026,0000025000,076702,092504,083306,077336,094558,083950
0000000027,0000026000,075362,090968,086183,075942,092644,087257
0000000028,0000027000,074883,088741,088888,075546,089985,090312
0000000029,0000028000,075293,086062,091157,076188,086840,092815
0000000030,0000029000,076563,083194,092757,077806,083520,094518
0000000031,0000030000,078582,080394,093537,080243,080346,095256
0000000032,0000031000,081138,077952,093424,083258,077629,094957
0000000033,0000032000,083974,076113,092426,086557,075636,093651
0000000034,0000033000,086827,075044,090642,089815,074563,091466
0000000035,0000034000,089418,074854,088241,092716,074516,088612
0000000036,0000035000,091480,075571,085462,094977,075495,085372
0000000037,0000036000,092823,077104,082586,096372,077406,082066
0000000038,0000037000,093313,079319,079881,096767,080066,079011
0000000039,0000038000,092893,082008,077612,096124,083212,076508
0000000040,0000039000,091619,084882,076012,094508,086531,074805
0000000041,0000040000,089613,087667,075232,092071,089705,074067
0000000042,0000041000,087051,090116,075346,089054,092424,074366
0000000043,0000042000,084207,091963,076343,085757,094415,075671
0000000044,0000043000,081366,093021,078127,082500,095487,077857
0000000045,0000044000,078774,093210,080529,079596,095537,080711
0000000046,0000045000,076700,092507,083306,077337,094557,083950
0000000047,0000046000,075367,090964,086182,075942,092645,087257
0000000048,0000047000,074882,088742,088888,075546,089986,090312
0000000049,0000048000,075289,086067,091157,076188,086841,092815
0000000050,0000049000,076566,083190,092757,077807,083519,094518
0000000051,0000050000,078583,080393,093537,080241,080347,095255
0000000052,0000051000,081133,077956,093424,083257,077630,094957
0000000053,0000052000,083974,076113,092426,086556,075636,093652
0000000054,0000053000,086830,075040,090642,089814,074564,091466
0000000055,0000054000,089415,074856,088241,092715,074517,088612
0000000056,0000055000,091479,075571,085463,094976,075495,085373
0000000057,0000056000,092825,077101,082587,096371,077406,082066
0000000058,0000057000,093312,079320,079882,096766,080066,079012
0000000059,0000058000,092892,082009,077612,096124,083211,076509
0000000060,0000059000,091622,084879,076012,094508,086530,074806
0000000061,0000060000,089613,087667,075232,092071,089705,074068
0000000062,0000061000,087050,090117,075345,089054,092423,074366
0000000063,0000062000,084210,091961,076342,085758,094414,075672
0000000064,0000063000,081366,093021,078126,082500,095487,077857
0000000065,0000064000,078772,093213,080528,079597,095536,080711
0000000066,0000065000,076702,092505,083305,077338,094556,083950
0000000067,0000066000,075368,090963,086182,075943,092645,087256
0000000068,0000067000,074879,088746,088888,075546,089987,090311
0000000069,0000068000,075289,086067,091157,076189,086841,092814
0000000070,0000069000,076567,083188,092757,077806,083521,094517
0000000071,0000070000,078580,080396,093538,080241,080348,095254
0000000072,0000071000,081132,077957,093424,083257,077630,094956
0000000073,0000072000,083977,076109,092427,086555,075637,093651
0000000074,0000073000,086828,075041,090643,089812,074566,091466
0000000075,0000074000,089412,074859,088242,092714,074517,088613
0000000076,0000075000,091482,075567,085464,094975,075495,085374
0000000077,0000076000,092826,077099,082588,096370,077407,082068
0000000078,0000077000,093309,079322,079882,096765,080066,079013
0000000079,0000078000,092894,082007,077612,096123,083210,076510
0000000080,0000079000,091626,084875,076012,094507,086530,074807
0000000081,0000080000,089611,087669,075232,092071,089704,074069
0000000082,0000081000,087051,090117,075345,089055,092421,074367
0000000083,0000082000,084214,091958,076341,085759,094413,075672
0000000084,0000083000,081366,093022,078125,082501,095486,077857
0000000085,0000084000,078771,093216,080527,079599,095535,080710
0000000086,0000085000,076705,092504,083304,077339,094556,083949
0000000087,0000086000,075368,090964,086181,075943,092645,087255
0000000088,0000087000,074876,088750,088887,075547,089987,090309
0000000089,0000088000,075289,086067,091156,076190,086841,092812
0000000090,0000089000,076567,083188,092758,077806,083522,094515
0000000091,0000090000,078576,080399,093538,080241,080350,095253
0000000092,0000091000,081131,077958,093425,083257,077632,094955
0000000093,0000092000,083977,076108,092428,086554,075639,093651
0000000094,0000093000,086825,075043,090645,089810,074568,091466
0000000095,0000094000,089411,074858,088243,092712,074518,088613
0000000096,0000095000,091484,075564,085465,094973,075496,085375
0000000097,0000096000,092826,077098,082589,096367,077407,082069
0000000098,0000097000,093309,079322,079883,096763,080066,079015
0000000099,0000098000,092897,082003,077613,096122,083209,076512
0000000100,0000099000,091627,084874,076012,094506,086529,074809
0000000101,0000100000,089611,087670,075231,092071,089702,074071
0000000102,0000101000,087054,090115,075343,089056,092418,074369
0000000103,0000102000,084216,091957,076340,085759,094411,075673
0000000104,0000103000,081365,093025,078123,082503,095484,077857
0000000105,0000104000,078773,093216,080524,079601,095533,080710
0000000106,0000105000,076707,092504,083302,077341,094555,083948
0000000107,0000106000,075365,090968,086179,075946,092645,087253
0000000108,0000107000,074874,088753,088886,075550,089987,090307
0000000109,0000108000,075290,086067,091156,076192,086843,092809
0000000110,0000109000,076564,083191,092758,077807,083525,094512
0000000111,0000110000,078572,080402,093539,080241,080352,095251
0000000112,0000111000,081130,077956,093426,083256,077635,094953
0000000113,0000112000,083975,076107,092431,086552,075643,093650
0000000114,0000113000,086821,075044,090647,089807,074570,091466
0000000115,0000114000,089411,074856,088246,092709,074520,088614
0000000116,0000115000,091485,075560,085468,094969,075498,085376
0000000117,0000116000,092824,077098,082591,096364,077408,082072
0000000118,0000117000,093310,079319,079884,096761,080065,079018
0000000119,0000118000,092901,081999,077613,096120,083208,076516
0000000120,0000119000,091628,084873,076011,094504,086527,074813
0000000121,0000120000,089613,087669,075230,092071,089699,074074
0000000122,0000121000,087059,090112,075341,089057,092415,074371
0000000123,0000122000,084219,091957,076337,085761,094408,075675
0000000124,0000123000,081366,093027,078120,082506,095481,077858
0000000125,0000124000,078775,093217,080521,079605,095530,080709
0000000126,0000125000,076707,092506,083300,077345,094553,083946
0000000127,0000126000,075363,090973,086177,075949,092644,087250
0000000128,0000127000,074874,088755,088884,075553,089987,090303
0000000129,0000128000,075289,086069,091155,076193,086844,092806
0000000130,0000129000,076560,083195,092758,077808,083528,094509
0000000131,0000130000,078569,080404,093540,080241,080356,095247
0000000132,0000131000,081128,077956,093429,083254,077639,094951
0000000133,0000132000,083971,076108,092434,086549,075647,093648
0000000134,0000133000,086818,075044,090651,089804,074574,091466
0000000135,0000134000,089411,074852,088249,092705,074523,088615
0000000136,0000135000,091484,075558,085471,094965,075500,085379
0000000137,0000136000,092824,077096,082594,096360,077409,082075
0000000138,0000137000,093313,079314,079886,096757,080064,079022
0000000139,0000138000,092904,081994,077614,096117,083207,076520
0000000140,0000139000,091630,084871,076011,094503,086524,074817
0000000141,0000140000,089618,087666,075228,092071,089694,074078
0000000142,0000141000,087064,090110,075339,089059,092411,074374
0000000143,0000142000,084221,091958,076334,085764,094403,075676
0000000144,0000143000,081368,093029,078116,082510,095476,077858
0000000145,0000144000,078779,093217,080517,079609,095527,080708
0000000146,0000145000,076707,092510,083296,077349,094551,083943
0000000147,0000146000,075362,090978,086174,075954,092643,087246
0000000148,0000147000,074873,088758,088881,075557,089988,090299
0000000149,0000148000,075285,086073,091154,076196,086847,092801
0000000150,0000149000,076554,083200,092758,077809,083531,094504
0000000151,0000150000,078565,080406,093542,080241,080360,095243
0000000152,0000151000,081124,077957,093432,083252,077644,094947
0000000153,0000152000,083965,076110,092438,086545,075652,093646
0000000154,0000153000,086815,075042,090655,089800,074579,091465
0000000155,0000154000,089410,074848,088254,092700,074527,088616
0000000156,0000155000,091482,075555,085476,094959,075503,085382
0000000157,0000156000,092824,077091,082597,096355,077410,082079
0000000158,0000157000,093317,079308,079889,096753,080064,079028
0000000159,0000158000,092907,081990,077616,096114,083204,076526
0000000160,0000159000,091634,084868,076011,094501,086520,074823
0000000161,0000160000,089624,087662,075226,092071,089689,074083
0000000162,0000161000,087069,090108,075336,089060,092405,074378
0000000163,0000162000,084224,091959,076329,085768,094397,075679
0000000164,0000163000,081373,093030,078111,082515,095470,077858
0000000165,0000164000,078781,093220,080512,079615,095522,080706
0000000166,0000165000,076707,092515,083291,077356,094548,083940
0000000167,0000166000,075361,090983,086169,075960,092642,087241
0000000168,0000167000,074871,088763,088879,075562,089989,090293
0000000169,0000168000,075280,086079,091153,076200,086850,092794
0000000170,0000169000,076549,083205,092759,077811,083536,094497
0000000171,0000170000,078561,080408,093544,080240,080366,095237
0000000172,0000171000,081118,077959,093436,083250,077651,094943
0000000173,0000172000,083960,076111,092443,086541,075659,093643
0000000174,0000173000,086812,075039,090661,089794,074585,091465
0000000175,0000174000,089408,074845,088260,092693,074533,088618
0000000176,0000175000,091481,075551,085481,094952,075507,085385
0000000177,0000176000,092826,077085,082602,096348,077411,082085
0000000178,0000177000,093320,079301,079892,096747,080063,079034
0000000179,0000178000,092911,081985,077617,096109,083201,076533
0000000180,0000179000,091640,084863,076010,094499,086514,074830
0000000181,0000180000,089632,087657,075224,092072,089682,074090
0000000182,0000181000,087075,090107,075331,089063,092397,074383
0000000183,0000182000,084230,091960,076323,085773,094389,075682
0000000184,0000183000,081378,093031,078104,082521,095463,077859
0000000185,0000184000,078784,093224,080505,079623,095517,080704
0000000186,0000185000,076707,092522,083285,077364,094544,083936
0000000187,0000186000,075360,090989,086164,075968,092641,087235
0000000188,0000187000,074868,088770,088875,075568,089990,090285
0000000189,0000188000,075274,086087,091151,076204,086854,092786
0000000190,0000189000,076543,083211,092760,077814,083541,094489
0000000191,0000190000,078554,080412,093547,080240,080374,095230
0000000192,0000191000,081110,077962,093441,083247,077660,094937
0000000193,0000192000,083953,076111,092449,086536,075668,093640
0000000194,0000193000,086808,075036,090669,089787,074593,091464
0000000195,0000194000,089404,074841,088268,092684,074539,088620
0000000196,0000195000,091479,075545,085488,094943,075511,085390
0000000197,0000196000,092829,077077,082608,096339,077412,082092
0000000198,0000197000,093324,079293,079896,096739,080062,079043
0000000199,0000198000,092916,081978,077619,096104,083197,076543
0000000200,0000199000,091648,084856,076009,094497,086508,074839
0000000201,0000200000,089640,087652,075220,092072,089674,074098
0000000202,0000201000,087082,090105,075326,089066,092388,074389
0000000203,0000202000,084237,091960,076316,085779,094380,075685
0000000204,0000203000,081384,093033,078096,082529,095455,077860
0000000205,0000204000,078787,093230,080497,079632,095510,080702
0000000206,0000205000,076707,092529,083277,077374,094539,083931
0000000207,0000206000,075359,090996,086158,075977,092639,087228
0000000208,0000207000,074863,088779,088871,075576,089992,090276
0000000209,0000208000,075267,086096,091149,076210,086858,092775
0000000210,0000209000,076535,083217,092760,077816,083548,094479
0000000211,0000210000,078545,080417,093551,080240,080383,095221
0000000212,0000211000,081101,077966,093447,083243,077670,094930
0000000213,0000212000,083946,076110,092457,086530,075678,093636
0000000214,0000213000,086802,075033,090678,089778,074603,091463
0000000215,0000214000,089399,074836,088277,092674,074547,088623
0000000216,0000215000,091478,075537,085497,094932,075516,085396
0000000217,0000216000,092831,077067,082615,096329,077414,082100
0000000218,0000217000,093328,079284,079901,096730,080060,079053
0000000219,0000218000,092923,081969,077621,096098,083192,076554
0000000220,0000219000,091658,084847,076008,094494,086500,074850
0000000221,0000220000,089650,087647,075217,092072,089664,074107
0000000222,0000221000,087091,090102,075319,089070,092377,074397
0000000223,0000222000,084246,091959,076307,085786,094368,075690
0000000224,0000223000,081391,093036,078086,082539,095444,077861
0000000225,0000224000,078790,093236,080487,079643,095501,080699
0000000226,0000225000,076709,092537,083267,077386,094534,083924
0000000227,0000226000,075357,091006,086150,075988,092637,087218
0000000228,0000227000,074857,088790,088865,075586,089993,090264
0000000229,0000228000,075259,086106,091147,076217,086863,092763
0000000230,0000229000,076526,083225,092762,077820,083557,094467
0000000231,0000230000,078534,080424,093555,080239,080394,095211
0000000232,0000231000,081090,077970,093454,083239,077682,094922
0000000233,0000232000,083937,076110,092466,086522,075690,093631
0000000234,0000233000,086794,075030,090689,089767,074614,091462
0000000235,0000234000,089394,074830,088288,092662,074556,088626
0000000236,0000235000,091478,075528,085507,094919,075522,085403
0000000237,0000236000,092833,077056,082624,096317,077417,082110
0000000238,0000237000,093333,079273,079907,096720,080058,079065
0000000239,0000238000,092932,081958,077623,096091,083186,076567
0000000240,0000239000,091669,084837,076007,094490,086491,074863
0000000241,0000240000,089661,087640,075212,092072,089652,074119
0000000242,0000241000,087103,090098,075311,089075,092363,074405
0000000243,0000242000,084257,091958,076297,085794,094355,075695
0000000244,0000243000,081399,093040,078074,082550,095432,077861
0000000245,0000244000,078795,093243,080474,079657,095491,080696
0000000246,0000245000,076711,092546,083256,077400,094527,083917
0000000247,0000246000,075355,091017,086141,076001,092635,087208
0000000248,0000247000,074851,088803,088859,075597,089995,090251
0000000249,0000248000,075251,086118,091144,076225,086869,092749
0000000250,0000249000,076515,083236,092763,077823,083567,094453
0000000251,0000250000,078521,080432,093560,080238,080407,095198
0000000252,0000251000,081077,077974,093462,083234,077697,094913
0000000253,0000252000,083926,076110,092478,086513,075705,093626
0000000254,0000253000,086785,075026,090701,089755,074628,091462
0000000255,0000254000,089389,074822,088301,092647,074567,088630
0000000256,0000255000,091477,075517,085519,094904,075529,085411
0000000257,0000256000,092836,077044,082634,096303,077419,082122
0000000258,0000257000,093340,079260,079914,096708,080056,079079
0000000259,0000258000,092942,081945,077626,096082,083179,076582
0000000260,0000259000,091681,084826,076006,094486,086480,074878
0000000261,0000260000,089674,087632,075206,092073,089638,074132
0000000262,0000261000,087117,090094,075302,089080,092348,074415
0000000263,0000262000,084270,091958,076285,085804,094339,075700
0000000264,0000263000,081408,093044,078061,082564,095418,077862
0000000265,0000264000,078801,093252,080460,079672,095480,080692
0000000266,0000265000,076713,092557,083243,077416,094520,083908
0000000267,0000266000,075351,091031,086130,076017,092632,087195
0000000268,0000267000,074844,088817,088851,075610,089998,090236
0000000269,0000268000,075240,086131,091141,076234,086877,092733
0000000270,0000269000,076501,083248,092764,077828,083579,094437
0000000271,0000270000,078506,080442,093566,080238,080422,095184
0000000272,0000271000,081063,077978,093472,083228,077713,094902
0000000273,0000272000,083913,076110,092491,086502,075722,093620
0000000274,0000273000,086774,075022,090716,089740,074643,091460
0000000275,0000274000,089383,074813,088317,092631,074579,088634
0000000276,0000275000,091475,075504,085533,094887,075537,085420
0000000277,0000276000,092838,077029,082645,096286,077422,082135
0000000278,0000277000,093347,079244,079922,096695,080053,079096
0000000279,0000278000,092954,081929,077630,096072,083171,076600
0000000280,0000279000,091695,084814,076004,094481,086467,074895
0000000281,0000280000,089690,087623,075200,092074,089622,074147
0000000282,0000281000,087133,090088,075292,089087,092330,074427
0000000283,0000282000,084283,091958,076271,085815,094321,075707
0000000284,0000283000,081419,093049,078045,082579,095401,077863
0000000285,0000284000,078809,093261,080444,079690,095467,080687
0000000286,0000285000,076715,092570,083228,077434,094511,083898
0000000287,0000286000,075348,091048,086117,076034,092629,087181
0000000288,0000287000,074836,088834,088843,075624,090001,090219
0000000289,0000288000,075228,086147,091137,076244,086885,092714
0000000290,0000289000,076485,083262,092766,077833,083592,094419
0000000291,0000290000,078489,080452,093572,080237,080439,095168
0000000292,0000291000,081047,077983,093483,083221,077732,094890
0000000293,0000292000,083897,076110,092505,086490,075741,093613
0000000294,0000293000,086762,075017,090733,089724,074660,091459
0000000295,0000294000,089375,074803,088334,092612,074593,088639
0000000296,0000295000,091473,075490,085550,094867,075546,085431
0000000297,0000296000,092842,077013,082659,096268,077425,082151
0000000298,0000297000,093356,079226,079931,096679,080050,079115
0000000299,0000298000,092967,081912,077634,096061,083162,076620
0000000300,0000299000,091711,084799,076003,094476,086453,074915
0000000301,0000300000,089708,087612,075193,092075,089604,074164
