DIgSILENT PowerFactory,21000900,2000
6,06A,00D
1,TTPP_200000_100:Secondary Voltage A,,,V,0.010000000,-71.427170,0.000000,-85630,99998,1,1,P
2,TTPP_200000_100:Secondary Voltage B,,,V,0.010000000,-58.159317,0.000000,-87944,99998,1,1,P
3,TTPP_200000_100:Secondary Voltage C,,,V,0.10000000,-8913.605469,0.000000,78900,99998,1,1,P
4,TTCC_300_1:Secondary Current A,,,A,0.00010000000,-3.900980,0.000000,-51257,99998,1,1,P
5,TTCC_300_1:Secondary Current B,,,A,0.00010000000,-4.950339,0.000000,-1021,99998,1,1,P
6,TTCC_300_1:Secondary Current C,,,A,0.00010000000,-4.877542,0.000000,-2433,99998,1,1,P
50
1
1000.000000,1101
30/06/2023,06:02:35.000000
30/06/2023,06:02:35.000000
ASCII
1.000000
0000000001,0000000000,078208,020568,080554,018073,035522,083693
0000000002,0000001000,056859,047755,079970,027828,026239,083223
0000000003,0000002000,030492,071015,080282,038664,019243,079382
0000000004,0000003000,001915,087824,081458,049537,015202,072549
0000000005,0000004000,-26072,096487,083391,059386,014519,063383
0000000006,0000005000,-50960,096396,085888,067238,017267,052784
0000000007,0000006000,-70115,087483,088695,072327,023159,041802
0000000008,0000007000,-81541,070390,091547,074152,031634,031504
0000000009,0000008000,-84433,047050,094169,072525,041878,022886
0000000010,0000009000,-78478,019839,096296,067633,052849,016807
0000000011,0000010000,-63980,-08884,097718,059946,063480,013863
0000000012,0000011000,-42438,-36264,098303,050185,072770,014333
0000000013,0000012000,-16209,-59382,097991,039337,079779,018172
0000000014,0000013000,012300,-76115,096814,028472,083810,025006
0000000015,0000014000,040436,-84931,094881,018623,084494,034173
0000000016,0000015000,065212,-84743,092385,010766,081751,044771
0000000017,0000016000,084285,-75738,089577,005687,075849,055752
0000000018,0000017000,095942,-58874,086725,003865,067373,066051
0000000019,0000018000,098802,-35503,084103,005475,057145,074669
0000000020,0000019000,092629,-08074,081976,010371,046169,080749
0000000021,0000020000,078242,020540,080554,018072,035524,083693
0000000022,0000021000,056816,047797,079970,027824,026243,083222
0000000023,0000022000,030448,071055,080281,038670,019237,079382
0000000024,0000023000,001960,087781,081458,049542,015198,072549
0000000025,0000024000,-26051,096463,083391,059384,014522,063383
0000000026,0000025000,-50982,096424,085888,067238,017266,052784
0000000027,0000026000,-70109,087476,088695,072329,023157,041802
0000000028,0000027000,-81551,070399,091547,074151,031634,031504
0000000029,0000028000,-84462,047077,094170,072530,041873,022886
0000000030,0000029000,-78452,019813,096296,067637,052845,016806
0000000031,0000030000,-63943,-08918,097718,059944,063482,013862
0000000032,0000031000,-42473,-36232,098303,050186,072769,014333
0000000033,0000032000,-16240,-59351,097991,039341,079776,018172
0000000034,0000033000,012327,-76148,096814,028476,083808,025005
0000000035,0000034000,040441,-84936,094881,018626,084492,034171
0000000036,0000035000,065202,-84732,092384,010768,081751,044770
0000000037,0000036000,084310,-75761,089577,005688,075849,055751
0000000038,0000037000,095932,-58864,086725,003866,067373,066049
0000000039,0000038000,098768,-35473,084103,005477,057144,074667
0000000040,0000039000,092658,-08098,081976,010375,046167,080747
0000000041,0000040000,078274,020507,080554,018072,035525,083691
0000000042,0000041000,056795,047824,079970,027822,026246,083221
0000000043,0000042000,030436,071069,080281,038671,019236,079382
0000000044,0000043000,001981,087763,081458,049543,015197,072548
0000000045,0000044000,-26062,096475,083391,059383,014522,063383
0000000046,0000045000,-50985,096431,085888,067239,017265,052784
0000000047,0000046000,-70078,087452,088694,072329,023157,041803
0000000048,0000047000,-81566,070413,091547,074149,031635,031505
0000000049,0000048000,-84495,047112,094170,072532,041870,022887
0000000050,0000049000,-78435,019795,096296,067641,052841,016807
0000000051,0000050000,-63925,-08936,097718,059944,063482,013863
0000000052,0000051000,-42497,-36211,098303,050187,072768,014333
0000000053,0000052000,-16242,-59348,097991,039345,079772,018172
0000000054,0000053000,012338,-76163,096814,028478,083807,025005
0000000055,0000054000,040418,-84920,094882,018629,084490,034170
0000000056,0000055000,065202,-84733,092385,010773,081748,044768
0000000057,0000056000,084341,-75795,089577,005690,075849,055749
0000000058,0000057000,095923,-58856,086725,003867,067374,066047
0000000059,0000058000,098746,-35452,084103,005481,057143,074664
0000000060,0000059000,092681,-08119,081976,010378,046167,080744
0000000061,0000060000,078288,020494,080554,018072,035528,083689
0000000062,0000061000,056783,047840,079969,027822,026248,083219
0000000063,0000062000,030451,071060,080281,038671,019238,079380
0000000064,0000063000,001993,087754,081457,049540,015200,072548
0000000065,0000064000,-26084,096502,083390,059381,014524,063383
0000000066,0000065000,-50982,096434,085887,067239,017264,052785
0000000067,0000066000,-70052,087432,088694,072327,023157,041805
0000000068,0000067000,-81581,070431,091547,074145,031636,031508
0000000069,0000068000,-84515,047135,094170,072532,041867,022890
0000000070,0000069000,-78425,019784,096296,067642,052837,016810
0000000071,0000070000,-63932,-08933,097719,059944,063479,013866
0000000072,0000071000,-42518,-36194,098303,050190,072763,014335
0000000073,0000072000,-16232,-59363,097992,039348,079767,018173
0000000074,0000073000,012339,-76171,096815,028480,083804,025005
0000000075,0000074000,040391,-84901,094883,018634,084486,034169
0000000076,0000075000,065206,-84743,092385,010780,081744,044765
0000000077,0000076000,084362,-75823,089578,005695,075849,055745
0000000078,0000077000,095914,-58852,086726,003870,067376,066042
0000000079,0000078000,098745,-35451,084103,005485,057144,074659
0000000080,0000079000,092704,-08142,081976,010379,046170,080739
0000000081,0000080000,078289,020495,080553,018072,035533,083685
0000000082,0000081000,056780,047849,079969,027822,026252,083215
0000000083,0000082000,030479,071043,080280,038669,019242,079378
0000000084,0000083000,002003,087753,081456,049535,015206,072548
0000000085,0000084000,-26100,096528,083389,059377,014528,063384
0000000086,0000085000,-50974,096435,085886,067235,017265,052788
0000000087,0000086000,-70041,087428,088693,072321,023158,041810
0000000088,0000087000,-81600,070455,091546,074141,031635,031513
0000000089,0000088000,-84523,047147,094169,072529,041864,022896
0000000090,0000089000,-78420,019779,096296,067640,052833,016816
0000000091,0000090000,-63956,-08915,097719,059944,063474,013871
0000000092,0000091000,-42538,-36181,098304,050194,072755,014339
0000000093,0000092000,-16224,-59381,097993,039353,079760,018175
0000000094,0000093000,012330,-76175,096816,028485,083799,025005
0000000095,0000094000,040369,-84891,094884,018641,084481,034167
0000000096,0000095000,065214,-84762,092387,010788,081739,044762
0000000097,0000096000,084372,-75844,089579,005701,075848,055739
0000000098,0000097000,095906,-58852,086727,003876,067376,066035
0000000099,0000098000,098759,-35467,084103,005490,057146,074652
0000000100,0000099000,092729,-08166,081976,010381,046175,080732
0000000101,0000100000,078289,020499,080553,018072,035540,083678
0000000102,0000101000,056789,047850,079968,027821,026259,083210
0000000103,0000102000,030508,071026,080278,038664,019250,079375
0000000104,0000103000,002009,087761,081455,049528,015214,072547
0000000105,0000104000,-26105,096549,083388,059369,014533,063386
0000000106,0000105000,-50961,096437,085885,067227,017269,052792
0000000107,0000106000,-70042,087439,088692,072313,023160,041816
0000000108,0000107000,-81621,070485,091545,074134,031634,031521
0000000109,0000108000,-84528,047156,094169,072525,041859,022905
0000000110,0000109000,-78426,019783,096296,067637,052827,016825
0000000111,0000110000,-63987,-08892,097720,059944,063465,013879
0000000112,0000111000,-42556,-36173,098305,050198,072745,014345
0000000113,0000112000,-16226,-59395,097994,039360,079750,018179
0000000114,0000113000,012311,-76175,096818,028493,083790,025006
0000000115,0000114000,040354,-84894,094886,018652,084472,034164
0000000116,0000115000,065224,-84789,092388,010799,081734,044756
0000000117,0000116000,084374,-75862,089581,005711,075846,055731
0000000118,0000117000,095904,-58860,086728,003886,067377,066025
0000000119,0000118000,098784,-35495,084103,005497,057150,074640
0000000120,0000119000,092754,-08189,081976,010384,046184,080721
0000000121,0000120000,078297,020499,080552,018072,035550,083667
0000000122,0000121000,056812,047843,079966,027818,026269,083202
0000000123,0000122000,030537,071015,080276,038657,019262,079370
0000000124,0000123000,002015,087776,081453,049518,015225,072545
0000000125,0000124000,-26099,096567,083385,059358,014542,063388
0000000126,0000125000,-50947,096444,085882,067215,017275,052799
0000000127,0000126000,-70052,087465,088691,072300,023163,041826
0000000128,0000127000,-81642,070518,091544,074125,031632,031533
0000000129,0000128000,-84535,047169,094168,072518,041853,022918
0000000130,0000129000,-78446,019799,096297,067633,052818,016838
0000000131,0000130000,-64023,-08866,097721,059945,063453,013890
0000000132,0000131000,-42576,-36169,098307,050204,072730,014354
0000000133,0000132000,-16241,-59403,097997,039368,079736,018184
0000000134,0000133000,012284,-76174,096821,028505,083777,025007
0000000135,0000134000,040344,-84908,094888,018667,084461,034161
0000000136,0000135000,065232,-84821,092391,010814,081727,044748
0000000137,0000136000,084374,-75882,089583,005725,075844,055720
0000000138,0000137000,095912,-58880,086729,003899,067379,066011
0000000139,0000138000,098815,-35532,084104,005507,057157,074625
0000000140,0000139000,092780,-08213,081975,010389,046195,080705
0000000141,0000140000,078317,020492,080551,018072,035564,083654
0000000142,0000141000,056847,047828,079964,027813,026285,083191
0000000143,0000142000,030567,071011,080274,038647,019279,079364
0000000144,0000143000,002025,087795,081450,049504,015240,072544
0000000145,0000144000,-26084,096583,083382,059343,014553,063392
0000000146,0000145000,-50935,096461,085880,067197,017283,052808
0000000147,0000146000,-70067,087503,088688,072284,023166,041839
0000000148,0000147000,-81662,070554,091542,074111,031629,031549
0000000149,0000148000,-84550,047191,094168,072508,041845,022936
0000000150,0000149000,-78479,019827,096297,067627,052806,016856
0000000151,0000150000,-64063,-08839,097722,059946,063437,013906
0000000152,0000151000,-42602,-36166,098309,050210,072712,014366
0000000153,0000152000,-16269,-59405,098000,039379,079718,018192
0000000154,0000153000,012252,-76176,096824,028521,083760,025008
0000000155,0000154000,040333,-84933,094892,018686,084446,034156
0000000156,0000155000,065234,-84857,092394,010833,081717,044738
0000000157,0000156000,084374,-75909,089585,005744,075840,055705
0000000158,0000157000,095930,-58916,086731,003916,067381,065992
0000000159,0000158000,098851,-35575,084105,005518,057165,074605
0000000160,0000159000,092810,-08239,081975,010394,046209,080685
0000000161,0000160000,078351,020475,080549,018072,035582,083636
0000000162,0000161000,056893,047808,079962,027806,026305,083177
0000000163,0000162000,030600,071011,080271,038633,019300,079355
0000000164,0000163000,002044,087816,081446,049487,015260,072542
0000000165,0000164000,-26063,096602,083378,059322,014569,063397
0000000166,0000165000,-50928,096489,085876,067175,017294,052819
0000000167,0000166000,-70083,087550,088685,072262,023171,041856
0000000168,0000167000,-81682,070596,091540,074094,031625,031570
0000000169,0000168000,-84576,047224,094167,072495,041835,022959
0000000170,0000169000,-78525,019867,096298,067620,052790,016878
0000000171,0000170000,-64109,-08810,097724,059947,063416,013926
0000000172,0000171000,-42637,-36160,098312,050218,072688,014382
0000000173,0000172000,-16310,-59404,098004,039393,079694,018201
0000000174,0000173000,012216,-76184,096829,028542,083737,025010
0000000175,0000174000,040321,-84965,094896,018710,084428,034151
0000000176,0000175000,065232,-84897,092398,010858,081706,044725
0000000177,0000176000,084377,-75947,089589,005768,075835,055685
0000000178,0000177000,095957,-58965,086733,003936,067383,065968
0000000179,0000178000,098891,-35626,084106,005533,057176,074579
0000000180,0000179000,092848,-08272,081974,010402,046227,080659
0000000181,0000180000,078400,020447,080547,018072,035604,083613
0000000182,0000181000,056948,047787,079958,027798,026332,083160
0000000183,0000182000,030639,071015,080266,038617,019327,079345
0000000184,0000183000,002074,087836,081441,049465,015284,072540
0000000185,0000184000,-26036,096627,083373,059296,014589,063404
0000000186,0000185000,-50923,096531,085871,067147,017308,052834
0000000187,0000186000,-70101,087606,088681,072236,023176,041877
0000000188,0000187000,-81704,070645,091538,074071,031621,031596
0000000189,0000188000,-84613,047272,094166,072478,041823,022988
0000000190,0000189000,-78581,019916,096298,067612,052770,016907
0000000191,0000190000,-64162,-08779,097726,059948,063389,013951
0000000192,0000191000,-42686,-36149,098316,050228,072659,014402
0000000193,0000192000,-16363,-59401,098009,039411,079664,018213
0000000194,0000193000,012177,-76200,096834,028567,083709,025012
0000000195,0000194000,040304,-85005,094902,018740,084406,034144
0000000196,0000195000,065224,-84943,092404,010889,081691,044709
0000000197,0000196000,084386,-75998,089593,005798,075829,055661
0000000198,0000197000,095992,-59029,086736,003962,067387,065939
0000000199,0000198000,098937,-35684,084107,005551,057190,074547
0000000200,0000199000,092898,-08315,081974,010411,046249,080628
0000000201,0000200000,078463,020410,080545,018071,035633,083585
0000000202,0000201000,057012,047764,079954,027786,026364,083138
0000000203,0000202000,030687,071020,080261,038597,019361,079332
0000000204,0000203000,002115,087858,081435,049437,015314,072537
0000000205,0000204000,-26005,096659,083367,059263,014613,063412
0000000206,0000205000,-50920,096586,085866,067112,017325,052852
0000000207,0000206000,-70118,087671,088677,072204,023182,041903
0000000208,0000207000,-81732,070706,091534,074044,031617,031629
0000000209,0000208000,-84662,047334,094165,072458,041808,023023
0000000210,0000209000,-78647,019974,096299,067602,052746,016941
0000000211,0000210000,-64226,-08742,097729,059949,063357,013982
0000000212,0000211000,-42750,-36131,098320,050240,072623,014425
0000000213,0000212000,-16426,-59398,098014,039434,079628,018227
0000000214,0000213000,012132,-76222,096841,028598,083676,025015
0000000215,0000214000,040280,-85051,094909,018776,084379,034135
0000000216,0000215000,065214,-84997,092410,010926,081673,044689
0000000217,0000216000,084400,-76064,089598,005834,075822,055632
0000000218,0000217000,096033,-59106,086739,003992,067392,065904
0000000219,0000218000,098990,-35752,084108,005573,057207,074508
0000000220,0000219000,092962,-08370,081973,010422,046276,080590
0000000221,0000220000,078540,020363,080541,018070,035667,083552
0000000222,0000221000,057086,047739,079949,027773,026404,083113
0000000223,0000222000,030748,071026,080254,038572,019400,079316
0000000224,0000223000,002168,087881,081427,049404,015350,072534
0000000225,0000224000,-25971,096701,083359,059224,014643,063421
0000000226,0000225000,-50917,096652,085859,067071,017344,052873
0000000227,0000226000,-70136,087747,088671,072165,023189,041935
0000000228,0000227000,-81768,070781,091530,074011,031611,031667
0000000229,0000228000,-84724,047411,094163,072434,041790,023065
0000000230,0000229000,-78723,020041,096300,067590,052716,016982
0000000231,0000230000,-64303,-08699,097732,059950,063320,014018
0000000232,0000231000,-42830,-36106,098326,050254,072581,014453
0000000233,0000232000,-16501,-59394,098022,039460,079585,018243
0000000234,0000233000,012079,-76251,096849,028634,083636,025019
0000000235,0000234000,040247,-85102,094917,018818,084347,034124
0000000236,0000235000,065202,-85062,092418,010971,081652,044666
0000000237,0000236000,084420,-76146,089605,005877,075814,055598
0000000238,0000237000,096079,-59195,086744,004028,067399,065862
0000000239,0000238000,099052,-35832,084110,005598,057227,074462
0000000240,0000239000,093041,-08438,081972,010436,046308,080545
0000000241,0000240000,078632,020308,080538,018069,035708,083512
0000000242,0000241000,057171,047713,079943,027757,026450,083082
0000000243,0000242000,030822,071029,080247,038543,019447,079299
0000000244,0000243000,002231,087906,081418,049365,015393,072531
0000000245,0000244000,-25933,096753,083350,059178,014678,063433
0000000246,0000245000,-50911,096730,085850,067023,017367,052899
0000000247,0000246000,-70154,087835,088664,072119,023197,041972
0000000248,0000247000,-81812,070872,091526,073972,031604,031713
0000000249,0000248000,-84797,047503,094161,072406,041769,023114
0000000250,0000249000,-78810,020119,096301,067577,052681,017031
0000000251,0000250000,-64396,-08645,097736,059952,063275,014061
0000000252,0000251000,-42926,-36075,098332,050271,072531,014486
0000000253,0000252000,-16587,-59393,098030,039492,079534,018262
0000000254,0000253000,012016,-76284,096859,028677,083590,025022
0000000255,0000254000,040207,-85160,094927,018868,084310,034112
0000000256,0000255000,065189,-85140,092427,011023,081627,044638
0000000257,0000256000,084443,-76244,089612,005926,075805,055558
0000000258,0000257000,096131,-59299,086749,004070,067406,065812
0000000259,0000258000,099124,-35926,084112,005628,057251,074409
0000000260,0000259000,093136,-08521,081971,010451,046345,080493
0000000261,0000260000,078738,020244,080534,018067,035756,083466
0000000262,0000261000,057271,047682,079936,027738,026504,083047
0000000263,0000262000,030912,071031,080237,038510,019501,079278
0000000264,0000263000,002305,087936,081408,049319,015443,072527
0000000265,0000264000,-25890,096816,083340,059124,014718,063446
0000000266,0000265000,-50902,096819,085840,066967,017393,052928
0000000267,0000266000,-70174,087936,088656,072066,023207,042016
0000000268,0000267000,-81866,070981,091520,073927,031596,031766
0000000269,0000268000,-84881,047610,094159,072374,041743,023172
0000000270,0000269000,-78911,020208,096302,067561,052641,017087
0000000271,0000270000,-64506,-08581,097741,059954,063224,014110
0000000272,0000271000,-43039,-36037,098340,050292,072473,014523
0000000273,0000272000,-16685,-59392,098040,039529,079476,018284
0000000274,0000273000,011942,-76322,096870,028726,083536,025026
0000000275,0000274000,040157,-85226,094939,018925,084267,034097
0000000276,0000275000,065175,-85231,092437,011084,081599,044606
0000000277,0000276000,084469,-76357,089621,005983,075794,055511
0000000278,0000277000,096188,-59417,086755,004118,067415,065756
0000000279,0000278000,099209,-36036,084115,005663,057278,074348
0000000280,0000279000,093246,-08619,081969,010468,046388,080433
0000000281,0000280000,078859,020170,080529,018064,035811,083414
0000000282,0000281000,057388,047645,079928,027716,026566,083007
0000000283,0000282000,031018,071031,080227,038471,019564,079254
0000000284,0000283000,002390,087971,081396,049266,015500,072523
0000000285,0000284000,-25840,096889,083327,059062,014764,063462
0000000286,0000285000,-50889,096921,085829,066902,017423,052963
0000000287,0000286000,-70198,088053,088646,072005,023218,042065
0000000288,0000287000,-81928,071107,091514,073875,031587,031827
0000000289,0000288000,-84976,047734,094156,072338,041714,023237
0000000290,0000289000,-79025,020310,096303,067543,052595,017151
0000000291,0000290000,-64633,-08505,097746,059957,063165,014166
0000000292,0000291000,-43168,-35993,098348,050315,072407,014566
0000000293,0000292000,-16798,-59391,098051,039570,079409,018309
0000000294,0000293000,011854,-76363,096883,028783,083476,025030
0000000295,0000294000,040099,-85300,094952,018991,084218,034080
0000000296,0000295000,065159,-85337,092449,011153,081567,044569
0000000297,0000296000,084498,-76487,089631,006048,075783,055458
0000000298,0000297000,096253,-59552,086762,004172,067425,065691
0000000299,0000298000,099307,-36165,084118,005701,057309,074278
0000000300,0000299000,093373,-08732,081968,010486,046437,080365
0000000301,0000300000,078996,020087,080523,018061,035874,083354
