DIgSILENT PowerFactory,21000900,2000
6,06A,00D
1,TTPP_200000_100:Secondary Voltage A,,,V,0.10000000,-8522.344727,0.000000,72078,99998,1,1,P
2,TTPP_200000_100:Secondary Voltage B,,,V,0.10000000,-8635.294922,0.000000,72563,99998,1,1,P
3,TTPP_200000_100:Secondary Voltage C,,,V,0.10000000,-8384.596680,0.000000,66164,99998,1,1,P
4,TTCC_300_1:Secondary Current A,,,A,0.00010000000,-5.395701,0.000000,-12363,99998,1,1,P
5,TTCC_300_1:Secondary Current B,,,A,0.00010000000,-4.858875,0.000000,-3201,99998,1,1,P
6,TTCC_300_1:Secondary Current C,,,A,0.00010000000,-4.996531,0.000000,-203,99998,1,1,P
50
1
1000.000000,1101
30/06/2023,06:12:02.000000
30/06/2023,06:12:02.000000
ASCII
1.000000
0000000001,0000000000,092330,087828,075265,033027,034599,084885
0000000002,0000001000,090196,090545,074680,042779,025322,084411
0000000003,0000002000,087554,092877,074991,053619,018323,080569
0000000004,0000003000,084699,094554,076168,064498,014280,073733
0000000005,0000004000,081905,095416,078101,074341,013605,064564
0000000006,0000005000,079417,095408,080598,082189,016358,053965
0000000007,0000006000,077496,094522,083404,087275,022252,042984
0000000008,0000007000,076352,092813,086258,089099,030727,032686
0000000009,0000008000,076067,090475,088879,087474,040968,024069
0000000010,0000009000,076664,087753,091005,082577,051943,017991
0000000011,0000010000,078112,084883,092427,074883,062577,015051
0000000012,0000011000,080266,082144,093012,065124,071862,015524
0000000013,0000012000,082887,079836,092700,054275,078870,019366
0000000014,0000013000,085738,078161,091523,043410,082899,026202
0000000015,0000014000,088553,077278,089591,033566,083575,035371
0000000016,0000015000,091032,077296,087094,025708,080834,045969
0000000017,0000016000,092939,078196,084286,020628,074931,056951
0000000018,0000017000,094101,079887,081435,018810,066451,067249
0000000019,0000018000,094386,082223,078813,020426,056220,075865
0000000020,0000019000,093774,084963,076686,025324,045244,081942
0000000021,0000020000,092336,087823,075264,033026,034601,084885
0000000022,0000021000,090189,090552,074680,042777,025324,084411
0000000023,0000022000,087553,092878,074992,053627,018317,080568
0000000024,0000023000,084706,094548,076168,064498,014280,073732
0000000025,0000024000,081903,095418,078101,074338,013608,064565
0000000026,0000025000,079410,095414,080598,082193,016353,053965
0000000027,0000026000,077502,094516,083405,087281,022247,042983
0000000028,0000027000,076355,092811,086257,089095,030730,032686
0000000029,0000028000,076059,090483,088880,087475,040967,024069
0000000030,0000029000,076665,087752,091005,082583,051936,017991
0000000031,0000030000,078119,084876,092427,074883,062578,015050
0000000032,0000031000,080261,082150,093012,065123,071863,015524
0000000033,0000032000,082884,079838,092700,054281,078865,019365
0000000034,0000033000,085744,078155,091523,043414,082896,026201
0000000035,0000034000,088552,077279,089591,033565,083578,035369
0000000036,0000035000,091027,077301,087094,025711,080832,045969
0000000037,0000036000,092943,078193,084287,020633,074929,056950
0000000038,0000037000,094103,079884,081435,018811,066453,067247
0000000039,0000038000,094382,082227,078812,020426,056221,075864
0000000040,0000039000,093775,084962,076686,025328,045241,081941
0000000041,0000040000,092338,087820,075264,033026,034602,084883
0000000042,0000041000,090187,090555,074680,042777,025325,084409
0000000043,0000042000,087553,092878,074991,053628,018316,080568
0000000044,0000043000,084709,094545,076168,064498,014280,073732
0000000045,0000044000,081901,095420,078101,074337,013609,064564
0000000046,0000045000,079410,095415,080597,082194,016352,053965
0000000047,0000046000,077504,094514,083405,087280,022247,042984
0000000048,0000047000,076353,092812,086257,089095,030730,032687
0000000049,0000048000,076058,090485,088879,087477,040964,024070
0000000050,0000049000,076667,087750,091005,082584,051934,017993
0000000051,0000050000,078117,084877,092428,074883,062576,015051
0000000052,0000051000,080258,082152,093012,065127,071860,015524
0000000053,0000052000,082887,079836,092700,054284,078862,019366
0000000054,0000053000,085744,078154,091524,043414,082896,026201
0000000055,0000054000,088548,077282,089592,033568,083575,035368
0000000056,0000055000,091029,077299,087094,025716,080828,045967
0000000057,0000056000,092945,078190,084287,020634,074929,056948
0000000058,0000057000,094100,079887,081436,018812,066454,067245
0000000059,0000058000,094382,082228,078813,020431,056219,075861
0000000060,0000059000,093779,084957,076686,025329,045243,081939
0000000061,0000060000,092337,087821,075264,033025,034606,084880
0000000062,0000061000,090185,090558,074680,042779,025325,084407
0000000063,0000062000,087557,092875,074991,053628,018317,080566
0000000064,0000063000,084710,094545,076168,064494,014285,073732
0000000065,0000064000,081898,095425,078100,074336,013610,064565
0000000066,0000065000,079412,095414,080597,082194,016351,053966
0000000067,0000066000,077507,094511,083404,087276,022248,042987
0000000068,0000067000,076349,092817,086257,089092,030730,032689
0000000069,0000068000,076057,090486,088879,087478,040960,024073
0000000070,0000069000,076670,087747,091005,082584,051932,017996
0000000071,0000070000,078115,084880,092428,074882,062575,015054
0000000072,0000071000,080255,082155,093013,065130,071854,015526
0000000073,0000072000,082889,079832,092701,054288,078857,019367
0000000074,0000073000,085744,078154,091525,043417,082894,026201
0000000075,0000074000,088545,077285,089592,033574,083571,035367
0000000076,0000075000,091031,077296,087095,025723,080825,045964
0000000077,0000076000,092947,078187,084288,020637,074930,056944
0000000078,0000077000,094098,079889,081436,018816,066454,067240
0000000079,0000078000,094384,082226,078813,020436,056219,075856
0000000080,0000079000,093782,084954,076686,025331,045247,081934
0000000081,0000080000,092336,087823,075264,033025,034611,084876
0000000082,0000081000,090185,090558,074679,042779,025329,084404
0000000083,0000082000,087560,092872,074990,053625,018322,080564
0000000084,0000083000,084709,094546,076167,064490,014290,073731
0000000085,0000084000,081897,095427,078099,074332,013613,064566
0000000086,0000085000,079414,095413,080596,082189,016353,053969
0000000087,0000086000,077506,094513,083404,087270,022250,042991
0000000088,0000087000,076347,092820,086256,089089,030728,032695
0000000089,0000088000,076058,090485,088879,087476,040956,024079
0000000090,0000089000,076670,087747,091006,082581,051928,018002
0000000091,0000090000,078111,084882,092429,074883,062569,015059
0000000092,0000091000,080255,082154,093013,065134,071846,015530
0000000093,0000092000,082890,079831,092702,054291,078851,019369
0000000094,0000093000,085741,078156,091526,043422,082888,026201
0000000095,0000094000,088544,077284,089593,033582,083565,035365
0000000096,0000095000,091033,077293,087096,025730,080821,045960
0000000097,0000096000,092946,078187,084289,020644,074929,056938
0000000098,0000097000,094097,079889,081436,018824,066454,067233
0000000099,0000098000,094387,082223,078813,020441,056222,075848
0000000100,0000099000,093783,084953,076686,025332,045253,081926
0000000101,0000100000,092335,087824,075263,033026,034617,084869
0000000102,0000101000,090189,090556,074678,042778,025335,084398
0000000103,0000102000,087562,092871,074989,053619,018331,080561
0000000104,0000103000,084708,094549,076165,064483,014298,073730
0000000105,0000104000,081898,095427,078097,074326,013617,064568
0000000106,0000105000,079416,095412,080595,082180,016357,053974
0000000107,0000106000,077504,094516,083402,087262,022252,042997
0000000108,0000107000,076345,092822,086255,089083,030725,032703
0000000109,0000108000,076059,090484,088878,087471,040952,024088
0000000110,0000109000,076668,087749,091006,082578,051923,018011
0000000111,0000110000,078108,084885,092429,074885,062559,015067
0000000112,0000111000,080255,082153,093015,065138,071836,015537
0000000113,0000112000,082888,079830,092704,054296,078842,019373
0000000114,0000113000,085737,078157,091528,043431,082878,026202
0000000115,0000114000,088545,077282,089595,033593,083556,035362
0000000116,0000115000,091034,077290,087098,025740,080817,045955
0000000117,0000116000,092944,078187,084291,020654,074927,056930
0000000118,0000117000,094098,079887,081437,018834,066454,067223
0000000119,0000118000,094390,082219,078813,020447,056227,075837
0000000120,0000119000,093784,084953,076686,025335,045262,081915
0000000121,0000120000,092336,087824,075262,033026,034626,084859
0000000122,0000121000,090192,090554,074676,042774,025347,084391
0000000123,0000122000,087564,092871,074987,053612,018344,080556
0000000124,0000123000,084708,094551,076163,064474,014308,073729
0000000125,0000124000,081900,095427,078095,074315,013626,064570
0000000126,0000125000,079417,095413,080593,082167,016364,053980
0000000127,0000126000,077502,094520,083401,087250,022255,043007
0000000128,0000127000,076345,092824,086254,089074,030723,032715
0000000129,0000128000,076059,090485,088878,087463,040947,024102
0000000130,0000129000,076664,087752,091006,082574,051914,018024
0000000131,0000130000,078106,084887,092430,074886,062546,015079
0000000132,0000131000,080254,082152,093016,065143,071822,015546
0000000133,0000132000,082885,079831,092706,054305,078828,019378
0000000134,0000133000,085735,078157,091530,043444,082864,026203
0000000135,0000134000,088545,077279,089598,033608,083545,035359
0000000136,0000135000,091033,077288,087101,025754,080810,045947
0000000137,0000136000,092944,078186,084293,020669,074924,056918
0000000138,0000137000,094101,079883,081439,018847,066455,067209
0000000139,0000138000,094393,082216,078814,020455,056234,075821
0000000140,0000139000,093785,084952,076686,025340,045272,081899
0000000141,0000140000,092340,087822,075261,033027,034639,084845
0000000142,0000141000,090196,090551,074674,042769,025363,084380
0000000143,0000142000,087565,092873,074985,053601,018360,080549
0000000144,0000143000,084710,094553,076160,064461,014322,073727
0000000145,0000144000,081903,095427,078092,074298,013638,064574
0000000146,0000145000,079416,095416,080590,082149,016373,053989
0000000147,0000146000,077500,094524,083398,087234,022257,043020
0000000148,0000147000,076344,092826,086252,089060,030720,032731
0000000149,0000148000,076056,090488,088878,087452,040940,024119
0000000150,0000149000,076659,087756,091007,082569,051901,018041
0000000151,0000150000,078103,084888,092431,074887,062529,015094
0000000152,0000151000,080251,082152,093019,065149,071804,015558
0000000153,0000152000,082881,079832,092709,054316,078809,019385
0000000154,0000153000,085733,078156,091534,043461,082846,026204
0000000155,0000154000,088545,077276,089601,033626,083531,035355
0000000156,0000155000,091032,077286,087104,025773,080801,045937
0000000157,0000156000,092944,078183,084295,020688,074919,056903
0000000158,0000157000,094104,079878,081441,018863,066457,067190
0000000159,0000158000,094395,082213,078815,020467,056243,075801
0000000160,0000159000,093787,084950,076685,025346,045286,081879
0000000161,0000160000,092345,087818,075259,033027,034657,084827
0000000162,0000161000,090200,090550,074672,042761,025384,084366
0000000163,0000162000,087567,092874,074981,053589,018381,080541
0000000164,0000163000,084713,094553,076156,064444,014341,073726
0000000165,0000164000,081905,095429,078088,074277,013654,064579
0000000166,0000165000,079416,095421,080586,082127,016384,054000
0000000167,0000166000,077500,094528,083395,087214,022261,043037
0000000168,0000167000,076343,092829,086250,089042,030717,032752
0000000169,0000168000,076052,090493,088877,087439,040930,024142
0000000170,0000169000,076655,087760,091007,082563,051884,018064
0000000171,0000170000,078100,084889,092433,074888,062508,015115
0000000172,0000171000,080247,082154,093022,065156,071781,015573
0000000173,0000172000,082876,079833,092713,054331,078785,019395
0000000174,0000173000,085731,078153,091538,043481,082824,026206
0000000175,0000174000,088543,077273,089606,033649,083513,035349
0000000176,0000175000,091031,077283,087108,025799,080789,045924
0000000177,0000176000,092946,078178,084298,020713,074914,056884
0000000178,0000177000,094107,079873,081443,018883,066461,067166
0000000179,0000178000,094397,082209,078816,020481,056254,075775
0000000180,0000179000,093792,084946,076685,025354,045303,081853
0000000181,0000180000,092350,087814,075257,033026,034680,084805
0000000182,0000181000,090204,090549,074669,042752,025411,084348
0000000183,0000182000,087571,092875,074977,053573,018408,080530
0000000184,0000183000,084717,094554,076151,064422,014366,073723
0000000185,0000184000,081907,095432,078083,074250,013675,064586
0000000186,0000185000,079415,095426,080581,082099,016397,054015
0000000187,0000186000,077499,094532,083391,087188,022266,043058
0000000188,0000187000,076341,092834,086248,089019,030714,032778
0000000189,0000188000,076047,090499,088876,087423,040918,024171
0000000190,0000189000,076651,087764,091008,082555,051864,018092
0000000191,0000190000,078095,084892,092436,074888,062483,015140
0000000192,0000191000,080241,082157,093026,065166,071752,015593
0000000193,0000192000,082871,079833,092718,054350,078755,019406
0000000194,0000193000,085728,078151,091544,043506,082796,026209
0000000195,0000194000,088540,077270,089612,033679,083491,035342
0000000196,0000195000,091030,077279,087113,025830,080774,045907
0000000197,0000196000,092948,078172,084303,020743,074908,056860
0000000198,0000197000,094110,079867,081446,018908,066466,067137
0000000199,0000198000,094401,082204,078817,020500,056268,075743
0000000200,0000199000,093798,084941,076684,025364,045325,081822
0000000201,0000200000,092357,087810,075255,033025,034709,084777
0000000202,0000201000,090210,090548,074665,042741,025444,084327
0000000203,0000202000,087577,092874,074971,053553,018440,080518
0000000204,0000203000,084722,094555,076145,064394,014396,073721
0000000205,0000204000,081909,095437,078077,074217,013700,064593
0000000206,0000205000,079416,095431,080576,082065,016413,054033
0000000207,0000206000,077499,094537,083386,087155,022272,043084
0000000208,0000207000,076337,092841,086244,088991,030710,032811
0000000209,0000208000,076042,090506,088874,087403,040902,024206
0000000210,0000209000,076645,087769,091008,082545,051839,018127
0000000211,0000210000,078088,084896,092439,074889,062451,015170
0000000212,0000211000,080233,082159,093030,065178,071716,015616
0000000213,0000212000,082866,079833,092724,054373,078718,019420
0000000214,0000213000,085724,078148,091551,043536,082763,026212
0000000215,0000214000,088537,077267,089619,033714,083464,035333
0000000216,0000215000,091029,077273,087120,025868,080755,045888
0000000217,0000216000,092950,078164,084308,020778,074901,056831
0000000218,0000217000,094113,079860,081450,018938,066471,067102
0000000219,0000218000,094406,082198,078818,020522,056284,075704
0000000220,0000219000,093805,084934,076683,025375,045352,081784
0000000221,0000220000,092364,087806,075252,033024,034744,084743
0000000222,0000221000,090216,090546,074659,042728,025482,084301
0000000223,0000222000,087584,092874,074965,053529,018480,080502
0000000224,0000223000,084727,094558,076137,064360,014433,073718
0000000225,0000224000,081911,095442,078069,074178,013729,064603
0000000226,0000225000,079417,095437,080568,082025,016432,054054
0000000227,0000226000,077497,094544,083381,087116,022279,043116
0000000228,0000227000,076333,092849,086241,088958,030704,032849
0000000229,0000228000,076036,090514,088873,087380,040884,024248
0000000230,0000229000,076638,087775,091009,082533,051810,018168
0000000231,0000230000,078080,084901,092442,074890,062414,015207
0000000232,0000231000,080225,082162,093035,065193,071674,015644
0000000233,0000232000,082859,079832,092731,054399,078675,019437
0000000234,0000233000,085718,078146,091559,043573,082724,026215
0000000235,0000234000,088533,077262,089627,033757,083432,035322
0000000236,0000235000,091029,077266,087127,025913,080734,045864
0000000237,0000236000,092952,078156,084314,020820,074894,056797
0000000238,0000237000,094116,079852,081454,018974,066477,067059
0000000239,0000238000,094413,082189,078820,020548,056304,075659
0000000240,0000239000,093814,084927,076682,025388,045384,081739
0000000241,0000240000,092372,087802,075248,033022,034786,084704
0000000242,0000241000,090225,090544,074653,042712,025528,084271
0000000243,0000242000,087592,092874,074957,053500,018527,080485
0000000244,0000243000,084733,094561,076129,064320,014476,073714
0000000245,0000244000,081915,095447,078060,074132,013764,064615
0000000246,0000245000,079418,095444,080560,081976,016455,054080
0000000247,0000246000,077495,094553,083374,087070,022288,043153
0000000248,0000247000,076327,092859,086236,088919,030698,032895
0000000249,0000248000,076029,090522,088871,087352,040862,024298
0000000250,0000249000,076630,087782,091010,082519,051775,018217
0000000251,0000250000,078070,084907,092446,074892,062370,015249
0000000252,0000251000,080216,082165,093042,065211,071623,015677
0000000253,0000252000,082851,079832,092739,054431,078624,019456
0000000254,0000253000,085711,078143,091568,043615,082678,026218
0000000255,0000254000,088529,077257,089637,033807,083395,035309
0000000256,0000255000,091028,077258,087136,025965,080709,045837
0000000257,0000256000,092954,078147,084322,020870,074885,056757
0000000258,0000257000,094121,079842,081459,019016,066484,067010
0000000259,0000258000,094421,082179,078822,020578,056327,075605
0000000260,0000259000,093823,084918,076681,025402,045422,081687
0000000261,0000260000,092382,087796,075244,033020,034833,084658
0000000262,0000261000,090236,090540,074646,042694,025582,084236
0000000263,0000262000,087601,092873,074948,053466,018581,080464
0000000264,0000263000,084740,094564,076118,064274,014526,073710
0000000265,0000264000,081919,095454,078050,074079,013804,064628
0000000266,0000265000,079420,095453,080550,081920,016481,054110
0000000267,0000266000,077493,094564,083366,087016,022298,043197
0000000268,0000267000,076322,092870,086230,088875,030689,032948
0000000269,0000268000,076022,090532,088868,087320,040837,024355
0000000270,0000269000,076619,087791,091012,082503,051735,018273
0000000271,0000270000,078058,084914,092450,074894,062318,015298
0000000272,0000271000,080205,082168,093049,065231,071565,015714
0000000273,0000272000,082842,079832,092749,054467,078566,019478
0000000274,0000273000,085703,078140,091580,043665,082625,026222
0000000275,0000274000,088524,077250,089648,033865,083352,035295
0000000276,0000275000,091027,077248,087147,026025,080681,045805
0000000277,0000276000,092956,078136,084331,020926,074875,056710
0000000278,0000277000,094127,079831,081465,019064,066493,066954
0000000279,0000278000,094430,082168,078825,020612,056354,075544
0000000280,0000279000,093834,084909,076680,025419,045465,081627
0000000281,0000280000,092394,087789,075239,033018,034888,084605
0000000282,0000281000,090248,090536,074638,042672,025644,084196
0000000283,0000282000,087612,092873,074937,053427,018644,080441
0000000284,0000283000,084748,094568,076106,064222,014583,073706
0000000285,0000284000,081925,095460,078037,074017,013849,064644
0000000286,0000285000,079421,095462,080539,081855,016511,054144
0000000287,0000286000,077490,094576,083357,086956,022309,043246
0000000288,0000287000,076316,092883,086224,088824,030680,033008
0000000289,0000288000,076012,090544,088866,087283,040808,024420
0000000290,0000289000,076607,087802,091013,082485,051689,018336
0000000291,0000290000,078045,084922,092455,074897,062259,015355
0000000292,0000291000,080193,082172,093058,065254,071499,015757
0000000293,0000292000,082830,079832,092761,054509,078500,019503
0000000294,0000293000,085694,078136,091592,043721,082564,026226
0000000295,0000294000,088519,077242,089661,033931,083303,035278
0000000296,0000295000,091026,077237,087159,026094,080650,045768
0000000297,0000296000,092958,078123,084341,020991,074863,056657
0000000298,0000297000,094134,079817,081472,019119,066503,066889
0000000299,0000298000,094440,082154,078828,020651,056386,075474
0000000300,0000299000,093846,084898,076678,025438,045514,081559
0000000301,0000300000,092408,087781,075234,033015,034951,084545
