DIgSILENT PowerFactory,21000900,2000
6,06A,00D
1,TTPP_200000_100:Secondary Voltage A,,,V,0.10000000,-8239.872070,0.000000,67071,99998,1,1,P
2,TTPP_200000_100:Secondary Voltage B,,,V,0.10000000,-8322.539063,0.000000,67954,99998,1,1,P
3,TTPP_200000_100:Secondary Voltage C,,,V,0.10000000,-8306.338867,0.000000,65298,99998,1,1,P
4,TTCC_500_5:Secondary Current A,,,A,0.0010000000,-79.502266,0.000000,65590,99998,1,1,P
5,TTCC_500_5:Secondary Current B,,,A,0.0010000000,-84.437370,0.000000,68995,99998,1,1,P
6,TTCC_500_5:Secondary Current C,,,A,0.0010000000,-84.951218,0.000000,69930,99998,1,1,P
50
1
1000.000000,1101
30/06/2023,06:11:47.000000
30/06/2023,06:11:47.000000
ASCII
1.000000
0000000001,0000000000,087911,086866,073911,085418,089117,074356
0000000002,0000001000,085362,089300,074025,082401,091835,074655
0000000003,0000002000,082514,091152,075023,079105,093826,075960
0000000004,0000003000,079662,092219,076806,075849,094896,078146
0000000005,0000004000,077082,092398,079208,072942,094949,081000
0000000006,0000005000,075010,091692,081986,070682,093969,084240
0000000007,0000006000,073665,090160,084861,069291,092053,087546
0000000008,0000007000,073187,087934,087567,068894,089396,090601
0000000009,0000008000,073600,085251,089836,069534,086253,093104
0000000010,0000009000,074866,082385,091437,071153,082930,094807
0000000011,0000010000,076887,079586,092215,073591,079755,095545
0000000012,0000011000,079445,077140,092102,076605,077040,095246
0000000013,0000012000,082277,075306,091105,079902,075048,093941
0000000014,0000013000,085130,074236,089320,083163,073973,091755
0000000015,0000014000,087727,074042,086919,086064,073925,088901
0000000016,0000015000,089785,074762,084141,088322,074907,085662
0000000017,0000016000,091123,076300,081265,089719,076816,082355
0000000018,0000017000,091621,078508,078560,090115,079475,079300
0000000019,0000018000,091201,081196,076291,089471,082623,076797
0000000020,0000019000,089919,084078,074691,087854,085943,075094
0000000021,0000020000,087917,086859,073911,085420,089115,074356
0000000022,0000021000,085362,089301,074025,082401,091834,074655
0000000023,0000022000,082509,091157,075022,079104,093827,075960
0000000024,0000023000,079665,092216,076806,075847,094898,078146
0000000025,0000024000,077084,092396,079208,072944,094947,081000
0000000026,0000025000,075006,091696,081986,070683,093969,084240
0000000027,0000026000,073666,090160,084861,069289,092056,087546
0000000028,0000027000,073189,087931,087567,068893,089397,090601
0000000029,0000028000,073598,085253,089836,069535,086252,093104
0000000030,0000029000,074867,082385,091436,071153,082931,094807
0000000031,0000030000,076887,079585,092216,073589,079757,095545
0000000032,0000031000,079443,077142,092102,076604,077040,095246
0000000033,0000032000,082278,075305,091105,079903,075047,093941
0000000034,0000033000,085132,074235,089320,083161,073974,091756
0000000035,0000034000,087723,074045,086920,086062,073927,088902
0000000036,0000035000,089785,074761,084141,088323,074906,085662
0000000037,0000036000,091127,076296,081265,089719,076816,082356
0000000038,0000037000,091618,078510,078560,090114,079477,079301
0000000039,0000038000,091198,081199,076291,089471,082623,076797
0000000040,0000039000,089924,084073,074690,087855,085942,075095
0000000041,0000040000,087918,086859,073911,085418,089115,074357
0000000042,0000041000,085356,089306,074025,082401,091834,074655
0000000043,0000042000,082512,091154,075022,079104,093826,075960
0000000044,0000043000,079670,092212,076806,075847,094898,078146
0000000045,0000044000,077079,092401,079208,072943,094948,081000
0000000046,0000045000,075005,091698,081985,070684,093968,084239
0000000047,0000046000,073671,090155,084861,069289,092056,087546
0000000048,0000047000,073187,087934,087567,068892,089398,090601
0000000049,0000048000,073593,085258,089836,069535,086252,093104
0000000050,0000049000,074870,082381,091436,071153,082931,094807
0000000051,0000050000,076888,079584,092216,073588,079758,095545
0000000052,0000051000,079438,077147,092103,076604,077041,095246
0000000053,0000052000,082279,075303,091105,079903,075047,093941
0000000054,0000053000,085135,074231,089321,083160,073975,091756
0000000055,0000054000,087720,074048,086920,086061,073928,088902
0000000056,0000055000,089784,074762,084142,088323,074906,085663
0000000057,0000056000,091131,076292,081265,089718,076817,082356
0000000058,0000057000,091617,078511,078560,090112,079477,079301
0000000059,0000058000,091196,081200,076291,089470,082622,076798
0000000060,0000059000,089927,084070,074690,087854,085941,075095
0000000061,0000060000,087918,086858,073911,085418,089116,074358
0000000062,0000061000,085355,089309,074024,082401,091834,074656
0000000063,0000062000,082514,091152,075021,079105,093825,075961
0000000064,0000063000,079671,092211,076805,075847,094898,078146
0000000065,0000064000,077077,092404,079207,072944,094948,081000
0000000066,0000065000,075006,091697,081984,070684,093968,084239
0000000067,0000066000,073673,090154,084861,069289,092056,087545
0000000068,0000067000,073184,087937,087567,068893,089398,090600
0000000069,0000068000,073593,085259,089836,069536,086252,093103
0000000070,0000069000,074872,082380,091436,071153,082932,094806
0000000071,0000070000,076885,079586,092216,073587,079760,095544
0000000072,0000071000,079436,077148,092103,076604,077042,095246
0000000073,0000072000,082281,075301,091106,079902,075048,093941
0000000074,0000073000,085133,074232,089322,083158,073977,091756
0000000075,0000074000,087717,074049,086921,086060,073928,088902
0000000076,0000075000,089787,074758,084142,088321,074906,085663
0000000077,0000076000,091131,076290,081266,089716,076818,082357
0000000078,0000077000,091614,078513,078561,090111,079477,079303
0000000079,0000078000,091199,081198,076291,089470,082621,076800
0000000080,0000079000,089930,084067,074690,087853,085941,075097
0000000081,0000080000,087916,086860,073911,085417,089115,074359
0000000082,0000081000,085356,089308,074023,082402,091832,074657
0000000083,0000082000,082518,091149,075020,079105,093824,075962
0000000084,0000083000,079670,092214,076804,075848,094897,078146
0000000085,0000084000,077076,092407,079205,072946,094946,080999
0000000086,0000085000,075009,091695,081983,070686,093967,084238
0000000087,0000086000,073672,090155,084860,069290,092057,087544
0000000088,0000087000,073180,087941,087566,068894,089398,090598
0000000089,0000088000,073594,085258,089835,069537,086253,093101
0000000090,0000089000,074872,082379,091436,071153,082934,094804
0000000091,0000090000,076881,079590,092217,073587,079762,095542
0000000092,0000091000,079435,077149,092104,076603,077043,095245
0000000093,0000092000,082282,075298,091107,079900,075051,093940
0000000094,0000093000,085130,074234,089324,083156,073979,091756
0000000095,0000094000,087716,074049,086922,086059,073929,088903
0000000096,0000095000,089789,074754,084144,088319,074907,085665
0000000097,0000096000,091131,076289,081268,089714,076818,082359
0000000098,0000097000,091613,078513,078562,090110,079477,079305
0000000099,0000098000,091202,081194,076291,089469,082620,076802
0000000100,0000099000,089932,084065,074690,087852,085940,075099
0000000101,0000100000,087916,086861,073910,085417,089113,074361
0000000102,0000101000,085359,089306,074022,082403,091829,074658
0000000103,0000102000,082521,091148,075018,079106,093822,075962
0000000104,0000103000,079670,092216,076802,075849,094895,078147
0000000105,0000104000,077077,092408,079203,072948,094944,080999
0000000106,0000105000,075011,091695,081981,070688,093966,084237
0000000107,0000106000,073670,090159,084858,069292,092056,087542
0000000108,0000107000,073179,087944,087564,068896,089398,090596
0000000109,0000108000,073594,085258,089835,069538,086254,093099
0000000110,0000109000,074869,082382,091437,071153,082936,094802
0000000111,0000110000,076877,079593,092218,073587,079764,095540
0000000112,0000111000,079435,077148,092105,076602,077046,095243
0000000113,0000112000,082280,075298,091110,079898,075054,093939
0000000114,0000113000,085126,074235,089326,083154,073982,091756
0000000115,0000114000,087716,074047,086925,086056,073931,088904
0000000116,0000115000,089789,074751,084147,088316,074909,085666
0000000117,0000116000,091129,076289,081270,089710,076819,082361
0000000118,0000117000,091615,078510,078563,090107,079476,079308
0000000119,0000118000,091206,081190,076292,089467,082619,076805
0000000120,0000119000,089933,084064,074690,087851,085938,075102
0000000121,0000120000,087918,086860,073908,085418,089109,074364
0000000122,0000121000,085364,089304,074020,082404,091826,074661
0000000123,0000122000,082523,091148,075016,079108,093819,075964
0000000124,0000123000,079670,092218,076799,075852,094892,078147
0000000125,0000124000,077080,092408,079200,072952,094941,080998
0000000126,0000125000,075012,091697,081979,070691,093964,084235
0000000127,0000126000,073668,090164,084856,069296,092056,087539
0000000128,0000127000,073178,087946,087563,068900,089399,090593
0000000129,0000128000,073593,085260,089834,069540,086256,093095
0000000130,0000129000,074864,082386,091437,071154,082939,094798
0000000131,0000130000,076874,079595,092219,073587,079767,095537
0000000132,0000131000,079433,077147,092108,076601,077050,095240
0000000133,0000132000,082276,075299,091113,079895,075058,093938
0000000134,0000133000,085123,074235,089330,083150,073985,091755
0000000135,0000134000,087716,074043,086928,086052,073934,088905
0000000136,0000135000,089789,074748,084150,088311,074911,085668
0000000137,0000136000,091128,076287,081273,089706,076820,082365
0000000138,0000137000,091618,078505,078565,090104,079475,079312
0000000139,0000138000,091209,081185,076293,089464,082617,076810
0000000140,0000139000,089935,084062,074690,087850,085935,075107
0000000141,0000140000,087923,086858,073907,085418,089105,074368
0000000142,0000141000,085369,089301,074018,082405,091822,074664
0000000143,0000142000,082525,091149,075013,079111,093814,075966
0000000144,0000143000,079673,092220,076795,075856,094887,078147
0000000145,0000144000,077083,092409,079196,072956,094938,080997
0000000146,0000145000,075012,091701,081975,070696,093962,084233
0000000147,0000146000,073666,090169,084853,069301,092055,087536
0000000148,0000147000,073177,087949,087560,068904,089399,090588
0000000149,0000148000,073590,085264,089833,069543,086258,093090
0000000150,0000149000,074859,082391,091437,071155,082942,094793
0000000151,0000150000,076870,079597,092221,073587,079772,095532
0000000152,0000151000,079429,077148,092111,076599,077056,095237
0000000153,0000152000,082270,075301,091117,079892,075064,093936
0000000154,0000153000,085120,074233,089334,083146,073990,091755
0000000155,0000154000,087715,074039,086933,086046,073938,088906
0000000156,0000155000,089787,074746,084155,088305,074914,085671
0000000157,0000156000,091129,076282,081276,089701,076821,082369
0000000158,0000157000,091621,078499,078567,090099,079474,079317
0000000159,0000158000,091212,081181,076294,089460,082615,076816
0000000160,0000159000,089939,084059,074689,087848,085930,075112
0000000161,0000160000,087929,086854,073905,085418,089100,074373
0000000162,0000161000,085374,089299,074014,082407,091816,074668
0000000163,0000162000,082529,091151,075008,079115,093808,075968
0000000164,0000163000,079677,092221,076790,075862,094881,078148
0000000165,0000164000,077086,092411,079191,072962,094933,080996
0000000166,0000165000,075011,091707,081970,070702,093959,084229
0000000167,0000166000,073665,090174,084848,069307,092053,087531
0000000168,0000167000,073176,087954,087558,068909,089400,090582
0000000169,0000168000,073585,085270,089832,069546,086261,093083
0000000170,0000169000,074853,082396,091438,071158,082947,094786
0000000171,0000170000,076865,079599,092223,073587,079778,095527
0000000172,0000171000,079423,077150,092115,076596,077063,095232
0000000173,0000172000,082264,075302,091122,079888,075070,093933
0000000174,0000173000,085117,074230,089340,083140,073996,091754
0000000175,0000174000,087713,074035,086939,086039,073944,088908
0000000176,0000175000,089785,074742,084160,088298,074918,085675
0000000177,0000176000,091131,076276,081281,089694,076822,082375
0000000178,0000177000,091625,078492,078571,090093,079474,079324
0000000179,0000178000,091216,081176,076296,089456,082612,076823
0000000180,0000179000,089945,084054,074688,087846,085925,075120
0000000181,0000180000,087936,086849,073902,085418,089093,074379
0000000182,0000181000,085380,089298,074010,082410,091808,074673
0000000183,0000182000,082534,091151,075002,079119,093800,075971
0000000184,0000183000,079683,092222,076783,075868,094874,078148
0000000185,0000184000,077089,092415,079184,072970,094928,080994
0000000186,0000185000,075011,091713,081963,070711,093955,084225
0000000187,0000186000,073665,090180,084843,069315,092052,087524
0000000188,0000187000,073172,087961,087554,068915,089401,090574
0000000189,0000188000,073579,085278,089830,069551,086265,093075
0000000190,0000189000,074847,082402,091439,071160,082953,094778
0000000191,0000190000,076859,079603,092226,073586,079785,095519
0000000192,0000191000,079415,077153,092120,076593,077071,095227
0000000193,0000192000,082258,075302,091128,079882,075079,093930
0000000194,0000193000,085113,074227,089347,083133,074004,091754
0000000195,0000194000,087709,074031,086947,086030,073950,088910
0000000196,0000195000,089784,074736,084167,088289,074922,085680
0000000197,0000196000,091133,076268,081287,089686,076823,082382
0000000198,0000197000,091629,078484,078575,090086,079473,079333
0000000199,0000198000,091221,081169,076297,089451,082608,076832
0000000200,0000199000,089953,084047,074688,087844,085918,075129
0000000201,0000200000,087945,086843,073899,085419,089085,074387
0000000202,0000201000,085387,089296,074005,082413,091799,074679
0000000203,0000202000,082542,091151,074995,079125,093791,075975
0000000204,0000203000,079689,092224,076775,075876,094866,078149
0000000205,0000204000,077091,092421,079176,072979,094921,080991
0000000206,0000205000,075012,091720,081956,070721,093951,084220
0000000207,0000206000,073664,090187,084836,069324,092050,087517
0000000208,0000207000,073168,087970,087550,068923,089403,090565
0000000209,0000208000,073572,085287,089828,069557,086269,093065
0000000210,0000209000,074840,082408,091439,071163,082960,094768
0000000211,0000210000,076850,079608,092230,073586,079795,095511
0000000212,0000211000,079405,077157,092126,076590,077081,095220
0000000213,0000212000,082250,075301,091136,079876,075089,093926
0000000214,0000213000,085107,074224,089357,083124,074014,091753
0000000215,0000214000,087704,074027,086956,086020,073958,088912
0000000216,0000215000,089783,074728,084176,088278,074927,085686
0000000217,0000216000,091136,076258,081294,089676,076825,082390
0000000218,0000217000,091633,078475,078580,090077,079471,079343
0000000219,0000218000,091228,081160,076299,089445,082603,076843
0000000220,0000219000,089962,084038,074687,087840,085911,075140
0000000221,0000220000,087954,086838,073895,085419,089075,074397
0000000222,0000221000,085396,089293,073998,082417,091788,074686
0000000223,0000222000,082551,091150,074986,079133,093779,075979
0000000224,0000223000,079696,092227,076765,075886,094855,078150
0000000225,0000224000,077095,092427,079165,072990,094912,080988
0000000226,0000225000,075014,091728,081946,070732,093945,084213
0000000227,0000226000,073662,090197,084829,069335,092048,087508
0000000228,0000227000,073162,087981,087544,068932,089405,090554
0000000229,0000228000,073564,085297,089826,069564,086275,093053
0000000230,0000229000,074831,082417,091441,071166,082968,094756
0000000231,0000230000,076839,079615,092234,073585,079806,095500
0000000232,0000231000,079394,077161,092133,076585,077094,095212
0000000233,0000232000,082241,075301,091145,079868,075102,093921
0000000234,0000233000,085099,074221,089367,083113,074025,091752
0000000235,0000234000,087699,074021,086967,086008,073967,088916
0000000236,0000235000,089783,074719,084186,088266,074933,085692
0000000237,0000236000,091138,076247,081302,089663,076828,082400
0000000238,0000237000,091638,078464,078586,090067,079469,079355
0000000239,0000238000,091237,081149,076302,089437,082597,076857
0000000240,0000239000,089973,084028,074686,087837,085901,075153
0000000241,0000240000,087966,086831,073891,085419,089063,074408
0000000242,0000241000,085408,089290,073990,082422,091774,074695
0000000243,0000242000,082562,091150,074976,079141,093766,075984
0000000244,0000243000,079704,092231,076753,075897,094843,078151
0000000245,0000244000,077100,092435,079153,073003,094902,080985
0000000246,0000245000,075015,091737,081935,070746,093939,084206
0000000247,0000246000,073659,090209,084820,069348,092046,087497
0000000248,0000247000,073156,087994,087538,068943,089407,090541
0000000249,0000248000,073555,085309,089823,069571,086281,093038
0000000250,0000249000,074819,082427,091442,071170,082978,094743
0000000251,0000250000,076825,079623,092239,073585,079818,095488
0000000252,0000251000,079382,077165,092141,076580,077108,095203
0000000253,0000252000,082230,075301,091156,079859,075116,093916
0000000254,0000253000,085090,074217,089380,083101,074039,091751
0000000255,0000254000,087694,074013,086980,085994,073978,088919
0000000256,0000255000,089781,074708,084198,088251,074940,085701
0000000257,0000256000,091141,076235,081312,089649,076830,082412
0000000258,0000257000,091644,078451,078592,090055,079467,079369
0000000259,0000258000,091247,081136,076305,089429,082590,076872
0000000260,0000259000,089986,084017,074684,087833,085891,075168
0000000261,0000260000,087979,086823,073885,085420,089049,074421
0000000262,0000261000,085422,089285,073981,082427,091759,074705
0000000263,0000262000,082574,091149,074964,079151,093750,075990
0000000264,0000263000,079713,092235,076740,075910,094829,078152
0000000265,0000264000,077106,092443,079139,073019,094891,080981
0000000266,0000265000,075017,091748,081922,070762,093931,084197
0000000267,0000266000,073656,090223,084809,069363,092043,087484
0000000268,0000267000,073148,088008,087530,068956,089409,090525
0000000269,0000268000,073545,085322,089820,069581,086288,093022
0000000270,0000269000,074806,082439,091443,071174,082990,094726
0000000271,0000270000,076810,079633,092245,073584,079833,095474
0000000272,0000271000,079368,077169,092151,076575,077124,095192
0000000273,0000272000,082217,075301,091169,079848,075133,093909
0000000274,0000273000,085079,074213,089395,083087,074054,091750
0000000275,0000274000,087687,074004,086995,085977,073990,088924
0000000276,0000275000,089780,074695,084212,088233,074948,085710
0000000277,0000276000,091143,076220,081324,089633,076833,082425
0000000278,0000277000,091652,078435,078600,090041,079464,079386
0000000279,0000278000,091259,081120,076308,089419,082582,076890
0000000280,0000279000,090000,084005,074683,087828,085878,075185
0000000281,0000280000,087995,086814,073879,085421,089033,074437
0000000282,0000281000,085438,089279,073970,082433,091741,074716
0000000283,0000282000,082588,091149,074950,079162,093732,075996
0000000284,0000283000,079724,092240,076724,075926,094812,078153
0000000285,0000284000,077113,092452,079123,073037,094878,080976
0000000286,0000285000,075019,091761,081907,070781,093923,084187
0000000287,0000286000,073652,090239,084796,069381,092040,087470
0000000288,0000287000,073140,088025,087522,068971,089412,090508
0000000289,0000288000,073533,085338,089816,069591,086297,093003
0000000290,0000289000,074790,082453,091445,071179,083004,094708
0000000291,0000290000,076793,079643,092251,073583,079850,095458
0000000292,0000291000,079351,077174,092162,076568,077143,095180
0000000293,0000292000,082202,075301,091184,079836,075152,093902
0000000294,0000293000,085067,074208,089412,083070,074071,091749
0000000295,0000294000,087680,073994,087013,085958,074004,088929
0000000296,0000295000,089778,074681,084228,088213,074957,085721
0000000297,0000296000,091147,076204,081337,089614,076836,082441
0000000298,0000297000,091661,078417,078610,090026,079461,079404
0000000299,0000298000,091272,081103,076313,089408,082573,076910
0000000300,0000299000,090016,083990,074681,087822,085864,075204
0000000301,0000300000,088013,086803,073872,085422,089015,074454
