DIgSILENT PowerFactory,21000900,2000
6,06A,00D
1,TTPP_200000_100:Secondary Voltage A,,,V,0.10000000,-8544.057617,0.000000,72722,99998,1,1,P
2,TTPP_200000_100:Secondary Voltage B,,,V,0.10000000,-8599.207031,0.000000,74035,99998,1,1,P
3,TTPP_200000_100:Secondary Voltage C,,,V,0.10000000,-8528.006836,0.000000,68205,99998,1,1,P
4,TTCC_300_1:Secondary Current A,,,A,0.00010000000,-5.314234,0.000000,-14992,99998,1,1,P
5,TTCC_300_1:Secondary Current B,,,A,0.00010000000,-4.866024,0.000000,-2919,99998,1,1,P
6,TTCC_300_1:Secondary Current C,,,A,0.00010000000,-4.974858,0.000000,-616,99998,1,1,P
50
1
1000.000000,1101
30/06/2023,06:12:10.000000
30/06/2023,06:12:10.000000
ASCII
1.000000
0000000001,0000000000,092547,087467,076699,032212,034671,084668
0000000002,0000001000,090413,090184,076114,041965,025393,084194
0000000003,0000002000,087771,092516,076426,052804,018395,080352
0000000004,0000003000,084916,094194,077602,063684,014352,073516
0000000005,0000004000,082122,095055,079536,073526,013676,064347
0000000006,0000005000,079634,095047,082032,081375,016429,053748
0000000007,0000006000,077713,094161,084839,086461,022323,042767
0000000008,0000007000,076569,092452,087692,088284,030799,032469
0000000009,0000008000,076284,090115,090313,086660,041040,023853
0000000010,0000009000,076881,087392,092439,081762,052014,017775
0000000011,0000010000,078329,084522,093861,074068,062649,014835
0000000012,0000011000,080483,081783,094446,064309,071934,015307
0000000013,0000012000,083104,079475,094134,053460,078941,019150
0000000014,0000013000,085955,077800,092957,042595,082971,025986
0000000015,0000014000,088770,076918,091025,032751,083646,035154
0000000016,0000015000,091249,076935,088528,024893,080906,045753
0000000017,0000016000,093156,077835,085720,019814,075003,056735
0000000018,0000017000,094318,079526,082869,017995,066523,067033
0000000019,0000018000,094603,081863,080247,019611,056291,075649
0000000020,0000019000,093991,084602,078121,024510,045315,081726
0000000021,0000020000,092553,087462,076698,032212,034672,084668
0000000022,0000021000,090406,090192,076114,041962,025395,084194
0000000023,0000022000,087770,092517,076426,052812,018388,080351
0000000024,0000023000,084924,094187,077602,063684,014352,073516
0000000025,0000024000,082120,095058,079535,073524,013679,064348
0000000026,0000025000,079627,095053,082032,081378,016425,053748
0000000027,0000026000,077719,094155,084839,086466,022319,042766
0000000028,0000027000,076572,092450,087691,088281,030802,032469
0000000029,0000028000,076277,090122,090314,086661,041039,023852
0000000030,0000029000,076882,087391,092440,081769,052008,017775
0000000031,0000030000,078336,084515,093861,074068,062649,014833
0000000032,0000031000,080478,081789,094446,064308,071935,015307
0000000033,0000032000,083101,079477,094135,053466,078937,019149
0000000034,0000033000,085961,077794,092958,042599,082968,025985
0000000035,0000034000,088769,076918,091025,032750,083649,035153
0000000036,0000035000,091245,076940,088528,024896,080903,045752
0000000037,0000036000,093160,077832,085721,019818,075000,056733
0000000038,0000037000,094320,079523,082869,017996,066524,067031
0000000039,0000038000,094600,081866,080247,019611,056292,075647
0000000040,0000039000,093992,084601,078121,024514,045313,081725
0000000041,0000040000,092555,087459,076698,032212,034674,084666
0000000042,0000041000,090405,090194,076114,041963,025396,084193
0000000043,0000042000,087770,092517,076425,052813,018387,080351
0000000044,0000043000,084926,094185,077602,063684,014352,073515
0000000045,0000044000,082119,095059,079535,073523,013681,064347
0000000046,0000045000,079627,095054,082031,081379,016424,053748
0000000047,0000046000,077721,094153,084839,086465,022318,042767
0000000048,0000047000,076570,092452,087691,088280,030801,032470
0000000049,0000048000,076275,090124,090313,086662,041036,023853
0000000050,0000049000,076885,087389,092439,081769,052006,017776
0000000051,0000050000,078334,084516,093862,074068,062648,014834
0000000052,0000051000,080475,081791,094447,064312,071931,015307
0000000053,0000052000,083104,079475,094134,053469,078933,019149
0000000054,0000053000,085961,077793,092958,042600,082967,025984
0000000055,0000054000,088765,076922,091026,032754,083647,035151
0000000056,0000055000,091246,076938,088528,024902,080900,045750
0000000057,0000056000,093163,077829,085721,019819,075001,056731
0000000058,0000057000,094317,079526,082870,017998,066525,067028
0000000059,0000058000,094599,081867,080247,019616,056290,075644
0000000060,0000059000,093996,084596,078120,024515,045315,081722
0000000061,0000060000,092554,087460,076698,032210,034677,084664
0000000062,0000061000,090402,090197,076114,041964,025397,084190
0000000063,0000062000,087774,092514,076425,052814,018388,080349
0000000064,0000063000,084927,094184,077602,063680,014356,073515
0000000065,0000064000,082115,095064,079534,073521,013682,064348
0000000066,0000065000,079629,095053,082031,081379,016422,053750
0000000067,0000066000,077724,094151,084838,086462,022320,042770
0000000068,0000067000,076566,092456,087691,088278,030801,032473
0000000069,0000068000,076274,090125,090313,086663,041032,023857
0000000070,0000069000,076887,087386,092440,081769,052003,017779
0000000071,0000070000,078332,084519,093862,074068,062646,014837
0000000072,0000071000,080472,081794,094447,064315,071926,015309
0000000073,0000072000,083106,079472,094135,053473,078928,019150
0000000074,0000073000,085961,077793,092959,042602,082965,025984
0000000075,0000074000,088762,076924,091026,032759,083643,035150
0000000076,0000075000,091248,076935,088529,024908,080896,045748
0000000077,0000076000,093164,077827,085722,019823,075001,056727
0000000078,0000077000,094315,079528,082870,018002,066526,067024
0000000079,0000078000,094601,081866,080247,019621,056291,075639
0000000080,0000079000,093999,084594,078120,024516,045318,081717
0000000081,0000080000,092553,087462,076698,032210,034682,084659
0000000082,0000081000,090403,090197,076113,041964,025400,084187
0000000083,0000082000,087777,092511,076424,052811,018393,080347
0000000084,0000083000,084926,094186,077601,063675,014362,073514
0000000085,0000084000,082114,095066,079533,073518,013684,064349
0000000086,0000085000,079631,095052,082030,081374,016424,053752
0000000087,0000086000,077723,094152,084838,086456,022322,042774
0000000088,0000087000,076564,092459,087690,088274,030800,032478
0000000089,0000088000,076276,090124,090313,086661,041028,023862
0000000090,0000089000,076887,087386,092440,081767,052000,017785
0000000091,0000090000,078328,084522,093863,074069,062640,014842
0000000092,0000091000,080472,081793,094447,064319,071918,015313
0000000093,0000092000,083107,079470,094136,053476,078922,019153
0000000094,0000093000,085958,077795,092960,042608,082959,025984
0000000095,0000094000,088762,076923,091027,032767,083636,035148
0000000096,0000095000,091250,076932,088530,024915,080893,045744
0000000097,0000096000,093163,077827,085723,019829,075001,056722
0000000098,0000097000,094314,079528,082871,018009,066525,067016
0000000099,0000098000,094604,081862,080247,019626,056293,075632
0000000100,0000099000,094000,084592,078120,024517,045325,081709
0000000101,0000100000,092552,087463,076697,032211,034688,084652
0000000102,0000101000,090406,090195,076112,041963,025407,084182
0000000103,0000102000,087779,092510,076423,052805,018402,080344
0000000104,0000103000,084925,094188,077599,063668,014369,073513
0000000105,0000104000,082115,095066,079532,073511,013689,064351
0000000106,0000105000,079633,095051,082029,081365,016429,053757
0000000107,0000106000,077721,094155,084837,086447,022324,042780
0000000108,0000107000,076562,092461,087689,088269,030797,032486
0000000109,0000108000,076276,090123,090313,086656,041024,023872
0000000110,0000109000,076885,087388,092440,081763,051994,017794
0000000111,0000110000,078325,084524,093863,074070,062631,014850
0000000112,0000111000,080472,081792,094449,064324,071907,015320
0000000113,0000112000,083106,079469,094138,053482,078913,019156
0000000114,0000113000,085955,077796,092962,042617,082950,025985
0000000115,0000114000,088762,076922,091029,032779,083627,035146
0000000116,0000115000,091251,076929,088532,024925,080888,045738
0000000117,0000116000,093161,077826,085725,019839,074999,056713
0000000118,0000117000,094315,079526,082871,018019,066525,067006
0000000119,0000118000,094607,081858,080248,019632,056298,075620
0000000120,0000119000,094001,084592,078120,024520,045333,081698
0000000121,0000120000,092553,087463,076696,032212,034697,084642
0000000122,0000121000,090409,090193,076110,041960,025418,084174
0000000123,0000122000,087781,092510,076421,052797,018415,080339
0000000124,0000123000,084925,094190,077597,063659,014380,073512
0000000125,0000124000,082117,095066,079529,073500,013697,064354
0000000126,0000125000,079634,095052,082027,081352,016436,053763
0000000127,0000126000,077719,094159,084835,086435,022326,042790
0000000128,0000127000,076562,092463,087688,088259,030794,032498
0000000129,0000128000,076276,090125,090312,086648,041018,023885
0000000130,0000129000,076881,087391,092440,081759,051985,017807
0000000131,0000130000,078323,084526,093864,074071,062618,014862
0000000132,0000131000,080471,081791,094450,064328,071894,015329
0000000133,0000132000,083102,079470,094140,053490,078900,019162
0000000134,0000133000,085952,077796,092964,042629,082936,025986
0000000135,0000134000,088762,076918,091032,032793,083616,035142
0000000136,0000135000,091251,076927,088535,024939,080882,045730
0000000137,0000136000,093161,077825,085727,019854,074995,056702
0000000138,0000137000,094318,079522,082873,018032,066526,066992
0000000139,0000138000,094610,081855,080248,019641,056305,075605
0000000140,0000139000,094002,084591,078120,024525,045344,081683
0000000141,0000140000,092557,087461,076695,032213,034710,084628
0000000142,0000141000,090413,090190,076109,041954,025434,084163
0000000143,0000142000,087782,092512,076419,052787,018432,080333
0000000144,0000143000,084927,094192,077594,063647,014394,073510
0000000145,0000144000,082120,095066,079526,073484,013710,064357
0000000146,0000145000,079634,095055,082024,081334,016445,053772
0000000147,0000146000,077718,094163,084832,086420,022329,042803
0000000148,0000147000,076562,092465,087686,088246,030792,032514
0000000149,0000148000,076273,090128,090312,086638,041012,023902
0000000150,0000149000,076877,087395,092441,081754,051973,017824
0000000151,0000150000,078320,084527,093866,074072,062601,014878
0000000152,0000151000,080469,081792,094453,064334,071876,015341
0000000153,0000152000,083098,079472,094143,053501,078881,019169
0000000154,0000153000,085950,077795,092968,042646,082918,025988
0000000155,0000154000,088762,076915,091036,032811,083602,035138
0000000156,0000155000,091249,076925,088538,024959,080873,045720
0000000157,0000156000,093161,077822,085729,019874,074991,056687
0000000158,0000157000,094321,079518,082875,018048,066529,066974
0000000159,0000158000,094612,081852,080249,019652,056314,075584
0000000160,0000159000,094004,084589,078119,024532,045357,081662
0000000161,0000160000,092562,087457,076693,032213,034728,084610
0000000162,0000161000,090417,090189,076106,041947,025456,084149
0000000163,0000162000,087784,092513,076415,052774,018453,080324
0000000164,0000163000,084930,094192,077590,063629,014413,073509
0000000165,0000164000,082122,095068,079522,073462,013726,064362
0000000166,0000165000,079633,095060,082020,081312,016455,053783
0000000167,0000166000,077717,094167,084829,086399,022332,042820
0000000168,0000167000,076560,092468,087684,088227,030789,032535
0000000169,0000168000,076269,090132,090311,086624,041002,023925
0000000170,0000169000,076872,087399,092441,081748,051956,017847
0000000171,0000170000,078317,084529,093867,074073,062580,014898
0000000172,0000171000,080464,081793,094456,064341,071853,015357
0000000173,0000172000,083093,079472,094147,053516,078857,019178
0000000174,0000173000,085948,077793,092972,042666,082895,025990
0000000175,0000174000,088760,076912,091040,032835,083585,035132
0000000176,0000175000,091248,076922,088542,024984,080860,045707
0000000177,0000176000,093163,077817,085733,019898,074985,056667
0000000178,0000177000,094324,079512,082877,018068,066532,066950
0000000179,0000178000,094615,081848,080250,019667,056326,075558
0000000180,0000179000,094009,084585,078119,024540,045374,081637
0000000181,0000180000,092568,087454,076691,032212,034752,084588
0000000182,0000181000,090421,090188,076103,041938,025482,084132
0000000183,0000182000,087788,092514,076411,052759,018479,080314
0000000184,0000183000,084935,094193,077585,063607,014437,073506
0000000185,0000184000,082124,095071,079517,073435,013747,064369
0000000186,0000185000,079632,095065,082016,081284,016469,053798
0000000187,0000186000,077716,094171,084825,086373,022337,042841
0000000188,0000187000,076558,092473,087682,088204,030786,032562
0000000189,0000188000,076264,090138,090310,086608,040990,023954
0000000190,0000189000,076868,087403,092442,081740,051935,017875
0000000191,0000190000,078312,084531,093870,074074,062554,014923
0000000192,0000191000,080458,081796,094460,064351,071824,015376
0000000193,0000192000,083089,079473,094152,053535,078826,019190
0000000194,0000193000,085945,077790,092978,042691,082868,025992
0000000195,0000194000,088757,076909,091046,032864,083563,035125
0000000196,0000195000,091247,076918,088547,025016,080845,045691
0000000197,0000196000,093165,077811,085737,019928,074980,056644
0000000198,0000197000,094327,079506,082880,018093,066537,066921
0000000199,0000198000,094618,081843,080251,019685,056339,075526
0000000200,0000199000,094015,084580,078118,024549,045396,081605
0000000201,0000200000,092574,087450,076689,032211,034781,084560
0000000202,0000201000,090427,090187,076099,041927,025515,084110
0000000203,0000202000,087794,092514,076405,052739,018512,080301
0000000204,0000203000,084939,094194,077579,063579,014468,073504
0000000205,0000204000,082126,095076,079511,073403,013772,064377
0000000206,0000205000,079633,095070,082010,081251,016484,053816
0000000207,0000206000,077716,094176,084821,086340,022343,042868
0000000208,0000207000,076554,092480,087679,088176,030782,032594
0000000209,0000208000,076259,090145,090308,086588,040974,023989
0000000210,0000209000,076862,087408,092442,081731,051911,017910
0000000211,0000210000,078305,084535,093873,074074,062523,014954
0000000212,0000211000,080450,081798,094464,064363,071788,015399
0000000213,0000212000,083083,079472,094158,053558,078789,019204
0000000214,0000213000,085941,077787,092985,042722,082835,025995
0000000215,0000214000,088754,076906,091053,032900,083536,035116
0000000216,0000215000,091246,076912,088554,025054,080827,045671
0000000217,0000216000,093167,077803,085742,019964,074973,056615
0000000218,0000217000,094330,079499,082884,018123,066542,066885
0000000219,0000218000,094624,081837,080253,019707,056356,075488
0000000220,0000219000,094023,084573,078117,024560,045423,081568
0000000221,0000220000,092581,087445,076686,032209,034816,084526
0000000222,0000221000,090433,090185,076094,041914,025554,084084
0000000223,0000222000,087801,092513,076399,052715,018551,080286
0000000224,0000223000,084944,094197,077572,063545,014505,073501
0000000225,0000224000,082129,095081,079503,073364,013801,064386
0000000226,0000225000,079634,095076,082003,081210,016504,053837
0000000227,0000226000,077714,094184,084815,086301,022351,042899
0000000228,0000227000,076550,092488,087675,088143,030776,032632
0000000229,0000228000,076253,090153,090307,086565,040955,024031
0000000230,0000229000,076855,087414,092443,081719,051881,017951
0000000231,0000230000,078297,084540,093876,074075,062486,014990
0000000232,0000231000,080442,081801,094470,064378,071745,015427
0000000233,0000232000,083077,079471,094165,053585,078746,019220
0000000234,0000233000,085935,077785,092993,042758,082795,025998
0000000235,0000234000,088750,076901,091061,032942,083504,035105
0000000236,0000235000,091246,076905,088561,025098,080805,045648
0000000237,0000236000,093169,077795,085749,020006,074965,056580
0000000238,0000237000,094333,079491,082888,018159,066549,066843
0000000239,0000238000,094630,081828,080254,019733,056375,075442
0000000240,0000239000,094031,084566,078116,024573,045455,081523
0000000241,0000240000,092589,087441,076682,032208,034857,084487
0000000242,0000241000,090442,090183,076088,041898,025600,084054
0000000243,0000242000,087809,092513,076391,052686,018598,080268
0000000244,0000243000,084950,094200,077563,063506,014548,073497
0000000245,0000244000,082132,095087,079494,073318,013835,064398
0000000246,0000245000,079635,095083,081994,081162,016526,053863
0000000247,0000246000,077712,094192,084808,086255,022360,042936
0000000248,0000247000,076545,092498,087670,088104,030769,032678
0000000249,0000248000,076246,090161,090305,086537,040934,024081
0000000250,0000249000,076847,087421,092445,081704,051847,018000
0000000251,0000250000,078287,084546,093880,074077,062441,015033
0000000252,0000251000,080433,081804,094476,064396,071695,015460
0000000253,0000252000,083069,079471,094173,053616,078696,019239
0000000254,0000253000,085928,077782,093003,042800,082749,026002
0000000255,0000254000,088746,076896,091071,032993,083466,035093
0000000256,0000255000,091245,076897,088570,025151,080781,045620
0000000257,0000256000,093171,077786,085756,020055,074956,056540
0000000258,0000257000,094338,079482,082893,018201,066556,066794
0000000259,0000258000,094638,081818,080256,019763,056399,075389
0000000260,0000259000,094040,084557,078115,024588,045493,081471
0000000261,0000260000,092599,087435,076678,032206,034905,084441
0000000262,0000261000,090453,090179,076081,041879,025653,084019
0000000263,0000262000,087818,092512,076382,052652,018653,080247
0000000264,0000263000,084957,094204,077552,063460,014597,073494
0000000265,0000264000,082137,095093,079484,073264,013875,064411
0000000266,0000265000,079637,095092,081984,081105,016553,053893
0000000267,0000266000,077710,094203,084800,086202,022370,042980
0000000268,0000267000,076539,092509,087664,088060,030761,032731
0000000269,0000268000,076239,090171,090302,086505,040908,024138
0000000270,0000269000,076837,087430,092446,081688,051807,018056
0000000271,0000270000,078275,084553,093884,074079,062390,015082
0000000272,0000271000,080422,081807,094483,064416,071637,015498
0000000273,0000272000,083059,079471,094183,053652,078638,019261
0000000274,0000273000,085920,077779,093014,042850,082696,026006
0000000275,0000274000,088741,076889,091082,033050,083423,035078
0000000276,0000275000,091244,076887,088581,025211,080753,045588
0000000277,0000276000,093173,077775,085765,020112,074946,056493
0000000278,0000277000,094344,079470,082899,018250,066564,066737
0000000279,0000278000,094647,081807,080259,019798,056426,075328
0000000280,0000279000,094051,084548,078114,024604,045536,081411
0000000281,0000280000,092611,087428,076673,032204,034960,084388
0000000282,0000281000,090465,090175,076073,041858,025715,083979
0000000283,0000282000,087829,092512,076371,052612,018715,080224
0000000284,0000283000,084965,094208,077540,063407,014654,073489
0000000285,0000284000,082142,095100,079471,073203,013921,064427
0000000286,0000285000,079638,095101,081973,081041,016583,053927
0000000287,0000286000,077707,094215,084791,086141,022381,043030
0000000288,0000287000,076533,092522,087658,088009,030751,032791
0000000289,0000288000,076230,090183,090300,086469,040879,024204
0000000290,0000289000,076825,087441,092447,081671,051761,018120
0000000291,0000290000,078263,084561,093889,074082,062331,015138
0000000292,0000291000,080410,081811,094492,064439,071571,015540
0000000293,0000292000,083047,079471,094195,053694,078571,019286
0000000294,0000293000,085911,077775,093027,042906,082635,026010
0000000295,0000294000,088736,076881,091096,033116,083374,035061
0000000296,0000295000,091243,076876,088593,025279,080721,045551
0000000297,0000296000,093175,077762,085775,020177,074934,056440
0000000298,0000297000,094351,079456,082906,018304,066574,066672
0000000299,0000298000,094657,081794,080262,019836,056457,075258
0000000300,0000299000,094063,084537,078113,024623,045585,081342
0000000301,0000300000,092625,087420,076668,032201,035022,084329
