DIgSILENT PowerFactory,21000900,2000
6,06A,00D
1,TTPP_200000_100:Secondary Voltage A,,,V,0.10000000,-8251.781250,0.000000,67216,99998,1,1,P
2,TTPP_200000_100:Secondary Voltage B,,,V,0.10000000,-8332.396484,0.000000,68202,99998,1,1,P
3,TTPP_200000_100:Secondary Voltage C,,,V,0.10000000,-8323.741211,0.000000,65569,99998,1,1,P
4,TTCC_500_5:Secondary Current A,,,A,0.0010000000,-79.170815,0.000000,65222,99998,1,1,P
5,TTCC_500_5:Secondary Current B,,,A,0.0010000000,-84.450409,0.000000,69008,99998,1,1,P
6,TTCC_500_5:Secondary Current C,,,A,0.0010000000,-84.943390,0.000000,69912,99998,1,1,P
50
1
1000.000000,1101
30/06/2023,06:12:15.000000
30/06/2023,06:12:15.000000
ASCII
1.000000
0000000001,0000000000,088030,086965,074085,085087,089130,074348
0000000002,0000001000,085481,089398,074199,082069,091848,074647
0000000003,0000002000,082633,091250,075197,078774,093839,075952
0000000004,0000003000,079781,092318,076980,075518,094909,078138
0000000005,0000004000,077201,092497,079382,072611,094962,080992
0000000006,0000005000,075129,091790,082160,070351,093982,084232
0000000007,0000006000,073784,090258,085035,068959,092067,087538
0000000008,0000007000,073307,088032,087741,068563,089408,090593
0000000009,0000008000,073718,085351,090010,069202,086266,093096
0000000010,0000009000,074985,082484,091611,070821,082944,094799
0000000011,0000010000,077006,079684,092389,073260,079768,095537
0000000012,0000011000,079564,077239,092276,076274,077052,095238
0000000013,0000012000,082395,075405,091279,079570,075061,093933
0000000014,0000013000,085249,074335,089494,082831,073986,091747
0000000015,0000014000,087847,074140,087093,085733,073938,088893
0000000016,0000015000,089904,074860,084315,087991,074919,085654
0000000017,0000016000,091241,076399,081439,089388,076829,082347
0000000018,0000017000,091740,078606,078734,089783,079489,079292
0000000019,0000018000,091320,081294,076465,089140,082636,076789
0000000020,0000019000,090037,084177,074865,087523,085955,075086
0000000021,0000020000,088035,086958,074085,085088,089128,074349
0000000022,0000021000,085481,089399,074199,082070,091848,074647
0000000023,0000022000,082628,091255,075196,078772,093840,075952
0000000024,0000023000,079784,092315,076980,075516,094910,078138
0000000025,0000024000,077203,092495,079382,072612,094961,080992
0000000026,0000025000,075126,091794,082160,070351,093982,084232
0000000027,0000026000,073785,090258,085035,068958,092068,087538
0000000028,0000027000,073307,088030,087741,068562,089409,090593
0000000029,0000028000,073717,085352,090010,069203,086265,093096
0000000030,0000029000,074986,082483,091610,070821,082944,094799
0000000031,0000030000,077006,079684,092390,073258,079770,095537
0000000032,0000031000,079562,077241,092276,076273,077053,095238
0000000033,0000032000,082397,075404,091279,079571,075060,093933
0000000034,0000033000,085251,074333,089494,082830,073987,091748
0000000035,0000034000,087842,074143,087094,085731,073939,088894
0000000036,0000035000,089904,074860,084315,087991,074919,085654
0000000037,0000036000,091246,076394,081439,089387,076830,082348
0000000038,0000037000,091737,078608,078734,089782,079490,079293
0000000039,0000038000,091317,081298,076465,089139,082636,076790
0000000040,0000039000,090043,084172,074864,087523,085955,075087
0000000041,0000040000,088037,086957,074085,085087,089129,074349
0000000042,0000041000,085475,089405,074199,082070,091847,074647
0000000043,0000042000,082631,091253,075196,078773,093839,075953
0000000044,0000043000,079789,092311,076980,075515,094911,078138
0000000045,0000044000,077198,092500,079382,072612,094961,080992
0000000046,0000045000,075124,091796,082159,070352,093981,084232
0000000047,0000046000,073790,090253,085035,068958,092069,087538
0000000048,0000047000,073306,088032,087741,068561,089411,090593
0000000049,0000048000,073712,085356,090010,069203,086265,093096
0000000050,0000049000,074990,082480,091610,070822,082944,094799
0000000051,0000050000,077007,079683,092390,073256,079771,095537
0000000052,0000051000,079557,077246,092277,076272,077054,095238
0000000053,0000052000,082398,075402,091279,079571,075060,093933
0000000054,0000053000,085254,074330,089495,082828,073988,091748
0000000055,0000054000,087839,074146,087094,085730,073941,088894
0000000056,0000055000,089903,074860,084316,087991,074919,085655
0000000057,0000056000,091250,076390,081440,089387,076830,082348
0000000058,0000057000,091736,078610,078734,089781,079490,079294
0000000059,0000058000,091315,081299,076465,089139,082635,076791
0000000060,0000059000,090046,084168,074864,087523,085954,075088
0000000061,0000060000,088037,086957,074085,085086,089129,074350
0000000062,0000061000,085474,089407,074198,082070,091847,074648
0000000063,0000062000,082633,091251,075195,078773,093838,075953
0000000064,0000063000,079790,092310,076979,075515,094911,078138
0000000065,0000064000,077196,092503,079381,072612,094961,080992
0000000066,0000065000,075125,091796,082158,070353,093981,084231
0000000067,0000066000,073792,090253,085035,068958,092069,087537
0000000068,0000067000,073303,088035,087741,068561,089411,090592
0000000069,0000068000,073712,085357,090010,069204,086265,093095
0000000070,0000069000,074991,082478,091610,070821,082945,094798
0000000071,0000070000,077004,079685,092390,073256,079773,095536
0000000072,0000071000,079555,077247,092277,076272,077055,095238
0000000073,0000072000,082400,075399,091280,079570,075061,093933
0000000074,0000073000,085252,074331,089496,082827,073990,091748
0000000075,0000074000,087836,074148,087095,085729,073941,088894
0000000076,0000075000,089906,074857,084316,087990,074919,085656
0000000077,0000076000,091250,076389,081441,089385,076831,082350
0000000078,0000077000,091733,078611,078735,089780,079490,079295
0000000079,0000078000,091318,081296,076465,089138,082634,076792
0000000080,0000079000,090049,084165,074864,087522,085954,075089
0000000081,0000080000,088035,086959,074085,085086,089128,074351
0000000082,0000081000,085475,089407,074197,082071,091845,074649
0000000083,0000082000,082638,091248,075194,078774,093837,075954
0000000084,0000083000,079789,092312,076978,075516,094910,078139
0000000085,0000084000,077195,092505,079379,072614,094959,080992
0000000086,0000085000,075128,091794,082157,070355,093980,084230
0000000087,0000086000,073791,090254,085034,068959,092070,087536
0000000088,0000087000,073300,088039,087740,068563,089411,090591
0000000089,0000088000,073713,085357,090009,069205,086266,093093
0000000090,0000089000,074991,082478,091610,070821,082947,094797
0000000091,0000090000,077000,079689,092391,073255,079775,095535
0000000092,0000091000,079554,077247,092278,076272,077056,095237
0000000093,0000092000,082401,075397,091281,079569,075064,093932
0000000094,0000093000,085249,074332,089498,082825,073992,091748
0000000095,0000094000,087835,074148,087096,085727,073942,088895
0000000096,0000095000,089908,074853,084318,087988,074920,085657
0000000097,0000096000,091250,076388,081442,089382,076831,082351
0000000098,0000097000,091732,078611,078736,089778,079490,079297
0000000099,0000098000,091321,081293,076465,089137,082633,076794
0000000100,0000099000,090051,084164,074864,087521,085953,075091
0000000101,0000100000,088035,086960,074084,085086,089126,074353
0000000102,0000101000,085478,089405,074196,082072,091842,074651
0000000103,0000102000,082640,091246,075192,078775,093835,075955
0000000104,0000103000,079789,092315,076976,075518,094908,078139
0000000105,0000104000,077196,092506,079377,072617,094957,080991
0000000106,0000105000,075130,091794,082155,070357,093979,084229
0000000107,0000106000,073789,090258,085032,068961,092069,087534
0000000108,0000107000,073298,088042,087739,068565,089411,090588
0000000109,0000108000,073713,085357,090009,069207,086267,093091
0000000110,0000109000,074988,082481,091611,070822,082949,094794
0000000111,0000110000,076996,079692,092392,073256,079777,095532
0000000112,0000111000,079554,077246,092279,076271,077059,095235
0000000113,0000112000,082399,075397,091284,079566,075067,093931
0000000114,0000113000,085245,074333,089500,082822,073995,091748
0000000115,0000114000,087835,074145,087099,085724,073944,088896
0000000116,0000115000,089909,074850,084321,087984,074922,085658
0000000117,0000116000,091248,076387,081444,089379,076832,082354
0000000118,0000117000,091734,078609,078737,089776,079489,079300
0000000119,0000118000,091325,081288,076466,089135,082632,076797
0000000120,0000119000,090052,084163,074864,087520,085951,075094
0000000121,0000120000,088037,086959,074083,085086,089122,074356
0000000122,0000121000,085483,089402,074194,082073,091839,074653
0000000123,0000122000,082642,091247,075190,078777,093832,075956
0000000124,0000123000,079789,092317,076973,075521,094905,078139
0000000125,0000124000,077199,092506,079374,072620,094954,080990
0000000126,0000125000,075131,091796,082153,070360,093977,084227
0000000127,0000126000,073787,090262,085030,068964,092069,087532
0000000128,0000127000,073297,088045,087737,068568,089412,090585
0000000129,0000128000,073712,085359,090008,069209,086269,093087
0000000130,0000129000,074983,082485,091611,070822,082952,094790
0000000131,0000130000,076993,079694,092393,073256,079780,095529
0000000132,0000131000,079552,077246,092282,076269,077063,095232
0000000133,0000132000,082395,075398,091287,079564,075071,093930
0000000134,0000133000,085242,074333,089504,082819,073998,091747
0000000135,0000134000,087835,074142,087102,085720,073947,088897
0000000136,0000135000,089908,074847,084324,087980,074924,085661
0000000137,0000136000,091248,076385,081447,089375,076833,082357
0000000138,0000137000,091737,078604,078739,089772,079488,079304
0000000139,0000138000,091328,081284,076467,089132,082630,076802
0000000140,0000139000,090054,084161,074864,087518,085948,075099
0000000141,0000140000,088042,086956,074081,085087,089118,074360
0000000142,0000141000,085488,089400,074192,082074,091835,074656
0000000143,0000142000,082645,091248,075187,078779,093827,075958
0000000144,0000143000,079792,092319,076969,075525,094900,078139
0000000145,0000144000,077202,092507,079370,072625,094951,080989
0000000146,0000145000,075131,091800,082149,070365,093975,084225
0000000147,0000146000,073785,090267,085027,068969,092068,087528
0000000148,0000147000,073296,088048,087734,068572,089412,090580
0000000149,0000148000,073709,085363,090007,069211,086271,093082
0000000150,0000149000,074978,082490,091611,070824,082955,094785
0000000151,0000150000,076989,079696,092395,073256,079785,095524
0000000152,0000151000,079548,077246,092285,076267,077069,095229
0000000153,0000152000,082389,075399,091291,079560,075077,093928
0000000154,0000153000,085239,074332,089508,082814,074003,091747
0000000155,0000154000,087834,074138,087107,085715,073952,088898
0000000156,0000155000,089906,074844,084329,087974,074927,085664
0000000157,0000156000,091248,076381,081450,089370,076834,082361
0000000158,0000157000,091741,078598,078741,089768,079488,079309
0000000159,0000158000,091331,081280,076468,089129,082628,076808
0000000160,0000159000,090058,084158,074863,087517,085943,075105
0000000161,0000160000,088048,086952,074079,085087,089113,074365
0000000162,0000161000,085493,089398,074188,082076,091829,074660
0000000163,0000162000,082648,091249,075182,078783,093821,075960
0000000164,0000163000,079796,092319,076964,075530,094894,078140
0000000165,0000164000,077205,092510,079365,072631,094946,080988
0000000166,0000165000,075130,091805,082144,070371,093972,084221
0000000167,0000166000,073784,090273,085022,068975,092066,087523
0000000168,0000167000,073295,088052,087732,068577,089413,090574
0000000169,0000168000,073704,085369,090006,069215,086274,093075
0000000170,0000169000,074972,082495,091612,070826,082960,094779
0000000171,0000170000,076984,079698,092397,073255,079791,095519
0000000172,0000171000,079542,077249,092289,076265,077076,095224
0000000173,0000172000,082383,075400,091296,079556,075083,093925
0000000174,0000173000,085236,074329,089514,082809,074009,091746
0000000175,0000174000,087832,074134,087113,085708,073957,088900
0000000176,0000175000,089905,074840,084334,087967,074931,085667
0000000177,0000176000,091250,076375,081455,089363,076835,082367
0000000178,0000177000,091744,078590,078745,089762,079487,079316
0000000179,0000178000,091335,081275,076470,089124,082625,076815
0000000180,0000179000,090064,084153,074862,087515,085938,075112
0000000181,0000180000,088055,086947,074076,085087,089106,074371
0000000182,0000181000,085499,089396,074184,082078,091821,074665
0000000183,0000182000,082653,091250,075176,078788,093813,075963
0000000184,0000183000,079802,092321,076957,075537,094887,078141
0000000185,0000184000,077208,092514,079358,072638,094941,080986
0000000186,0000185000,075130,091812,082137,070379,093968,084217
0000000187,0000186000,073784,090278,085017,068983,092065,087517
0000000188,0000187000,073292,088059,087728,068584,089414,090566
0000000189,0000188000,073698,085377,090005,069219,086278,093067
0000000190,0000189000,074966,082500,091613,070829,082966,094770
0000000191,0000190000,076978,079702,092400,073255,079798,095511
0000000192,0000191000,079534,077252,092294,076262,077084,095219
0000000193,0000192000,082377,075400,091302,079551,075092,093922
0000000194,0000193000,085232,074326,089521,082801,074017,091746
0000000195,0000194000,087828,074130,087121,085699,073963,088902
0000000196,0000195000,089903,074835,084341,087958,074935,085672
0000000197,0000196000,091252,076366,081461,089354,076836,082374
0000000198,0000197000,091748,078583,078749,089754,079486,079325
0000000199,0000198000,091340,081268,076471,089119,082621,076824
0000000200,0000199000,090072,084146,074862,087512,085931,075121
0000000201,0000200000,088064,086942,074073,085087,089098,074380
0000000202,0000201000,085506,089394,074179,082081,091812,074671
0000000203,0000202000,082661,091249,075169,078794,093804,075967
0000000204,0000203000,079808,092322,076949,075545,094879,078141
0000000205,0000204000,077211,092519,079350,072647,094934,080983
0000000206,0000205000,075131,091819,082130,070389,093964,084212
0000000207,0000206000,073783,090286,085011,068992,092063,087509
0000000208,0000207000,073287,088068,087724,068591,089416,090557
0000000209,0000208000,073691,085386,090003,069225,086282,093057
0000000210,0000209000,074959,082507,091613,070831,082973,094760
0000000211,0000210000,076969,079707,092404,073254,079808,095503
0000000212,0000211000,079524,077255,092300,076258,077094,095212
0000000213,0000212000,082369,075400,091310,079544,075102,093918
0000000214,0000213000,085226,074323,089531,082792,074027,091745
0000000215,0000214000,087823,074125,087130,085689,073971,088905
0000000216,0000215000,089902,074827,084350,087947,074940,085678
0000000217,0000216000,091255,076357,081468,089344,076838,082382
0000000218,0000217000,091752,078573,078754,089746,079484,079335
0000000219,0000218000,091347,081259,076473,089113,082616,076836
0000000220,0000219000,090082,084137,074861,087509,085924,075132
0000000221,0000220000,088073,086936,074069,085087,089088,074389
0000000222,0000221000,085515,089392,074172,082085,091801,074678
0000000223,0000222000,082670,091249,075160,078801,093792,075971
0000000224,0000223000,079815,092325,076939,075554,094868,078142
0000000225,0000224000,077214,092526,079339,072659,094925,080981
0000000226,0000225000,075133,091827,082120,070401,093958,084206
0000000227,0000226000,073781,090295,085003,069004,092061,087500
0000000228,0000227000,073281,088079,087718,068601,089418,090546
0000000229,0000228000,073683,085396,090000,069232,086288,093045
0000000230,0000229000,074950,082515,091615,070835,082981,094749
0000000231,0000230000,076958,079714,092408,073254,079819,095492
0000000232,0000231000,079514,077259,092307,076254,077107,095204
0000000233,0000232000,082360,075399,091319,079537,075115,093913
0000000234,0000233000,085218,074319,089541,082782,074038,091744
0000000235,0000234000,087818,074119,087141,085676,073980,088908
0000000236,0000235000,089902,074818,084360,087934,074946,085685
0000000237,0000236000,091257,076346,081476,089332,076841,082392
0000000238,0000237000,091757,078563,078760,089735,079482,079347
0000000239,0000238000,091356,081248,076476,089106,082610,076849
0000000240,0000239000,090093,084127,074860,087505,085914,075145
0000000241,0000240000,088085,086930,074065,085088,089076,074400
0000000242,0000241000,085527,089388,074164,082090,091787,074687
0000000243,0000242000,082681,091248,075150,078810,093779,075976
0000000244,0000243000,079823,092329,076927,075566,094856,078143
0000000245,0000244000,077219,092533,079327,072672,094915,080977
0000000246,0000245000,075134,091836,082109,070415,093952,084198
0000000247,0000246000,073778,090307,084994,069017,092059,087489
0000000248,0000247000,073275,088092,087712,068612,089420,090533
0000000249,0000248000,073674,085407,089997,069240,086294,093031
0000000250,0000249000,074938,082525,091616,070838,082991,094735
0000000251,0000250000,076944,079722,092413,073253,079831,095480
0000000252,0000251000,079501,077263,092315,076249,077121,095195
0000000253,0000252000,082350,075399,091330,079528,075129,093908
0000000254,0000253000,085209,074316,089554,082769,074052,091743
0000000255,0000254000,087813,074112,087154,085662,073991,088911
0000000256,0000255000,089901,074806,084372,087919,074953,085693
0000000257,0000256000,091260,076333,081486,089318,076843,082404
0000000258,0000257000,091764,078549,078766,089723,079480,079361
0000000259,0000258000,091366,081234,076479,089097,082603,076864
0000000260,0000259000,090105,084116,074858,087501,085904,075160
0000000261,0000260000,088098,086922,074059,085089,089062,074414
0000000262,0000261000,085541,089383,074155,082096,091772,074697
0000000263,0000262000,082693,091248,075138,078819,093763,075982
0000000264,0000263000,079832,092334,076914,075579,094842,078144
0000000265,0000264000,077225,092541,079313,072688,094904,080973
0000000266,0000265000,075136,091847,082096,070431,093944,084190
0000000267,0000266000,073775,090321,084983,069032,092056,087476
0000000268,0000267000,073267,088107,087704,068625,089422,090517
0000000269,0000268000,073664,085421,089994,069249,086301,093014
0000000270,0000269000,074925,082537,091617,070843,083003,094719
0000000271,0000270000,076929,079731,092419,073253,079846,095466
0000000272,0000271000,079487,077268,092325,076243,077137,095184
0000000273,0000272000,082336,075399,091343,079517,075146,093902
0000000274,0000273000,085198,074312,089569,082755,074067,091742
0000000275,0000274000,087806,074103,087169,085646,074003,088916
0000000276,0000275000,089899,074794,084386,087902,074961,085702
0000000277,0000276000,091262,076319,081498,089301,076846,082417
0000000278,0000277000,091771,078534,078774,089710,079477,079378
0000000279,0000278000,091378,081219,076482,089088,082595,076882
0000000280,0000279000,090119,084103,074857,087496,085891,075177
0000000281,0000280000,088114,086912,074053,085089,089046,074429
0000000282,0000281000,085557,089378,074144,082102,091754,074709
0000000283,0000282000,082707,091248,075124,078831,093745,075989
0000000284,0000283000,079843,092339,076898,075594,094825,078145
0000000285,0000284000,077232,092550,079297,072705,094891,080969
0000000286,0000285000,075138,091860,082081,070449,093936,084180
0000000287,0000286000,073771,090337,084970,069049,092053,087462
0000000288,0000287000,073260,088124,087696,068640,089425,090500
0000000289,0000288000,073652,085437,089990,069259,086310,092995
0000000290,0000289000,074909,082551,091619,070848,083017,094700
0000000291,0000290000,076912,079742,092425,073252,079863,095450
0000000292,0000291000,079470,077273,092336,076236,077157,095172
0000000293,0000292000,082321,075400,091358,079505,075165,093895
0000000294,0000293000,085186,074307,089586,082739,074084,091741
0000000295,0000294000,087799,074093,087187,085627,074017,088921
0000000296,0000295000,089897,074780,084403,087882,074970,085713
0000000297,0000296000,091266,076302,081512,089283,076849,082433
0000000298,0000297000,091780,078516,078784,089694,079474,079396
0000000299,0000298000,091391,081202,076487,089077,082586,076902
0000000300,0000299000,090135,084089,074855,087491,085877,075197
0000000301,0000300000,088132,086901,074046,085091,089028,074446
