DIgSILENT PowerFactory,21000900,2000
6,06A,00D
1,TTPP_200000_100:Secondary Voltage A,,,V,0.10000000,-8229.868164,0.000000,63506,99998,1,1,P
2,TTPP_200000_100:Secondary Voltage B,,,V,0.10000000,-8183.943359,0.000000,66063,99998,1,1,P
3,TTPP_200000_100:Secondary Voltage C,,,V,0.10000000,-8352.592773,0.000000,61312,99998,1,1,P
4,TTCC_300_1:Secondary Current A,,,A,0.00010000000,-2.752096,0.000000,-18839,99998,1,1,P
5,TTCC_300_1:Secondary Current B,,,A,0.00010000000,-5.010286,0.000000,164,99998,1,1,P
6,TTCC_300_1:Secondary Current C,,,A,0.00010000000,-4.892217,0.000000,-2129,99998,1,1,P
50
1
1000.000000,1101
30/06/2023,06:05:38.000000
30/06/2023,06:05:38.000000
ASCII
1.000000
0000000001,0000000000,089405,083314,074945,006592,036113,083842
0000000002,0000001000,087271,086032,074360,016344,026835,083368
0000000003,0000002000,084630,088362,074671,027183,019837,079525
0000000004,0000003000,081774,090041,075848,038063,015794,072689
0000000005,0000004000,078980,090903,077781,047905,015119,063521
0000000006,0000005000,076493,090894,080278,055754,017872,052921
0000000007,0000006000,074571,090008,083084,060840,023767,041940
0000000008,0000007000,073427,088300,085937,062662,032242,031642
0000000009,0000008000,073142,085962,088559,061039,042483,023025
0000000010,0000009000,073739,083240,090685,056140,053457,016948
0000000011,0000010000,075188,080369,092107,048447,064092,014008
0000000012,0000011000,077340,077632,092692,038687,073377,014481
0000000013,0000012000,079963,075322,092380,027839,080384,018324
0000000014,0000013000,082814,073647,091203,016973,084414,025160
0000000015,0000014000,085628,072765,089271,007129,085089,034328
0000000016,0000015000,088107,072782,086774,-00729,082348,044927
0000000017,0000016000,090015,073683,083967,-05807,076445,055909
0000000018,0000017000,091177,075373,081115,-07627,067965,066207
0000000019,0000018000,091461,077710,078493,-06010,057733,074822
0000000020,0000019000,090849,080449,076367,-01111,046757,080900
0000000021,0000020000,089411,083309,074944,006591,036114,083841
0000000022,0000021000,087265,086039,074360,016341,026838,083367
0000000023,0000022000,084628,088364,074672,027192,019830,079525
0000000024,0000023000,081782,090034,075848,038063,015794,072688
0000000025,0000024000,078979,090905,077781,047903,015122,063521
0000000026,0000025000,076485,090901,080278,055757,017868,052921
0000000027,0000026000,074577,090002,083085,060845,023761,041939
0000000028,0000027000,073430,088297,085937,062659,032245,031642
0000000029,0000028000,073135,085969,088559,061039,042482,023026
0000000030,0000029000,073740,083239,090685,056147,053451,016948
0000000031,0000030000,075194,080363,092107,048447,064092,014007
0000000032,0000031000,077336,077636,092692,038686,073378,014481
0000000033,0000032000,079959,075325,092380,027843,080380,018323
0000000034,0000033000,082819,073642,091204,016977,084410,025159
0000000035,0000034000,085627,072765,089271,007128,085092,034327
0000000036,0000035000,088103,072787,086774,-00726,082346,044926
0000000037,0000036000,090017,073679,083967,-05804,076442,055907
0000000038,0000037000,091178,075371,081115,-07625,067966,066205
0000000039,0000038000,091458,077714,078493,-06010,057734,074821
0000000040,0000039000,090850,080448,076366,-01107,046755,080899
0000000041,0000040000,089413,083306,074944,006591,036116,083840
0000000042,0000041000,087263,086041,074360,016342,026838,083366
0000000043,0000042000,084628,088364,074671,027192,019830,079524
0000000044,0000043000,081784,090032,075848,038063,015794,072688
0000000045,0000044000,078977,090907,077781,047902,015123,063521
0000000046,0000045000,076486,090901,080277,055758,017866,052921
0000000047,0000046000,074580,090000,083084,060844,023762,041940
0000000048,0000047000,073428,088299,085937,062659,032244,031643
0000000049,0000048000,073134,085971,088559,061041,042479,023026
0000000050,0000049000,073743,083236,090685,056148,053449,016949
0000000051,0000050000,075192,080364,092108,048446,064091,014008
0000000052,0000051000,077333,077639,092692,038690,073374,014481
0000000053,0000052000,079962,075322,092380,027847,080376,018323
0000000054,0000053000,082819,073641,091204,016977,084410,025158
0000000055,0000054000,085623,072769,089272,007132,085089,034326
0000000056,0000055000,088104,072785,086774,-00720,082342,044924
0000000057,0000056000,090021,073676,083967,-05803,076443,055905
0000000058,0000057000,091175,075374,081116,-07624,067967,066202
0000000059,0000058000,091457,077714,078493,-06005,057732,074818
0000000060,0000059000,090855,080443,076366,-01106,046756,080896
0000000061,0000060000,089412,083308,074944,006589,036120,083837
0000000062,0000061000,087260,086044,074360,016344,026839,083364
0000000063,0000062000,084632,088361,074671,027193,019830,079523
0000000064,0000063000,081785,090031,075848,038059,015799,072688
0000000065,0000064000,078973,090911,077780,047900,015124,063521
0000000066,0000065000,076487,090900,080277,055758,017865,052923
0000000067,0000066000,074582,089998,083084,060841,023763,041943
0000000068,0000067000,073424,088303,085936,062656,032245,031646
0000000069,0000068000,073132,085972,088559,061042,042475,023030
0000000070,0000069000,073745,083233,090685,056147,053446,016952
0000000071,0000070000,075190,080366,092108,048446,064089,014011
0000000072,0000071000,077330,077641,092693,038693,073369,014483
0000000073,0000072000,079964,075319,092381,027851,080371,018324
0000000074,0000073000,082819,073640,091205,016980,084408,025158
0000000075,0000074000,085620,072771,089272,007137,085085,034324
0000000076,0000075000,088106,072783,086775,-00714,082338,044922
0000000077,0000076000,090022,073674,083968,-05799,076443,055902
0000000078,0000077000,091173,075375,081116,-07620,067968,066198
0000000079,0000078000,091459,077713,078493,-06000,057733,074813
0000000080,0000079000,090857,080441,076366,-01105,046760,080891
0000000081,0000080000,089411,083309,074944,006589,036124,083833
0000000082,0000081000,087261,086044,074359,016344,026842,083360
0000000083,0000082000,084635,088359,074670,027190,019836,079521
0000000084,0000083000,081784,090033,075847,038054,015804,072687
0000000085,0000084000,078972,090913,077779,047897,015127,063522
0000000086,0000085000,076490,090899,080276,055753,017867,052925
0000000087,0000086000,074581,089999,083083,060835,023765,041947
0000000088,0000087000,073422,088306,085936,062653,032243,031651
0000000089,0000088000,073134,085971,088559,061040,042471,023036
0000000090,0000089000,073745,083233,090685,056145,053443,016958
0000000091,0000090000,075186,080369,092109,048447,064083,014016
0000000092,0000091000,077330,077641,092693,038698,073361,014487
0000000093,0000092000,079965,075317,092382,027854,080365,018326
0000000094,0000093000,082815,073642,091206,016986,084402,025159
0000000095,0000094000,085619,072771,089273,007146,085078,034322
0000000096,0000095000,088108,072779,086776,-00707,082335,044918
0000000097,0000096000,090021,073674,083969,-05793,076443,055896
0000000098,0000097000,091172,075376,081117,-07612,067967,066191
0000000099,0000098000,091462,077709,078493,-05995,057735,074806
0000000100,0000099000,090858,080440,076366,-01104,046767,080883
0000000101,0000100000,089410,083311,074943,006590,036130,083826
0000000102,0000101000,087264,086042,074358,016343,026849,083355
0000000103,0000102000,084638,088357,074669,027184,019845,079517
0000000104,0000103000,081783,090036,075845,038048,015812,072686
0000000105,0000104000,078973,090914,077777,047890,015131,063524
0000000106,0000105000,076492,090898,080274,055744,017872,052930
0000000107,0000106000,074580,090002,083082,060826,023767,041953
0000000108,0000107000,073420,088309,085935,062647,032240,031659
0000000109,0000108000,073135,085971,088558,061035,042467,023045
0000000110,0000109000,073743,083235,090686,056141,053438,016967
0000000111,0000110000,075183,080372,092109,048448,064074,014024
0000000112,0000111000,077330,077640,092694,038702,073350,014494
0000000113,0000112000,079963,075317,092384,027860,080356,018330
0000000114,0000113000,082813,073644,091208,016995,084392,025159
0000000115,0000114000,085620,072769,089275,007157,085070,034320
0000000116,0000115000,088109,072777,086778,-00697,082330,044912
0000000117,0000116000,090019,073674,083971,-05782,076441,055887
0000000118,0000117000,091173,075374,081117,-07602,067967,066180
0000000119,0000118000,091465,077706,078494,-05989,057740,074794
0000000120,0000119000,090859,080439,076366,-01101,046775,080872
0000000121,0000120000,089412,083310,074942,006591,036140,083816
0000000122,0000121000,087268,086040,074356,016339,026860,083347
0000000123,0000122000,084639,088358,074667,027176,019857,079512
0000000124,0000123000,081783,090038,075843,038039,015822,072685
0000000125,0000124000,078976,090913,077775,047879,015140,063527
0000000126,0000125000,076492,090900,080273,055731,017879,052936
0000000127,0000126000,074577,090006,083081,060814,023769,041963
0000000128,0000127000,073420,088310,085934,062638,032238,031671
0000000129,0000128000,073134,085972,088558,061027,042462,023058
0000000130,0000129000,073739,083239,090686,056137,053429,016980
0000000131,0000130000,075181,080373,092110,048450,064061,014035
0000000132,0000131000,077329,077639,092696,038706,073337,014503
0000000133,0000132000,079960,075318,092386,027868,080343,018335
0000000134,0000133000,082810,073644,091210,017007,084379,025160
0000000135,0000134000,085620,072766,089278,007171,085059,034316
0000000136,0000135000,088109,072774,086781,-00683,082324,044905
0000000137,0000136000,090019,073673,083973,-05767,076438,055876
0000000138,0000137000,091176,075370,081119,-07589,067968,066166
0000000139,0000138000,091468,077702,078494,-05981,057747,074779
0000000140,0000139000,090860,080438,076366,-01096,046786,080856
0000000141,0000140000,089415,083308,074941,006592,036153,083802
0000000142,0000141000,087272,086038,074354,016333,026876,083337
0000000143,0000142000,084640,088359,074665,027166,019874,079506
0000000144,0000143000,081785,090039,075840,038026,015836,072684
0000000145,0000144000,078978,090914,077772,047863,015152,063530
0000000146,0000145000,076492,090903,080270,055713,017887,052945
0000000147,0000146000,074576,090010,083078,060799,023772,041976
0000000148,0000147000,073420,088312,085932,062624,032235,031687
0000000149,0000148000,073131,085975,088557,061016,042455,023076
0000000150,0000149000,073735,083243,090686,056133,053416,016998
0000000151,0000150000,075178,080375,092111,048451,064044,014051
0000000152,0000151000,077327,077639,092699,038712,073319,014515
0000000153,0000152000,079956,075319,092389,027879,080324,018343
0000000154,0000153000,082808,073642,091214,017024,084360,025162
0000000155,0000154000,085620,072763,089281,007189,085045,034312
0000000156,0000155000,088107,072773,086784,-00663,082315,044894
0000000157,0000156000,090019,073670,083975,-05748,076433,055861
0000000158,0000157000,091179,075365,081121,-07573,067971,066148
0000000159,0000158000,091470,077699,078495,-05969,057757,074758
0000000160,0000159000,090863,080436,076365,-01089,046799,080836
0000000161,0000160000,089420,083305,074939,006592,036170,083784
0000000162,0000161000,087275,086036,074352,016326,026898,083323
0000000163,0000162000,084642,088360,074661,027154,019895,079497
0000000164,0000163000,081789,090040,075836,038009,015855,072682
0000000165,0000164000,078981,090915,077768,047841,015169,063535
0000000166,0000165000,076491,090907,080266,055691,017898,052956
0000000167,0000166000,074575,090014,083075,060778,023775,041993
0000000168,0000167000,073419,088315,085930,062606,032232,031708
0000000169,0000168000,073127,085980,088557,061003,042445,023099
0000000170,0000169000,073730,083247,090687,056127,053399,017020
0000000171,0000170000,075175,080376,092113,048451,064023,014071
0000000172,0000171000,077322,077641,092702,038719,073296,014530
0000000173,0000172000,079951,075320,092393,027894,080299,018352
0000000174,0000173000,082806,073640,091218,017045,084338,025164
0000000175,0000174000,085618,072760,089286,007213,085027,034306
0000000176,0000175000,088106,072770,086788,-00638,082303,044881
0000000177,0000176000,090021,073665,083979,-05723,076428,055842
0000000178,0000177000,091182,075359,081123,-07553,067975,066124
0000000179,0000178000,091473,077696,078496,-05955,057768,074732
0000000180,0000179000,090867,080432,076365,-01081,046816,080811
0000000181,0000180000,089426,083301,074937,006591,036194,083761
0000000182,0000181000,087280,086035,074349,016317,026925,083305
0000000183,0000182000,084646,088361,074657,027138,019921,079487
0000000184,0000183000,081793,090040,075831,037986,015880,072680
0000000185,0000184000,078982,090919,077763,047814,015189,063542
0000000186,0000185000,076491,090912,080261,055663,017911,052971
0000000187,0000186000,074575,090018,083071,060752,023780,042014
0000000188,0000187000,073416,088320,085927,062583,032229,031735
0000000189,0000188000,073122,085986,088556,060986,042433,023127
0000000190,0000189000,073726,083251,090687,056119,053379,017049
0000000191,0000190000,075170,080378,092116,048452,063998,014096
0000000192,0000191000,077316,077643,092705,038729,073267,014550
0000000193,0000192000,079947,075320,092398,027913,080269,018363
0000000194,0000193000,082803,073637,091224,017069,084310,025166
0000000195,0000194000,085615,072757,089292,007242,085005,034299
0000000196,0000195000,088105,072766,086793,-00606,082287,044865
0000000197,0000196000,090023,073658,083983,-05694,076422,055818
0000000198,0000197000,091185,075353,081126,-07528,067979,066095
0000000199,0000198000,091476,077691,078497,-05936,057781,074700
0000000200,0000199000,090873,080427,076364,-01072,046838,080779
0000000201,0000200000,089432,083297,074935,006590,036223,083734
0000000202,0000201000,087285,086034,074345,016306,026957,083284
0000000203,0000202000,084652,088361,074651,027118,019954,079474
0000000204,0000203000,081798,090042,075825,037958,015910,072677
0000000205,0000204000,078984,090923,077757,047782,015214,063550
0000000206,0000205000,076491,090918,080255,055630,017927,052989
0000000207,0000206000,074574,090024,083066,060719,023786,042041
0000000208,0000207000,073412,088327,085924,062555,032225,031767
0000000209,0000208000,073117,085993,088554,060967,042417,023162
0000000210,0000209000,073720,083255,090688,056109,053354,017083
0000000211,0000210000,075163,080382,092118,048452,063966,014127
0000000212,0000211000,077308,077646,092710,038741,073231,014573
0000000213,0000212000,079941,075319,092404,027936,080232,018378
0000000214,0000213000,082799,073635,091231,017100,084277,025169
0000000215,0000214000,085612,072753,089299,007278,084979,034290
0000000216,0000215000,088104,072760,086800,-00568,082269,044845
0000000217,0000216000,090025,073651,083988,-05658,076415,055789
0000000218,0000217000,091188,075347,081130,-07498,067984,066059
0000000219,0000218000,091482,077684,078499,-05914,057798,074662
0000000220,0000219000,090881,080420,076363,-01061,046865,080741
0000000221,0000220000,089439,083293,074932,006588,036258,083700
0000000222,0000221000,087292,086033,074339,016293,026996,083258
0000000223,0000222000,084659,088360,074645,027094,019993,079459
0000000224,0000223000,081803,090044,075817,037925,015947,072674
0000000225,0000224000,078987,090928,077749,047743,015244,063559
0000000226,0000225000,076492,090924,080248,055589,017947,053010
0000000227,0000226000,074573,090031,083061,060680,023794,042072
0000000228,0000227000,073408,088336,085920,062522,032219,031805
0000000229,0000228000,073111,086000,088552,060943,042399,023204
0000000230,0000229000,073714,083261,090689,056097,053325,017125
0000000231,0000230000,075155,080387,092122,048453,063929,014163
0000000232,0000231000,077300,077649,092715,038756,073188,014601
0000000233,0000232000,079935,075319,092411,027963,080189,018394
0000000234,0000233000,082793,073632,091239,017136,084238,025172
0000000235,0000234000,085608,072749,089307,007321,084946,034280
0000000236,0000235000,088104,072753,086807,-00523,082248,044822
0000000237,0000236000,090027,073642,083995,-05616,076407,055754
0000000238,0000237000,091191,075339,081134,-07462,067991,066017
0000000239,0000238000,091488,077676,078500,-05888,057817,074616
0000000240,0000239000,090889,080413,076362,-01048,046897,080697
0000000241,0000240000,089448,083288,074928,006587,036299,083660
0000000242,0000241000,087300,086030,074333,016277,027042,083228
0000000243,0000242000,084667,088360,074637,027065,020040,079441
0000000244,0000243000,081808,090047,075809,037885,015990,072670
0000000245,0000244000,078990,090934,077740,047697,015278,063571
0000000246,0000245000,076494,090931,080240,055541,017969,053036
0000000247,0000246000,074570,090040,083054,060634,023803,042109
0000000248,0000247000,073403,088346,085916,062483,032212,031851
0000000249,0000248000,073105,086009,088550,060916,042377,023254
0000000250,0000249000,073705,083269,090690,056083,053290,017173
0000000251,0000250000,075145,080394,092126,048455,063884,014206
0000000252,0000251000,077291,077652,092722,038774,073138,014634
0000000253,0000252000,079927,075318,092419,027994,080139,018413
0000000254,0000253000,082786,073629,091248,017178,084192,025176
0000000255,0000254000,085604,072743,089317,007371,084909,034267
0000000256,0000255000,088103,072744,086816,-00471,082223,044794
0000000257,0000256000,090029,073633,084002,-05567,076398,055714
0000000258,0000257000,091196,075329,081139,-07420,067998,065968
0000000259,0000258000,091496,077666,078502,-05858,057841,074563
0000000260,0000259000,090898,080405,076361,-01033,046935,080644
0000000261,0000260000,089457,083282,074924,006585,036347,083615
0000000262,0000261000,087311,086026,074326,016259,027095,083193
0000000263,0000262000,084676,088360,074628,027031,020095,079421
0000000264,0000263000,081815,090051,075798,037839,016040,072667
0000000265,0000264000,078995,090940,077729,047643,015318,063584
0000000266,0000265000,076495,090939,080230,055484,017996,053066
0000000267,0000266000,074568,090051,083046,060581,023813,042153
0000000268,0000267000,073397,088357,085910,062439,032204,031904
0000000269,0000268000,073097,086019,088548,060884,042352,023311
0000000270,0000269000,073695,083278,090692,056067,053250,017229
0000000271,0000270000,075133,080401,092130,048458,063833,014255
0000000272,0000271000,077280,077655,092729,038794,073080,014671
0000000273,0000272000,079917,075318,092429,028030,080081,018435
0000000274,0000273000,082778,073626,091260,017228,084139,025180
0000000275,0000274000,085599,072736,089328,007428,084866,034252
0000000276,0000275000,088102,072734,086827,-00411,082195,044762
0000000277,0000276000,090031,073622,084011,-05510,076388,055668
0000000278,0000277000,091202,075317,081145,-07372,068006,065911
0000000279,0000278000,091505,077654,078505,-05824,057868,074501
0000000280,0000279000,090909,080395,076360,-01017,046978,080584
0000000281,0000280000,089469,083275,074919,006583,036402,083562
0000000282,0000281000,087323,086022,074318,016237,027157,083152
0000000283,0000282000,084687,088360,074617,026991,020158,079397
0000000284,0000283000,081823,090055,075786,037786,016097,072663
0000000285,0000284000,079000,090947,077717,047582,015363,063600
0000000286,0000285000,076497,090949,080219,055420,018026,053100
0000000287,0000286000,074565,090063,083036,060520,023824,042203
0000000288,0000287000,073391,088369,085903,062388,032194,031965
0000000289,0000288000,073088,086031,088545,060847,042323,023377
0000000290,0000289000,073683,083288,090693,056049,053204,017293
0000000291,0000290000,075121,080408,092135,048461,063774,014311
0000000292,0000291000,077268,077659,092738,038817,073014,014714
0000000293,0000292000,079905,075319,092440,028072,080014,018460
0000000294,0000293000,082769,073623,091272,017284,084078,025184
0000000295,0000294000,085594,072728,089342,007494,084817,034235
0000000296,0000295000,088101,072724,086839,-00343,082164,044725
0000000297,0000296000,090033,073610,084021,-05445,076377,055614
0000000298,0000297000,091209,075303,081152,-07317,068016,065846
0000000299,0000298000,091515,077641,078508,-05785,057899,074432
0000000300,0000299000,090921,080384,076359,-00998,047027,080516
0000000301,0000300000,089483,083267,074914,006580,036464,083502
