DIgSILENT PowerFactory,21000900,2000
6,06A,00D
1,TTPP_200000_100:Secondary Voltage A,,,V,0.10000000,-8356.040039,0.000000,67260,99998,1,1,P
2,TTPP_200000_100:Secondary Voltage B,,,V,0.10000000,-7963.331543,0.000000,61965,99998,1,1,P
3,TTPP_200000_100:Secondary Voltage C,,,V,0.10000000,-8239.838867,0.000000,63806,99998,1,1,P
4,TTCC_500_5:Secondary Current A,,,A,0.0010000000,-87.661819,0.000000,69970,99998,1,1,P
5,TTCC_500_5:Secondary Current B,,,A,0.0010000000,-85.177010,0.000000,70219,99998,1,1,P
6,TTCC_500_5:Secondary Current C,,,A,0.0010000000,-84.567993,0.000000,69177,99998,1,1,P
50
1
1000.000000,1101
30/06/2023,06:07:21.000000
30/06/2023,06:07:21.000000
ASCII
1.000000
0000000001,0000000000,089072,083274,073246,093577,089856,073973
0000000002,0000001000,086524,085707,073360,090562,092572,074272
0000000003,0000002000,083673,087563,074358,087263,094567,075577
0000000004,0000003000,080827,088624,076141,084008,095637,077763
0000000005,0000004000,078243,088807,078543,081103,095687,080617
0000000006,0000005000,076171,088100,081321,078843,094708,083857
0000000007,0000006000,074825,086570,084196,077449,092795,087163
0000000008,0000007000,074352,084339,086902,077054,090135,090218
0000000009,0000008000,074760,081660,089171,077694,086991,092721
0000000010,0000009000,076028,078794,090772,079313,083670,094424
0000000011,0000010000,078048,075995,091550,081750,080495,095162
0000000012,0000011000,080609,073546,091437,084764,077780,094863
0000000013,0000012000,083437,071715,090440,088063,075787,093558
0000000014,0000013000,086291,070645,088655,091322,074713,091372
0000000015,0000014000,088888,070450,086254,094223,074665,088518
0000000016,0000015000,090948,071168,083476,096482,075646,085278
0000000017,0000016000,092283,072709,080600,097880,077555,081972
0000000018,0000017000,092782,074916,077895,098274,080216,078917
0000000019,0000018000,092363,077603,075626,097630,083363,076414
0000000020,0000019000,091081,080485,074026,096014,086682,074711
0000000021,0000020000,089077,083268,073246,093579,089854,073973
0000000022,0000021000,086524,085708,073360,090560,092575,074272
0000000023,0000022000,083671,087564,074357,087263,094566,075577
0000000024,0000023000,080827,088624,076141,084006,095638,077763
0000000025,0000024000,078245,088805,078543,081103,095687,080617
0000000026,0000025000,076168,088103,081320,078842,094709,083856
0000000027,0000026000,074828,086568,084196,077449,092795,087163
0000000028,0000027000,074350,084340,086902,077053,090136,090218
0000000029,0000028000,074759,081661,089171,077694,086991,092721
0000000030,0000029000,076029,078793,090771,079312,083671,094424
0000000031,0000030000,078049,075993,091551,081749,080496,095162
0000000032,0000031000,080604,073551,091437,084764,077780,094863
0000000033,0000032000,083440,071713,090439,088063,075787,093558
0000000034,0000033000,086293,070643,088655,091320,074714,091372
0000000035,0000034000,088885,070453,086255,094222,074666,088518
0000000036,0000035000,090946,071169,083476,096483,075646,085279
0000000037,0000036000,092289,072703,080600,097879,077556,081972
0000000038,0000037000,092779,074918,077895,098273,080217,078917
0000000039,0000038000,092359,077607,075626,097630,083362,076414
0000000040,0000039000,091086,080481,074025,096014,086682,074711
0000000041,0000040000,089080,083266,073246,093578,089855,073974
0000000042,0000041000,086518,085714,073360,090560,092574,074272
0000000043,0000042000,083674,087562,074357,087264,094566,075577
0000000044,0000043000,080832,088620,076141,084006,095638,077763
0000000045,0000044000,078241,088809,078543,081102,095688,080617
0000000046,0000045000,076166,088106,081320,078843,094708,083856
0000000047,0000046000,074833,086562,084196,077449,092795,087163
0000000048,0000047000,074348,084342,086902,077052,090137,090218
0000000049,0000048000,074755,081666,089171,077694,086991,092721
0000000050,0000049000,076032,078789,090771,079313,083670,094424
0000000051,0000050000,078050,075992,091551,081747,080498,095162
0000000052,0000051000,080600,073555,091437,084763,077780,094863
0000000053,0000052000,083440,071712,090440,088062,075787,093558
0000000054,0000053000,086296,070639,088656,091320,074715,091372
0000000055,0000054000,088881,070456,086255,094221,074667,088519
0000000056,0000055000,090946,071170,083477,096482,075645,085279
0000000057,0000056000,092292,072700,080601,097878,077556,081973
0000000058,0000057000,092778,074919,077895,098272,080217,078918
0000000059,0000058000,092358,077608,075626,097630,083362,076415
0000000060,0000059000,091089,080478,074026,096014,086681,074712
0000000061,0000060000,089080,083266,073246,093577,089855,073974
0000000062,0000061000,086517,085716,073359,090561,092573,074273
0000000063,0000062000,083676,087560,074356,087264,094565,075578
0000000064,0000063000,080833,088619,076140,084006,095638,077763
0000000065,0000064000,078239,088812,078542,081103,095687,080617
0000000066,0000065000,076168,088105,081319,078844,094707,083856
0000000067,0000066000,074834,086562,084196,077449,092796,087162
0000000068,0000067000,074345,084345,086902,077052,090137,090217
0000000069,0000068000,074755,081666,089170,077695,086992,092720
0000000070,0000069000,076034,078787,090771,079312,083672,094423
0000000071,0000070000,078046,075995,091551,081747,080499,095161
0000000072,0000071000,080598,073556,091438,084763,077781,094862
0000000073,0000072000,083443,071709,090441,088061,075788,093558
0000000074,0000073000,086294,070640,088657,091318,074716,091372
0000000075,0000074000,088879,070457,086256,094220,074668,088519
0000000076,0000075000,090949,071166,083478,096481,075646,085280
0000000077,0000076000,092293,072698,080602,097876,077557,081974
0000000078,0000077000,092775,074921,077896,098271,080217,078919
0000000079,0000078000,092360,077606,075626,097629,083361,076416
0000000080,0000079000,091092,080474,074025,096013,086681,074713
0000000081,0000080000,089078,083268,073246,093577,089854,073976
0000000082,0000081000,086517,085716,073358,090561,092572,074274
0000000083,0000082000,083680,087557,074355,087265,094564,075578
0000000084,0000083000,080832,088621,076139,084007,095637,077763
0000000085,0000084000,078237,088815,078540,081105,095686,080616
0000000086,0000085000,076171,088103,081318,078845,094706,083855
0000000087,0000086000,074834,086563,084195,077450,092796,087161
0000000088,0000087000,074342,084349,086901,077054,090138,090215
0000000089,0000088000,074756,081666,089170,077696,086992,092718
0000000090,0000089000,076034,078787,090771,079312,083673,094421
0000000091,0000090000,078042,075998,091552,081747,080501,095159
0000000092,0000091000,080597,073557,091439,084763,077783,094861
0000000093,0000092000,083443,071707,090442,088060,075790,093557
0000000094,0000093000,086291,070642,088659,091316,074719,091372
0000000095,0000094000,088877,070457,086257,094218,074669,088519
0000000096,0000095000,090950,071162,083479,096479,075647,085281
0000000097,0000096000,092292,072697,080603,097873,077558,081976
0000000098,0000097000,092775,074921,077897,098269,080216,078921
0000000099,0000098000,092364,077602,075627,097628,083360,076419
0000000100,0000099000,091094,080473,074026,096012,086679,074716
0000000101,0000100000,089078,083269,073245,093577,089852,073977
0000000102,0000101000,086521,085714,073357,090562,092569,074275
0000000103,0000102000,083683,087556,074354,087266,094562,075579
0000000104,0000103000,080831,088624,076137,084009,095635,077763
0000000105,0000104000,078239,088815,078538,081107,095684,080616
0000000106,0000105000,076173,088103,081316,078848,094705,083854
0000000107,0000106000,074832,086567,084193,077452,092796,087159
0000000108,0000107000,074341,084352,086899,077056,090138,090213
0000000109,0000108000,074756,081666,089169,077698,086993,092716
0000000110,0000109000,076030,078790,090772,079313,083676,094419
0000000111,0000110000,078039,076001,091553,081747,080503,095157
0000000112,0000111000,080597,073556,091440,084762,077785,094859
0000000113,0000112000,083441,071706,090444,088058,075793,093556
0000000114,0000113000,086287,070643,088661,091313,074721,091372
0000000115,0000114000,088877,070455,086260,094216,074671,088520
0000000116,0000115000,090951,071159,083482,096475,075649,085283
0000000117,0000116000,092290,072697,080605,097870,077559,081978
0000000118,0000117000,092776,074918,077898,098267,080216,078924
0000000119,0000118000,092367,077597,075627,097626,083359,076422
0000000120,0000119000,091095,080472,074025,096010,086677,074719
0000000121,0000120000,089080,083268,073244,093577,089849,073980
0000000122,0000121000,086526,085711,073355,090563,092566,074278
0000000123,0000122000,083685,087556,074351,087267,094559,075581
0000000124,0000123000,080832,088626,076134,084012,095631,077764
0000000125,0000124000,078242,088816,078535,081111,095681,080615
0000000126,0000125000,076174,088105,081313,078851,094704,083852
0000000127,0000126000,074830,086572,084191,077455,092795,087156
0000000128,0000127000,074340,084354,086898,077059,090138,090210
0000000129,0000128000,074755,081668,089169,077700,086995,092712
0000000130,0000129000,076026,078794,090772,079314,083678,094415
0000000131,0000130000,078035,076003,091554,081747,080507,095154
0000000132,0000131000,080595,073555,091443,084760,077790,094857
0000000133,0000132000,083437,071707,090448,088055,075798,093554
0000000134,0000133000,086284,070643,088665,091310,074725,091372
0000000135,0000134000,088877,070451,086263,094211,074674,088521
0000000136,0000135000,090950,071157,083485,096471,075651,085285
0000000137,0000136000,092290,072695,080608,097866,077560,081981
0000000138,0000137000,092779,074913,077900,098263,080215,078928
0000000139,0000138000,092371,077593,075628,097623,083357,076426
0000000140,0000139000,091097,080470,074025,096009,086674,074723
0000000141,0000140000,089084,083265,073242,093577,089845,073984
0000000142,0000141000,086530,085709,073353,090565,092561,074281
0000000143,0000142000,083687,087557,074348,087270,094554,075583
0000000144,0000143000,080835,088628,076130,084016,095627,077764
0000000145,0000144000,078245,088816,078531,081116,095677,080614
0000000146,0000145000,076173,088109,081310,078856,094702,083849
0000000147,0000146000,074828,086577,084187,077460,092794,087152
0000000148,0000147000,074339,084357,086895,077063,090139,090205
0000000149,0000148000,074752,081672,089168,077702,086998,092707
0000000150,0000149000,076021,078799,090772,079315,083682,094410
0000000151,0000150000,078032,076005,091555,081747,080511,095149
0000000152,0000151000,080591,073556,091446,084758,077795,094853
0000000153,0000152000,083432,071709,090451,088051,075803,093552
0000000154,0000153000,086282,070641,088669,091306,074730,091371
0000000155,0000154000,088876,070447,086268,094206,074678,088523
0000000156,0000155000,090949,071154,083490,096465,075654,085288
0000000157,0000156000,092291,072690,080611,097861,077560,081986
0000000158,0000157000,092783,074907,077903,098259,080214,078934
0000000159,0000158000,092374,077589,075630,097620,083355,076432
0000000160,0000159000,091101,080467,074024,096008,086670,074729
0000000161,0000160000,089091,083261,073240,093578,089840,073990
0000000162,0000161000,086536,085707,073349,090567,092556,074285
0000000163,0000162000,083691,087558,074343,087274,094548,075585
0000000164,0000163000,080839,088629,076125,084021,095621,077765
0000000165,0000164000,078248,088819,078526,081121,095673,080612
0000000166,0000165000,076173,088114,081305,078862,094699,083846
0000000167,0000166000,074827,086582,084183,077466,092793,087148
0000000168,0000167000,074337,084362,086892,077068,090140,090199
0000000169,0000168000,074747,081679,089167,077706,087001,092700
0000000170,0000169000,076015,078804,090773,079317,083686,094403
0000000171,0000170000,078027,076008,091558,081746,080517,095143
0000000172,0000171000,080584,073558,091450,084756,077802,094849
0000000173,0000172000,083426,071710,090457,088047,075810,093550
0000000174,0000173000,086278,070638,088675,091300,074736,091371
0000000175,0000174000,088874,070443,086274,094199,074684,088524
0000000176,0000175000,090947,071150,083495,096458,075657,085292
0000000177,0000176000,092292,072684,080616,097854,077562,081991
0000000178,0000177000,092787,074900,077906,098253,080213,078941
0000000179,0000178000,092377,077584,075631,097615,083352,076440
0000000180,0000179000,091107,080462,074024,096006,086665,074736
0000000181,0000180000,089098,083256,073237,093578,089833,073996
0000000182,0000181000,086541,085705,073345,090569,092548,074290
0000000183,0000182000,083696,087559,074337,087279,094540,075588
0000000184,0000183000,080845,088630,076118,084028,095614,077765
0000000185,0000184000,078250,088823,078519,081129,095667,080611
0000000186,0000185000,076173,088121,081298,078870,094695,083842
0000000187,0000186000,074826,086588,084178,077474,092791,087141
0000000188,0000187000,074334,084369,086889,077075,090141,090191
0000000189,0000188000,074740,081686,089165,077710,087004,092692
0000000190,0000189000,076009,078810,090773,079320,083692,094395
0000000191,0000190000,078020,076011,091561,081746,080525,095136
0000000192,0000191000,080576,073561,091455,084753,077811,094843
0000000193,0000192000,083419,071710,090463,088042,075818,093546
0000000194,0000193000,086274,070635,088682,091293,074744,091370
0000000195,0000194000,088870,070440,086282,094190,074690,088526
0000000196,0000195000,090946,071144,083502,096449,075661,085296
0000000197,0000196000,092295,072676,080622,097846,077563,081998
0000000198,0000197000,092790,074892,077910,098245,080212,078949
0000000199,0000198000,092383,077577,075633,097610,083348,076449
0000000200,0000199000,091115,080455,074023,096003,086658,074746
0000000201,0000200000,089106,083251,073234,093578,089825,074004
0000000202,0000201000,086549,085704,073340,090572,092539,074296
0000000203,0000202000,083704,087559,074330,087285,094530,075591
0000000204,0000203000,080851,088632,076110,084036,095605,077766
0000000205,0000204000,078253,088829,078511,081138,095660,080608
0000000206,0000205000,076174,088128,081290,078880,094690,083837
0000000207,0000206000,074825,086595,084171,077483,092790,087134
0000000208,0000207000,074329,084378,086885,077082,090142,090182
0000000209,0000208000,074733,081695,089163,077716,087009,092682
0000000210,0000209000,076001,078816,090774,079322,083699,094385
0000000211,0000210000,078011,076017,091564,081746,080534,095127
0000000212,0000211000,080567,073565,091461,084749,077821,094837
0000000213,0000212000,083412,071710,090471,088036,075829,093542
0000000214,0000213000,086268,070632,088692,091284,074754,091370
0000000215,0000214000,088866,070435,086291,094180,074698,088529
0000000216,0000215000,090945,071136,083511,096438,075666,085302
0000000217,0000216000,092297,072666,080629,097835,077565,082007
0000000218,0000217000,092795,074883,077915,098237,080211,078959
0000000219,0000218000,092389,077568,075635,097604,083343,076460
0000000220,0000219000,091124,080446,074022,096000,086650,074756
0000000221,0000220000,089116,083245,073230,093578,089815,074014
0000000222,0000221000,086558,085701,073333,090576,092527,074303
0000000223,0000222000,083713,087558,074321,087292,094519,075596
0000000224,0000223000,080858,088635,076100,084045,095595,077767
0000000225,0000224000,078257,088835,078500,081150,095652,080605
0000000226,0000225000,076175,088136,081281,078892,094685,083830
0000000227,0000226000,074824,086605,084164,077494,092788,087125
0000000228,0000227000,074324,084389,086879,077092,090144,090171
0000000229,0000228000,074726,081705,089161,077723,087014,092670
0000000230,0000229000,075992,078825,090775,079326,083708,094373
0000000231,0000230000,078000,076023,091569,081745,080545,095117
0000000232,0000231000,080556,073569,091468,084745,077833,094829
0000000233,0000232000,083403,071709,090480,088028,075841,093538
0000000234,0000233000,086260,070629,088703,091273,074765,091369
0000000235,0000234000,088861,070429,086302,094168,074707,088532
0000000236,0000235000,090944,071127,083521,096425,075672,085309
0000000237,0000236000,092300,072655,080638,097823,077567,082017
0000000238,0000237000,092800,074872,077921,098226,080209,078972
0000000239,0000238000,092398,077557,075637,097597,083337,076473
0000000240,0000239000,091135,080436,074021,095996,086641,074769
0000000241,0000240000,089127,083239,073226,093579,089803,074025
0000000242,0000241000,086569,085697,073325,090581,092514,074312
0000000243,0000242000,083724,087557,074311,087300,094506,075601
0000000244,0000243000,080866,088639,076088,084056,095583,077768
0000000245,0000244000,078262,088842,078488,081163,095642,080602
0000000246,0000245000,076177,088145,081270,078906,094678,083823
0000000247,0000246000,074821,086616,084154,077508,092785,087114
0000000248,0000247000,074317,084402,086873,077103,090146,090157
0000000249,0000248000,074717,081717,089158,077731,087020,092655
0000000250,0000249000,075981,078835,090777,079330,083718,094359
0000000251,0000250000,077987,076032,091574,081744,080558,095105
0000000252,0000251000,080544,073573,091476,084740,077847,094819
0000000253,0000252000,083392,071709,090491,088019,075856,093532
0000000254,0000253000,086251,070625,088715,091261,074778,091368
0000000255,0000254000,088855,070421,086315,094153,074718,088536
0000000256,0000255000,090943,071116,083533,096410,075679,085317
0000000257,0000256000,092302,072642,080648,097809,077570,082028
0000000258,0000257000,092806,074859,077928,098214,080207,078986
0000000259,0000258000,092409,077544,075640,097588,083330,076489
0000000260,0000259000,091148,080425,074019,095992,086630,074784
0000000261,0000260000,089140,083231,073220,093579,089789,074038
0000000262,0000261000,086583,085693,073316,090586,092499,074322
0000000263,0000262000,083736,087557,074299,087310,094490,075607
0000000264,0000263000,080875,088643,076074,084070,095568,077769
0000000265,0000264000,078268,088851,078474,081178,095631,080598
0000000266,0000265000,076179,088156,081257,078922,094671,083814
0000000267,0000266000,074818,086631,084144,077523,092783,087101
0000000268,0000267000,074310,084416,086865,077116,090149,090142
0000000269,0000268000,074707,081730,089155,077740,087028,092639
0000000270,0000269000,075967,078847,090778,079334,083730,094343
0000000271,0000270000,077972,076041,091580,081744,080573,095090
0000000272,0000271000,080529,073577,091486,084734,077864,094809
0000000273,0000272000,083379,071709,090504,088008,075873,093526
0000000274,0000273000,086240,070621,088730,091246,074794,091367
0000000275,0000274000,088849,070412,086331,094137,074730,088540
0000000276,0000275000,090941,071103,083547,096393,075687,085326
0000000277,0000276000,092305,072628,080659,097792,077573,082042
0000000278,0000277000,092814,074843,077936,098201,080204,079002
0000000279,0000278000,092420,077528,075644,097579,083322,076506
0000000280,0000279000,091162,080412,074018,095987,086618,074802
0000000281,0000280000,089156,083222,073214,093580,089773,074053
0000000282,0000281000,086599,085687,073305,090593,092481,074333
0000000283,0000282000,083750,087557,074285,087321,094472,075613
0000000284,0000283000,080886,088648,076058,084085,095552,077770
0000000285,0000284000,078275,088860,078458,081196,095617,080593
0000000286,0000285000,076181,088169,081242,078940,094662,083804
0000000287,0000286000,074814,086647,084131,077540,092780,087087
0000000288,0000287000,074302,084433,086857,077131,090151,090125
0000000289,0000288000,074695,081746,089151,077750,087036,092620
0000000290,0000289000,075952,078861,090780,079339,083743,094325
0000000291,0000290000,077955,076051,091586,081743,080590,095074
0000000292,0000291000,080513,073582,091497,084727,077883,094797
0000000293,0000292000,083364,071709,090519,087996,075892,093519
0000000294,0000293000,086228,070616,088747,091230,074811,091366
0000000295,0000294000,088842,070402,086348,094118,074744,088545
0000000296,0000295000,090939,071089,083564,096373,075696,085337
0000000297,0000296000,092308,072612,080673,097774,077576,082057
0000000298,0000297000,092823,074825,077945,098185,080201,079021
0000000299,0000298000,092434,077511,075648,097568,083313,076526
0000000300,0000299000,091178,080398,074016,095982,086604,074821
0000000301,0000300000,089175,083210,073207,093581,089755,074070
