DIgSILENT PowerFactory,21000900,2000
6,06A,00D
1,TTPP_200000_100:Secondary Voltage A,,,V,0.10000000,-8320.275391,0.000000,64126,99998,1,1,P
2,TTPP_200000_100:Secondary Voltage B,,,V,0.10000000,-8182.225098,0.000000,65948,99998,1,1,P
3,TTPP_200000_100:Secondary Voltage C,,,V,0.10000000,-8353.175781,0.000000,62465,99998,1,1,P
4,TTCC_300_1:Secondary Current A,,,A,0.00010000000,-3.153090,0.000000,-14038,99998,1,1,P
5,TTCC_300_1:Secondary Current B,,,A,0.00010000000,-5.018172,0.000000,343,99998,1,1,P
6,TTCC_300_1:Secondary Current C,,,A,0.00010000000,-4.889079,0.000000,-2050,99998,1,1,P
50
1
1000.000000,1101
30/06/2023,06:06:41.000000
30/06/2023,06:06:41.000000
ASCII
1.000000
0000000001,0000000000,090309,083297,074950,010601,036192,083810
0000000002,0000001000,088175,086014,074366,020354,026915,083337
0000000003,0000002000,085534,088345,074678,031193,019915,079494
0000000004,0000003000,082678,090024,075853,042071,015873,072658
0000000005,0000004000,079885,090885,077787,051916,015199,063490
0000000006,0000005000,077397,090877,080284,059763,017950,052890
0000000007,0000006000,075476,089991,083090,064849,023845,041909
0000000008,0000007000,074331,088283,085943,066673,032321,031611
0000000009,0000008000,074046,085945,088565,065048,042561,022994
0000000010,0000009000,074643,083223,090690,060150,053536,016917
0000000011,0000010000,076092,080352,092113,052457,064170,013976
0000000012,0000011000,078244,077614,092698,042698,073455,014449
0000000013,0000012000,080866,075305,092386,031849,080463,018292
0000000014,0000013000,083717,073630,091209,020983,084492,025128
0000000015,0000014000,086532,072748,089277,011139,085168,034296
0000000016,0000015000,089011,072765,086780,003282,082427,044896
0000000017,0000016000,090918,073665,083972,-01798,076524,055877
0000000018,0000017000,092080,075356,081121,-03616,068044,066175
0000000019,0000018000,092365,077693,078499,-02000,057813,074791
0000000020,0000019000,091753,080432,076373,002899,046836,080868
0000000021,0000020000,090315,083292,074950,010600,036194,083810
0000000022,0000021000,088169,086021,074366,020351,026917,083336
0000000023,0000022000,085532,088347,074678,031201,019909,079494
0000000024,0000023000,082686,090017,075853,042072,015873,072658
0000000025,0000024000,079883,090888,077787,051912,015201,063490
0000000026,0000025000,077390,090883,080284,059767,017946,052890
0000000027,0000026000,075482,089985,083090,064855,023840,041909
0000000028,0000027000,074334,088280,085942,066669,032324,031611
0000000029,0000028000,074039,085952,088565,065049,042560,022995
0000000030,0000029000,074644,083222,090691,060157,053529,016917
0000000031,0000030000,076098,080346,092113,052457,064171,013976
0000000032,0000031000,078240,077619,092698,042697,073457,014449
0000000033,0000032000,080863,075308,092386,031854,080458,018291
0000000034,0000033000,083723,073625,091209,020987,084489,025127
0000000035,0000034000,086531,072748,089277,011138,085171,034295
0000000036,0000035000,089006,072770,086780,003285,082425,044894
0000000037,0000036000,090922,073662,083973,-01794,076521,055875
0000000038,0000037000,092082,075353,081121,-03615,068045,066173
0000000039,0000038000,092362,077696,078499,-02000,057814,074789
0000000040,0000039000,091754,080431,076372,002902,046834,080867
0000000041,0000040000,090318,083289,074950,010601,036195,083808
0000000042,0000041000,088167,086024,074366,020351,026918,083335
0000000043,0000042000,085532,088347,074677,031202,019909,079493
0000000044,0000043000,082688,090015,075854,042073,015873,072657
0000000045,0000044000,079881,090890,077787,051912,015202,063490
0000000046,0000045000,077390,090884,080283,059768,017945,052890
0000000047,0000046000,075484,089983,083090,064854,023840,041910
0000000048,0000047000,074332,088282,085943,066669,032323,031612
0000000049,0000048000,074038,085954,088565,065051,042557,022995
0000000050,0000049000,074647,083219,090691,060158,053528,016918
0000000051,0000050000,076096,080347,092114,052457,064170,013977
0000000052,0000051000,078237,077622,092698,042700,073453,014450
0000000053,0000052000,080866,075305,092386,031857,080455,018291
0000000054,0000053000,083723,073624,091210,020988,084489,025127
0000000055,0000054000,086527,072752,089278,011142,085168,034294
0000000056,0000055000,089008,072768,086780,003290,082421,044892
0000000057,0000056000,090925,073659,083973,-01792,076522,055873
0000000058,0000057000,092079,075356,081122,-03614,068046,066171
0000000059,0000058000,092362,077697,078499,-01995,057812,074786
0000000060,0000059000,091759,080426,076372,002903,046836,080864
0000000061,0000060000,090316,083290,074950,010599,036199,083806
0000000062,0000061000,088164,086027,074365,020353,026918,083333
0000000063,0000062000,085536,088344,074677,031202,019910,079492
0000000064,0000063000,082689,090014,075853,042068,015878,072657
0000000065,0000064000,079877,090894,077786,051910,015203,063490
0000000066,0000065000,077391,090883,080282,059768,017944,052892
0000000067,0000066000,075486,089981,083090,064850,023841,041912
0000000068,0000067000,074328,088286,085942,066666,032323,031615
0000000069,0000068000,074037,085955,088565,065052,042553,022999
0000000070,0000069000,074649,083216,090691,060157,053525,016921
0000000071,0000070000,076094,080349,092114,052456,064168,013979
0000000072,0000071000,078234,077624,092699,042704,073447,014452
0000000073,0000072000,080868,075302,092387,031861,080450,018292
0000000074,0000073000,083723,073623,091211,020990,084487,025126
0000000075,0000074000,086524,072754,089278,011147,085164,034292
0000000076,0000075000,089010,072766,086781,003296,082417,044890
0000000077,0000076000,090926,073657,083974,-01789,076522,055870
0000000078,0000077000,092077,075358,081122,-03610,068047,066166
0000000079,0000078000,092363,077696,078499,-01991,057812,074782
0000000080,0000079000,091761,080423,076372,002905,046839,080859
0000000081,0000080000,090315,083292,074950,010599,036204,083801
0000000082,0000081000,088165,086027,074365,020353,026921,083329
0000000083,0000082000,085539,088341,074676,031199,019915,079490
0000000084,0000083000,082689,090016,075853,042064,015883,072656
0000000085,0000084000,079877,090896,077785,051906,015206,063491
0000000086,0000085000,077394,090882,080281,059763,017946,052895
0000000087,0000086000,075486,089982,083089,064844,023843,041916
0000000088,0000087000,074326,088289,085942,066663,032321,031620
0000000089,0000088000,074038,085954,088564,065050,042549,023005
0000000090,0000089000,074649,083216,090691,060155,053521,016927
0000000091,0000090000,076090,080352,092114,052457,064162,013984
0000000092,0000091000,078234,077624,092699,042708,073439,014456
0000000093,0000092000,080869,075300,092388,031865,080444,018295
0000000094,0000093000,083720,073625,091212,020996,084481,025127
0000000095,0000094000,086523,072754,089279,011156,085157,034290
0000000096,0000095000,089012,072762,086782,003303,082414,044886
0000000097,0000096000,090925,073657,083975,-01783,076522,055864
0000000098,0000097000,092076,075358,081123,-03602,068046,066159
0000000099,0000098000,092366,077692,078499,-01985,057815,074774
0000000100,0000099000,091762,080422,076372,002906,046846,080852
0000000101,0000100000,090314,083293,074949,010600,036210,083794
0000000102,0000101000,088168,086025,074364,020352,026928,083324
0000000103,0000102000,085542,088340,074675,031194,019924,079486
0000000104,0000103000,082687,090018,075851,042057,015891,072655
0000000105,0000104000,079878,090896,077783,051900,015210,063493
0000000106,0000105000,077396,090881,080280,059754,017950,052899
0000000107,0000106000,075484,089985,083088,064835,023846,041922
0000000108,0000107000,074324,088292,085941,066657,032319,031628
0000000109,0000108000,074039,085954,088564,065045,042545,023014
0000000110,0000109000,074647,083218,090692,060152,053516,016936
0000000111,0000110000,076087,080355,092115,052458,064152,013992
0000000112,0000111000,078234,077623,092700,042712,073429,014462
0000000113,0000112000,080867,075300,092390,031870,080435,018299
0000000114,0000113000,083716,073626,091214,021005,084471,025127
0000000115,0000114000,086524,072752,089281,011167,085149,034288
0000000116,0000115000,089013,072759,086784,003314,082409,044881
0000000117,0000116000,090923,073656,083977,-01772,076520,055855
0000000118,0000117000,092077,075356,081123,-03592,068047,066149
0000000119,0000118000,092369,077688,078499,-01979,057819,074763
0000000120,0000119000,091763,080422,076372,002909,046854,080840
0000000121,0000120000,090316,083293,074948,010601,036219,083784
0000000122,0000121000,088172,086023,074362,020349,026939,083316
0000000123,0000122000,085543,088340,074673,031186,019937,079481
0000000124,0000123000,082688,090020,075849,042048,015901,072654
0000000125,0000124000,079880,090896,077781,051889,015219,063496
0000000126,0000125000,077396,090882,080278,059741,017957,052905
0000000127,0000126000,075482,089989,083086,064824,023848,041932
0000000128,0000127000,074324,088293,085939,066648,032316,031640
0000000129,0000128000,074038,085955,088564,065037,042540,023027
0000000130,0000129000,074643,083222,090692,060148,053507,016949
0000000131,0000130000,076085,080356,092116,052460,064139,014004
0000000132,0000131000,078233,077622,092702,042716,073415,014471
0000000133,0000132000,080864,075301,092392,031878,080421,018304
0000000134,0000133000,083714,073627,091216,021018,084457,025128
0000000135,0000134000,086524,072749,089284,011181,085138,034285
0000000136,0000135000,089012,072757,086787,003328,082403,044873
0000000137,0000136000,090923,073655,083979,-01757,076517,055844
0000000138,0000137000,092080,075352,081125,-03579,068048,066134
0000000139,0000138000,092372,077685,078500,-01971,057827,074747
0000000140,0000139000,091764,080421,076372,002914,046865,080825
0000000141,0000140000,090319,083291,074947,010601,036232,083771
0000000142,0000141000,088176,086020,074360,020343,026956,083305
0000000143,0000142000,085544,088342,074670,031176,019953,079475
0000000144,0000143000,082689,090022,075846,042035,015915,072653
0000000145,0000144000,079883,090897,077778,051872,015231,063500
0000000146,0000145000,077396,090886,080275,059723,017966,052914
0000000147,0000146000,075480,089993,083084,064808,023850,041945
0000000148,0000147000,074324,088295,085938,066634,032313,031656
0000000149,0000148000,074035,085958,088563,065026,042533,023045
0000000150,0000149000,074639,083226,090692,060143,053494,016967
0000000151,0000150000,076082,080358,092117,052461,064122,014020
0000000152,0000151000,078231,077622,092704,042722,073398,014483
0000000153,0000152000,080860,075302,092395,031890,080402,018311
0000000154,0000153000,083712,073625,091220,021034,084439,025130
0000000155,0000154000,086524,072745,089287,011200,085124,034280
0000000156,0000155000,089011,072755,086790,003347,082394,044863
0000000157,0000156000,090923,073652,083981,-01738,076512,055829
0000000158,0000157000,092083,075348,081127,-03563,068050,066116
0000000159,0000158000,092374,077682,078501,-01959,057836,074727
0000000160,0000159000,091767,080419,076371,002920,046879,080805
0000000161,0000160000,090324,083287,074945,010601,036250,083753
0000000162,0000161000,088180,086019,074358,020335,026977,083291
0000000163,0000162000,085547,088343,074667,031163,019974,079466
0000000164,0000163000,082693,090022,075842,042018,015934,072651
0000000165,0000164000,079885,090898,077774,051851,015247,063505
0000000166,0000165000,077395,090890,080272,059701,017977,052925
0000000167,0000166000,075479,089997,083081,064788,023854,041962
0000000168,0000167000,074323,088298,085936,066616,032311,031677
0000000169,0000168000,074031,085963,088562,065013,042524,023068
0000000170,0000169000,074634,083230,090693,060137,053477,016989
0000000171,0000170000,076079,080359,092119,052462,064102,014040
0000000172,0000171000,078226,077624,092708,042730,073375,014499
0000000173,0000172000,080855,075303,092399,031905,080378,018320
0000000174,0000173000,083710,073623,091224,021055,084417,025132
0000000175,0000174000,086522,072742,089292,011223,085106,034274
0000000176,0000175000,089010,072753,086794,003372,082382,044849
0000000177,0000176000,090925,073647,083985,-01713,076507,055810
0000000178,0000177000,092086,075342,081129,-03543,068054,066092
0000000179,0000178000,092377,077678,078502,-01945,057847,074701
0000000180,0000179000,091771,080415,076371,002929,046896,080779
0000000181,0000180000,090330,083283,074943,010601,036273,083730
0000000182,0000181000,088184,086018,074355,020326,027004,083274
0000000183,0000182000,085551,088344,074662,031147,020001,079456
0000000184,0000183000,082697,090023,075837,041996,015959,072649
0000000185,0000184000,079887,090901,077769,051824,015268,063511
0000000186,0000185000,077395,090895,080267,059673,017990,052940
0000000187,0000186000,075479,090001,083077,064761,023859,041983
0000000188,0000187000,074320,088303,085933,066593,032307,031704
0000000189,0000188000,074026,085969,088561,064996,042511,023096
0000000190,0000189000,074630,083234,090693,060129,053457,017018
0000000191,0000190000,076074,080361,092121,052462,064076,014065
0000000192,0000191000,078220,077626,092711,042739,073345,014518
0000000193,0000192000,080850,075303,092404,031924,080348,018332
0000000194,0000193000,083707,073620,091230,021080,084389,025135
0000000195,0000194000,086519,072739,089298,011252,085084,034267
0000000196,0000195000,089009,072748,086799,003404,082367,044833
0000000197,0000196000,090927,073641,083989,-01683,076501,055786
0000000198,0000197000,092089,075336,081132,-03518,068058,066063
0000000199,0000198000,092380,077673,078503,-01926,057861,074669
0000000200,0000199000,091777,080410,076370,002938,046918,080748
0000000201,0000200000,090336,083280,074941,010599,036302,083702
0000000202,0000201000,088189,086017,074350,020315,027036,083252
0000000203,0000202000,085556,088343,074657,031127,020033,079443
0000000204,0000203000,082702,090024,075831,041968,015989,072646
0000000205,0000204000,079889,090906,077763,051791,015293,063519
0000000206,0000205000,077395,090901,080261,059639,018006,052958
0000000207,0000206000,075478,090007,083072,064729,023865,042010
0000000208,0000207000,074317,088310,085930,066565,032303,031736
0000000209,0000208000,074021,085976,088560,064977,042496,023131
0000000210,0000209000,074624,083238,090694,060119,053432,017052
0000000211,0000210000,076067,080365,092124,052463,064045,014096
0000000212,0000211000,078212,077629,092716,042752,073310,014542
0000000213,0000212000,080845,075302,092410,031946,080311,018346
0000000214,0000213000,083703,073618,091236,021110,084356,025137
0000000215,0000214000,086516,072736,089305,011288,085057,034258
0000000216,0000215000,089008,072743,086806,003442,082348,044813
0000000217,0000216000,090929,073633,083994,-01648,076494,055757
0000000218,0000217000,092092,075329,081136,-03488,068064,066027
0000000219,0000218000,092386,077667,078504,-01904,057877,074630
0000000220,0000219000,091785,080403,076369,002949,046944,080710
0000000221,0000220000,090343,083275,074938,010598,036337,083669
0000000222,0000221000,088196,086015,074345,020302,027075,083227
0000000223,0000222000,085563,088343,074650,031103,020073,079428
0000000224,0000223000,082707,090027,075823,041934,016026,072643
0000000225,0000224000,079891,090911,077755,051752,015322,063528
0000000226,0000225000,077396,090907,080254,059599,018025,052979
0000000227,0000226000,075477,090014,083066,064690,023873,042041
0000000228,0000227000,074312,088319,085926,066532,032298,031775
0000000229,0000228000,074015,085983,088558,064953,042477,023173
0000000230,0000229000,074618,083244,090695,060107,053403,017094
0000000231,0000230000,076059,080370,092128,052464,064007,014132
0000000232,0000231000,078204,077632,092721,042767,073267,014570
0000000233,0000232000,080839,075302,092417,031973,080268,018362
0000000234,0000233000,083697,073615,091245,021146,084317,025141
0000000235,0000234000,086512,072732,089313,011331,085025,034248
0000000236,0000235000,089008,072735,086813,003487,082327,044790
0000000237,0000236000,090931,073625,084001,-01606,076487,055723
0000000238,0000237000,092096,075321,081140,-03452,068070,065985
0000000239,0000238000,092392,077658,078506,-01878,057897,074584
0000000240,0000239000,091793,080396,076368,002962,046977,080665
0000000241,0000240000,090352,083271,074934,010596,036378,083629
0000000242,0000241000,088205,086013,074339,020287,027121,083196
0000000243,0000242000,085571,088343,074643,031074,020119,079410
0000000244,0000243000,082713,090030,075814,041895,016069,072639
0000000245,0000244000,079895,090917,077746,051706,015357,063540
0000000246,0000245000,077398,090913,080246,059550,018048,053005
0000000247,0000246000,075475,090023,083059,064644,023881,042079
0000000248,0000247000,074307,088328,085921,066493,032291,031820
0000000249,0000248000,074009,085992,088556,064926,042455,023223
0000000250,0000249000,074609,083252,090696,060093,053369,017142
0000000251,0000250000,076049,080377,092131,052466,063963,014175
0000000252,0000251000,078195,077635,092728,042784,073217,014602
0000000253,0000252000,080830,075301,092425,032004,080217,018382
0000000254,0000253000,083690,073612,091254,021189,084271,025144
0000000255,0000254000,086508,072726,089323,011381,084988,034235
0000000256,0000255000,089007,072727,086822,003539,082302,044762
0000000257,0000256000,090933,073616,084008,-01557,076478,055682
0000000258,0000257000,092100,075312,081145,-03410,068077,065936
0000000259,0000258000,092400,077648,078508,-01848,057920,074531
0000000260,0000259000,091803,080387,076367,002976,047014,080613
0000000261,0000260000,090362,083265,074930,010594,036426,083583
0000000262,0000261000,088215,086009,074332,020268,027175,083161
0000000263,0000262000,085581,088342,074634,031040,020174,079389
0000000264,0000263000,082719,090034,075804,041849,016119,072636
0000000265,0000264000,079899,090923,077735,051653,015397,063553
0000000266,0000265000,077399,090922,080236,059494,018074,053035
0000000267,0000266000,075472,090033,083051,064590,023891,042122
0000000268,0000267000,074301,088340,085916,066448,032282,031873
0000000269,0000268000,074001,086002,088554,064894,042430,023280
0000000270,0000269000,074599,083261,090697,060077,053329,017198
0000000271,0000270000,076037,080384,092136,052468,063911,014224
0000000272,0000271000,078184,077638,092735,042805,073159,014640
0000000273,0000272000,080821,075301,092435,032041,080159,018404
0000000274,0000273000,083682,073609,091266,021238,084218,025148
0000000275,0000274000,086503,072719,089334,011439,084945,034220
0000000276,0000275000,089006,072717,086833,003599,082274,044730
0000000277,0000276000,090935,073605,084017,-01500,076467,055636
0000000278,0000277000,092106,075300,081151,-03362,068086,065879
0000000279,0000278000,092409,077637,078511,-01814,057947,074470
0000000280,0000279000,091813,080378,076366,002993,047057,080553
0000000281,0000280000,090374,083258,074925,010592,036481,083530
0000000282,0000281000,088227,086005,074324,020246,027236,083121
0000000283,0000282000,085591,088342,074623,031001,020237,079366
0000000284,0000283000,082727,090038,075792,041796,016176,072631
0000000285,0000284000,079905,090930,077723,051591,015442,063569
0000000286,0000285000,077401,090932,080225,059429,018104,053069
0000000287,0000286000,075469,090046,083042,064530,023902,042172
0000000288,0000287000,074295,088352,085909,066397,032273,031934
0000000289,0000288000,073992,086014,088551,064857,042401,023346
0000000290,0000289000,074587,083271,090699,060059,053283,017262
0000000291,0000290000,076025,080391,092141,052471,063852,014280
0000000292,0000291000,078172,077642,092744,042828,073093,014682
0000000293,0000292000,080809,075301,092446,032082,080093,018428
0000000294,0000293000,083673,073605,091278,021295,084157,025152
0000000295,0000294000,086498,072711,089347,011505,084896,034204
0000000296,0000295000,089005,072707,086845,003668,082243,044694
0000000297,0000296000,090937,073592,084027,-01435,076456,055582
0000000298,0000297000,092113,075286,081158,-03307,068096,065815
0000000299,0000298000,092419,077624,078514,-01775,057978,074400
0000000300,0000299000,091825,080367,076364,003012,047107,080485
0000000301,0000300000,090387,083250,074920,010589,036544,083471
