DIgSILENT PowerFactory,21000900,2000
6,06A,00D
1,TTPP_200000_100:Secondary Voltage A,,,V,0.10000000,-8247.552734,0.000000,61836,99998,1,1,P
2,TTPP_200000_100:Secondary Voltage B,,,V,0.10000000,-7867.190918,0.000000,60592,99998,1,1,P
3,TTPP_200000_100:Secondary Voltage C,,,V,0.10000000,-8272.994141,0.000000,63849,99998,1,1,P
4,TTCC_300_1:Secondary Current A,,,A,0.00010000000,-3.515185,0.000000,-7811,99998,1,1,P
5,TTCC_300_1:Secondary Current B,,,A,0.00010000000,-5.026808,0.000000,674,99998,1,1,P
6,TTCC_300_1:Secondary Current C,,,A,0.00010000000,-4.889174,0.000000,-1642,99998,1,1,P
50
1
1000.000000,1101
30/06/2023,06:05:34.000000
30/06/2023,06:05:34.000000
ASCII
1.000000
0000000001,0000000000,089582,080147,074149,014222,036279,083811
0000000002,0000001000,087448,082864,073564,023974,027000,083337
0000000003,0000002000,084807,085195,073876,034813,020003,079496
0000000004,0000003000,081951,086874,075052,045693,015960,072659
0000000005,0000004000,079158,087735,076985,055536,015284,063491
0000000006,0000005000,076670,087727,079482,063384,018037,052892
0000000007,0000006000,074748,086841,082288,068471,023931,041910
0000000008,0000007000,073604,085133,085141,070293,032407,031612
0000000009,0000008000,073319,082794,087763,068669,042647,022996
0000000010,0000009000,073916,080073,089889,063771,053622,016918
0000000011,0000010000,075364,077202,091311,056078,064256,013977
0000000012,0000011000,077517,074464,091896,046319,073542,014451
0000000013,0000012000,080139,072155,091584,035470,080549,018292
0000000014,0000013000,082990,070480,090407,024605,084579,025129
0000000015,0000014000,085804,069598,088476,014761,085254,034297
0000000016,0000015000,088284,069615,085978,006903,082514,044896
0000000017,0000016000,090191,070515,083171,001823,076610,055878
0000000018,0000017000,091353,072205,080319,000005,068131,066176
0000000019,0000018000,091638,074542,077697,001621,057899,074791
0000000020,0000019000,091026,077281,075571,006519,046923,080869
0000000021,0000020000,089588,080141,074148,014221,036280,083811
0000000022,0000021000,087442,082871,073564,023972,027003,083337
0000000023,0000022000,084805,085197,073876,034822,019996,079495
0000000024,0000023000,081959,086866,075051,045693,015960,072659
0000000025,0000024000,079155,087737,076985,055533,015287,063491
0000000026,0000025000,076663,087733,079482,063388,018033,052891
0000000027,0000026000,074755,086835,082288,068475,023926,041910
0000000028,0000027000,073607,085130,085141,070290,032410,031612
0000000029,0000028000,073312,082802,087763,068670,042646,022996
0000000030,0000029000,073917,080071,089889,063778,053616,016918
0000000031,0000030000,075370,077196,091311,056078,064257,013977
0000000032,0000031000,077512,074469,091896,046318,073543,014450
0000000033,0000032000,080136,072157,091584,035476,080544,018292
0000000034,0000033000,082995,070474,090408,024609,084576,025128
0000000035,0000034000,085804,069598,088476,014759,085257,034296
0000000036,0000035000,088279,069619,085979,006906,082511,044895
0000000037,0000036000,090194,070511,083171,001827,076608,055876
0000000038,0000037000,091355,072203,080320,000005,068132,066174
0000000039,0000038000,091635,074546,077697,001621,057900,074790
0000000040,0000039000,091027,077280,075571,006523,046921,080868
0000000041,0000040000,089591,080138,074148,014221,036282,083809
0000000042,0000041000,087440,082874,073564,023972,027004,083336
0000000043,0000042000,084805,085197,073875,034823,019995,079494
0000000044,0000043000,081961,086864,075052,045693,015960,072659
0000000045,0000044000,079154,087739,076985,055532,015288,063491
0000000046,0000045000,076662,087734,079481,063389,018031,052892
0000000047,0000046000,074757,086833,082288,068475,023926,041911
0000000048,0000047000,073605,085132,085141,070290,032409,031613
0000000049,0000048000,073310,082804,087763,068672,042644,022997
0000000050,0000049000,073919,080069,089889,063779,053613,016919
0000000051,0000050000,075369,077197,091312,056078,064256,013978
0000000052,0000051000,077510,074471,091896,046322,073539,014450
0000000053,0000052000,080138,072155,091584,035478,080541,018292
0000000054,0000053000,082996,070473,090408,024609,084575,025127
0000000055,0000054000,085800,069601,088476,014763,085254,034294
0000000056,0000055000,088281,069618,085979,006911,082508,044893
0000000057,0000056000,090197,070508,083172,001829,076609,055874
0000000058,0000057000,091352,072206,080320,000007,068133,066171
0000000059,0000058000,091634,074546,077697,001626,057898,074787
0000000060,0000059000,091031,077276,075570,006524,046923,080865
0000000061,0000060000,089589,080140,074148,014220,036285,083807
0000000062,0000061000,087437,082876,073564,023974,027005,083334
0000000063,0000062000,084809,085193,073875,034823,019996,079493
0000000064,0000063000,081962,086864,075051,045689,015964,072658
0000000065,0000064000,079150,087744,076984,055531,015289,063491
0000000066,0000065000,076664,087733,079480,063388,018030,052893
0000000067,0000066000,074759,086831,082288,068471,023928,041913
0000000068,0000067000,073601,085136,085140,070287,032409,031616
0000000069,0000068000,073309,082805,087763,068673,042639,023000
0000000070,0000069000,073922,080066,089889,063778,053611,016922
0000000071,0000070000,075367,077199,091312,056077,064254,013980
0000000072,0000071000,077507,074474,091897,046325,073533,014453
0000000073,0000072000,080141,072152,091585,035483,080536,018293
0000000074,0000073000,082995,070473,090409,024612,084573,025127
0000000075,0000074000,085797,069604,088477,014769,085251,034293
0000000076,0000075000,088283,069615,085979,006917,082504,044891
0000000077,0000076000,090199,070506,083172,001832,076609,055870
0000000078,0000077000,091350,072208,080320,000011,068134,066167
0000000079,0000078000,091636,074545,077697,001630,057899,074782
0000000080,0000079000,091034,077273,075571,006525,046926,080860
0000000081,0000080000,089588,080141,074148,014220,036290,083802
0000000082,0000081000,087438,082876,073563,023974,027008,083330
0000000083,0000082000,084812,085191,073874,034820,020001,079491
0000000084,0000083000,081962,086865,075051,045684,015970,072657
0000000085,0000084000,079149,087745,076983,055527,015292,063492
0000000086,0000085000,076667,087731,079480,063384,018032,052896
0000000087,0000086000,074758,086832,082287,068465,023929,041917
0000000088,0000087000,073599,085139,085140,070284,032407,031621
0000000089,0000088000,073311,082804,087762,068671,042636,023006
0000000090,0000089000,073922,080066,089889,063776,053607,016928
0000000091,0000090000,075363,077202,091313,056078,064248,013985
0000000092,0000091000,077507,074473,091897,046329,073526,014457
0000000093,0000092000,080141,072150,091586,035486,080530,018296
0000000094,0000093000,082992,070475,090410,024617,084567,025127
0000000095,0000094000,085796,069603,088478,014777,085244,034291
0000000096,0000095000,088285,069612,085981,006925,082501,044887
0000000097,0000096000,090197,070506,083174,001839,076608,055865
0000000098,0000097000,091349,072208,080321,000019,068133,066159
0000000099,0000098000,091639,074541,077697,001636,057901,074775
0000000100,0000099000,091035,077272,075571,006527,046933,080852
0000000101,0000100000,089587,080143,074147,014220,036296,083795
0000000102,0000101000,087441,082874,073562,023973,027015,083325
0000000103,0000102000,084815,085190,073873,034814,020010,079487
0000000104,0000103000,081960,086868,075049,045678,015977,072656
0000000105,0000104000,079150,087746,076981,055520,015297,063494
0000000106,0000105000,076669,087731,079478,063375,018037,052900
0000000107,0000106000,074756,086835,082286,068456,023932,041924
0000000108,0000107000,073597,085141,085139,070278,032405,031629
0000000109,0000108000,073311,082804,087762,068666,042631,023015
0000000110,0000109000,073920,080068,089890,063773,053602,016937
0000000111,0000110000,075360,077205,091313,056080,064238,013993
0000000112,0000111000,077507,074472,091898,046333,073515,014463
0000000113,0000112000,080140,072149,091588,035491,080521,018299
0000000114,0000113000,082989,070476,090412,024626,084558,025128
0000000115,0000114000,085796,069601,088479,014788,085235,034289
0000000116,0000115000,088286,069609,085982,006935,082496,044881
0000000117,0000116000,090196,070506,083175,001849,076607,055856
0000000118,0000117000,091350,072206,080322,000029,068133,066149
0000000119,0000118000,091642,074538,077698,001642,057906,074763
0000000120,0000119000,091036,077271,075570,006530,046941,080841
0000000121,0000120000,089589,080142,074146,014221,036306,083785
0000000122,0000121000,087445,082872,073560,023969,027026,083317
0000000123,0000122000,084816,085190,073871,034806,020023,079482
0000000124,0000123000,081960,086870,075047,045669,015988,072655
0000000125,0000124000,079153,087746,076979,055509,015305,063497
0000000126,0000125000,076669,087732,079476,063361,018043,052907
0000000127,0000126000,074754,086839,082284,068445,023934,041933
0000000128,0000127000,073597,085143,085137,070269,032402,031641
0000000129,0000128000,073311,082805,087762,068658,042626,023028
0000000130,0000129000,073916,080072,089890,063769,053593,016950
0000000131,0000130000,075357,077206,091314,056081,064225,014005
0000000132,0000131000,077506,074471,091900,046338,073502,014472
0000000133,0000132000,080137,072150,091590,035499,080507,018305
0000000134,0000133000,082987,070476,090414,024639,084544,025129
0000000135,0000134000,085797,069598,088482,014803,085224,034285
0000000136,0000135000,088285,069607,085985,006949,082490,044873
0000000137,0000136000,090195,070505,083177,001864,076603,055845
0000000138,0000137000,091353,072202,080323,000042,068134,066135
0000000139,0000138000,091645,074535,077698,001650,057913,074748
0000000140,0000139000,091037,077271,075570,006534,046952,080826
0000000141,0000140000,089592,080140,074145,014222,036319,083771
0000000142,0000141000,087449,082870,073558,023964,027042,083306
0000000143,0000142000,084817,085191,073869,034796,020040,079476
0000000144,0000143000,081962,086871,075044,045656,016002,072654
0000000145,0000144000,079155,087746,076976,055493,015317,063501
0000000146,0000145000,076669,087735,079474,063344,018052,052915
0000000147,0000146000,074753,086843,082282,068429,023937,041946
0000000148,0000147000,073597,085145,085136,070255,032400,031657
0000000149,0000148000,073308,082808,087761,068647,042619,023046
0000000150,0000149000,073911,080076,089890,063764,053580,016968
0000000151,0000150000,075355,077207,091315,056082,064209,014021
0000000152,0000151000,077503,074472,091903,046343,073484,014484
0000000153,0000152000,080133,072152,091593,035511,080489,018312
0000000154,0000153000,082985,070475,090418,024656,084525,025131
0000000155,0000154000,085796,069595,088486,014821,085210,034281
0000000156,0000155000,088284,069605,085988,006968,082480,044863
0000000157,0000156000,090196,070502,083179,001883,076599,055830
0000000158,0000157000,091356,072197,080325,000058,068137,066117
0000000159,0000158000,091647,074531,077699,001661,057923,074727
0000000160,0000159000,091040,077268,075569,006541,046965,080805
0000000161,0000160000,089597,080137,074143,014222,036336,083754
0000000162,0000161000,087453,082869,073556,023956,027064,083292
0000000163,0000162000,084820,085193,073865,034784,020061,079467
0000000164,0000163000,081966,086872,075040,045639,016021,072652
0000000165,0000164000,079158,087748,076972,055472,015334,063506
0000000166,0000165000,076668,087740,079470,063321,018063,052927
0000000167,0000166000,074752,086847,082279,068409,023940,041963
0000000168,0000167000,073595,085148,085134,070237,032397,031678
0000000169,0000168000,073304,082812,087760,068634,042610,023069
0000000170,0000169000,073907,080079,089891,063758,053564,016990
0000000171,0000170000,075352,077209,091317,056083,064188,014041
0000000172,0000171000,077499,074473,091906,046351,073461,014500
0000000173,0000172000,080128,072153,091597,035526,080464,018321
0000000174,0000173000,082983,070473,090422,024676,084503,025133
0000000175,0000174000,085795,069592,088490,014844,085193,034275
0000000176,0000175000,088282,069602,085993,006994,082468,044850
0000000177,0000176000,090198,070497,083183,001908,076593,055810
0000000178,0000177000,091359,072192,080327,000078,068140,066093
0000000179,0000178000,091649,074528,077700,001676,057934,074701
0000000180,0000179000,091044,077265,075569,006549,046982,080780
0000000181,0000180000,089603,080133,074141,014221,036360,083731
0000000182,0000181000,087457,082868,073553,023947,027090,083275
0000000183,0000182000,084823,085193,073861,034768,020087,079457
0000000184,0000183000,081970,086873,075035,045616,016045,072650
0000000185,0000184000,079159,087751,076967,055445,015354,063512
0000000186,0000185000,076668,087745,079465,063294,018076,052941
0000000187,0000186000,074752,086851,082275,068382,023945,041985
0000000188,0000187000,073593,085153,085131,070214,032394,031705
0000000189,0000188000,073299,082818,087759,068617,042597,023097
0000000190,0000189000,073903,080083,089891,063750,053543,017019
0000000191,0000190000,075347,077211,091319,056083,064162,014066
0000000192,0000191000,077492,074476,091909,046361,073432,014519
0000000193,0000192000,080123,072153,091602,035545,080434,018333
0000000194,0000193000,082980,070470,090428,024701,084475,025135
0000000195,0000194000,085792,069589,088496,014873,085171,034268
0000000196,0000195000,088281,069598,085998,007025,082453,044834
0000000197,0000196000,090200,070491,083187,001938,076587,055787
0000000198,0000197000,091361,072186,080330,000103,068145,066064
0000000199,0000198000,091653,074523,077701,001695,057947,074669
0000000200,0000199000,091050,077259,075568,006559,047004,080748
0000000201,0000200000,089609,080129,074139,014220,036389,083703
0000000202,0000201000,087462,082867,073549,023936,027123,083253
0000000203,0000202000,084829,085193,073855,034748,020120,079444
0000000204,0000203000,081975,086874,075029,045588,016076,072647
0000000205,0000204000,079161,087755,076961,055412,015379,063520
0000000206,0000205000,076668,087750,079459,063260,018092,052959
0000000207,0000206000,074751,086856,082270,068350,023951,042011
0000000208,0000207000,073589,085160,085128,070186,032389,031737
0000000209,0000208000,073294,082825,087758,068598,042582,023133
0000000210,0000209000,073897,080088,089892,063740,053518,017053
0000000211,0000210000,075340,077215,091322,056084,064131,014097
0000000212,0000211000,077485,074479,091914,046373,073396,014542
0000000213,0000212000,080118,072152,091608,035568,080397,018347
0000000214,0000213000,082975,070467,090435,024731,084442,025138
0000000215,0000214000,085788,069586,088503,014909,085144,034259
0000000216,0000215000,088281,069592,086004,007063,082435,044814
0000000217,0000216000,090202,070483,083192,001973,076581,055758
0000000218,0000217000,091365,072179,080334,000133,068150,066028
0000000219,0000218000,091658,074516,077703,001717,057964,074631
0000000220,0000219000,091058,077253,075567,006570,047031,080711
0000000221,0000220000,089616,080125,074136,014219,036424,083670
0000000222,0000221000,087469,082865,073543,023923,027162,083228
0000000223,0000222000,084836,085193,073848,034724,020159,079429
0000000224,0000223000,081980,086876,075021,045555,016113,072644
0000000225,0000224000,079164,087761,076953,055373,015409,063530
0000000226,0000225000,076669,087756,079452,063219,018111,052981
0000000227,0000226000,074750,086864,082264,068310,023959,042043
0000000228,0000227000,073585,085168,085124,070153,032384,031776
0000000229,0000228000,073288,082833,087756,068574,042563,023175
0000000230,0000229000,073890,080094,089893,063728,053489,017095
0000000231,0000230000,075332,077220,091326,056085,064093,014133
0000000232,0000231000,077477,074481,091919,046388,073353,014570
0000000233,0000232000,080111,072151,091615,035594,080354,018363
0000000234,0000233000,082970,070465,090443,024767,084403,025141
0000000235,0000234000,085785,069581,088511,014952,085112,034248
0000000236,0000235000,088281,069585,086012,007108,082413,044791
0000000237,0000236000,090204,070475,083199,002015,076573,055723
0000000238,0000237000,091368,072171,080338,000169,068156,065986
0000000239,0000238000,091665,074508,077704,001743,057983,074585
0000000240,0000239000,091066,077245,075566,006583,047063,080666
0000000241,0000240000,089625,080120,074132,014217,036465,083630
0000000242,0000241000,087477,082862,073537,023907,027208,083197
0000000243,0000242000,084844,085192,073841,034695,020206,079411
0000000244,0000243000,081986,086879,075012,045515,016156,072641
0000000245,0000244000,079167,087766,076944,055327,015443,063541
0000000246,0000245000,076671,087763,079444,063171,018134,053006
0000000247,0000246000,074747,086872,082258,068264,023968,042080
0000000248,0000247000,073580,085178,085119,070114,032377,031821
0000000249,0000248000,073281,082841,087754,068547,042541,023224
0000000250,0000249000,073882,080101,089894,063714,053455,017143
0000000251,0000250000,075322,077226,091330,056087,064049,014176
0000000252,0000251000,077468,074484,091926,046405,073303,014603
0000000253,0000252000,080103,072151,091623,035626,080303,018382
0000000254,0000253000,082963,070462,090453,024810,084357,025145
0000000255,0000254000,085780,069576,088521,015002,085074,034236
0000000256,0000255000,088280,069576,086021,007160,082389,044763
0000000257,0000256000,090206,070465,083206,002065,076564,055683
0000000258,0000257000,091373,072161,080343,000211,068164,065937
0000000259,0000258000,091673,074498,077707,001773,058007,074532
0000000260,0000259000,091075,077237,075565,006597,047101,080614
0000000261,0000260000,089634,080115,074128,014215,036513,083584
0000000262,0000261000,087488,082859,073530,023889,027261,083162
0000000263,0000262000,084854,085192,073832,034661,020261,079390
0000000264,0000263000,081992,086883,075002,045469,016205,072637
0000000265,0000264000,079172,087773,076933,055274,015483,063555
0000000266,0000265000,076672,087771,079434,063115,018161,053036
0000000267,0000266000,074745,086883,082250,068211,023977,042123
0000000268,0000267000,073574,085189,085114,070069,032369,031874
0000000269,0000268000,073274,082851,087752,068515,042516,023281
0000000270,0000269000,073871,080110,089895,063698,053415,017199
0000000271,0000270000,075310,077233,091334,056089,063997,014225
0000000272,0000271000,077457,074488,091933,046426,073245,014641
0000000273,0000272000,080093,072151,091633,035662,080245,018404
0000000274,0000273000,082955,070459,090464,024859,084304,025149
0000000275,0000274000,085776,069569,088533,015060,085031,034221
0000000276,0000275000,088279,069567,086031,007220,082361,044731
0000000277,0000276000,090208,070455,083215,002121,076554,055636
0000000278,0000277000,091379,072149,080349,000259,068172,065880
0000000279,0000278000,091682,074486,077709,001807,058034,074471
0000000280,0000279000,091086,077228,075564,006614,047144,080554
0000000281,0000280000,089646,080108,074123,014213,036568,083531
0000000282,0000281000,087500,082854,073522,023867,027323,083122
0000000283,0000282000,084864,085192,073821,034622,020323,079367
0000000284,0000283000,082000,086887,074990,045417,016262,072633
0000000285,0000284000,079177,087779,076921,055212,015529,063571
0000000286,0000285000,076674,087781,079423,063050,018191,053070
0000000287,0000286000,074742,086895,082240,068150,023988,042173
0000000288,0000287000,073568,085202,085107,070018,032359,031935
0000000289,0000288000,073265,082863,087749,068478,042487,023347
0000000290,0000289000,073859,080121,089897,063680,053369,017263
0000000291,0000290000,075297,077241,091339,056092,063938,014281
0000000292,0000291000,077444,074491,091942,046449,073179,014683
0000000293,0000292000,080082,072151,091645,035703,080179,018429
0000000294,0000293000,082946,070455,090477,024916,084243,025153
0000000295,0000294000,085771,069561,088546,015126,084982,034204
0000000296,0000295000,088277,069556,086044,007289,082329,044694
0000000297,0000296000,090210,070442,083225,002186,076542,055583
0000000298,0000297000,091386,072136,080356,000314,068182,065815
0000000299,0000298000,091692,074473,077712,001845,058065,074401
0000000300,0000299000,091098,077217,075563,006633,047193,080485
0000000301,0000300000,089660,080099,074118,014210,036630,083472
