DIgSILENT PowerFactory,21000900,2000
6,06A,00D
1,TTPP_200000_100:Secondary Voltage A,,,V,0.10000000,-8494.894531,0.000000,68817,99998,1,1,P
2,TTPP_200000_100:Secondary Voltage B,,,V,0.10000000,-8388.969727,0.000000,68091,99998,1,1,P
3,TTPP_200000_100:Secondary Voltage C,,,V,0.10000000,-8434.493164,0.000000,67913,99998,1,1,P
4,TTCC_500_5:Secondary Current A,,,A,0.0010000000,-86.526863,0.000000,66955,99998,1,1,P
5,TTCC_500_5:Secondary Current B,,,A,0.0010000000,-85.075615,0.000000,70159,99998,1,1,P
6,TTCC_500_5:Secondary Current C,,,A,0.0010000000,-84.723160,0.000000,69375,99998,1,1,P
50
1
1000.000000,1101
30/06/2023,06:05:45.000000
30/06/2023,06:05:45.000000
ASCII
1.000000
0000000001,0000000000,090461,087530,075192,092443,089755,074128
0000000002,0000001000,087913,089964,075307,089428,092471,074427
0000000003,0000002000,085062,091819,076305,086128,094466,075732
0000000004,0000003000,082216,092880,078087,082873,095535,077918
0000000005,0000004000,079632,093063,080489,079968,095585,080772
0000000006,0000005000,077560,092356,083267,077708,094607,084012
0000000007,0000006000,076213,090826,086143,076314,092694,087318
0000000008,0000007000,075741,088595,088848,075918,090034,090373
0000000009,0000008000,076149,085917,091117,076560,086890,092876
0000000010,0000009000,077416,083050,092718,078178,083569,094579
0000000011,0000010000,079436,080252,093497,080615,080394,095317
0000000012,0000011000,081997,077803,093383,083629,077679,095018
0000000013,0000012000,084826,075972,092386,086928,075685,093713
0000000014,0000013000,087679,074901,090602,090186,074612,091527
0000000015,0000014000,090277,074706,088201,093089,074564,088673
0000000016,0000015000,092336,075425,085423,095347,075545,085434
0000000017,0000016000,093672,076965,082547,096745,077454,082127
0000000018,0000017000,094170,079172,079842,097139,080115,079072
0000000019,0000018000,093751,081859,077572,096496,083261,076569
0000000020,0000019000,092469,084742,075972,094879,086581,074866
0000000021,0000020000,090467,087524,075193,092445,089752,074128
0000000022,0000021000,087912,089965,075306,089425,092473,074427
0000000023,0000022000,085060,091820,076304,086128,094465,075732
0000000024,0000023000,082216,092881,078087,082872,095536,077918
0000000025,0000024000,079634,093060,080489,079968,095585,080772
0000000026,0000025000,077556,092360,083267,077707,094607,084011
0000000027,0000026000,076217,090824,086143,076314,092694,087318
0000000028,0000027000,075738,088596,088849,075918,090035,090373
0000000029,0000028000,076148,085918,091117,076559,086890,092876
0000000030,0000029000,077417,083050,092717,078177,083569,094579
0000000031,0000030000,079437,080249,093497,080614,080395,095317
0000000032,0000031000,081993,077807,093384,083629,077678,095018
0000000033,0000032000,084828,075969,092386,086927,075685,093713
0000000034,0000033000,087682,074899,090602,090186,074612,091528
0000000035,0000034000,090273,074709,088201,093087,074565,088674
0000000036,0000035000,092335,075426,085423,095348,075544,085434
0000000037,0000036000,093677,076960,082547,096743,077455,082127
0000000038,0000037000,094168,079174,079842,097138,080115,079073
0000000039,0000038000,093748,081863,077573,096495,083261,076569
0000000040,0000039000,092474,084737,075972,094879,086580,074866
0000000041,0000040000,090468,087523,075193,092443,089754,074129
0000000042,0000041000,087907,089970,075306,089426,092473,074427
0000000043,0000042000,085062,091818,076303,086129,094464,075732
0000000044,0000043000,082221,092876,078087,082871,095536,077918
0000000045,0000044000,079629,093066,080489,079968,095586,080772
0000000046,0000045000,077555,092362,083267,077708,094606,084011
0000000047,0000046000,076222,090819,086142,076313,092694,087318
0000000048,0000047000,075737,088598,088848,075917,090036,090373
0000000049,0000048000,076143,085923,091117,076559,086890,092876
0000000050,0000049000,077421,083046,092717,078178,083569,094579
0000000051,0000050000,079438,080249,093497,080612,080397,095317
0000000052,0000051000,081988,077812,093384,083628,077679,095018
0000000053,0000052000,084829,075968,092387,086927,075685,093713
0000000054,0000053000,087685,074896,090603,090184,074613,091528
0000000055,0000054000,090270,074712,088202,093086,074566,088674
0000000056,0000055000,092334,075426,085423,095347,075544,085434
0000000057,0000056000,093680,076956,082547,096743,077455,082128
0000000058,0000057000,094167,079175,079842,097137,080116,079073
0000000059,0000058000,093747,081864,077573,096495,083261,076570
0000000060,0000059000,092477,084734,075972,094879,086579,074867
0000000061,0000060000,090468,087522,075193,092442,089754,074129
0000000062,0000061000,087905,089972,075306,089426,092472,074428
0000000063,0000062000,085065,091816,076303,086129,094463,075733
0000000064,0000063000,082222,092876,078087,082871,095536,077918
0000000065,0000064000,079627,093068,080488,079968,095586,080772
0000000066,0000065000,077557,092361,083266,077709,094606,084011
0000000067,0000066000,076223,090819,086142,076314,092694,087317
0000000068,0000067000,075734,088601,088848,075917,090036,090372
0000000069,0000068000,076144,085923,091117,076560,086890,092875
0000000070,0000069000,077422,083044,092718,078177,083570,094578
0000000071,0000070000,079435,080251,093498,080612,080398,095316
0000000072,0000071000,081986,077813,093384,083628,077680,095018
0000000073,0000072000,084831,075965,092387,086926,075687,093713
0000000074,0000073000,087683,074897,090604,090183,074615,091528
0000000075,0000074000,090267,074714,088203,093085,074566,088674
0000000076,0000075000,092337,075422,085424,095346,075544,085435
0000000077,0000076000,093681,076954,082548,096741,077456,082129
0000000078,0000077000,094164,079177,079843,097136,080115,079075
0000000079,0000078000,093749,081862,077573,096494,083260,076572
0000000080,0000079000,092481,084731,075972,094878,086579,074869
0000000081,0000080000,090467,087525,075192,092442,089753,074131
0000000082,0000081000,087906,089972,075305,089427,092470,074429
0000000083,0000082000,085069,091813,076301,086130,094462,075733
0000000084,0000083000,082221,092878,078085,082872,095535,077918
0000000085,0000084000,079626,093071,080487,079970,095584,080771
0000000086,0000085000,077560,092359,083264,077711,094605,084010
0000000087,0000086000,076223,090820,086141,076315,092695,087316
0000000088,0000087000,075731,088605,088847,075919,090036,090370
0000000089,0000088000,076144,085923,091116,076561,086891,092873
0000000090,0000089000,077422,083044,092718,078177,083572,094576
0000000091,0000090000,079431,080255,093498,080612,080400,095314
0000000092,0000091000,081985,077813,093385,083628,077681,095016
0000000093,0000092000,084832,075963,092389,086925,075689,093712
0000000094,0000093000,087680,074898,090606,090181,074617,091528
0000000095,0000094000,090266,074714,088204,093083,074568,088675
0000000096,0000095000,092339,075419,085426,095344,075545,085436
0000000097,0000096000,093681,076953,082550,096738,077457,082131
0000000098,0000097000,094163,079177,079844,097134,080115,079077
0000000099,0000098000,093752,081858,077573,096493,083259,076574
0000000100,0000099000,092482,084729,075972,094877,086578,074871
0000000101,0000100000,090467,087525,075191,092442,089751,074133
0000000102,0000101000,087909,089970,075304,089428,092468,074430
0000000103,0000102000,085072,091812,076300,086131,094460,075734
0000000104,0000103000,082220,092880,078083,082874,095533,077919
0000000105,0000104000,079628,093072,080484,079973,095582,080771
0000000106,0000105000,077562,092359,083263,077713,094604,084009
0000000107,0000106000,076221,090823,086140,076317,092695,087314
0000000108,0000107000,075729,088608,088846,075921,090037,090368
0000000109,0000108000,076145,085923,091116,076563,086892,092871
0000000110,0000109000,077419,083047,092718,078178,083574,094574
0000000111,0000110000,079427,080258,093499,080612,080402,095312
0000000112,0000111000,081985,077812,093387,083627,077684,095015
0000000113,0000112000,084830,075963,092391,086923,075692,093711
0000000114,0000113000,087676,074899,090608,090178,074620,091527
0000000115,0000114000,090266,074711,088206,093080,074570,088676
0000000116,0000115000,092339,075416,085428,095340,075547,085438
0000000117,0000116000,093679,076953,082552,096735,077457,082133
0000000118,0000117000,094165,079174,079845,097132,080114,079080
0000000119,0000118000,093756,081854,077574,096491,083257,076577
0000000120,0000119000,092483,084728,075972,094876,086576,074874
0000000121,0000120000,090469,087524,075190,092442,089748,074136
0000000122,0000121000,087914,089968,075302,089429,092464,074433
0000000123,0000122000,085074,091812,076298,086133,094457,075736
0000000124,0000123000,082221,092883,078080,082877,095530,077919
0000000125,0000124000,079630,093072,080481,079976,095580,080770
0000000126,0000125000,077563,092361,083260,077716,094603,084007
0000000127,0000126000,076218,090828,086137,076320,092694,087311
0000000128,0000127000,075729,088611,088844,075924,090037,090365
0000000129,0000128000,076143,085925,091115,076565,086894,092867
0000000130,0000129000,077414,083051,092718,078179,083577,094570
0000000131,0000130000,079424,080260,093500,080612,080405,095309
0000000132,0000131000,081983,077812,093389,083625,077688,095012
0000000133,0000132000,084826,075964,092394,086920,075696,093710
0000000134,0000133000,087673,074899,090611,090175,074623,091527
0000000135,0000134000,090266,074708,088210,093076,074573,088677
0000000136,0000135000,092339,075413,085432,095336,075550,085440
0000000137,0000136000,093678,076951,082554,096731,077458,082137
0000000138,0000137000,094168,079169,079847,097128,080113,079084
0000000139,0000138000,093759,081850,077575,096488,083256,076582
0000000140,0000139000,092486,084726,075972,094874,086573,074879
0000000141,0000140000,090473,087522,075189,092443,089743,074140
0000000142,0000141000,087919,089965,075299,089430,092460,074436
0000000143,0000142000,085076,091813,076294,086135,094453,075738
0000000144,0000143000,082223,092884,078076,082881,095525,077919
0000000145,0000144000,079634,093073,080477,079981,095576,080769
0000000146,0000145000,077562,092365,083256,077721,094601,084005
0000000147,0000146000,076217,090833,086134,076325,092693,087308
0000000148,0000147000,075728,088614,088842,075928,090037,090360
0000000149,0000148000,076140,085929,091114,076567,086897,092862
0000000150,0000149000,077409,083056,092719,078180,083581,094565
0000000151,0000150000,079420,080262,093502,080612,080410,095304
0000000152,0000151000,081979,077813,093392,083623,077694,095009
0000000153,0000152000,084820,075965,092398,086916,075702,093707
0000000154,0000153000,087670,074898,090616,090171,074628,091527
0000000155,0000154000,090265,074704,088215,093071,074577,088678
0000000156,0000155000,092337,075410,085436,095330,075552,085443
0000000157,0000156000,093679,076947,082558,096726,077459,082141
0000000158,0000157000,094172,079163,079849,097124,080113,079089
0000000159,0000158000,093762,081845,077576,096485,083253,076588
0000000160,0000159000,092489,084723,075971,094873,086569,074884
0000000161,0000160000,090479,087518,075186,092443,089738,074145
0000000162,0000161000,087924,089963,075296,089432,092454,074440
0000000163,0000162000,085079,091815,076290,086139,094446,075740
0000000164,0000163000,082228,092885,078071,082886,095520,077920
0000000165,0000164000,079636,093075,080472,079987,095572,080768
0000000166,0000165000,077562,092371,083251,077727,094598,084001
0000000167,0000166000,076216,090838,086129,076331,092692,087303
0000000168,0000167000,075726,088618,088839,075933,090038,090354
0000000169,0000168000,076135,085935,091113,076571,086900,092855
0000000170,0000169000,077404,083061,092719,078182,083585,094558
0000000171,0000170000,079415,080264,093504,080611,080416,095298
0000000172,0000171000,081973,077815,093396,083621,077701,095004
0000000173,0000172000,084814,075966,092403,086912,075709,093705
0000000174,0000173000,087667,074895,090622,090165,074635,091526
0000000175,0000174000,090262,074700,088221,093064,074582,088680
0000000176,0000175000,092335,075406,085442,095323,075556,085447
0000000177,0000176000,093681,076940,082563,096719,077460,082147
0000000178,0000177000,094175,079156,079853,097118,080112,079096
0000000179,0000178000,093766,081840,077578,096480,083250,076595
0000000180,0000179000,092495,084718,075970,094871,086563,074892
0000000181,0000180000,090487,087513,075184,092443,089731,074151
0000000182,0000181000,087930,089962,075292,089434,092447,074445
0000000183,0000182000,085085,091815,076284,086144,094439,075743
0000000184,0000183000,082233,092886,078064,082893,095513,077920
0000000185,0000184000,079639,093079,080465,079994,095566,080766
0000000186,0000185000,077562,092377,083245,077735,094594,083997
0000000187,0000186000,076215,090844,086124,076339,092690,087296
0000000188,0000187000,075723,088625,088835,075940,090040,090346
0000000189,0000188000,076129,085943,091112,076575,086903,092847
0000000190,0000189000,077397,083066,092720,078185,083591,094550
0000000191,0000190000,079409,080268,093507,080611,080423,095291
0000000192,0000191000,081965,077818,093401,083618,077709,094999
0000000193,0000192000,084808,075966,092409,086907,075717,093702
0000000194,0000193000,087662,074892,090629,090157,074642,091526
0000000195,0000194000,090259,074696,088229,093055,074589,088682
0000000196,0000195000,092334,075400,085449,095314,075560,085452
0000000197,0000196000,093683,076932,082568,096711,077462,082153
0000000198,0000197000,094179,079148,079857,097110,080111,079105
0000000199,0000198000,093771,081833,077579,096475,083246,076604
0000000200,0000199000,092503,084711,075969,094868,086557,074901
0000000201,0000200000,090495,087507,075181,092443,089723,074159
0000000202,0000201000,087937,089960,075286,089437,092437,074451
0000000203,0000202000,085092,091815,076276,086150,094429,075747
0000000204,0000203000,082240,092888,078056,082901,095504,077921
0000000205,0000204000,079642,093085,080457,080003,095559,080763
0000000206,0000205000,077563,092384,083237,077745,094589,083992
0000000207,0000206000,076214,090852,086118,076348,092688,087289
0000000208,0000207000,075718,088634,088831,075947,090041,090337
0000000209,0000208000,076122,085952,091110,076581,086908,092837
0000000210,0000209000,077390,083073,092721,078187,083598,094540
0000000211,0000210000,079400,080273,093511,080611,080433,095282
0000000212,0000211000,081955,077821,093407,083614,077720,094992
0000000213,0000212000,084800,075966,092417,086901,075727,093698
0000000214,0000213000,087657,074889,090638,090149,074652,091525
0000000215,0000214000,090254,074691,088238,093045,074596,088684
0000000216,0000215000,092333,075393,085457,095303,075565,085458
0000000217,0000216000,093686,076922,082576,096700,077464,082162
0000000218,0000217000,094183,079139,079862,097102,080109,079115
0000000219,0000218000,093778,081824,077581,096469,083241,076615
0000000220,0000219000,092513,084702,075968,094865,086549,074912
0000000221,0000220000,090505,087502,075177,092443,089713,074169
0000000222,0000221000,087947,089957,075280,089441,092426,074458
0000000223,0000222000,085102,091814,076268,086157,094418,075751
0000000224,0000223000,082246,092891,078046,082910,095494,077922
0000000225,0000224000,079646,093091,080447,080015,095551,080760
0000000226,0000225000,077564,092392,083227,077757,094583,083985
0000000227,0000226000,076212,090861,086110,076360,092686,087280
0000000228,0000227000,075712,088645,088826,075957,090043,090326
0000000229,0000228000,076114,085962,091107,076588,086913,092825
0000000230,0000229000,077381,083081,092722,078191,083606,094528
0000000231,0000230000,079389,080280,093515,080610,080444,095272
0000000232,0000231000,081944,077825,093414,083610,077732,094984
0000000233,0000232000,084791,075965,092427,086893,075740,093693
0000000234,0000233000,087649,074885,090649,090138,074664,091524
0000000235,0000234000,090249,074685,088249,093033,074606,088687
0000000236,0000235000,092332,075383,085468,095290,075571,085464
0000000237,0000236000,093688,076911,082584,096688,077466,082172
0000000238,0000237000,094188,079128,079867,097091,080108,079127
0000000239,0000238000,093787,081813,077584,096462,083235,076628
0000000240,0000239000,092524,084692,075967,094861,086540,074925
0000000241,0000240000,090516,087495,075172,092444,089701,074180
0000000242,0000241000,087958,089954,075272,089446,092413,074467
0000000243,0000242000,085112,091814,076258,086166,094404,075756
0000000244,0000243000,082254,092895,078035,082922,095481,077923
0000000245,0000244000,079650,093099,080435,080028,095541,080757
0000000246,0000245000,077566,092402,083216,077771,094577,083978
0000000247,0000246000,076210,090873,086101,076373,092684,087269
0000000248,0000247000,075706,088658,088819,075968,090045,090313
0000000249,0000248000,076105,085973,091105,076596,086919,092810
0000000250,0000249000,077369,083091,092723,078195,083617,094515
0000000251,0000250000,079375,080288,093520,080609,080457,095260
0000000252,0000251000,081932,077829,093423,083605,077746,094975
0000000253,0000252000,084780,075965,092438,086884,075754,093688
0000000254,0000253000,087640,074882,090662,090125,074677,091523
0000000255,0000254000,090243,074678,088262,093018,074616,088691
0000000256,0000255000,092331,075372,085480,095275,075578,085472
0000000257,0000256000,093691,076899,082594,096674,077468,082184
0000000258,0000257000,094195,079115,079874,097079,080105,079141
0000000259,0000258000,093797,081800,077587,096453,083228,076644
0000000260,0000259000,092536,084681,075966,094857,086529,074940
0000000261,0000260000,090529,087487,075167,092445,089688,074193
0000000262,0000261000,087972,089949,075262,089452,092397,074477
0000000263,0000262000,085125,091813,076246,086175,094389,075762
0000000264,0000263000,082263,092899,078021,082935,095467,077924
0000000265,0000264000,079657,093107,080420,080044,095529,080753
0000000266,0000265000,077568,092413,083203,077787,094569,083969
0000000267,0000266000,076206,090887,086090,076388,092681,087256
0000000268,0000267000,075699,088673,088812,075981,090047,090297
0000000269,0000268000,076095,085987,091101,076605,086926,092794
0000000270,0000269000,077356,083103,092725,078199,083628,094498
0000000271,0000270000,079360,080297,093526,080609,080471,095246
0000000272,0000271000,081918,077834,093432,083599,077763,094964
0000000273,0000272000,084767,075965,092451,086873,075771,093681
0000000274,0000273000,087629,074878,090677,090111,074692,091522
0000000275,0000274000,090237,074669,088277,093002,074628,088696
0000000276,0000275000,092330,075360,085494,095258,075586,085482
0000000277,0000276000,093693,076884,082606,096657,077471,082197
0000000278,0000277000,094202,079099,079882,097066,080103,079157
0000000279,0000278000,093809,081785,077590,096444,083221,076662
0000000280,0000279000,092550,084669,075965,094852,086516,074957
0000000281,0000280000,090545,087478,075160,092445,089672,074208
0000000282,0000281000,087988,089943,075252,089458,092379,074488
0000000283,0000282000,085139,091813,076232,086187,094371,075768
0000000284,0000283000,082274,092905,078005,082950,095451,077925
0000000285,0000284000,079664,093116,080404,080061,095516,080748
0000000286,0000285000,077570,092426,083188,077805,094561,083959
0000000287,0000286000,076203,090903,086078,076405,092678,087242
0000000288,0000287000,075691,088690,088803,075996,090050,090280
0000000289,0000288000,076083,086003,091098,076615,086935,092775
0000000290,0000289000,077340,083117,092726,078204,083642,094480
0000000291,0000290000,079343,080308,093533,080608,080488,095230
0000000292,0000291000,081901,077839,093444,083592,077782,094952
0000000293,0000292000,084752,075966,092466,086861,075791,093674
0000000294,0000293000,087617,074873,090694,090095,074710,091521
0000000295,0000294000,090230,074659,088295,092983,074642,088701
0000000296,0000295000,092328,075346,085510,095238,075595,085493
0000000297,0000296000,093697,076868,082619,096639,077474,082212
0000000298,0000297000,094211,079081,079892,097050,080099,079176
0000000299,0000298000,093822,081767,077594,096433,083211,076682
0000000300,0000299000,092566,084654,075963,094847,086502,074976
0000000301,0000300000,090563,087467,075153,092447,089653,074226
