DIgSILENT PowerFactory,21000900,2000
6,06A,00D
1,TTPP_200000_100:Secondary Voltage A,,,V,0.010000000,-67.891479,0.000000,-86352,99998,1,1,P
2,TTPP_200000_100:Secondary Voltage B,,,V,0.010000000,-50.973965,0.000000,-92673,99998,1,1,P
3,TTPP_200000_100:Secondary Voltage C,,,V,0.10000000,-8986.173828,0.000000,79718,99998,1,1,P
4,TTCC_500_5:Secondary Current A,,,A,0.0010000000,-81.871162,0.000000,54365,99998,1,1,P
5,TTCC_500_5:Secondary Current B,,,A,0.0010000000,-84.724739,0.000000,69442,99998,1,1,P
6,TTCC_500_5:Secondary Current C,,,A,0.0010000000,-84.671066,0.000000,69331,99998,1,1,P
50
1
1000.000000,1101
30/06/2023,06:02:14.000000
30/06/2023,06:02:14.000000
ASCII
1.000000
0000000001,0000000000,061933,041476,080709,087789,089402,074076
0000000002,0000001000,036448,065822,080822,084774,092118,074374
0000000003,0000002000,007949,084364,081820,081474,094114,075679
0000000004,0000003000,-20542,095017,083602,078218,095185,077864
0000000005,0000004000,-46319,096796,086004,075317,095233,080718
0000000006,0000005000,-67079,089772,088781,073051,094259,083957
0000000007,0000006000,-80570,074506,091657,071658,092345,087264
0000000008,0000007000,-85350,052224,094363,071265,089683,090319
0000000009,0000008000,-81183,025358,096633,071903,086541,092822
0000000010,0000009000,-68528,-03297,098234,073521,083220,094526
0000000011,0000010000,-48368,-31257,099013,075957,080045,095264
0000000012,0000011000,-22768,-55726,098901,078971,077330,094967
0000000013,0000012000,005536,-74080,097905,082270,075335,093662
0000000014,0000013000,034046,-84751,096121,085530,074261,091477
0000000015,0000014000,060052,-86750,093720,088431,074213,088623
0000000016,0000015000,080683,-79601,090943,090691,075192,085384
0000000017,0000016000,094018,-64168,088066,092087,077103,082077
0000000018,0000017000,098962,-42061,085361,092483,079762,079022
0000000019,0000018000,094823,-15230,083092,091841,082907,076518
0000000020,0000019000,082029,013572,081490,090225,086227,074815
0000000021,0000020000,061990,041420,080710,087790,089401,074076
0000000022,0000021000,036444,065830,080823,084773,092120,074374
0000000023,0000022000,007929,084386,081819,081474,094114,075679
0000000024,0000023000,-20528,095013,083602,078219,095184,077864
0000000025,0000024000,-46343,096814,086004,075315,095234,080718
0000000026,0000025000,-67099,089794,088781,073052,094258,083957
0000000027,0000026000,-80528,074460,091657,071658,092345,087264
0000000028,0000027000,-85323,052199,094363,071262,089685,090319
0000000029,0000028000,-81230,025404,096633,071903,086542,092823
0000000030,0000029000,-68547,-03282,098234,073521,083220,094526
0000000031,0000030000,-48350,-31279,099013,075956,080046,095265
0000000032,0000031000,-22784,-55719,098901,078971,077330,094967
0000000033,0000032000,005543,-74086,097905,082269,075336,093662
0000000034,0000033000,034075,-84786,096121,085528,074262,091477
0000000035,0000034000,060025,-86727,093720,088430,074214,088624
0000000036,0000035000,080646,-79571,090943,090690,075192,085384
0000000037,0000036000,094049,-64203,088066,092087,077103,082078
0000000038,0000037000,098980,-42081,085361,092482,079762,079023
0000000039,0000038000,094799,-15209,083092,091840,082908,076519
0000000040,0000039000,082041,013562,081490,090225,086227,074815
0000000041,0000040000,062001,041404,080710,087789,089400,074077
0000000042,0000041000,036421,065855,080823,084772,092120,074375
0000000043,0000042000,007937,084380,081819,081475,094113,075679
0000000044,0000043000,-20497,094986,083602,078218,095185,077864
0000000045,0000044000,-46363,096835,086003,075314,095235,080718
0000000046,0000045000,-67118,089815,088781,073053,094257,083957
0000000047,0000046000,-80501,074437,091657,071659,092345,087264
0000000048,0000047000,-85324,052199,094363,071262,089686,090319
0000000049,0000048000,-81255,025433,096632,071903,086542,092822
0000000050,0000049000,-68538,-03292,098233,073521,083221,094526
0000000051,0000050000,-48347,-31284,099014,075955,080047,095264
0000000052,0000051000,-22812,-55696,098901,078970,077330,094967
0000000053,0000052000,005551,-74096,097905,082269,075336,093662
0000000054,0000053000,034094,-84809,096122,085527,074263,091477
0000000055,0000054000,059998,-86705,093721,088429,074214,088624
0000000056,0000055000,080634,-79562,090943,090690,075192,085385
0000000057,0000056000,094075,-64235,088066,092086,077103,082078
0000000058,0000057000,098980,-42084,085361,092481,079762,079023
0000000059,0000058000,094788,-15198,083092,091840,082908,076520
0000000060,0000059000,082065,013541,081490,090224,086226,074816
0000000061,0000060000,062006,041400,080709,087789,089400,074078
0000000062,0000061000,036404,065876,080822,084772,092119,074375
0000000063,0000062000,007960,084365,081818,081475,094112,075680
0000000064,0000063000,-20474,094969,083601,078218,095184,077864
0000000065,0000064000,-46382,096862,086003,075315,095235,080718
0000000066,0000065000,-67122,089827,088780,073054,094256,083957
0000000067,0000066000,-80483,074425,091656,071659,092345,087263
0000000068,0000067000,-85339,052217,094362,071262,089687,090318
0000000069,0000068000,-81269,025451,096632,071903,086542,092821
0000000070,0000069000,-68524,-03305,098233,073520,083222,094525
0000000071,0000070000,-48361,-31275,099014,075955,080049,095264
0000000072,0000071000,-22842,-55672,098902,078970,077331,094966
0000000073,0000072000,005559,-74111,097906,082268,075337,093662
0000000074,0000073000,034099,-84823,096123,085525,074264,091477
0000000075,0000074000,059973,-86691,093722,088427,074215,088624
0000000076,0000075000,080635,-79572,090944,090689,075193,085385
0000000077,0000076000,094092,-64261,088067,092085,077103,082079
0000000078,0000077000,098970,-42081,085362,092480,079762,079025
0000000079,0000078000,094793,-15204,083092,091839,082907,076521
0000000080,0000079000,082095,013512,081490,090224,086226,074818
0000000081,0000080000,062009,041401,080709,087788,089399,074079
0000000082,0000081000,036400,065887,080821,084773,092118,074376
0000000083,0000082000,007988,084348,081817,081476,094110,075680
0000000084,0000083000,-20460,094967,083600,078219,095183,077865
0000000085,0000084000,-46393,096887,086001,075316,095234,080717
0000000086,0000085000,-67113,089831,088779,073056,094255,083956
0000000087,0000086000,-80475,074427,091655,071660,092345,087262
0000000088,0000087000,-85362,052246,094362,071263,089688,090316
0000000089,0000088000,-81279,025465,096632,071904,086543,092820
0000000090,0000089000,-68520,-03310,098233,073521,083223,094523
0000000091,0000090000,-48388,-31255,099015,075954,080051,095262
0000000092,0000091000,-22868,-55655,098903,078969,077333,094965
0000000093,0000092000,005561,-74127,097907,082267,075339,093661
0000000094,0000093000,034087,-84829,096124,085523,074266,091477
0000000095,0000094000,059951,-86686,093724,088425,074217,088625
0000000096,0000095000,080644,-79595,090945,090687,075194,085387
0000000097,0000096000,094100,-64284,088069,092082,077104,082081
0000000098,0000097000,098962,-42083,085363,092478,079762,079027
0000000099,0000098000,094811,-15226,083092,091838,082906,076523
0000000100,0000099000,082126,013482,081490,090223,086224,074820
0000000101,0000100000,062015,041402,080709,087788,089398,074081
0000000102,0000101000,036414,065887,080820,084774,092115,074378
0000000103,0000102000,008021,084332,081815,081478,094108,075681
0000000104,0000103000,-20451,094976,083598,078221,095182,077865
0000000105,0000104000,-46394,096910,085999,075318,095232,080717
0000000106,0000105000,-67097,089836,088777,073058,094254,083955
0000000107,0000106000,-80478,074445,091654,071662,092345,087260
0000000108,0000107000,-85387,052283,094360,071265,089688,090314
0000000109,0000108000,-81287,025479,096631,071906,086544,092817
0000000110,0000109000,-68531,-03301,098234,073521,083225,094521
0000000111,0000110000,-48425,-31227,099016,075954,080053,095260
0000000112,0000111000,-22893,-55644,098904,078969,077335,094963
0000000113,0000112000,005552,-74140,097909,082265,075342,093660
0000000114,0000113000,034062,-84829,096127,085520,074269,091477
0000000115,0000114000,059934,-86692,093726,088422,074219,088626
0000000116,0000115000,080654,-79629,090948,090683,075195,085388
0000000117,0000116000,094103,-64308,088071,092079,077105,082083
0000000118,0000117000,098962,-42097,085364,092476,079762,079030
0000000119,0000118000,094841,-15261,083093,091836,082904,076527
0000000120,0000119000,082157,013452,081489,090222,086222,074823
0000000121,0000120000,062030,041397,080707,087788,089395,074084
0000000122,0000121000,036444,065876,080818,084775,092112,074380
0000000123,0000122000,008056,084321,081813,081480,094105,075683
0000000124,0000123000,-20441,094994,083595,078223,095179,077865
0000000125,0000124000,-46384,096931,085996,075322,095229,080716
0000000126,0000125000,-67081,089848,088774,073062,094252,083953
0000000127,0000126000,-80489,074478,091651,071665,092344,087257
0000000128,0000127000,-85411,052325,094359,071268,089688,090310
0000000129,0000128000,-81300,025501,096630,071908,086545,092813
0000000130,0000129000,-68559,-03277,098234,073522,083228,094517
0000000131,0000130000,-48469,-31196,099017,075954,080057,095256
0000000132,0000131000,-22921,-55638,098906,078967,077339,094960
0000000133,0000132000,005529,-74147,097912,082262,075346,093659
0000000134,0000133000,034027,-84829,096130,085517,074273,091477
0000000135,0000134000,059919,-86712,093729,088418,074222,088627
0000000136,0000135000,080660,-79668,090951,090679,075197,085390
0000000137,0000136000,094103,-64336,088074,092075,077106,082087
0000000138,0000137000,098974,-42128,085366,092472,079761,079034
0000000139,0000138000,094878,-15307,083093,091834,082902,076531
0000000140,0000139000,082191,013421,081489,090220,086219,074827
0000000141,0000140000,062060,041383,080706,087788,089391,074088
0000000142,0000141000,036491,065857,080815,084776,092107,074383
0000000143,0000142000,008095,084316,081809,081482,094100,075684
0000000144,0000143000,-20423,095016,083591,078227,095174,077865
0000000145,0000144000,-46364,096953,085992,075327,095226,080715
0000000146,0000145000,-67068,089873,088770,073067,094250,083950
0000000147,0000146000,-80505,074526,091648,071670,092344,087253
0000000148,0000147000,-85435,052372,094356,071272,089689,090306
0000000149,0000148000,-81323,025533,096629,071911,086548,092808
0000000150,0000149000,-68603,-03239,098235,073523,083232,094512
0000000151,0000150000,-48521,-31161,099019,075954,080061,095252
0000000152,0000151000,-22957,-55630,098909,078966,077344,094957
0000000153,0000152000,005490,-74148,097916,082259,075352,093657
0000000154,0000153000,033986,-84834,096135,085512,074278,091476
0000000155,0000154000,059903,-86743,093734,088413,074226,088628
0000000156,0000155000,080660,-79713,090956,090673,075200,085393
0000000157,0000156000,094105,-64375,088078,092069,077107,082091
0000000158,0000157000,098998,-42176,085368,092468,079760,079039
0000000159,0000158000,094923,-15363,083095,091830,082900,076537
0000000160,0000159000,082232,013384,081489,090218,086215,074833
0000000161,0000160000,062107,041357,080704,087789,089385,074093
0000000162,0000161000,036550,065832,080812,084778,092101,074387
0000000163,0000162000,008140,084316,081805,081486,094094,075687
0000000164,0000163000,-20394,095039,083586,078232,095169,077866
0000000165,0000164000,-46335,096979,085986,075333,095221,080713
0000000166,0000165000,-67058,089913,088765,073073,094247,083947
0000000167,0000166000,-80524,074586,091644,071676,092342,087248
0000000168,0000167000,-85460,052427,094353,071277,089690,090300
0000000169,0000168000,-81359,025580,096628,071915,086551,092802
0000000170,0000169000,-68662,-03186,098235,073525,083237,094505
0000000171,0000170000,-48581,-31123,099021,075954,080067,095246
0000000172,0000171000,-23007,-55619,098913,078963,077351,094953
0000000173,0000172000,005435,-74146,097921,082254,075359,093654
0000000174,0000173000,033940,-84846,096141,085507,074284,091476
0000000175,0000174000,059884,-86784,093740,088406,074231,088630
0000000176,0000175000,080654,-79765,090961,090666,075204,085397
0000000177,0000176000,094111,-64428,088082,092062,077108,082097
0000000178,0000177000,099033,-42242,085372,092462,079759,079046
0000000179,0000178000,094974,-15429,083096,091826,082897,076544
0000000180,0000179000,082284,013337,081488,090216,086210,074841
0000000181,0000180000,062172,041318,080701,087789,089379,074099
0000000182,0000181000,036621,065804,080808,084781,092094,074392
0000000183,0000182000,008194,084319,081799,081491,094087,075690
0000000184,0000183000,-20351,095064,083579,078239,095161,077867
0000000185,0000184000,-46300,097012,085979,075340,095215,080711
0000000186,0000185000,-67051,089968,088759,073081,094244,083943
0000000187,0000186000,-80544,074659,091639,071684,092341,087242
0000000188,0000187000,-85491,052494,094350,071284,089691,090292
0000000189,0000188000,-81409,025645,096627,071919,086554,092793
0000000190,0000189000,-68734,-03121,098236,073527,083242,094497
0000000191,0000190000,-48652,-31080,099024,075953,080075,095239
0000000192,0000191000,-23075,-55601,098918,078960,077360,094947
0000000193,0000192000,005365,-74141,097928,082249,075367,093651
0000000194,0000193000,033887,-84866,096148,085499,074292,091475
0000000195,0000194000,059858,-86834,093748,088398,074237,088632
0000000196,0000195000,080643,-79825,090969,090657,075208,085402
0000000197,0000196000,094122,-64497,088088,092054,077110,082104
0000000198,0000197000,099076,-42326,085376,092455,079758,079054
0000000199,0000198000,095034,-15506,083098,091821,082893,076554
0000000200,0000199000,082352,013277,081487,090213,086204,074850
0000000201,0000200000,062256,041268,080698,087789,089370,074107
0000000202,0000201000,036705,065774,080802,084784,092084,074398
0000000203,0000202000,008261,084323,081792,081496,094077,075693
0000000204,0000203000,-20295,095090,083571,078247,095153,077867
0000000205,0000204000,-46260,097056,085971,075350,095208,080709
0000000206,0000205000,-67045,090040,088751,073091,094239,083937
0000000207,0000206000,-80564,074745,091632,071693,092339,087234
0000000208,0000207000,-85528,052577,094345,071292,089692,090283
0000000209,0000208000,-81474,025729,096625,071925,086559,092783
0000000210,0000209000,-68820,-03044,098237,073530,083250,094487
0000000211,0000210000,-48738,-31030,099027,075953,080084,095230
0000000212,0000211000,-23162,-55575,098924,078957,077370,094940
0000000213,0000212000,005281,-74136,097936,082242,075378,093647
0000000214,0000213000,033826,-84895,096157,085491,074302,091474
0000000215,0000214000,059823,-86892,093757,088387,074245,088634
0000000216,0000215000,080629,-79898,090977,090646,075213,085408
0000000217,0000216000,094140,-64586,088095,092044,077111,082112
0000000218,0000217000,099128,-42427,085381,092446,079756,079065
0000000219,0000218000,095103,-15597,083100,091814,082888,076565
0000000220,0000219000,082438,013202,081486,090210,086196,074861
0000000221,0000220000,062358,041205,080694,087790,089360,074117
0000000222,0000221000,036803,065741,080796,084788,092073,074406
0000000223,0000222000,008344,084327,081783,081504,094066,075698
0000000224,0000223000,-20224,095119,083561,078257,095142,077868
0000000225,0000224000,-46214,097112,085961,075361,095200,080706
0000000226,0000225000,-67037,090126,088742,073102,094233,083931
0000000227,0000226000,-80585,074844,091624,071705,092337,087225
0000000228,0000227000,-85576,052678,094340,071301,089694,090272
0000000229,0000228000,-81555,025832,096622,071932,086564,092771
0000000230,0000229000,-68919,-02955,098238,073534,083258,094475
0000000231,0000230000,-48841,-30969,099032,075953,080095,095220
0000000232,0000231000,-23269,-55540,098931,078952,077382,094932
0000000233,0000232000,005182,-74131,097945,082235,075390,093642
0000000234,0000233000,033754,-84931,096168,085480,074313,091474
0000000235,0000234000,059778,-86959,093768,088375,074254,088637
0000000236,0000235000,080612,-79984,090987,090633,075219,085415
0000000237,0000236000,094164,-64694,088104,092032,077114,082122
0000000238,0000237000,099187,-42545,085386,092436,079754,079077
0000000239,0000238000,095185,-15704,083102,091807,082882,076578
0000000240,0000239000,082543,013109,081485,090207,086187,074873
0000000241,0000240000,062479,041131,080689,087790,089348,074128
0000000242,0000241000,036918,065704,080788,084793,092060,074414
0000000243,0000242000,008445,084329,081773,081512,094052,075703
0000000244,0000243000,-20139,095153,083549,078268,095130,077869
0000000245,0000244000,-46163,097180,085949,075374,095190,080703
0000000246,0000245000,-67027,090228,088730,073116,094227,083924
0000000247,0000246000,-80608,074960,091615,071718,092335,087214
0000000248,0000247000,-85634,052799,094334,071312,089696,090258
0000000249,0000248000,-81650,025954,096620,071940,086571,092757
0000000250,0000249000,-69034,-02851,098239,073537,083268,094461
0000000251,0000250000,-48965,-30896,099037,075952,080108,095207
0000000252,0000251000,-23396,-55497,098940,078947,077397,094923
0000000253,0000252000,005068,-74128,097956,082226,075405,093637
0000000254,0000253000,033668,-84973,096181,085468,074326,091473
0000000255,0000254000,059722,-87034,093781,088361,074265,088641
0000000256,0000255000,080595,-80087,091000,090618,075226,085423
0000000257,0000256000,094193,-64823,088114,092017,077116,082134
0000000258,0000257000,099254,-42681,085393,092424,079752,079091
0000000259,0000258000,095281,-15830,083105,091798,082875,076593
0000000260,0000259000,082668,012997,081484,090203,086176,074888
0000000261,0000260000,062619,041046,080684,087791,089334,074142
0000000262,0000261000,037051,065661,080779,084798,092045,074424
0000000263,0000262000,008565,084329,081761,081522,094037,075709
0000000264,0000263000,-20040,095192,083535,078282,095116,077870
0000000265,0000264000,-46105,097263,085935,075390,095179,080699
0000000266,0000265000,-67013,090345,088717,073133,094220,083915
0000000267,0000266000,-80634,075095,091604,071733,092332,087202
0000000268,0000267000,-85704,052944,094326,071325,089698,090243
0000000269,0000268000,-81759,026096,096617,071949,086578,092740
0000000270,0000269000,-69167,-02732,098240,073542,083280,094445
0000000271,0000270000,-49111,-30809,099043,075951,080123,095193
0000000272,0000271000,-23545,-55446,098950,078941,077414,094912
0000000273,0000272000,004937,-74126,097969,082215,075422,093630
0000000274,0000273000,033567,-85021,096195,085453,074342,091472
0000000275,0000274000,059656,-87120,093797,088344,074277,088646
0000000276,0000275000,080575,-80208,091014,090601,075234,085432
0000000277,0000276000,094226,-64972,088125,092001,077119,082147
0000000278,0000277000,099329,-42837,085401,092410,079750,079107
0000000279,0000278000,095394,-15977,083109,091789,082868,076611
0000000280,0000279000,082814,012867,081482,090198,086163,074906
0000000281,0000280000,062778,040948,080678,087792,089319,074157
0000000282,0000281000,037206,065611,080768,084804,092027,074436
0000000283,0000282000,008707,084327,081747,081533,094019,075715
0000000284,0000283000,-19927,095238,083520,078297,095099,077871
0000000285,0000284000,-46037,097358,085919,075407,095165,080694
0000000286,0000285000,-66994,090478,088702,073151,094211,083905
0000000287,0000286000,-80664,075250,091592,071750,092329,087187
0000000288,0000287000,-85786,053112,094318,071340,089701,090226
0000000289,0000288000,-81883,026259,096613,071959,086586,092721
0000000290,0000289000,-69319,-02596,098242,073547,083293,094427
0000000291,0000290000,-49280,-30707,099049,075950,080140,095177
0000000292,0000291000,-23716,-55388,098961,078934,077433,094900
0000000293,0000292000,004788,-74124,097984,082203,075441,093623
0000000294,0000293000,033450,-85073,096213,085437,074359,091471
0000000295,0000294000,059579,-87218,093814,088325,074291,088651
0000000296,0000295000,080554,-80348,091030,090581,075243,085443
0000000297,0000296000,094262,-65142,088139,091982,077122,082163
0000000298,0000297000,099414,-43015,085411,092394,079747,079126
0000000299,0000298000,095523,-16148,083113,091778,082858,076631
0000000300,0000299000,082980,012717,081481,090193,086149,074925
0000000301,0000300000,062959,040837,080671,087793,089300,074174
