DIgSILENT PowerFactory,21000900,2000
6,06A,00D
1,TTPP_200000_100:Secondary Voltage A,,,V,0.10000000,-8361.341797,0.000000,67260,99998,1,1,P
2,TTPP_200000_100:Secondary Voltage B,,,V,0.10000000,-7967.366699,0.000000,62106,99998,1,1,P
3,TTPP_200000_100:Secondary Voltage C,,,V,0.10000000,-8248.591797,0.000000,64020,99998,1,1,P
4,TTCC_500_5:Secondary Current A,,,A,0.0010000000,-87.642616,0.000000,69969,99998,1,1,P
5,TTCC_500_5:Secondary Current B,,,A,0.0010000000,-85.176521,0.000000,70223,99998,1,1,P
6,TTCC_500_5:Secondary Current C,,,A,0.0010000000,-84.632278,0.000000,69241,99998,1,1,P
50
1
1000.000000,1101
30/06/2023,06:07:10.000000
30/06/2023,06:07:10.000000
ASCII
1.000000
0000000001,0000000000,089126,083314,073333,093558,089856,074037
0000000002,0000001000,086577,085748,073448,090543,092572,074336
0000000003,0000002000,083726,087603,074446,087243,094567,075641
0000000004,0000003000,080880,088664,076228,083988,095636,077827
0000000005,0000004000,078296,088847,078630,081084,095686,080681
0000000006,0000005000,076224,088140,081408,078823,094707,083921
0000000007,0000006000,074878,086610,084284,077430,092794,087227
0000000008,0000007000,074405,084379,086989,077034,090135,090282
0000000009,0000008000,074813,081701,089258,077675,086991,092785
0000000010,0000009000,076081,078834,090859,079294,083669,094488
0000000011,0000010000,078101,076035,091638,081731,080495,095226
0000000012,0000011000,080662,073587,091524,084745,077779,094927
0000000013,0000012000,083490,071756,090527,088043,075786,093622
0000000014,0000013000,086344,070685,088743,091303,074712,091436
0000000015,0000014000,088941,070490,086342,094204,074665,088582
0000000016,0000015000,091001,071208,083564,096463,075646,085343
0000000017,0000016000,092336,072750,080688,097860,077555,082036
0000000018,0000017000,092835,074956,077983,098255,080215,078981
0000000019,0000018000,092416,077644,075713,097611,083362,076478
0000000020,0000019000,091134,080526,074113,095994,086682,074775
0000000021,0000020000,089130,083308,073334,093560,089854,074037
0000000022,0000021000,086577,085749,073447,090541,092574,074336
0000000023,0000022000,083724,087604,074445,087244,094566,075641
0000000024,0000023000,080880,088664,076229,083987,095637,077827
0000000025,0000024000,078298,088845,078631,081084,095686,080681
0000000026,0000025000,076221,088144,081408,078822,094708,083921
0000000027,0000026000,074881,086608,084284,077430,092794,087227
0000000028,0000027000,074403,084380,086990,077033,090136,090282
0000000029,0000028000,074812,081702,089258,077675,086991,092785
0000000030,0000029000,076082,078833,090858,079293,083670,094488
0000000031,0000030000,078102,076033,091638,081730,080496,095226
0000000032,0000031000,080657,073591,091525,084745,077779,094927
0000000033,0000032000,083493,071753,090527,088043,075786,093622
0000000034,0000033000,086346,070683,088743,091301,074713,091437
0000000035,0000034000,088938,070493,086342,094203,074666,088583
0000000036,0000035000,090999,071210,083564,096463,075645,085343
0000000037,0000036000,092342,072744,080688,097859,077556,082036
0000000038,0000037000,092832,074958,077983,098254,080216,078982
0000000039,0000038000,092412,077647,075714,097611,083362,076478
0000000040,0000039000,091139,080521,074113,095995,086681,074775
0000000041,0000040000,089133,083306,073334,093559,089855,074038
0000000042,0000041000,086571,085755,073447,090541,092574,074336
0000000043,0000042000,083727,087602,074444,087245,094565,075642
0000000044,0000043000,080885,088660,076228,083987,095637,077827
0000000045,0000044000,078294,088849,078630,081083,095687,080681
0000000046,0000045000,076219,088146,081408,078824,094707,083921
0000000047,0000046000,074887,086603,084284,077429,092795,087227
0000000048,0000047000,074401,084382,086989,077033,090137,090282
0000000049,0000048000,074808,081706,089258,077675,086991,092785
0000000050,0000049000,076085,078830,090858,079294,083670,094488
0000000051,0000050000,078103,076032,091638,081728,080497,095226
0000000052,0000051000,080653,073596,091525,084744,077780,094927
0000000053,0000052000,083493,071752,090528,088043,075786,093622
0000000054,0000053000,086349,070680,088744,091300,074714,091437
0000000055,0000054000,088934,070496,086342,094202,074667,088583
0000000056,0000055000,090999,071210,083564,096463,075645,085343
0000000057,0000056000,092345,072740,080688,097858,077556,082037
0000000058,0000057000,092831,074959,077983,098253,080217,078982
0000000059,0000058000,092411,077648,075714,097611,083362,076479
0000000060,0000059000,091142,080518,074113,095995,086680,074776
0000000061,0000060000,089133,083307,073334,093558,089855,074039
0000000062,0000061000,086570,085756,073447,090541,092573,074337
0000000063,0000062000,083729,087600,074444,087245,094564,075642
0000000064,0000063000,080886,088660,076228,083987,095637,077827
0000000065,0000064000,078292,088852,078629,081084,095687,080681
0000000066,0000065000,076221,088145,081407,078825,094707,083920
0000000067,0000066000,074887,086602,084283,077429,092795,087227
0000000068,0000067000,074398,084385,086989,077033,090137,090281
0000000069,0000068000,074808,081707,089258,077676,086991,092784
0000000070,0000069000,076087,078828,090859,079293,083671,094487
0000000071,0000070000,078099,076035,091639,081728,080499,095225
0000000072,0000071000,080651,073597,091525,084744,077781,094927
0000000073,0000072000,083496,071749,090528,088042,075787,093622
0000000074,0000073000,086347,070681,088745,091299,074716,091437
0000000075,0000074000,088932,070498,086343,094201,074667,088583
0000000076,0000075000,091002,071206,083565,096462,075645,085344
0000000077,0000076000,092346,072738,080689,097856,077557,082038
0000000078,0000077000,092828,074961,077984,098252,080216,078984
0000000079,0000078000,092414,077646,075714,097610,083361,076481
0000000080,0000079000,091145,080515,074113,095994,086680,074778
0000000081,0000080000,089131,083309,073333,093558,089854,074040
0000000082,0000081000,086571,085756,073446,090542,092571,074338
0000000083,0000082000,083733,087597,074443,087246,094563,075643
0000000084,0000083000,080885,088662,076227,083988,095636,077828
0000000085,0000084000,078290,088855,078628,081086,095685,080681
0000000086,0000085000,076224,088143,081406,078826,094706,083919
0000000087,0000086000,074887,086604,084282,077430,092796,087225
0000000088,0000087000,074395,084389,086988,077034,090137,090280
0000000089,0000088000,074809,081707,089258,077677,086992,092782
0000000090,0000089000,076087,078828,090859,079293,083673,094486
0000000091,0000090000,078095,076039,091639,081727,080501,095224
0000000092,0000091000,080650,073597,091526,084744,077782,094926
0000000093,0000092000,083496,071747,090530,088041,075790,093621
0000000094,0000093000,086344,070682,088747,091297,074718,091437
0000000095,0000094000,088930,070498,086345,094199,074668,088584
0000000096,0000095000,091003,071203,083567,096460,075646,085345
0000000097,0000096000,092345,072738,080691,097854,077558,082040
0000000098,0000097000,092828,074961,077984,098250,080216,078986
0000000099,0000098000,092417,077642,075714,097609,083360,076483
0000000100,0000099000,091147,080513,074113,095993,086679,074780
0000000101,0000100000,089131,083309,073332,093558,089852,074042
0000000102,0000101000,086574,085754,073444,090543,092569,074340
0000000103,0000102000,083736,087596,074441,087247,094561,075644
0000000104,0000103000,080884,088664,076225,083990,095634,077828
0000000105,0000104000,078292,088856,078626,081088,095683,080680
0000000106,0000105000,076226,088143,081404,078828,094705,083918
0000000107,0000106000,074885,086607,084281,077433,092795,087223
0000000108,0000107000,074394,084392,086987,077037,090137,090277
0000000109,0000108000,074809,081707,089257,077678,086993,092780
0000000110,0000109000,076083,078831,090859,079293,083675,094483
0000000111,0000110000,078092,076042,091640,081727,080503,095221
0000000112,0000111000,080650,073596,091528,084743,077785,094924
0000000113,0000112000,083494,071747,090532,088038,075793,093620
0000000114,0000113000,086340,070683,088749,091294,074721,091436
0000000115,0000114000,088930,070495,086347,094196,074670,088585
0000000116,0000115000,091004,071200,083569,096456,075648,085347
0000000117,0000116000,092343,072737,080693,097851,077558,082042
0000000118,0000117000,092829,074958,077986,098248,080215,078989
0000000119,0000118000,092420,077638,075715,097607,083358,076486
0000000120,0000119000,091148,080512,074113,095991,086677,074783
0000000121,0000120000,089133,083309,073331,093558,089849,074045
0000000122,0000121000,086579,085752,073443,090544,092565,074342
0000000123,0000122000,083738,087596,074439,087248,094558,075645
0000000124,0000123000,080885,088667,076222,083993,095631,077828
0000000125,0000124000,078295,088856,078623,081092,095680,080679
0000000126,0000125000,076227,088145,081401,078832,094703,083916
0000000127,0000126000,074883,086612,084278,077436,092795,087221
0000000128,0000127000,074393,084395,086985,077040,090138,090274
0000000129,0000128000,074808,081708,089256,077680,086995,092776
0000000130,0000129000,076079,078835,090859,079294,083678,094479
0000000131,0000130000,078088,076044,091641,081728,080506,095218
0000000132,0000131000,080648,073595,091530,084741,077789,094921
0000000133,0000132000,083490,071748,090535,088036,075797,093619
0000000134,0000133000,086337,070683,088752,091291,074724,091436
0000000135,0000134000,088930,070491,086351,094192,074673,088586
0000000136,0000135000,091003,071197,083573,096452,075650,085349
0000000137,0000136000,092343,072735,080695,097847,077559,082046
0000000138,0000137000,092832,074953,077988,098244,080215,078993
0000000139,0000138000,092424,077634,075716,097604,083357,076491
0000000140,0000139000,091150,080511,074113,095990,086674,074788
0000000141,0000140000,089138,083306,073330,093558,089844,074049
0000000142,0000141000,086583,085749,073440,090546,092561,074345
0000000143,0000142000,083740,087598,074435,087251,094554,075647
0000000144,0000143000,080888,088668,076217,083997,095626,077828
0000000145,0000144000,078298,088857,078618,081096,095677,080678
0000000146,0000145000,076227,088149,081397,078836,094701,083914
0000000147,0000146000,074881,086617,084275,077441,092794,087217
0000000148,0000147000,074392,084398,086983,077044,090138,090269
0000000149,0000148000,074805,081713,089256,077683,086997,092771
0000000150,0000149000,076074,078840,090860,079296,083681,094474
0000000151,0000150000,078085,076045,091643,081728,080511,095213
0000000152,0000151000,080644,073596,091533,084739,077795,094918
0000000153,0000152000,083485,071749,090539,088032,075803,093617
0000000154,0000153000,086335,070682,088757,091286,074729,091436
0000000155,0000154000,088929,070488,086356,094187,074678,088587
0000000156,0000155000,091002,071194,083577,096446,075653,085352
0000000157,0000156000,092344,072731,080699,097842,077560,082050
0000000158,0000157000,092836,074947,077990,098240,080214,078998
0000000159,0000158000,092427,077629,075717,097600,083354,076497
0000000160,0000159000,091154,080507,074112,095988,086670,074793
0000000161,0000160000,089144,083302,073327,093558,089839,074054
0000000162,0000161000,086589,085747,073437,090547,092555,074349
0000000163,0000162000,083744,087599,074431,087255,094547,075649
0000000164,0000163000,080892,088669,076212,084002,095621,077829
0000000165,0000164000,078301,088859,078613,081102,095673,080677
0000000166,0000165000,076226,088155,081392,078843,094698,083910
0000000167,0000166000,074880,086622,084271,077447,092792,087212
0000000168,0000167000,074391,084402,086980,077049,090139,090263
0000000169,0000168000,074800,081719,089254,077687,087000,092764
0000000170,0000169000,076068,078845,090860,079298,083686,094468
0000000171,0000170000,078080,076048,091645,081727,080517,095208
0000000172,0000171000,080637,073599,091537,084737,077802,094913
0000000173,0000172000,083479,071750,090544,088028,075810,093614
0000000174,0000173000,086331,070679,088763,091281,074735,091435
0000000175,0000174000,088927,070484,086362,094180,074683,088589
0000000176,0000175000,091000,071190,083583,096439,075657,085356
0000000177,0000176000,092345,072724,080703,097835,077561,082056
0000000178,0000177000,092840,074940,077993,098234,080213,079005
0000000179,0000178000,092430,077624,075719,097596,083351,076504
0000000180,0000179000,091160,080502,074111,095986,086664,074801
0000000181,0000180000,089151,083297,073325,093559,089832,074060
0000000182,0000181000,086594,085746,073433,090550,092548,074354
0000000183,0000182000,083749,087599,074425,087260,094540,075652
0000000184,0000183000,080898,088670,076205,084008,095613,077830
0000000185,0000184000,078303,088863,078606,081110,095667,080675
0000000186,0000185000,076226,088161,081386,078851,094695,083906
0000000187,0000186000,074879,086628,084265,077455,092791,087206
0000000188,0000187000,074387,084409,086976,077055,090140,090255
0000000189,0000188000,074793,081727,089253,077691,087004,092756
0000000190,0000189000,076062,078850,090861,079300,083692,094459
0000000191,0000190000,078073,076052,091648,081727,080524,095200
0000000192,0000191000,080629,073602,091542,084734,077810,094908
0000000193,0000192000,083472,071750,090550,088023,075818,093611
0000000194,0000193000,086327,070676,088770,091273,074743,091435
0000000195,0000194000,088923,070480,086370,094171,074690,088591
0000000196,0000195000,090999,071184,083590,096430,075661,085361
0000000197,0000196000,092348,072716,080709,097826,077563,082062
0000000198,0000197000,092843,074932,077998,098226,080212,079014
0000000199,0000198000,092436,077617,075720,097591,083347,076513
0000000200,0000199000,091168,080495,074110,095984,086658,074810
0000000201,0000200000,089160,083291,073322,093559,089824,074068
0000000202,0000201000,086602,085744,073427,090553,092538,074360
0000000203,0000202000,083757,087599,074418,087266,094530,075656
0000000204,0000203000,080904,088672,076197,084016,095605,077830
0000000205,0000204000,078306,088869,078598,081119,095660,080673
0000000206,0000205000,076227,088168,081378,078861,094690,083901
0000000207,0000206000,074878,086636,084259,077464,092789,087198
0000000208,0000207000,074383,084418,086972,077063,090142,090246
0000000209,0000208000,074786,081736,089251,077697,087008,092746
0000000210,0000209000,076055,078857,090862,079303,083699,094449
0000000211,0000210000,078064,076057,091652,081726,080534,095192
0000000212,0000211000,080620,073605,091548,084730,077820,094901
0000000213,0000212000,083465,071750,090558,088016,075828,093607
0000000214,0000213000,086321,070672,088779,091264,074753,091434
0000000215,0000214000,088919,070475,086379,094161,074697,088593
0000000216,0000215000,090998,071177,083598,096419,075666,085367
0000000217,0000216000,092350,072706,080717,097816,077565,082071
0000000218,0000217000,092848,074923,078003,098217,080210,079024
0000000219,0000218000,092443,077608,075722,097585,083342,076524
0000000220,0000219000,091177,080486,074109,095981,086650,074821
0000000221,0000220000,089169,083286,073318,093559,089814,074078
0000000222,0000221000,086611,085741,073421,090557,092527,074367
0000000223,0000222000,083766,087598,074409,087273,094518,075660
0000000224,0000223000,080911,088675,076187,084026,095594,077831
0000000225,0000224000,078310,088876,078588,081130,095652,080670
0000000226,0000225000,076228,088176,081368,078873,094684,083895
0000000227,0000226000,074877,086645,084251,077475,092787,087189
0000000228,0000227000,074377,084429,086967,077073,090144,090235
0000000229,0000228000,074779,081746,089248,077704,087014,092734
0000000230,0000229000,076045,078865,090863,079307,083707,094438
0000000231,0000230000,078053,076064,091656,081726,080545,095181
0000000232,0000231000,080609,073609,091555,084726,077833,094893
0000000233,0000232000,083456,071749,090568,088009,075841,093602
0000000234,0000233000,086313,070669,088790,091254,074764,091433
0000000235,0000234000,088914,070469,086390,094148,074706,088596
0000000236,0000235000,090997,071167,083609,096406,075672,085373
0000000237,0000236000,092353,072695,080725,097804,077567,082081
0000000238,0000237000,092853,074912,078008,098207,080209,079036
0000000239,0000238000,092451,077597,075725,097578,083336,076538
0000000240,0000239000,091188,080476,074108,095977,086641,074834
0000000241,0000240000,089180,083279,073313,093560,089802,074089
0000000242,0000241000,086623,085738,073413,090562,092514,074376
0000000243,0000242000,083777,087598,074399,087281,094505,075665
0000000244,0000243000,080919,088679,076176,084037,095582,077832
0000000245,0000244000,078315,088883,078576,081144,095642,080666
0000000246,0000245000,076230,088186,081357,078887,094678,083887
0000000247,0000246000,074874,086657,084242,077488,092785,087178
0000000248,0000247000,074370,084442,086960,077084,090146,090222
0000000249,0000248000,074770,081757,089246,077712,087020,092720
0000000250,0000249000,076034,078875,090864,079310,083717,094424
0000000251,0000250000,078040,076072,091661,081725,080557,095169
0000000252,0000251000,080597,073613,091564,084721,077847,094884
0000000253,0000252000,083445,071749,090579,088000,075855,093597
0000000254,0000253000,086304,070666,088803,091241,074778,091432
0000000255,0000254000,088908,070462,086403,094134,074717,088600
0000000256,0000255000,090996,071156,083621,096391,075679,085381
0000000257,0000256000,092355,072683,080735,097789,077569,082093
0000000258,0000257000,092859,074899,078015,098195,080206,079050
0000000259,0000258000,092462,077584,075728,097569,083329,076553
0000000260,0000259000,091201,080465,074107,095973,086630,074849
0000000261,0000260000,089194,083271,073308,093560,089789,074102
0000000262,0000261000,086636,085733,073403,090567,092498,074386
0000000263,0000262000,083789,087597,074387,087291,094489,075671
0000000264,0000263000,080928,088684,076162,084051,095568,077833
0000000265,0000264000,078321,088891,078562,081159,095630,080662
0000000266,0000265000,076232,088197,081344,078903,094670,083879
0000000267,0000266000,074871,086671,084231,077504,092782,087165
0000000268,0000267000,074363,084457,086953,077097,090148,090206
0000000269,0000268000,074760,081771,089242,077721,087027,092703
0000000270,0000269000,076020,078887,090866,079315,083729,094408
0000000271,0000270000,078025,076081,091667,081725,080572,095155
0000000272,0000271000,080582,073618,091573,084715,077863,094873
0000000273,0000272000,083432,071749,090592,087989,075872,093590
0000000274,0000273000,086293,070662,088818,091227,074793,091431
0000000275,0000274000,088902,070453,086418,094117,074729,088605
0000000276,0000275000,090994,071144,083635,096374,075687,085391
0000000277,0000276000,092358,072669,080747,097773,077572,082106
0000000278,0000277000,092867,074883,078023,098182,080204,079067
0000000279,0000278000,092473,077569,075731,097559,083322,076571
0000000280,0000279000,091215,080453,074106,095968,086618,074866
0000000281,0000280000,089209,083262,073301,093561,089773,074118
0000000282,0000281000,086652,085727,073393,090574,092480,074397
0000000283,0000282000,083803,087597,074373,087302,094472,075678
0000000284,0000283000,080939,088689,076146,084066,095552,077834
0000000285,0000284000,078328,088900,078545,081177,095617,080658
0000000286,0000285000,076234,088210,081329,078921,094662,083869
0000000287,0000286000,074867,086687,084219,077521,092779,087151
0000000288,0000287000,074355,084473,086944,077111,090151,090189
0000000289,0000288000,074748,081787,089239,077731,087036,092684
0000000290,0000289000,076005,078901,090867,079320,083743,094389
0000000291,0000290000,078008,076091,091674,081724,080589,095139
0000000292,0000291000,080566,073623,091585,084708,077882,094861
0000000293,0000292000,083417,071750,090607,087977,075891,093583
0000000294,0000293000,086281,070657,088835,091211,074810,091430
0000000295,0000294000,088895,070443,086436,094099,074743,088610
0000000296,0000295000,090992,071130,083651,096354,075696,085401
0000000297,0000296000,092361,072652,080760,097755,077575,082121
0000000298,0000297000,092876,074865,078032,098166,080200,079085
0000000299,0000298000,092487,077551,075735,097548,083312,076591
0000000300,0000299000,091231,080438,074104,095963,086603,074885
0000000301,0000300000,089228,083251,073294,093562,089754,074135
