DIgSILENT PowerFactory,21000900,2000
6,06A,00D
1,TTPP_200000_100:Secondary Voltage A,,,V,0.10000000,-8442.941406,0.000000,70802,99998,1,1,P
2,TTPP_200000_100:Secondary Voltage B,,,V,0.10000000,-8375.456055,0.000000,68850,99998,1,1,P
3,TTPP_200000_100:Secondary Voltage C,,,V,0.10000000,-8551.628906,0.000000,67940,99998,1,1,P
4,TTCC_500_5:Secondary Current A,,,A,0.0010000000,-80.142639,0.000000,65688,99998,1,1,P
5,TTCC_500_5:Secondary Current B,,,A,0.0010000000,-84.549225,0.000000,69144,99998,1,1,P
6,TTCC_500_5:Secondary Current C,,,A,0.0010000000,-84.826172,0.000000,69673,99998,1,1,P
50
1
1000.000000,1101
30/06/2023,06:09:05.000000
30/06/2023,06:09:05.000000
ASCII
1.000000
0000000001,0000000000,089941,087395,076364,086058,089229,074231
0000000002,0000001000,087394,089828,076478,083042,091946,074530
0000000003,0000002000,084542,091684,077476,079745,093938,075835
0000000004,0000003000,081695,092747,079259,076486,095011,078021
0000000005,0000004000,079115,092925,081661,073585,095058,080875
0000000006,0000005000,077037,092224,084439,071323,094080,084115
0000000007,0000006000,075696,090689,087314,069929,092168,087421
0000000008,0000007000,075220,088461,090020,069536,089506,090476
0000000009,0000008000,075630,085781,092289,070174,086364,092979
0000000010,0000009000,076897,082915,093890,071794,083042,094682
0000000011,0000010000,078916,080116,094668,074231,079867,095420
0000000012,0000011000,081477,077668,094555,077244,077152,095121
0000000013,0000012000,084308,075835,093558,080544,075158,093816
0000000014,0000013000,087159,074768,091773,083803,074085,091630
0000000015,0000014000,089759,074570,089372,086704,074038,088776
0000000016,0000015000,091816,075290,086594,088964,075018,085536
0000000017,0000016000,093152,076830,083718,090360,076928,082230
0000000018,0000017000,093651,079037,081013,090756,079588,079175
0000000019,0000018000,093231,081725,078743,090111,082735,076672
0000000020,0000019000,091950,084607,077143,088494,086055,074969
0000000021,0000020000,089947,087389,076364,086060,089226,074231
0000000022,0000021000,087392,089831,076478,083041,091947,074530
0000000023,0000022000,084541,091685,077475,079743,093939,075835
0000000024,0000023000,081696,092745,079259,076488,095009,078021
0000000025,0000024000,079114,092926,081661,073584,095059,080875
0000000026,0000025000,077037,092224,084438,071323,094081,084115
0000000027,0000026000,075697,090689,087314,069929,092167,087421
0000000028,0000027000,075219,088461,090020,069533,089508,090476
0000000029,0000028000,075628,085783,092289,070175,086363,092979
0000000030,0000029000,076898,082914,093889,071793,083043,094682
0000000031,0000030000,078918,080114,094669,074229,079869,095420
0000000032,0000031000,081473,077672,094555,077245,077152,095121
0000000033,0000032000,084309,075834,093557,080543,075159,093816
0000000034,0000033000,087163,074764,091773,083802,074086,091630
0000000035,0000034000,089753,074574,089372,086703,074038,088776
0000000036,0000035000,091815,075290,086594,088963,075018,085537
0000000037,0000036000,093158,076825,083718,090359,076928,082230
0000000038,0000037000,093648,079039,081013,090754,079589,079176
0000000039,0000038000,093228,081728,078744,090111,082735,076672
0000000040,0000039000,091955,084602,077143,088495,086054,074969
0000000041,0000040000,089948,087387,076364,086058,089228,074232
0000000042,0000041000,087387,089836,076478,083041,091946,074530
0000000043,0000042000,084542,091683,077475,079745,093938,075836
0000000044,0000043000,081701,092741,079259,076487,095010,078021
0000000045,0000044000,079110,092930,081661,073583,095060,080875
0000000046,0000045000,077035,092227,084438,071324,094080,084115
0000000047,0000046000,075702,090684,087314,069929,092168,087421
0000000048,0000047000,075217,088463,090020,069533,089509,090476
0000000049,0000048000,075624,085787,092289,070175,086364,092979
0000000050,0000049000,076901,082910,093889,071794,083042,094682
0000000051,0000050000,078919,080113,094669,074228,079870,095420
0000000052,0000051000,081469,077676,094555,077244,077153,095121
0000000053,0000052000,084309,075833,093558,080543,075159,093816
0000000054,0000053000,087165,074761,091774,083800,074087,091631
0000000055,0000054000,089751,074577,089373,086702,074039,088777
0000000056,0000055000,091815,075291,086594,088963,075018,085537
0000000057,0000056000,093161,076821,083718,090358,076929,082231
0000000058,0000057000,093647,079040,081013,090753,079589,079176
0000000059,0000058000,093227,081730,078744,090111,082734,076673
0000000060,0000059000,091958,084599,077143,088495,086053,074970
0000000061,0000060000,089948,087388,076364,086058,089227,074232
0000000062,0000061000,087386,089837,076477,083041,091946,074531
0000000063,0000062000,084545,091681,077474,079745,093937,075836
0000000064,0000063000,081701,092741,079258,076487,095010,078021
0000000065,0000064000,079108,092933,081660,073584,095059,080875
0000000066,0000065000,077037,092226,084437,071325,094079,084114
0000000067,0000066000,075703,090683,087314,069930,092168,087420
0000000068,0000067000,075214,088466,090020,069533,089510,090475
0000000069,0000068000,075624,085787,092288,070176,086364,092978
0000000070,0000069000,076903,082909,093889,071793,083044,094681
0000000071,0000070000,078915,080116,094669,074228,079871,095419
0000000072,0000071000,081467,077678,094556,077244,077153,095121
0000000073,0000072000,084312,075830,093559,080542,075160,093816
0000000074,0000073000,087163,074762,091775,083799,074089,091631
0000000075,0000074000,089748,074579,089374,086701,074040,088777
0000000076,0000075000,091818,075287,086595,088962,075018,085538
0000000077,0000076000,093162,076819,083719,090356,076930,082232
0000000078,0000077000,093644,079042,081014,090752,079589,079177
0000000079,0000078000,093229,081727,078744,090110,082733,076675
0000000080,0000079000,091961,084596,077143,088494,086053,074972
0000000081,0000080000,089947,087390,076363,086058,089227,074234
0000000082,0000081000,087386,089837,076476,083042,091944,074532
0000000083,0000082000,084549,091678,077473,079746,093936,075837
0000000084,0000083000,081701,092743,079257,076488,095009,078021
0000000085,0000084000,079106,092936,081658,073586,095058,080875
0000000086,0000085000,077040,092224,084436,071326,094078,084113
0000000087,0000086000,075703,090684,087313,069930,092168,087419
0000000088,0000087000,075211,088470,090019,069534,089510,090474
0000000089,0000088000,075625,085787,092288,070177,086364,092976
0000000090,0000089000,076903,082908,093889,071793,083045,094679
0000000091,0000090000,078911,080119,094670,074227,079873,095417
0000000092,0000091000,081466,077678,094557,077244,077155,095119
0000000093,0000092000,084312,075828,093560,080541,075162,093815
0000000094,0000093000,087160,074763,091777,083797,074091,091631
0000000095,0000094000,089746,074578,089375,086699,074041,088778
0000000096,0000095000,091819,075284,086597,088960,075019,085539
0000000097,0000096000,093161,076818,083721,090354,076930,082234
0000000098,0000097000,093644,079042,081015,090750,079589,079180
0000000099,0000098000,093233,081723,078744,090109,082732,076677
0000000100,0000099000,091963,084594,077143,088492,086052,074974
0000000101,0000100000,089947,087390,076363,086058,089225,074236
0000000102,0000101000,087390,089835,076475,083043,091941,074533
0000000103,0000102000,084552,091677,077471,079747,093934,075838
0000000104,0000103000,081700,092745,079255,076490,095007,078022
0000000105,0000104000,079108,092937,081656,073588,095056,080874
0000000106,0000105000,077042,092224,084434,071328,094078,084112
0000000107,0000106000,075701,090688,087311,069933,092168,087417
0000000108,0000107000,075210,088473,090017,069537,089510,090471
0000000109,0000108000,075625,085787,092288,070179,086366,092974
0000000110,0000109000,076899,082911,093890,071794,083048,094677
0000000111,0000110000,078908,080122,094671,074228,079876,095415
0000000112,0000111000,081466,077677,094558,077243,077158,095118
0000000113,0000112000,084310,075828,093562,080538,075166,093814
0000000114,0000113000,087157,074764,091779,083794,074093,091630
0000000115,0000114000,089747,074576,089378,086696,074043,088778
0000000116,0000115000,091820,075280,086600,088956,075021,085541
0000000117,0000116000,093160,076818,083723,090351,076931,082236
0000000118,0000117000,093645,079039,081016,090748,079588,079183
0000000119,0000118000,093236,081719,078745,090107,082731,076680
0000000120,0000119000,091964,084593,077143,088491,086050,074977
0000000121,0000120000,089949,087390,076361,086058,089221,074239
0000000122,0000121000,087394,089833,076473,083044,091938,074536
0000000123,0000122000,084554,091677,077469,079748,093931,075839
0000000124,0000123000,081701,092748,079252,076493,095004,078022
0000000125,0000124000,079111,092937,081653,073592,095053,080873
0000000126,0000125000,077043,092226,084432,071332,094076,084110
0000000127,0000126000,075698,090693,087309,069936,092167,087414
0000000128,0000127000,075209,088475,090016,069540,089510,090468
0000000129,0000128000,075624,085789,092287,070180,086367,092970
0000000130,0000129000,076895,082915,093890,071794,083051,094673
0000000131,0000130000,078904,080124,094672,074228,079879,095412
0000000132,0000131000,081464,077676,094560,077241,077162,095115
0000000133,0000132000,084306,075829,093565,080536,075170,093812
0000000134,0000133000,087154,074764,091782,083791,074097,091630
0000000135,0000134000,089747,074572,089381,086692,074046,088779
0000000136,0000135000,091819,075278,086603,088952,075023,085543
0000000137,0000136000,093159,076816,083726,090347,076932,082239
0000000138,0000137000,093648,079034,081018,090744,079587,079187
0000000139,0000138000,093240,081715,078746,090104,082729,076685
0000000140,0000139000,091966,084592,077143,088490,086047,074981
0000000141,0000140000,089953,087387,076360,086058,089217,074243
0000000142,0000141000,087399,089830,076471,083046,091934,074539
0000000143,0000142000,084556,091679,077466,079751,093926,075841
0000000144,0000143000,081704,092749,079248,076497,094999,078022
0000000145,0000144000,079114,092938,081649,073596,095050,080872
0000000146,0000145000,077042,092230,084428,071336,094074,084108
0000000147,0000146000,075697,090698,087305,069941,092166,087411
0000000148,0000147000,075208,088478,090013,069544,089511,090463
0000000149,0000148000,075621,085793,092286,070183,086370,092965
0000000150,0000149000,076890,082920,093890,071796,083054,094668
0000000151,0000150000,078901,080126,094673,074228,079883,095407
0000000152,0000151000,081460,077677,094564,077239,077167,095112
0000000153,0000152000,084301,075830,093569,080532,075175,093810
0000000154,0000153000,087151,074762,091787,083787,074102,091630
0000000155,0000154000,089746,074568,089386,086687,074050,088781
0000000156,0000155000,091818,075275,086607,088946,075026,085546
0000000157,0000156000,093160,076812,083729,090342,076933,082244
0000000158,0000157000,093652,079028,081020,090740,079587,079192
0000000159,0000158000,093243,081710,078747,090101,082727,076690
0000000160,0000159000,091970,084588,077142,088488,086042,074987
0000000161,0000160000,089960,087383,076358,086058,089212,074248
0000000162,0000161000,087404,089828,076467,083047,091928,074543
0000000163,0000162000,084560,091680,077461,079755,093920,075843
0000000164,0000163000,081708,092750,079243,076502,094993,078023
0000000165,0000164000,079117,092940,081644,073602,095045,080871
0000000166,0000165000,077042,092236,084423,071343,094071,084104
0000000167,0000166000,075696,090703,087301,069947,092165,087406
0000000168,0000167000,075206,088483,090011,069549,089512,090457
0000000169,0000168000,075616,085800,092285,070187,086373,092958
0000000170,0000169000,076884,082925,093891,071798,083059,094661
0000000171,0000170000,078896,080129,094676,074227,079889,095401
0000000172,0000171000,081454,077679,094568,077237,077174,095107
0000000173,0000172000,084295,075831,093574,080528,075182,093808
0000000174,0000173000,087148,074760,091793,083781,074108,091629
0000000175,0000174000,089743,074565,089392,086680,074056,088783
0000000176,0000175000,091816,075271,086613,088939,075029,085550
0000000177,0000176000,093162,076805,083734,090335,076934,082249
0000000178,0000177000,093656,079021,081024,090734,079586,079199
0000000179,0000178000,093246,081705,078749,090096,082724,076698
0000000180,0000179000,091976,084583,077141,088486,086037,074995
0000000181,0000180000,089967,087378,076355,086059,089205,074254
0000000182,0000181000,087410,089827,076463,083050,091920,074548
0000000183,0000182000,084565,091680,077455,079760,093912,075846
0000000184,0000183000,081713,092751,079236,076508,094986,078023
0000000185,0000184000,079119,092944,081637,073610,095040,080869
0000000186,0000185000,077042,092242,084416,071351,094067,084100
0000000187,0000186000,075695,090709,087296,069955,092164,087400
0000000188,0000187000,075203,088490,090007,069555,089513,090449
0000000189,0000188000,075609,085807,092283,070191,086377,092950
0000000190,0000189000,076878,082931,093891,071800,083064,094653
0000000191,0000190000,078889,080132,094679,074227,079897,095394
0000000192,0000191000,081446,077682,094572,077234,077183,095102
0000000193,0000192000,084288,075831,093581,080523,075191,093804
0000000194,0000193000,087143,074756,091800,083773,074116,091628
0000000195,0000194000,089739,074561,089400,086671,074062,088785
0000000196,0000195000,091815,075265,086620,088930,075034,085555
0000000197,0000196000,093164,076797,083740,090326,076935,082256
0000000198,0000197000,093660,079013,081028,090726,079585,079207
0000000199,0000198000,093252,081698,078750,090091,082720,076707
0000000200,0000199000,091984,084576,077141,088484,086030,075004
0000000201,0000200000,089975,087373,076352,086059,089197,074262
0000000202,0000201000,087417,089825,076458,083053,091911,074554
0000000203,0000202000,084572,091680,077448,079766,093903,075850
0000000204,0000203000,081720,092753,079228,076516,094978,078024
0000000205,0000204000,079122,092950,081629,073619,095033,080866
0000000206,0000205000,077043,092249,084408,071361,094062,084095
0000000207,0000206000,075694,090716,087289,069964,092162,087392
0000000208,0000207000,075198,088499,090003,069563,089515,090440
0000000209,0000208000,075602,085816,092281,070197,086381,092940
0000000210,0000209000,076871,082938,093892,071803,083071,094643
0000000211,0000210000,078880,080138,094682,074226,079906,095385
0000000212,0000211000,081436,077686,094578,077230,077193,095095
0000000213,0000212000,084281,075831,093589,080517,075201,093801
0000000214,0000213000,087137,074753,091809,083764,074126,091628
0000000215,0000214000,089735,074556,089409,086661,074070,088787
0000000216,0000215000,091814,075258,086629,088919,075039,085560
0000000217,0000216000,093166,076787,083747,090316,076937,082265
0000000218,0000217000,093664,079004,081033,090717,079583,079218
0000000219,0000218000,093259,081690,078752,090085,082715,076718
0000000220,0000219000,091993,084567,077140,088481,086023,075015
0000000221,0000220000,089985,087367,076348,086059,089187,074272
0000000222,0000221000,087427,089822,076451,083057,091900,074561
0000000223,0000222000,084582,091679,077439,079773,093891,075854
0000000224,0000223000,081727,092756,079218,076526,094967,078025
0000000225,0000224000,079126,092956,081618,073630,095024,080864
0000000226,0000225000,077044,092257,084399,071373,094057,084089
0000000227,0000226000,075693,090726,087282,069975,092160,087383
0000000228,0000227000,075193,088510,089997,069573,089516,090429
0000000229,0000228000,075595,085826,092279,070204,086386,092928
0000000230,0000229000,076861,082946,093893,071807,083080,094632
0000000231,0000230000,078869,080144,094687,074226,079917,095375
0000000232,0000231000,081425,077690,094586,077226,077205,095087
0000000233,0000232000,084272,075830,093598,080509,075213,093796
0000000234,0000233000,087130,074750,091820,083754,074137,091627
0000000235,0000234000,089730,074550,089420,086648,074079,088790
0000000236,0000235000,091813,075248,086639,088906,075045,085567
0000000237,0000236000,093169,076776,083755,090304,076940,082275
0000000238,0000237000,093669,078993,081039,090707,079581,079230
0000000239,0000238000,093267,081678,078755,090078,082709,076731
0000000240,0000239000,092004,084558,077139,088477,086013,075028
0000000241,0000240000,089996,087360,076344,086060,089175,074283
0000000242,0000241000,087438,089819,076443,083062,091886,074570
0000000243,0000242000,084593,091679,077429,079781,093878,075859
0000000244,0000243000,081734,092760,079206,076537,094955,078026
0000000245,0000244000,079131,092964,081606,073644,095014,080860
0000000246,0000245000,077046,092266,084388,071387,094050,084081
0000000247,0000246000,075690,090738,087273,069988,092158,087372
0000000248,0000247000,075186,088523,089991,069584,089518,090416
0000000249,0000248000,075586,085838,092276,070212,086393,092914
0000000250,0000249000,076850,082956,093895,071810,083090,094618
0000000251,0000250000,078856,080153,094692,074225,079930,095363
0000000252,0000251000,081413,077694,094594,077221,077220,095078
0000000253,0000252000,084261,075830,093609,080500,075228,093790
0000000254,0000253000,087120,074747,091833,083741,074151,091626
0000000255,0000254000,089724,074543,089433,086634,074090,088794
0000000256,0000255000,091812,075237,086651,088891,075052,085575
0000000257,0000256000,093171,076764,083765,090289,076942,082286
0000000258,0000257000,093675,078980,081045,090695,079579,079244
0000000259,0000258000,093278,081665,078758,090069,082702,076747
0000000260,0000259000,092016,084546,077137,088473,086003,075043
0000000261,0000260000,090009,087352,076338,086060,089161,074296
0000000262,0000261000,087452,089814,076434,083067,091871,074580
0000000263,0000262000,084605,091678,077417,079791,093862,075865
0000000264,0000263000,081744,092764,079192,076551,094941,078027
0000000265,0000264000,079137,092972,081592,073659,095003,080856
0000000266,0000265000,077048,092278,084375,071403,094043,084073
0000000267,0000266000,075687,090752,087262,070004,092155,087359
0000000268,0000267000,075179,088538,089983,069597,089521,090400
0000000269,0000268000,075576,085851,092273,070221,086400,092897
0000000270,0000269000,076836,082968,093896,071815,083102,094601
0000000271,0000270000,078841,080162,094698,074225,079945,095349
0000000272,0000271000,081399,077698,094604,077215,077236,095067
0000000273,0000272000,084248,075830,093622,080489,075245,093784
0000000274,0000273000,087110,074742,091848,083727,074166,091625
0000000275,0000274000,089718,074534,089448,086618,074102,088798
0000000276,0000275000,091811,075225,086665,088874,075060,085585
0000000277,0000276000,093174,076749,083777,090273,076945,082300
0000000278,0000277000,093683,078964,081053,090682,079576,079260
0000000279,0000278000,093289,081650,078761,090059,082694,076764
0000000280,0000279000,092031,084534,077136,088468,085990,075060
0000000281,0000280000,090025,087343,076332,086061,089145,074311
0000000282,0000281000,087468,089808,076423,083074,091853,074591
0000000283,0000282000,084619,091678,077403,079802,093844,075871
0000000284,0000283000,081754,092770,079176,076566,094924,078028
0000000285,0000284000,079144,092981,081576,073677,094990,080851
0000000286,0000285000,077050,092291,084360,071421,094034,084063
0000000287,0000286000,075683,090768,087249,070021,092152,087345
0000000288,0000287000,075171,088554,089975,069611,089524,090383
0000000289,0000288000,075564,085867,092269,070231,086408,092878
0000000290,0000289000,076821,082982,093898,071820,083115,094583
0000000291,0000290000,078824,080172,094704,074224,079962,095333
0000000292,0000291000,081382,077704,094615,077208,077255,095055
0000000293,0000292000,084233,075830,093637,080477,075264,093777
0000000294,0000293000,087098,074737,091865,083711,074183,091624
0000000295,0000294000,089711,074523,089466,086599,074116,088803
0000000296,0000295000,091808,075211,086681,088854,075069,085595
0000000297,0000296000,093177,076733,083790,090255,076948,082315
0000000298,0000297000,093692,078946,081063,090666,079573,079279
0000000299,0000298000,093303,081632,078765,090048,082685,076785
0000000300,0000299000,092047,084519,077134,088463,085976,075079
0000000301,0000300000,090043,087332,076325,086062,089127,074329
