DIgSILENT PowerFactory,21000900,2000
6,06A,00D
1,TTPP_200000_100:Secondary Voltage A,,,V,0.10000000,-8268.024414,0.000000,66667,99998,1,1,P
2,TTPP_200000_100:Secondary Voltage B,,,V,0.10000000,-7914.125977,0.000000,60440,99998,1,1,P
3,TTPP_200000_100:Secondary Voltage C,,,V,0.10000000,-8250.168945,0.000000,62017,99998,1,1,P
4,TTCC_500_5:Secondary Current A,,,A,0.0010000000,-87.904694,0.000000,70057,99998,1,1,P
5,TTCC_500_5:Secondary Current B,,,A,0.0010000000,-85.147331,0.000000,70160,99998,1,1,P
6,TTCC_500_5:Secondary Current C,,,A,0.0010000000,-83.901665,0.000000,68570,99998,1,1,P
50
1
1000.000000,1101
30/06/2023,06:06:10.000000
30/06/2023,06:06:10.000000
ASCII
1.000000
0000000001,0000000000,088192,082782,073349,093820,089827,073307
0000000002,0000001000,085644,085215,073463,090805,092543,073605
0000000003,0000002000,082792,087071,074462,087505,094538,074911
0000000004,0000003000,079947,088132,076244,084250,095607,077096
0000000005,0000004000,077363,088314,078646,081346,095657,079951
0000000006,0000005000,075291,087608,081424,079085,094678,083190
0000000007,0000006000,073945,086078,084300,077692,092765,086497
0000000008,0000007000,073472,083847,087005,077296,090105,089552
0000000009,0000008000,073881,081168,089274,077937,086961,092055
0000000010,0000009000,075147,078302,090875,079556,083640,093758
0000000011,0000010000,077168,075502,091654,081993,080466,094495
0000000012,0000011000,079729,073054,091540,085007,077750,094197
0000000013,0000012000,082558,071223,090543,088306,075757,092891
0000000014,0000013000,085410,070153,088759,091565,074683,090705
0000000015,0000014000,088009,069957,086357,094466,074636,087851
0000000016,0000015000,090067,070676,083579,096725,075617,084612
0000000017,0000016000,091403,072217,080703,098122,077526,081305
0000000018,0000017000,091901,074424,077998,098518,080186,078250
0000000019,0000018000,091483,077111,075729,097873,083334,075747
0000000020,0000019000,090201,079994,074129,096257,086652,074044
0000000021,0000020000,088197,082776,073349,093822,089825,073307
0000000022,0000021000,085643,085216,073463,090803,092545,073605
0000000023,0000022000,082791,087072,074460,087505,094537,074911
0000000024,0000023000,079947,088132,076244,084250,095608,077097
0000000025,0000024000,077364,088313,078647,081346,095657,079951
0000000026,0000025000,075288,087611,081424,079085,094679,083190
0000000027,0000026000,073948,086076,084300,077691,092765,086497
0000000028,0000027000,073470,083847,087006,077296,090106,089552
0000000029,0000028000,073879,081170,089274,077937,086961,092055
0000000030,0000029000,075149,078300,090874,079555,083641,093758
0000000031,0000030000,077168,075501,091654,081992,080467,094496
0000000032,0000031000,079724,073059,091541,085007,077750,094197
0000000033,0000032000,082560,071221,090543,088306,075757,092891
0000000034,0000033000,085414,070150,088759,091563,074684,090706
0000000035,0000034000,088004,069961,086358,094465,074636,087852
0000000036,0000035000,090066,070677,083580,096726,075616,084612
0000000037,0000036000,091409,072211,080703,098122,077526,081306
0000000038,0000037000,091899,074426,077998,098516,080187,078251
0000000039,0000038000,091479,077115,075729,097873,083333,075748
0000000040,0000039000,090206,079989,074129,096257,086652,074045
0000000041,0000040000,088199,082774,073349,093820,089826,073307
0000000042,0000041000,085637,085223,073463,090803,092545,073606
0000000043,0000042000,082793,087070,074460,087507,094536,074911
0000000044,0000043000,079952,088127,076244,084249,095608,077097
0000000045,0000044000,077360,088317,078646,081345,095658,079951
0000000046,0000045000,075286,087614,081424,079086,094678,083190
0000000047,0000046000,073953,086070,084300,077691,092766,086497
0000000048,0000047000,073468,083849,087005,077295,090107,089552
0000000049,0000048000,073875,081174,089274,077937,086962,092054
0000000050,0000049000,075152,078297,090874,079556,083641,093757
0000000051,0000050000,077170,075500,091654,081991,080468,094495
0000000052,0000051000,079720,073063,091541,085006,077751,094197
0000000053,0000052000,082560,071220,090543,088305,075757,092891
0000000054,0000053000,085416,070147,088760,091562,074685,090706
0000000055,0000054000,088001,069963,086358,094464,074637,087852
0000000056,0000055000,090066,070678,083580,096725,075616,084613
0000000057,0000056000,091412,072208,080704,098121,077527,081306
0000000058,0000057000,091898,074427,077999,098515,080187,078252
0000000059,0000058000,091478,077116,075729,097873,083333,075749
0000000060,0000059000,090208,079986,074129,096257,086652,074046
0000000061,0000060000,088199,082774,073349,093820,089826,073308
0000000062,0000061000,085636,085224,073463,090803,092544,073606
0000000063,0000062000,082796,087068,074459,087507,094535,074912
0000000064,0000063000,079952,088128,076244,084249,095608,077097
0000000065,0000064000,077358,088320,078645,081346,095657,079950
0000000066,0000065000,075288,087612,081423,079087,094677,083190
0000000067,0000066000,073954,086070,084299,077692,092766,086496
0000000068,0000067000,073465,083853,087005,077295,090108,089551
0000000069,0000068000,073875,081174,089274,077938,086962,092054
0000000070,0000069000,075154,078295,090874,079555,083642,093757
0000000071,0000070000,077166,075503,091655,081990,080469,094494
0000000072,0000071000,079718,073064,091541,085006,077751,094196
0000000073,0000072000,082563,071216,090544,088304,075758,092891
0000000074,0000073000,085414,070148,088761,091561,074687,090706
0000000075,0000074000,087998,069966,086359,094463,074638,087852
0000000076,0000075000,090068,070674,083581,096724,075616,084613
0000000077,0000076000,091413,072206,080705,098118,077528,081307
0000000078,0000077000,091895,074429,077999,098514,080187,078253
0000000079,0000078000,091480,077114,075729,097872,083331,075750
0000000080,0000079000,090212,079982,074129,096256,086651,074047
0000000081,0000080000,088198,082776,073349,093820,089825,073309
0000000082,0000081000,085637,085224,073462,090804,092542,073607
0000000083,0000082000,082800,087065,074458,087507,094534,074912
0000000084,0000083000,079952,088129,076242,084250,095607,077097
0000000085,0000084000,077357,088323,078644,081348,095656,079950
0000000086,0000085000,075291,087611,081421,079088,094677,083189
0000000087,0000086000,073954,086071,084298,077692,092766,086495
0000000088,0000087000,073462,083857,087004,077296,090108,089549
0000000089,0000088000,073876,081174,089273,077939,086962,092052
0000000090,0000089000,075153,078295,090875,079555,083643,093755
0000000091,0000090000,077162,075506,091655,081990,080471,094493
0000000092,0000091000,079717,073065,091542,085006,077753,094195
0000000093,0000092000,082563,071215,090545,088303,075760,092890
0000000094,0000093000,085411,070150,088762,091559,074689,090706
0000000095,0000094000,087997,069965,086360,094461,074639,087853
0000000096,0000095000,090070,070670,083582,096722,075617,084615
0000000097,0000096000,091412,072205,080706,098116,077528,081309
0000000098,0000097000,091895,074429,078000,098512,080187,078255
0000000099,0000098000,091484,077110,075730,097871,083331,075752
0000000100,0000099000,090213,079981,074129,096254,086650,074049
0000000101,0000100000,088198,082777,073348,093820,089823,073311
0000000102,0000101000,085641,085222,073460,090805,092540,073609
0000000103,0000102000,082803,087064,074457,087508,094532,074913
0000000104,0000103000,079951,088132,076240,084252,095605,077097
0000000105,0000104000,077359,088323,078641,081350,095654,079950
0000000106,0000105000,075293,087611,081420,079090,094676,083188
0000000107,0000106000,073951,086075,084297,077695,092766,086493
0000000108,0000107000,073461,083860,087003,077299,090108,089547
0000000109,0000108000,073876,081174,089273,077941,086964,092049
0000000110,0000109000,075150,078298,090875,079556,083646,093752
0000000111,0000110000,077158,075509,091656,081990,080474,094491
0000000112,0000111000,079717,073063,091544,085005,077756,094193
0000000113,0000112000,082561,071214,090548,088301,075764,092889
0000000114,0000113000,085407,070151,088765,091556,074692,090706
0000000115,0000114000,087997,069963,086363,094459,074641,087854
0000000116,0000115000,090071,070667,083585,096718,075619,084616
0000000117,0000116000,091410,072205,080708,098113,077529,081311
0000000118,0000117000,091896,074426,078001,098510,080186,078258
0000000119,0000118000,091487,077105,075731,097869,083329,075756
0000000120,0000119000,090215,079980,074129,096253,086648,074053
0000000121,0000120000,088200,082776,073347,093820,089820,073314
0000000122,0000121000,085645,085219,073458,090806,092536,073611
0000000123,0000122000,082805,087064,074455,087510,094529,074914
0000000124,0000123000,079952,088134,076237,084254,095602,077098
0000000125,0000124000,077362,088323,078638,081354,095651,079949
0000000126,0000125000,075294,087613,081417,079094,094674,083186
0000000127,0000126000,073949,086080,084294,077698,092766,086490
0000000128,0000127000,073460,083862,087001,077302,090108,089543
0000000129,0000128000,073875,081176,089272,077942,086966,092046
0000000130,0000129000,075146,078302,090875,079557,083649,093749
0000000131,0000130000,077155,075511,091657,081990,080477,094487
0000000132,0000131000,079715,073063,091546,085003,077760,094191
0000000133,0000132000,082557,071215,090551,088298,075768,092888
0000000134,0000133000,085404,070151,088768,091553,074695,090705
0000000135,0000134000,087997,069959,086366,094454,074644,087855
0000000136,0000135000,090070,070665,083588,096714,075621,084619
0000000137,0000136000,091410,072203,080711,098109,077530,081315
0000000138,0000137000,091899,074421,078003,098506,080185,078262
0000000139,0000138000,091490,077101,075732,097866,083328,075760
0000000140,0000139000,090216,079978,074128,096252,086645,074057
0000000141,0000140000,088204,082773,073345,093820,089815,073318
0000000142,0000141000,085650,085217,073456,090807,092532,073614
0000000143,0000142000,082807,087065,074451,087513,094524,074916
0000000144,0000143000,079954,088136,076233,084259,095597,077098
0000000145,0000144000,077365,088324,078634,081358,095648,079948
0000000146,0000145000,075293,087617,081413,079098,094672,083183
0000000147,0000146000,073948,086085,084291,077703,092764,086486
0000000148,0000147000,073459,083865,086999,077306,090109,089539
0000000149,0000148000,073871,081180,089271,077945,086968,092040
0000000150,0000149000,075141,078307,090876,079558,083652,093744
0000000151,0000150000,077152,075513,091659,081990,080481,094483
0000000152,0000151000,079711,073064,091549,085001,077765,094187
0000000153,0000152000,082552,071217,090555,088294,075773,092886
0000000154,0000153000,085402,070149,088772,091549,074700,090705
0000000155,0000154000,087996,069955,086371,094449,074648,087856
0000000156,0000155000,090068,070662,083593,096708,075624,084622
0000000157,0000156000,091410,072198,080714,098104,077531,081319
0000000158,0000157000,091903,074415,078006,098502,080185,078267
0000000159,0000158000,091493,077097,075733,097863,083325,075766
0000000160,0000159000,090220,079975,074128,096250,086641,074063
0000000161,0000160000,088210,082769,073343,093820,089810,073323
0000000162,0000161000,085655,085215,073453,090809,092526,073618
0000000163,0000162000,082810,087066,074447,087517,094518,074919
0000000164,0000163000,079959,088137,076228,084264,095591,077098
0000000165,0000164000,077368,088327,078629,081364,095643,079946
0000000166,0000165000,075293,087622,081408,079105,094669,083180
0000000167,0000166000,073947,086090,084286,077709,092763,086481
0000000168,0000167000,073457,083870,086996,077311,090110,089533
0000000169,0000168000,073866,081186,089270,077949,086971,092034
0000000170,0000169000,075135,078312,090876,079560,083657,093737
0000000171,0000170000,077147,075515,091661,081989,080487,094477
0000000172,0000171000,079704,073066,091553,084999,077772,094183
0000000173,0000172000,082546,071218,090560,088290,075780,092883
0000000174,0000173000,085398,070146,088778,091543,074706,090705
0000000175,0000174000,087994,069951,086378,094442,074654,087858
0000000176,0000175000,090067,070658,083599,096701,075628,084625
0000000177,0000176000,091412,072192,080719,098097,077532,081325
0000000178,0000177000,091907,074408,078009,098496,080184,078274
0000000179,0000178000,091497,077092,075734,097858,083322,075773
0000000180,0000179000,090226,079970,074127,096248,086635,074070
0000000181,0000180000,088218,082764,073341,093821,089803,073330
0000000182,0000181000,085661,085214,073448,090812,092519,073623
0000000183,0000182000,082816,087067,074441,087522,094510,074922
0000000184,0000183000,079964,088138,076221,084270,095584,077099
0000000185,0000184000,077370,088331,078622,081372,095638,079944
0000000186,0000185000,075293,087629,081402,079113,094665,083176
0000000187,0000186000,073946,086096,084281,077717,092762,086475
0000000188,0000187000,073454,083876,086992,077317,090111,089525
0000000189,0000188000,073860,081194,089269,077953,086975,092026
0000000190,0000189000,075129,078318,090877,079563,083662,093729
0000000191,0000190000,077140,075519,091664,081989,080495,094470
0000000192,0000191000,079696,073069,091558,084996,077781,094177
0000000193,0000192000,082539,071218,090566,088285,075789,092880
0000000194,0000193000,085394,070143,088786,091536,074714,090704
0000000195,0000194000,087990,069948,086385,094433,074660,087860
0000000196,0000195000,090066,070652,083605,096692,075632,084630
0000000197,0000196000,091415,072184,080725,098088,077534,081332
0000000198,0000197000,091910,074400,078013,098488,080183,078283
0000000199,0000198000,091502,077085,075736,097853,083318,075783
0000000200,0000199000,090234,079963,074126,096246,086629,074079
0000000201,0000200000,088226,082759,073338,093821,089795,073338
0000000202,0000201000,085668,085212,073443,090815,092509,073629
0000000203,0000202000,082823,087067,074433,087528,094501,074925
0000000204,0000203000,079971,088140,076213,084278,095576,077100
0000000205,0000204000,077373,088337,078614,081381,095631,079942
0000000206,0000205000,075294,087636,081394,079123,094660,083170
0000000207,0000206000,073945,086103,084275,077726,092760,086468
0000000208,0000207000,073449,083886,086988,077325,090113,089516
0000000209,0000208000,073853,081203,089267,077959,086979,092015
0000000210,0000209000,075121,078324,090878,079565,083669,093719
0000000211,0000210000,077131,075524,091668,081989,080504,094461
0000000212,0000211000,079687,073073,091564,084992,077791,094170
0000000213,0000212000,082532,071217,090574,088279,075799,092876
0000000214,0000213000,085388,070140,088795,091527,074724,090703
0000000215,0000214000,087986,069943,086395,094423,074668,087863
0000000216,0000215000,090065,070644,083614,096681,075637,084636
0000000217,0000216000,091417,072174,080732,098078,077535,081340
0000000218,0000217000,091914,074391,078018,098479,080181,078293
0000000219,0000218000,091509,077076,075738,097847,083313,075794
0000000220,0000219000,090244,079954,074125,096243,086621,074090
0000000221,0000220000,088236,082754,073334,093821,089785,073347
0000000222,0000221000,085678,085209,073436,090819,092498,073637
0000000223,0000222000,082833,087066,074425,087535,094489,074930
0000000224,0000223000,079978,088143,076203,084288,095565,077101
0000000225,0000224000,077377,088343,078604,081392,095622,079939
0000000226,0000225000,075295,087644,081384,079135,094655,083164
0000000227,0000226000,073943,086113,084267,077737,092758,086458
0000000228,0000227000,073444,083897,086983,077335,090114,089504
0000000229,0000228000,073846,081213,089264,077966,086984,092003
0000000230,0000229000,075112,078332,090879,079569,083678,093707
0000000231,0000230000,077120,075531,091672,081988,080515,094451
0000000232,0000231000,079676,073077,091571,084988,077803,094162
0000000233,0000232000,082523,071217,090583,088271,075811,092871
0000000234,0000233000,085380,070137,088806,091516,074735,090702
0000000235,0000234000,087980,069937,086406,094411,074677,087866
0000000236,0000235000,090064,070635,083624,096668,075643,084643
0000000237,0000236000,091420,072163,080741,098066,077538,081350
0000000238,0000237000,091919,074380,078024,098469,080179,078305
0000000239,0000238000,091518,077065,075740,097840,083307,075807
0000000240,0000239000,090255,079944,074124,096239,086612,074103
0000000241,0000240000,088247,082747,073329,093821,089773,073359
0000000242,0000241000,085689,085205,073428,090824,092484,073645
0000000243,0000242000,082843,087065,074414,087543,094476,074935
0000000244,0000243000,079985,088146,076192,084299,095553,077101
0000000245,0000244000,077381,088350,078592,081406,095612,079936
0000000246,0000245000,075297,087653,081373,079149,094648,083157
0000000247,0000246000,073941,086124,084258,077750,092756,086448
0000000248,0000247000,073437,083910,086976,077346,090116,089491
0000000249,0000248000,073837,081225,089262,077974,086991,091989
0000000250,0000249000,075101,078342,090880,079572,083688,093693
0000000251,0000250000,077107,075539,091677,081987,080528,094438
0000000252,0000251000,079664,073081,091579,084983,077818,094153
0000000253,0000252000,082512,071217,090595,088262,075826,092866
0000000254,0000253000,085371,070133,088819,091504,074749,090701
0000000255,0000254000,087975,069929,086419,094396,074688,087869
0000000256,0000255000,090063,070624,083636,096653,075650,084651
0000000257,0000256000,091422,072151,080751,098052,077540,081362
0000000258,0000257000,091926,074367,078031,098457,080177,078319
0000000259,0000258000,091529,077052,075743,097831,083300,075822
0000000260,0000259000,090267,079933,074123,096235,086601,074118
0000000261,0000260000,088260,082739,073324,093822,089760,073372
0000000262,0000261000,085703,085201,073419,090829,092469,073655
0000000263,0000262000,082856,087065,074402,087553,094460,074940
0000000264,0000263000,079994,088151,076178,084313,095539,077102
0000000265,0000264000,077388,088358,078577,081421,095601,079932
0000000266,0000265000,075299,087664,081360,079165,094641,083148
0000000267,0000266000,073938,086138,084247,077766,092753,086435
0000000268,0000267000,073430,083924,086969,077359,090119,089476
0000000269,0000268000,073827,081238,089258,077983,086998,091973
0000000270,0000269000,075087,078355,090881,079577,083700,093677
0000000271,0000270000,077092,075549,091683,081987,080543,094424
0000000272,0000271000,079649,073085,091589,084977,077834,094142
0000000273,0000272000,082499,071217,090608,088251,075843,092860
0000000274,0000273000,085360,070129,088833,091489,074764,090700
0000000275,0000274000,087969,069920,086434,094380,074700,087874
0000000276,0000275000,090061,070611,083651,096636,075658,084660
0000000277,0000276000,091425,072136,080762,098035,077543,081375
0000000278,0000277000,091933,074351,078039,098444,080174,078336
0000000279,0000278000,091540,077036,075747,097821,083292,075840
0000000280,0000279000,090281,079920,074121,096230,086588,074135
0000000281,0000280000,088276,082730,073317,093823,089744,073387
0000000282,0000281000,085719,085195,073409,090836,092451,073667
0000000283,0000282000,082870,087065,074389,087564,094442,074947
0000000284,0000283000,080005,088156,076162,084328,095522,077103
0000000285,0000284000,077395,088367,078561,081439,095588,079927
0000000286,0000285000,075301,087677,081345,079183,094633,083138
0000000287,0000286000,073934,086154,084235,077783,092750,086421
0000000288,0000287000,073422,083941,086960,077373,090122,089458
0000000289,0000288000,073814,081254,089255,077993,087006,091954
0000000290,0000289000,075071,078369,090883,079582,083713,093659
0000000291,0000290000,077075,075559,091690,081986,080560,094408
0000000292,0000291000,079633,073090,091600,084970,077853,094130
0000000293,0000292000,082484,071217,090622,088239,075862,092853
0000000294,0000293000,085348,070124,088850,091473,074781,090699
0000000295,0000294000,087962,069910,086451,094361,074714,087879
0000000296,0000295000,090059,070597,083667,096616,075667,084671
0000000297,0000296000,091428,072120,080776,098017,077546,081391
0000000298,0000297000,091942,074333,078048,098428,080171,078354
0000000299,0000298000,091553,077019,075751,097810,083283,075860
0000000300,0000299000,090297,079906,074120,096225,086574,074155
0000000301,0000300000,088294,082719,073310,093824,089725,073404
