DIgSILENT PowerFactory,21000900,2000
6,06A,00D
1,TTPP_200000_100:Secondary Voltage A,,,V,0.10000000,-8416.492188,0.000000,67812,99998,1,1,P
2,TTPP_200000_100:Secondary Voltage B,,,V,0.10000000,-8397.982422,0.000000,68852,99998,1,1,P
3,TTPP_200000_100:Secondary Voltage C,,,V,0.10000000,-8433.776367,0.000000,66426,99998,1,1,P
4,TTCC_500_5:Secondary Current A,,,A,0.0010000000,-86.222672,0.000000,66385,99998,1,1,P
5,TTCC_500_5:Secondary Current B,,,A,0.0010000000,-85.035698,0.000000,70088,99998,1,1,P
6,TTCC_500_5:Secondary Current C,,,A,0.0010000000,-84.668495,0.000000,69320,99998,1,1,P
50
1
1000.000000,1101
30/06/2023,06:07:57.000000
30/06/2023,06:07:57.000000
ASCII
1.000000
0000000001,0000000000,089677,087620,075185,092138,089715,074073
0000000002,0000001000,087129,090054,075299,089123,092431,074372
0000000003,0000002000,084277,091909,076298,085823,094426,075677
0000000004,0000003000,081432,092970,078080,082568,095495,077863
0000000005,0000004000,078848,093153,080482,079664,095546,080717
0000000006,0000005000,076775,092446,083260,077403,094567,083957
0000000007,0000006000,075429,090916,086136,076010,092654,087263
0000000008,0000007000,074957,088685,088841,075614,089994,090318
0000000009,0000008000,075365,086007,091110,076255,086850,092822
0000000010,0000009000,076632,083140,092711,077874,083529,094524
0000000011,0000010000,078652,080341,093490,080311,080354,095262
0000000012,0000011000,081214,077893,093376,083325,077638,094963
0000000013,0000012000,084042,076062,092379,086624,075645,093658
0000000014,0000013000,086895,074991,090595,089882,074572,091472
0000000015,0000014000,089493,074796,088193,092785,074524,088618
0000000016,0000015000,091552,075515,085416,095043,075505,085379
0000000017,0000016000,092888,077056,082540,096441,077414,082072
0000000018,0000017000,093386,079262,079834,096835,080075,079017
0000000019,0000018000,092967,081949,077565,096191,083221,076514
0000000020,0000019000,091685,084832,075965,094574,086541,074811
0000000021,0000020000,089682,087614,075186,092140,089713,074074
0000000022,0000021000,087128,090055,075299,089121,092434,074372
0000000023,0000022000,084276,091910,076296,085824,094425,075678
0000000024,0000023000,081431,092971,078080,082567,095496,077863
0000000025,0000024000,078850,093151,080482,079664,095545,080717
0000000026,0000025000,076772,092450,083260,077403,094567,083957
0000000027,0000026000,075433,090914,086136,076009,092654,087264
0000000028,0000027000,074954,088686,088842,075614,089995,090319
0000000029,0000028000,075364,086008,091110,076255,086850,092822
0000000030,0000029000,076633,083139,092710,077873,083529,094525
0000000031,0000030000,078653,080339,093490,080310,080355,095262
0000000032,0000031000,081208,077898,093377,083325,077638,094964
0000000033,0000032000,084044,076059,092379,086623,075645,093658
0000000034,0000033000,086898,074989,090595,089882,074572,091473
0000000035,0000034000,089489,074799,088194,092783,074525,088619
0000000036,0000035000,091551,075516,085416,095044,075504,085379
0000000037,0000036000,092894,077050,082539,096439,077415,082073
0000000038,0000037000,093384,079265,079834,096834,080075,079018
0000000039,0000038000,092964,081953,077566,096191,083221,076515
0000000040,0000039000,091690,084827,075965,094575,086540,074812
0000000041,0000040000,089684,087612,075185,092138,089714,074074
0000000042,0000041000,087122,090061,075299,089121,092433,074373
0000000043,0000042000,084278,091908,076296,085824,094425,075678
0000000044,0000043000,081437,092966,078080,082567,095496,077863
0000000045,0000044000,078845,093156,080482,079663,095546,080717
0000000046,0000045000,076771,092452,083260,077404,094566,083957
0000000047,0000046000,075438,090909,086135,076009,092654,087263
0000000048,0000047000,074953,088688,088841,075613,089996,090318
0000000049,0000048000,075359,086013,091110,076255,086850,092821
0000000050,0000049000,076637,083136,092710,077874,083529,094524
0000000051,0000050000,078654,080338,093490,080308,080357,095262
0000000052,0000051000,081204,077902,093377,083324,077639,094963
0000000053,0000052000,084045,076058,092379,086623,075645,093658
0000000054,0000053000,086901,074986,090596,089880,074573,091473
0000000055,0000054000,089486,074802,088194,092782,074526,088619
0000000056,0000055000,091550,075516,085416,095043,075504,085380
0000000057,0000056000,092896,077046,082540,096438,077415,082073
0000000058,0000057000,093383,079265,079835,096833,080076,079019
0000000059,0000058000,092963,081955,077565,096191,083221,076515
0000000060,0000059000,091693,084824,075965,094575,086540,074813
0000000061,0000060000,089684,087613,075185,092138,089714,074075
0000000062,0000061000,087121,090062,075299,089121,092432,074373
0000000063,0000062000,084281,091906,076295,085825,094424,075678
0000000064,0000063000,081437,092966,078080,082567,095496,077864
0000000065,0000064000,078843,093158,080481,079664,095546,080717
0000000066,0000065000,076773,092451,083259,077405,094566,083956
0000000067,0000066000,075439,090909,086135,076010,092654,087263
0000000068,0000067000,074950,088691,088841,075613,089996,090317
0000000069,0000068000,075360,086013,091110,076256,086850,092820
0000000070,0000069000,076638,083134,092710,077873,083530,094523
0000000071,0000070000,078651,080341,093491,080308,080358,095261
0000000072,0000071000,081203,077903,093377,083324,077640,094963
0000000073,0000072000,084047,076055,092380,086622,075647,093658
0000000074,0000073000,086899,074987,090597,089879,074575,091473
0000000075,0000074000,089483,074804,088195,092781,074526,088619
0000000076,0000075000,091553,075512,085417,095042,075504,085380
0000000077,0000076000,092897,077044,082541,096436,077416,082074
0000000078,0000077000,093380,079268,079835,096832,080076,079020
0000000079,0000078000,092965,081952,077566,096190,083220,076517
0000000080,0000079000,091697,084821,075965,094574,086539,074814
0000000081,0000080000,089682,087615,075185,092138,089713,074076
0000000082,0000081000,087122,090063,075298,089122,092430,074374
0000000083,0000082000,084285,091903,076294,085826,094422,075679
0000000084,0000083000,081437,092968,078078,082568,095495,077864
0000000085,0000084000,078842,093161,080480,079666,095544,080717
0000000086,0000085000,076776,092449,083257,077406,094565,083956
0000000087,0000086000,075439,090910,086134,076010,092655,087262
0000000088,0000087000,074947,088695,088840,075614,089996,090316
0000000089,0000088000,075360,086013,091109,076257,086851,092819
0000000090,0000089000,076638,083134,092711,077873,083532,094522
0000000091,0000090000,078647,080345,093491,080307,080360,095260
0000000092,0000091000,081201,077903,093378,083324,077641,094962
0000000093,0000092000,084048,076053,092382,086621,075649,093657
0000000094,0000093000,086896,074988,090598,089877,074577,091473
0000000095,0000094000,089482,074804,088197,092779,074528,088620
0000000096,0000095000,091555,075509,085419,095040,075506,085382
0000000097,0000096000,092896,077044,082542,096434,077417,082076
0000000098,0000097000,093380,079267,079836,096830,080075,079022
0000000099,0000098000,092968,081948,077566,096189,083219,076519
0000000100,0000099000,091698,084819,075965,094573,086538,074816
0000000101,0000100000,089682,087616,075184,092138,089711,074078
0000000102,0000101000,087125,090061,075296,089123,092428,074376
0000000103,0000102000,084287,091902,076293,085827,094420,075680
0000000104,0000103000,081436,092970,078076,082570,095493,077864
0000000105,0000104000,078844,093162,080477,079668,095542,080716
0000000106,0000105000,076778,092449,083256,077408,094564,083954
0000000107,0000106000,075436,090914,086133,076013,092655,087260
0000000108,0000107000,074945,088698,088839,075617,089996,090313
0000000109,0000108000,075361,086013,091109,076259,086852,092816
0000000110,0000109000,076635,083137,092711,077874,083534,094519
0000000111,0000110000,078643,080348,093492,080308,080362,095257
0000000112,0000111000,081201,077902,093380,083323,077644,094960
0000000113,0000112000,084046,076053,092384,086618,075652,093656
0000000114,0000113000,086892,074990,090601,089874,074580,091473
0000000115,0000114000,089482,074801,088199,092776,074530,088621
0000000116,0000115000,091556,075506,085421,095036,075507,085383
0000000117,0000116000,092895,077043,082544,096431,077418,082078
0000000118,0000117000,093381,079264,079837,096828,080074,079025
0000000119,0000118000,092972,081944,077567,096187,083218,076522
0000000120,0000119000,091699,084818,075965,094571,086536,074819
0000000121,0000120000,089684,087615,075183,092138,089708,074081
0000000122,0000121000,087130,090058,075295,089124,092424,074378
0000000123,0000122000,084290,091902,076291,085828,094417,075681
0000000124,0000123000,081436,092973,078073,082573,095490,077864
0000000125,0000124000,078846,093162,080474,079672,095540,080716
0000000126,0000125000,076778,092451,083253,077412,094563,083953
0000000127,0000126000,075434,090918,086130,076016,092654,087257
0000000128,0000127000,074945,088701,088837,075620,089997,090310
0000000129,0000128000,075359,086015,091108,076260,086854,092812
0000000130,0000129000,076631,083141,092711,077874,083537,094515
0000000131,0000130000,078640,080350,093493,080308,080365,095254
0000000132,0000131000,081199,077902,093382,083321,077648,094957
0000000133,0000132000,084042,076054,092387,086616,075656,093655
0000000134,0000133000,086889,074989,090604,089871,074583,091472
0000000135,0000134000,089482,074798,088203,092772,074533,088622
0000000136,0000135000,091555,075503,085425,095032,075510,085385
0000000137,0000136000,092894,077041,082547,096427,077418,082082
0000000138,0000137000,093384,079260,079839,096824,080074,079029
0000000139,0000138000,092975,081940,077568,096184,083216,076527
0000000140,0000139000,091701,084817,075964,094570,086533,074824
0000000141,0000140000,089689,087612,075181,092138,089704,074085
0000000142,0000141000,087135,090055,075292,089126,092420,074381
0000000143,0000142000,084292,091904,076287,085831,094413,075683
0000000144,0000143000,081439,092974,078069,082577,095486,077865
0000000145,0000144000,078849,093163,080470,079676,095536,080715
0000000146,0000145000,076778,092455,083249,077416,094561,083950
0000000147,0000146000,075432,090923,086127,076021,092653,087253
0000000148,0000147000,074944,088704,088835,075624,089997,090305
0000000149,0000148000,075356,086019,091107,076263,086856,092807
0000000150,0000149000,076625,083146,092712,077876,083541,094510
0000000151,0000150000,078636,080352,093495,080308,080370,095250
0000000152,0000151000,081195,077902,093385,083319,077654,094954
0000000153,0000152000,084036,076055,092391,086612,075662,093653
0000000154,0000153000,086886,074988,090608,089867,074588,091472
0000000155,0000154000,089481,074794,088207,092767,074537,088623
0000000156,0000155000,091553,075500,085429,095026,075513,085388
0000000157,0000156000,092895,077037,082551,096422,077419,082086
0000000158,0000157000,093388,079253,079842,096820,080073,079034
0000000159,0000158000,092978,081936,077569,096181,083214,076533
0000000160,0000159000,091705,084814,075964,094568,086529,074830
0000000161,0000160000,089695,087608,075179,092138,089698,074090
0000000162,0000161000,087140,090053,075289,089127,092414,074385
0000000163,0000162000,084295,091905,076283,085835,094407,075685
0000000164,0000163000,081444,092975,078064,082582,095480,077865
0000000165,0000164000,078852,093165,080465,079682,095532,080713
0000000166,0000165000,076778,092461,083244,077423,094558,083947
0000000167,0000166000,075432,090928,086122,076027,092652,087248
0000000168,0000167000,074942,088708,088832,075629,089998,090299
0000000169,0000168000,075351,086025,091106,076267,086859,092801
0000000170,0000169000,076620,083151,092712,077878,083545,094504
0000000171,0000170000,078632,080354,093497,080307,080376,095244
0000000172,0000171000,081189,077905,093389,083317,077661,094950
0000000173,0000172000,084030,076056,092396,086608,075669,093650
0000000174,0000173000,086883,074985,090614,089861,074595,091471
0000000175,0000174000,089479,074790,088214,092760,074542,088625
0000000176,0000175000,091551,075496,085435,095019,075516,085392
0000000177,0000176000,092897,077030,082555,096415,077420,082092
0000000178,0000177000,093391,079246,079845,096814,080072,079041
0000000179,0000178000,092982,081930,077570,096176,083210,076540
0000000180,0000179000,091711,084808,075963,094566,086524,074837
0000000181,0000180000,089703,087603,075177,092139,089692,074097
0000000182,0000181000,087146,090052,075284,089130,092407,074390
0000000183,0000182000,084301,091905,076277,085840,094399,075688
0000000184,0000183000,081449,092976,078057,082589,095473,077866
0000000185,0000184000,078855,093170,080458,079690,095526,080711
0000000186,0000185000,076778,092467,083238,077431,094554,083942
0000000187,0000186000,075431,090934,086117,076035,092650,087242
0000000188,0000187000,074939,088715,088828,075635,090000,090292
0000000189,0000188000,075345,086033,091105,076271,086863,092792
0000000190,0000189000,076613,083156,092713,077880,083551,094496
0000000191,0000190000,078625,080358,093500,080307,080383,095237
0000000192,0000191000,081181,077908,093394,083314,077669,094944
0000000193,0000192000,084024,076056,092402,086603,075677,093647
0000000194,0000193000,086879,074982,090622,089853,074602,091471
0000000195,0000194000,089475,074786,088221,092751,074549,088627
0000000196,0000195000,091550,075491,085442,095010,075520,085397
0000000197,0000196000,092899,077022,082561,096406,077422,082099
0000000198,0000197000,093395,079238,079849,096806,080071,079050
0000000199,0000198000,092987,081924,077572,096171,083206,076549
0000000200,0000199000,091719,084801,075962,094564,086517,074846
0000000201,0000200000,089711,087598,075174,092139,089683,074105
0000000202,0000201000,087153,090050,075279,089133,092398,074396
0000000203,0000202000,084308,091905,076269,085846,094389,075692
0000000204,0000203000,081455,092978,078049,082596,095464,077867
0000000205,0000204000,078858,093175,080450,079699,095519,080709
0000000206,0000205000,076778,092474,083230,077441,094549,083937
0000000207,0000206000,075430,090942,086111,076044,092648,087234
0000000208,0000207000,074934,088724,088824,075643,090001,090282
0000000209,0000208000,075338,086042,091103,076277,086867,092782
0000000210,0000209000,076606,083163,092714,077883,083558,094486
0000000211,0000210000,078616,080363,093504,080306,080393,095228
0000000212,0000211000,081171,077911,093400,083310,077679,094937
0000000213,0000212000,084016,076056,092410,086597,075687,093643
0000000214,0000213000,086873,074979,090631,089844,074612,091470
0000000215,0000214000,089470,074781,088231,092741,074557,088630
0000000216,0000215000,091549,075483,085450,094999,075525,085403
0000000217,0000216000,092902,077012,082568,096396,077424,082107
0000000218,0000217000,093399,079229,079854,096797,080070,079060
0000000219,0000218000,092994,081915,077574,096165,083201,076561
0000000220,0000219000,091729,084793,075961,094561,086509,074857
0000000221,0000220000,089721,087592,075170,092139,089674,074114
0000000222,0000221000,087162,090048,075272,089137,092386,074404
0000000223,0000222000,084317,091904,076261,085853,094378,075696
0000000224,0000223000,081462,092981,078039,082606,095454,077867
0000000225,0000224000,078861,093182,080440,079710,095511,080706
0000000226,0000225000,076780,092482,083220,077453,094543,083931
0000000227,0000226000,075428,090951,086103,076055,092646,087225
0000000228,0000227000,074928,088735,088819,075653,090003,090271
0000000229,0000228000,075330,086052,091100,076284,086873,092770
0000000230,0000229000,076597,083171,092715,077887,083566,094474
0000000231,0000230000,078605,080370,093508,080306,080404,095217
0000000232,0000231000,081161,077915,093407,083306,077692,094929
0000000233,0000232000,084007,076055,092420,086589,075700,093638
0000000234,0000233000,086865,074975,090642,089834,074624,091469
0000000235,0000234000,089465,074775,088242,092728,074566,088633
0000000236,0000235000,091549,075473,085460,094986,075531,085410
0000000237,0000236000,092904,077001,082577,096384,077426,082117
0000000238,0000237000,093404,079218,079860,096787,080068,079072
0000000239,0000238000,093003,081903,077576,096158,083196,076574
0000000240,0000239000,091740,084783,075960,094557,086500,074870
0000000241,0000240000,089732,087585,075165,092140,089662,074126
0000000242,0000241000,087174,090044,075264,089142,092373,074412
0000000243,0000242000,084328,091904,076250,085861,094364,075701
0000000244,0000243000,081470,092985,078028,082617,095441,077868
0000000245,0000244000,078866,093189,080428,079724,095501,080703
0000000246,0000245000,076782,092492,083209,077467,094537,083924
0000000247,0000246000,075426,090963,086094,076068,092644,087214
0000000248,0000247000,074922,088748,088812,075664,090005,090258
0000000249,0000248000,075321,086063,091098,076292,086879,092756
0000000250,0000249000,076585,083181,092716,077890,083577,094460
0000000251,0000250000,078592,080378,093513,080305,080417,095205
0000000252,0000251000,081148,077919,093415,083301,077706,094920
0000000253,0000252000,083997,076055,092431,086580,075714,093633
0000000254,0000253000,086856,074972,090655,089821,074637,091468
0000000255,0000254000,089460,074768,088255,092714,074576,088636
0000000256,0000255000,091547,075462,085473,094971,075538,085418
0000000257,0000256000,092907,076989,082587,096370,077429,082129
0000000258,0000257000,093411,079205,079867,096775,080065,079086
0000000259,0000258000,093013,081890,077579,096149,083189,076589
0000000260,0000259000,091752,084772,075959,094553,086489,074885
0000000261,0000260000,089745,087578,075160,092140,089648,074139
0000000262,0000261000,087188,090039,075255,089147,092357,074422
0000000263,0000262000,084341,091903,076238,085871,094349,075707
0000000264,0000263000,081479,092990,078014,082631,095427,077869
0000000265,0000264000,078872,093197,080413,079739,095489,080699
0000000266,0000265000,076784,092503,083196,077483,094529,083915
0000000267,0000266000,075422,090977,086083,076084,092641,087202
0000000268,0000267000,074915,088763,088805,075677,090007,090243
0000000269,0000268000,075311,086077,091094,076301,086886,092739
0000000270,0000269000,076572,083193,092717,077895,083588,094444
0000000271,0000270000,078576,080387,093519,080305,080431,095191
0000000272,0000271000,081134,077924,093425,083295,077723,094909
0000000273,0000272000,083983,076055,092444,086569,075731,093627
0000000274,0000273000,086845,074968,090669,089807,074652,091467
0000000275,0000274000,089453,074759,088270,092698,074588,088641
0000000276,0000275000,091546,075450,085487,094954,075546,085427
0000000277,0000276000,092909,076975,082599,096353,077432,082142
0000000278,0000277000,093418,079190,079875,096762,080063,079103
0000000279,0000278000,093025,081875,077583,096139,083181,076607
0000000280,0000279000,091766,084759,075957,094548,086477,074902
0000000281,0000280000,089761,087568,075153,092141,089632,074154
0000000282,0000281000,087204,090033,075245,089154,092339,074434
0000000283,0000282000,084354,091903,076225,085882,094331,075714
0000000284,0000283000,081490,092995,077998,082646,095411,077870
0000000285,0000284000,078880,093206,080397,079757,095476,080694
0000000286,0000285000,076786,092516,083181,077501,094521,083905
0000000287,0000286000,075419,090993,086071,076101,092638,087187
0000000288,0000287000,074907,088779,088796,075691,090010,090225
0000000289,0000288000,075299,086093,091091,076311,086895,092721
0000000290,0000289000,076556,083207,092719,077900,083602,094425
0000000291,0000290000,078560,080398,093526,080304,080448,095175
0000000292,0000291000,081117,077929,093436,083288,077742,094897
0000000293,0000292000,083968,076056,092459,086557,075751,093620
0000000294,0000293000,086833,074963,090686,089791,074670,091466
0000000295,0000294000,089446,074749,088287,092679,074602,088646
0000000296,0000295000,091544,075436,085503,094934,075555,085438
0000000297,0000296000,092913,076958,082612,096335,077435,082158
0000000298,0000297000,093427,079172,079884,096746,080060,079121
0000000299,0000298000,093038,081858,077587,096128,083172,076627
0000000300,0000299000,091782,084744,075956,094543,086462,074922
0000000301,0000300000,089779,087557,075146,092142,089614,074171
