DIgSILENT PowerFactory,21000900,2000
6,06A,00D
1,TTPP_200000_100:Secondary Voltage A,,,V,0.010000000,-67.891373,0.000000,-86352,99998,1,1,P
2,TTPP_200000_100:Secondary Voltage B,,,V,0.010000000,-14.411504,0.000000,-93100,99998,1,1,P
3,TTPP_200000_100:Secondary Voltage C,,,V,0.10000000,-8897.044922,0.000000,78840,99998,1,1,P
4,TTCC_500_5:Secondary Current A,,,A,0.0010000000,-82.133339,0.000000,54613,99998,1,1,P
5,TTCC_500_5:Secondary Current B,,,A,0.0010000000,-84.742157,0.000000,69469,99998,1,1,P
6,TTCC_500_5:Secondary Current C,,,A,0.0010000000,-84.666908,0.000000,69318,99998,1,1,P
50
1
1000.000000,1101
30/06/2023,06:05:16.000000
30/06/2023,06:05:16.000000
ASCII
1.000000
0000000001,0000000000,061934,037819,079818,088051,089419,074072
0000000002,0000001000,036455,062159,079931,085036,092136,074370
0000000003,0000002000,007949,080707,080928,081737,094131,075675
0000000004,0000003000,-20553,091372,082711,078481,095202,077860
0000000005,0000004000,-46331,093151,085112,075579,095250,080713
0000000006,0000005000,-67075,086112,087889,073314,094275,083953
0000000007,0000006000,-80551,070830,090766,071920,092363,087259
0000000008,0000007000,-85339,048557,093471,071526,089701,090315
0000000009,0000008000,-81199,021716,095741,072165,086559,092818
0000000010,0000009000,-68550,-06934,097342,073783,083238,094522
0000000011,0000010000,-48373,-34910,098122,076220,080062,095260
0000000012,0000011000,-22753,-59398,098009,079233,077347,094962
0000000013,0000012000,005550,-77752,097013,082531,075354,093658
0000000014,0000013000,034039,-88403,095230,085792,074278,091473
0000000015,0000014000,060032,-90389,092829,088693,074230,088619
0000000016,0000015000,080675,-83254,090051,090953,075210,085380
0000000017,0000016000,094028,-67837,087175,092350,077119,082073
0000000018,0000017000,098972,-45728,084469,092745,079779,079018
0000000019,0000018000,094823,-18888,082201,092103,082925,076514
0000000020,0000019000,082018,009924,080599,090488,086244,074811
0000000021,0000020000,061984,037768,079818,088052,089418,074072
0000000022,0000021000,036454,062164,079931,085034,092138,074370
0000000023,0000022000,007939,080722,080928,081737,094131,075675
0000000024,0000023000,-20532,091361,082711,078480,095202,077860
0000000025,0000024000,-46350,093165,085112,075577,095252,080713
0000000026,0000025000,-67101,086140,087890,073315,094274,083953
0000000027,0000026000,-80520,070798,090765,071920,092363,087259
0000000028,0000027000,-85314,048537,093471,071524,089703,090315
0000000029,0000028000,-81234,021754,095741,072165,086559,092818
0000000030,0000029000,-68558,-06927,097342,073782,083238,094522
0000000031,0000030000,-48354,-34932,098122,076219,080063,095260
0000000032,0000031000,-22776,-59383,098010,079233,077347,094963
0000000033,0000032000,005552,-77750,097013,082531,075354,093658
0000000034,0000033000,034073,-88438,095230,085790,074279,091473
0000000035,0000034000,060013,-90371,092829,088692,074231,088620
0000000036,0000035000,080640,-83224,090052,090952,075210,085380
0000000037,0000036000,094055,-67866,087175,092350,077119,082073
0000000038,0000037000,098990,-45747,084469,092745,079779,079018
0000000039,0000038000,094803,-18867,082200,092102,082926,076515
0000000040,0000039000,082033,009914,080599,090487,086244,074811
0000000041,0000040000,061993,037756,079818,088052,089418,074073
0000000042,0000041000,036426,062193,079931,085034,092138,074370
0000000043,0000042000,007949,080714,080927,081737,094130,075675
0000000044,0000043000,-20493,091328,082710,078480,095202,077860
0000000045,0000044000,-46367,093185,085112,075576,095253,080714
0000000046,0000045000,-67125,086167,087890,073316,094274,083953
0000000047,0000046000,-80502,070782,090765,071921,092362,087259
0000000048,0000047000,-85316,048537,093471,071524,089704,090314
0000000049,0000048000,-81249,021772,095741,072165,086559,092818
0000000050,0000049000,-68542,-06942,097342,073782,083238,094522
0000000051,0000050000,-48355,-34933,098123,076218,080065,095260
0000000052,0000051000,-22814,-59351,098010,079233,077347,094962
0000000053,0000052000,005555,-77757,097014,082531,075354,093658
0000000054,0000053000,034098,-88469,095230,085789,074280,091473
0000000055,0000054000,059996,-90360,092830,088691,074232,088620
0000000056,0000055000,080627,-83214,090052,090952,075210,085381
0000000057,0000056000,094071,-67889,087175,092349,077120,082074
0000000058,0000057000,098984,-45745,084470,092744,079780,079019
0000000059,0000058000,094795,-18861,082200,092102,082925,076516
0000000060,0000059000,082065,009885,080598,090487,086244,074812
0000000061,0000060000,062001,037749,079818,088051,089418,074074
0000000062,0000061000,036402,062221,079931,085034,092137,074371
0000000063,0000062000,007963,080706,080927,081738,094129,075675
0000000064,0000063000,-20469,091309,082710,078481,095202,077860
0000000065,0000064000,-46378,093204,085111,075577,095253,080713
0000000066,0000065000,-67125,086175,087889,073316,094274,083952
0000000067,0000066000,-80488,070774,090765,071921,092362,087259
0000000068,0000067000,-85337,048559,093471,071524,089704,090314
0000000069,0000068000,-81265,021790,095741,072166,086560,092817
0000000070,0000069000,-68524,-06960,097342,073782,083239,094521
0000000071,0000070000,-48365,-34927,098123,076217,080066,095259
0000000072,0000071000,-22846,-59324,098011,079232,077349,094962
0000000073,0000072000,005557,-77766,097014,082530,075354,093658
0000000074,0000073000,034101,-88482,095231,085787,074282,091473
0000000075,0000074000,059976,-90351,092831,088689,074233,088620
0000000076,0000075000,080633,-83227,090053,090951,075210,085381
0000000077,0000076000,094087,-67913,087176,092347,077120,082075
0000000078,0000077000,098970,-45738,084471,092742,079780,079020
0000000079,0000078000,094796,-18865,082200,092101,082924,076517
0000000080,0000079000,082098,009853,080598,090486,086243,074813
0000000081,0000080000,062010,037744,079818,088051,089417,074075
0000000082,0000081000,036399,062232,079930,085035,092135,074372
0000000083,0000082000,007987,080693,080926,081739,094128,075676
0000000084,0000083000,-20458,091309,082709,078481,095201,077860
0000000085,0000084000,-46388,093227,085110,075578,095251,080713
0000000086,0000085000,-67112,086176,087887,073318,094273,083952
0000000087,0000086000,-80478,070775,090764,071922,092362,087258
0000000088,0000087000,-85363,048592,093470,071525,089705,090312
0000000089,0000088000,-81278,021808,095740,072167,086560,092815
0000000090,0000089000,-68520,-06966,097342,073783,083241,094519
0000000091,0000090000,-48388,-34911,098124,076216,080068,095258
0000000092,0000091000,-22870,-59309,098012,079231,077350,094961
0000000093,0000092000,005557,-77780,097016,082529,075356,093657
0000000094,0000093000,034086,-88485,095233,085785,074284,091473
0000000095,0000094000,059953,-90345,092832,088687,074234,088621
0000000096,0000095000,080644,-83252,090054,090949,075211,085382
0000000097,0000096000,094098,-67939,087178,092344,077121,082077
0000000098,0000097000,098961,-45740,084472,092740,079780,079023
0000000099,0000098000,094811,-18883,082201,092100,082923,076519
0000000100,0000099000,082127,009824,080598,090485,086242,074816
0000000101,0000100000,062018,037742,079817,088050,089415,074077
0000000102,0000101000,036415,062230,079929,085036,092133,074374
0000000103,0000102000,008019,080678,080924,081740,094125,075677
0000000104,0000103000,-20450,091320,082707,078483,095199,077861
0000000105,0000104000,-46391,093251,085108,075581,095249,080712
0000000106,0000105000,-67096,086180,087885,073321,094272,083950
0000000107,0000106000,-80478,070790,090762,071924,092362,087256
0000000108,0000107000,-85387,048628,093469,071527,089705,090310
0000000109,0000108000,-81289,021825,095740,072168,086561,092813
0000000110,0000109000,-68532,-06956,097342,073783,083243,094517
0000000111,0000110000,-48424,-34885,098125,076216,080071,095256
0000000112,0000111000,-22893,-59300,098013,079231,077353,094959
0000000113,0000112000,005549,-77793,097018,082527,075359,093656
0000000114,0000113000,034060,-88485,095236,085783,074287,091473
0000000115,0000114000,059934,-90350,092835,088684,074236,088621
0000000116,0000115000,080653,-83285,090057,090946,075213,085384
0000000117,0000116000,094103,-67965,087180,092341,077122,082079
0000000118,0000117000,098963,-45755,084473,092738,079779,079025
0000000119,0000118000,094839,-18917,082201,092098,082922,076523
0000000120,0000119000,082157,009796,080598,090484,086240,074819
0000000121,0000120000,062033,037738,079816,088050,089412,074080
0000000122,0000121000,036446,062218,079927,085037,092129,074376
0000000123,0000122000,008056,080666,080921,081742,094122,075678
0000000124,0000123000,-20439,091337,082704,078486,095196,077861
0000000125,0000124000,-46383,093274,085105,075584,095247,080712
0000000126,0000125000,-67081,086193,087882,073324,094270,083948
0000000127,0000126000,-80488,070822,090760,071928,092362,087253
0000000128,0000127000,-85410,048669,093467,071530,089706,090306
0000000129,0000128000,-81302,021847,095739,072170,086563,092809
0000000130,0000129000,-68560,-06932,097343,073784,083246,094513
0000000131,0000130000,-48468,-34853,098126,076216,080074,095252
0000000132,0000131000,-22922,-59293,098015,079229,077357,094956
0000000133,0000132000,005527,-77801,097021,082524,075364,093655
0000000134,0000133000,034027,-88486,095239,085779,074291,091473
0000000135,0000134000,059918,-90368,092838,088681,074239,088622
0000000136,0000135000,080658,-83324,090060,090941,075215,085386
0000000137,0000136000,094104,-67994,087183,092337,077123,082083
0000000138,0000137000,098975,-45786,084475,092734,079778,079030
0000000139,0000138000,094877,-18963,082202,092096,082920,076527
0000000140,0000139000,082191,009764,080598,090482,086237,074823
0000000141,0000140000,062062,037724,079815,088051,089408,074084
0000000142,0000141000,036491,062200,079924,085039,092125,074379
0000000143,0000142000,008096,080660,080918,081745,094118,075680
0000000144,0000143000,-20421,091358,082700,078490,095192,077861
0000000145,0000144000,-46363,093297,085100,075589,095243,080711
0000000146,0000145000,-67068,086218,087879,073329,094268,083946
0000000147,0000146000,-80504,070870,090757,071932,092361,087249
0000000148,0000147000,-85434,048716,093465,071534,089706,090302
0000000149,0000148000,-81325,021879,095738,072173,086565,092804
0000000150,0000149000,-68603,-06894,097343,073785,083249,094508
0000000151,0000150000,-48521,-34818,098128,076216,080079,095248
0000000152,0000151000,-22959,-59285,098018,079228,077362,094953
0000000153,0000152000,005489,-77803,097025,082521,075369,093652
0000000154,0000153000,033986,-88491,095244,085774,074296,091472
0000000155,0000154000,059902,-90399,092843,088675,074243,088624
0000000156,0000155000,080658,-83369,090064,090935,075218,085389
0000000157,0000156000,094106,-68033,087186,092331,077124,082087
0000000158,0000157000,098998,-45834,084477,092730,079778,079035
0000000159,0000158000,094922,-19019,082203,092092,082917,076533
0000000160,0000159000,082233,009726,080597,090481,086233,074829
0000000161,0000160000,062109,037699,079813,088051,089403,074089
0000000162,0000161000,036550,062176,079921,085041,092119,074383
0000000163,0000162000,008141,080659,080913,081748,094112,075683
0000000164,0000163000,-20392,091382,082695,078495,095186,077862
0000000165,0000164000,-46335,093323,085095,075595,095238,080709
0000000166,0000165000,-67058,086258,087874,073335,094265,083943
0000000167,0000166000,-80523,070930,090753,071938,092360,087244
0000000168,0000167000,-85460,048772,093462,071540,089707,090295
0000000169,0000168000,-81360,021926,095737,072177,086568,092797
0000000170,0000169000,-68662,-06842,097344,073787,083254,094501
0000000171,0000170000,-48581,-34779,098130,076216,080085,095242
0000000172,0000171000,-23010,-59273,098022,079225,077369,094948
0000000173,0000172000,005434,-77801,097030,082516,075376,093650
0000000174,0000173000,033940,-88503,095250,085769,074302,091472
0000000175,0000174000,059882,-90439,092849,088668,074248,088626
0000000176,0000175000,080653,-83421,090070,090928,075221,085393
0000000177,0000176000,094111,-68086,087191,092324,077125,082093
0000000178,0000177000,099032,-45899,084480,092724,079777,079042
0000000179,0000178000,094974,-19085,082205,092088,082914,076540
0000000180,0000179000,082286,009679,080597,090478,086228,074836
0000000181,0000180000,062173,037661,079810,088051,089396,074095
0000000182,0000181000,036621,062148,079916,085043,092111,074388
0000000183,0000182000,008196,080662,080908,081753,094104,075686
0000000184,0000183000,-20350,091407,082688,078501,095179,077862
0000000185,0000184000,-46300,093357,085088,075603,095233,080707
0000000186,0000185000,-67050,086313,087867,073343,094261,083938
0000000187,0000186000,-80543,071003,090747,071946,092358,087238
0000000188,0000187000,-85491,048839,093458,071546,089708,090288
0000000189,0000188000,-81410,021991,095735,072181,086572,092789
0000000190,0000189000,-68734,-06777,097345,073789,083260,094493
0000000191,0000190000,-48653,-34736,098133,076215,080092,095235
0000000192,0000191000,-23077,-59255,098027,079222,077377,094943
0000000193,0000192000,005365,-77797,097037,082511,075385,093647
0000000194,0000193000,033886,-88523,095257,085761,074310,091471
0000000195,0000194000,059856,-90489,092857,088660,074255,088628
0000000196,0000195000,080643,-83482,090077,090919,075225,085398
0000000197,0000196000,094123,-68155,087197,092316,077127,082100
0000000198,0000197000,099076,-45983,084484,092717,079775,079050
0000000199,0000198000,095034,-19163,082207,092083,082910,076550
0000000200,0000199000,082354,009619,080596,090476,086221,074846
0000000201,0000200000,062257,037610,079807,088051,089388,074103
0000000202,0000201000,036705,062117,079911,085046,092102,074394
0000000203,0000202000,008263,080666,080901,081759,094095,075689
0000000204,0000203000,-20293,091434,082680,078509,095170,077863
0000000205,0000204000,-46260,093401,085080,075612,095226,080705
0000000206,0000205000,-67044,086384,087860,073353,094256,083933
0000000207,0000206000,-80563,071089,090741,071955,092357,087230
0000000208,0000207000,-85529,048922,093454,071554,089710,090279
0000000209,0000208000,-81475,022074,095733,072187,086576,092779
0000000210,0000209000,-68819,-06700,097346,073792,083267,094483
0000000211,0000210000,-48739,-34685,098136,076215,080101,095226
0000000212,0000211000,-23163,-59229,098033,079219,077388,094936
0000000213,0000212000,005281,-77792,097045,082504,075395,093643
0000000214,0000213000,033824,-88551,095266,085753,074319,091470
0000000215,0000214000,059821,-90548,092866,088650,074262,088630
0000000216,0000215000,080629,-83555,090086,090908,075231,085404
0000000217,0000216000,094140,-68243,087204,092306,077129,082108
0000000218,0000217000,099127,-46083,084489,092708,079774,079061
0000000219,0000218000,095104,-19254,082209,092076,082905,076561
0000000220,0000219000,082440,009544,080595,090473,086213,074856
0000000221,0000220000,062359,037548,079803,088052,089377,074113
0000000222,0000221000,036804,062084,079904,085050,092091,074401
0000000223,0000222000,008346,080669,080892,081766,094083,075693
0000000224,0000223000,-20223,091463,082670,078519,095160,077864
0000000225,0000224000,-46214,093456,085070,075623,095217,080702
0000000226,0000225000,-67036,086470,087850,073365,094251,083927
0000000227,0000226000,-80585,071189,090733,071967,092355,087221
0000000228,0000227000,-85577,049023,093449,071564,089711,090267
0000000229,0000228000,-81555,022176,095731,072194,086582,092767
0000000230,0000229000,-68919,-06610,097347,073796,083276,094471
0000000231,0000230000,-48843,-34624,098140,076215,080112,095215
0000000232,0000231000,-23270,-59195,098040,079214,077400,094928
0000000233,0000232000,005182,-77788,097054,082497,075408,093638
0000000234,0000233000,033752,-88586,095277,085742,074331,091470
0000000235,0000234000,059776,-90614,092877,088637,074272,088633
0000000236,0000235000,080612,-83642,090096,090895,075237,085410
0000000237,0000236000,094164,-68351,087212,092294,077131,082118
0000000238,0000237000,099187,-46201,084495,092698,079772,079073
0000000239,0000238000,095186,-19362,082211,092069,082900,076574
0000000240,0000239000,082544,009451,080594,090469,086204,074869
0000000241,0000240000,062479,037474,079798,088052,089366,074124
0000000242,0000241000,036919,062046,079897,085055,092077,074410
0000000243,0000242000,008446,080672,080882,081774,094070,075698
0000000244,0000243000,-20138,091497,082658,078531,095147,077865
0000000245,0000244000,-46162,093525,085058,075637,095207,080699
0000000246,0000245000,-67026,086572,087839,073379,094244,083919
0000000247,0000246000,-80608,071305,090724,071980,092352,087210
0000000248,0000247000,-85635,049145,093442,071575,089713,090254
0000000249,0000248000,-81650,022299,095728,072202,086588,092753
0000000250,0000249000,-69035,-06507,097348,073800,083286,094457
0000000251,0000250000,-48966,-34551,098145,076214,080125,095203
0000000252,0000251000,-23397,-59152,098049,079209,077414,094919
0000000253,0000252000,005068,-77784,097065,082488,075422,093632
0000000254,0000253000,033666,-88628,095289,085730,074344,091469
0000000255,0000254000,059721,-90691,092890,088623,074282,088637
0000000256,0000255000,080594,-83745,090108,090880,075244,085419
0000000257,0000256000,094192,-68480,087222,092279,077133,082130
0000000258,0000257000,099254,-46338,084502,092686,079770,079087
0000000259,0000258000,095282,-19488,082214,092060,082893,076589
0000000260,0000259000,082669,009340,080592,090465,086193,074884
0000000261,0000260000,062619,037389,079792,088053,089352,074137
0000000262,0000261000,037052,062003,079888,085060,092062,074420
0000000263,0000262000,008567,080672,080870,081784,094054,075704
0000000264,0000263000,-20040,091536,082644,078544,095133,077866
0000000265,0000264000,-46103,093607,085043,075652,095196,080695
0000000266,0000265000,-67012,086689,087826,073395,094237,083911
0000000267,0000266000,-80634,071440,090713,071995,092349,087198
0000000268,0000267000,-85705,049289,093435,071587,089716,090239
0000000269,0000268000,-81759,022440,095725,072211,086595,092736
0000000270,0000269000,-69168,-06387,097349,073804,083297,094441
0000000271,0000270000,-49112,-34464,098151,076213,080140,095189
0000000272,0000271000,-23546,-59102,098058,079203,077431,094908
0000000273,0000272000,004936,-77782,097078,082477,075439,093626
0000000274,0000273000,033566,-88676,095304,085716,074359,091468
0000000275,0000274000,059655,-90777,092905,088606,074295,088641
0000000276,0000275000,080575,-83866,090122,090863,075252,085428
0000000277,0000276000,094225,-68629,087234,092263,077136,082143
0000000278,0000277000,099329,-46495,084510,092672,079767,079103
0000000279,0000278000,095395,-19635,082218,092051,082885,076607
0000000280,0000279000,082814,009210,080591,090460,086181,074902
0000000281,0000280000,062778,037291,079786,088054,089336,074153
0000000282,0000281000,037207,061953,079877,085067,092044,074432
0000000283,0000282000,008708,080670,080856,081796,094036,075711
0000000284,0000283000,-19927,091582,082628,078559,095117,077867
0000000285,0000284000,-46036,093701,085027,075670,095183,080690
0000000286,0000285000,-66993,086822,087811,073413,094228,083901
0000000287,0000286000,-80664,071595,090700,072013,092346,087183
0000000288,0000287000,-85786,049456,093426,071602,089719,090221
0000000289,0000288000,-81884,022603,095721,072221,086604,092717
0000000290,0000289000,-69320,-06250,097351,073809,083311,094423
0000000291,0000290000,-49281,-34362,098158,076212,080157,095173
0000000292,0000291000,-23716,-59043,098070,079196,077450,094896
0000000293,0000292000,004787,-77780,097093,082465,075458,093619
0000000294,0000293000,033448,-88729,095321,085699,074377,091467
0000000295,0000294000,059578,-90875,092923,088587,074309,088647
0000000296,0000295000,080553,-84005,090139,090843,075261,085439
0000000297,0000296000,094261,-68799,087247,092245,077139,082159
0000000298,0000297000,099414,-46673,084520,092657,079764,079122
0000000299,0000298000,095524,-19805,082222,092040,082876,076627
0000000300,0000299000,082980,009060,080589,090455,086166,074921
0000000301,0000300000,062960,037180,079779,088055,089318,074170
