DIgSILENT PowerFactory,21000900,2000
6,06A,00D
1,TTPP_200000_100:Secondary Voltage A,,,V,0.010000000,-67.889168,0.000000,-86353,99998,1,1,P
2,TTPP_200000_100:Secondary Voltage B,,,V,0.010000000,-16.596834,0.000000,-92850,99998,1,1,P
3,TTPP_200000_100:Secondary Voltage C,,,V,0.10000000,-8840.710938,0.000000,78401,99998,1,1,P
4,TTCC_500_5:Secondary Current A,,,A,0.0010000000,-84.372795,0.000000,60815,99998,1,1,P
5,TTCC_500_5:Secondary Current B,,,A,0.0010000000,-84.853996,0.000000,69720,99998,1,1,P
6,TTCC_500_5:Secondary Current C,,,A,0.0010000000,-84.612549,0.000000,69241,99998,1,1,P
50
1
1000.000000,1101
30/06/2023,06:04:37.000000
30/06/2023,06:04:37.000000
ASCII
1.000000
0000000001,0000000000,061932,038039,079255,090290,089531,074018
0000000002,0000001000,036461,062371,079368,087275,092249,074316
0000000003,0000002000,007912,080963,080365,083977,094242,075620
0000000004,0000003000,-20543,091579,082148,080720,095314,077805
0000000005,0000004000,-46315,093356,084549,077818,095362,080659
0000000006,0000005000,-67072,086327,087326,075553,094388,083899
0000000007,0000006000,-80553,071052,090203,074160,092474,087205
0000000008,0000007000,-85368,048803,092908,073765,089813,090261
0000000009,0000008000,-81177,021915,095178,074405,086670,092764
0000000010,0000009000,-68539,-06724,096779,076023,083349,094467
0000000011,0000010000,-48367,-34695,097558,078458,080176,095206
0000000012,0000011000,-22759,-59173,097446,081473,077458,094908
0000000013,0000012000,005529,-77511,096450,084771,075465,093603
0000000014,0000013000,034060,-88203,094667,088031,074390,091418
0000000015,0000014000,060045,-90179,092265,090933,074342,088565
0000000016,0000015000,080679,-83035,089488,093192,075322,085325
0000000017,0000016000,094015,-67604,086611,094589,077232,082019
0000000018,0000017000,098957,-45494,083906,094985,079891,078964
0000000019,0000018000,094836,-18680,081637,094343,083037,076460
0000000020,0000019000,082028,010134,080035,092727,086357,074756
0000000021,0000020000,061991,037981,079255,090291,089530,074018
0000000022,0000021000,036434,062401,079368,087274,092249,074316
0000000023,0000022000,007922,080953,080365,083976,094243,075620
0000000024,0000023000,-20522,091566,082148,080721,095313,077806
0000000025,0000024000,-46341,093373,084549,077816,095364,080659
0000000026,0000025000,-67094,086351,087326,075554,094387,083899
0000000027,0000026000,-80536,071030,090202,074160,092474,087205
0000000028,0000027000,-85329,048765,092908,073764,089815,090261
0000000029,0000028000,-81228,021962,095178,074405,086670,092764
0000000030,0000029000,-68545,-06722,096779,076022,083350,094468
0000000031,0000030000,-48344,-34723,097559,078458,080176,095206
0000000032,0000031000,-22789,-59153,097446,081472,077459,094908
0000000033,0000032000,005540,-77521,096450,084771,075465,093604
0000000034,0000033000,034076,-88225,094666,088030,074391,091419
0000000035,0000034000,060026,-90165,092266,090932,074343,088565
0000000036,0000035000,080649,-83012,089488,093192,075322,085326
0000000037,0000036000,094045,-67637,086611,094589,077232,082019
0000000038,0000037000,098978,-45517,083906,094984,079891,078964
0000000039,0000038000,094799,-18646,081637,094342,083037,076460
0000000040,0000039000,082043,010122,080035,092726,086356,074757
0000000041,0000040000,062003,037965,079255,090291,089530,074018
0000000042,0000041000,036416,062423,079368,087273,092250,074316
0000000043,0000042000,007935,080943,080364,083976,094242,075621
0000000044,0000043000,-20497,091548,082147,080720,095314,077806
0000000045,0000044000,-46360,093394,084549,077816,095364,080659
0000000046,0000045000,-67117,086376,087326,075555,094386,083898
0000000047,0000046000,-80505,071003,090202,074160,092474,087205
0000000048,0000047000,-85326,048763,092908,073763,089816,090260
0000000049,0000048000,-81255,021995,095178,074405,086671,092764
0000000050,0000049000,-68533,-06734,096779,076022,083350,094467
0000000051,0000050000,-48344,-34724,097559,078457,080177,095206
0000000052,0000051000,-22815,-59130,097447,081472,077459,094908
0000000053,0000052000,005549,-77531,096450,084770,075465,093604
0000000054,0000053000,034094,-88247,094667,088029,074392,091419
0000000055,0000054000,060001,-90146,092266,090930,074343,088565
0000000056,0000055000,080636,-83001,089488,093191,075322,085326
0000000057,0000056000,094074,-67671,086612,094588,077232,082020
0000000058,0000057000,098977,-45518,083906,094983,079892,078965
0000000059,0000058000,094786,-18635,081637,094341,083037,076461
0000000060,0000059000,082068,010100,080035,092726,086356,074758
0000000061,0000060000,062007,037962,079255,090291,089530,074019
0000000062,0000061000,036402,062440,079368,087274,092249,074317
0000000063,0000062000,007957,080929,080363,083977,094241,075621
0000000064,0000063000,-20476,091532,082147,080720,095314,077806
0000000065,0000064000,-46380,093422,084548,077816,095364,080659
0000000066,0000065000,-67121,086387,087325,075556,094385,083898
0000000067,0000066000,-80484,070987,090201,074161,092474,087204
0000000068,0000067000,-85342,048781,092908,073763,089816,090259
0000000069,0000068000,-81271,022013,095178,074405,086671,092763
0000000070,0000069000,-68522,-06745,096779,076022,083351,094466
0000000071,0000070000,-48359,-34714,097560,078456,080178,095205
0000000072,0000071000,-22842,-59109,097447,081472,077460,094907
0000000073,0000072000,005557,-77548,096451,084770,075466,093603
0000000074,0000073000,034098,-88261,094668,088027,074394,091419
0000000075,0000074000,059974,-90130,092267,090929,074345,088566
0000000076,0000075000,080637,-83011,089489,093190,075322,085327
0000000077,0000076000,094092,-67698,086613,094586,077232,082021
0000000078,0000077000,098967,-45516,083907,094982,079892,078966
0000000079,0000078000,094791,-18641,081637,094341,083036,076463
0000000080,0000079000,082096,010073,080035,092726,086355,074759
0000000081,0000080000,062010,037963,079254,090290,089529,074020
0000000082,0000081000,036399,062450,079367,087274,092247,074318
0000000083,0000082000,007986,080911,080362,083978,094240,075622
0000000084,0000083000,-20462,091530,082145,080721,095313,077806
0000000085,0000084000,-46393,093449,084547,077818,095363,080659
0000000086,0000085000,-67111,086391,087324,075558,094385,083897
0000000087,0000086000,-80475,070988,090200,074162,092474,087203
0000000088,0000087000,-85364,048810,092907,073765,089817,090258
0000000089,0000088000,-81280,022027,095177,074406,086672,092761
0000000090,0000089000,-68520,-06749,096779,076022,083352,094465
0000000091,0000090000,-48387,-34694,097560,078456,080180,095204
0000000092,0000091000,-22867,-59093,097448,081471,077462,094906
0000000093,0000092000,005561,-77564,096452,084768,075468,093603
0000000094,0000093000,034086,-88265,094670,088025,074396,091419
0000000095,0000094000,059951,-90123,092269,090927,074346,088566
0000000096,0000095000,080645,-83034,089491,093188,075323,085328
0000000097,0000096000,094101,-67722,086614,094584,077233,082023
0000000098,0000097000,098961,-45519,083908,094980,079892,078968
0000000099,0000098000,094810,-18662,081637,094340,083035,076465
0000000100,0000099000,082126,010044,080035,092725,086354,074761
0000000101,0000100000,062015,037964,079254,090290,089527,074022
0000000102,0000101000,036413,062449,079365,087275,092245,074319
0000000103,0000102000,008020,080895,080361,083979,094237,075623
0000000104,0000103000,-20453,091540,082143,080722,095311,077806
0000000105,0000104000,-46395,093472,084545,077820,095361,080658
0000000106,0000105000,-67096,086397,087322,075560,094383,083896
0000000107,0000106000,-80478,071006,090199,074164,092474,087201
0000000108,0000107000,-85388,048846,092906,073767,089817,090255
0000000109,0000108000,-81288,022042,095176,074408,086673,092758
0000000110,0000109000,-68531,-06740,096779,076023,083354,094462
0000000111,0000110000,-48424,-34666,097561,078456,080183,095201
0000000112,0000111000,-22892,-59083,097450,081470,077465,094905
0000000113,0000112000,005553,-77577,096454,084766,075471,093602
0000000114,0000113000,034061,-88266,094672,088022,074399,091419
0000000115,0000114000,059933,-90129,092271,090924,074348,088567
0000000116,0000115000,080654,-83067,089493,093185,075324,085330
0000000117,0000116000,094103,-67745,086616,094581,077234,082025
0000000118,0000117000,098962,-45534,083909,094977,079891,078971
0000000119,0000118000,094840,-18698,081638,094338,083034,076468
0000000120,0000119000,082156,010015,080035,092723,086352,074764
0000000121,0000120000,062030,037959,079253,090290,089524,074025
0000000122,0000121000,036444,062438,079364,087276,092241,074322
0000000123,0000122000,008056,080883,080358,083981,094234,075624
0000000124,0000123000,-20442,091557,082141,080725,095308,077807
0000000125,0000124000,-46385,093493,084541,077824,095359,080657
0000000126,0000125000,-67080,086409,087319,075564,094382,083894
0000000127,0000126000,-80489,071040,090197,074167,092474,087199
0000000128,0000127000,-85412,048887,092904,073770,089818,090252
0000000129,0000128000,-81300,022062,095176,074410,086675,092755
0000000130,0000129000,-68559,-06715,096780,076024,083357,094458
0000000131,0000130000,-48469,-34634,097562,078455,080186,095198
0000000132,0000131000,-22920,-59076,097452,081469,077468,094902
0000000133,0000132000,005530,-77585,096457,084764,075475,093600
0000000134,0000133000,034027,-88266,094676,088019,074402,091418
0000000135,0000134000,059918,-90149,092275,090920,074351,088568
0000000136,0000135000,080660,-83106,089496,093181,075327,085332
0000000137,0000136000,094103,-67774,086619,094576,077235,082028
0000000138,0000137000,098974,-45565,083911,094974,079890,078975
0000000139,0000138000,094878,-18744,081639,094335,083032,076473
0000000140,0000139000,082190,009984,080035,092722,086349,074769
0000000141,0000140000,062059,037946,079251,090290,089520,074029
0000000142,0000141000,036490,062419,079361,087278,092237,074325
0000000143,0000142000,008095,080878,080355,083984,094229,075626
0000000144,0000143000,-20424,091579,082137,080729,095304,077807
0000000145,0000144000,-46365,093515,084537,077828,095355,080656
0000000146,0000145000,-67068,086435,087315,075568,094379,083892
0000000147,0000146000,-80505,071088,090194,074172,092473,087195
0000000148,0000147000,-85435,048934,092902,073774,089818,090247
0000000149,0000148000,-81323,022094,095175,074413,086677,092750
0000000150,0000149000,-68603,-06676,096780,076025,083361,094453
0000000151,0000150000,-48521,-34599,097564,078455,080191,095193
0000000152,0000151000,-22956,-59069,097455,081467,077474,094898
0000000153,0000152000,005490,-77586,096462,084760,075481,093598
0000000154,0000153000,033986,-88271,094680,088014,074407,091418
0000000155,0000154000,059903,-90180,092279,090915,074355,088569
0000000156,0000155000,080660,-83151,089501,093175,075329,085335
0000000157,0000156000,094105,-67812,086623,094571,077236,082033
0000000158,0000157000,098998,-45614,083914,094969,079889,078981
0000000159,0000158000,094923,-18800,081640,094332,083029,076478
0000000160,0000159000,082231,009947,080034,092720,086345,074775
0000000161,0000160000,062106,037920,079249,090290,089515,074034
0000000162,0000161000,036549,062394,079357,087280,092231,074329
0000000163,0000162000,008139,080878,080350,083988,094223,075628
0000000164,0000163000,-20395,091603,082131,080734,095298,077807
0000000165,0000164000,-46336,093541,084532,077834,095350,080655
0000000166,0000165000,-67058,086475,087310,075575,094377,083888
0000000167,0000166000,-80524,071149,090189,074178,092472,087190
0000000168,0000167000,-85460,048989,092899,073779,089819,090241
0000000169,0000168000,-81358,022142,095173,074416,086680,092743
0000000170,0000169000,-68662,-06624,096781,076027,083366,094447
0000000171,0000170000,-48581,-34561,097566,078455,080197,095188
0000000172,0000171000,-23007,-59057,097459,081465,077481,094894
0000000173,0000172000,005435,-77583,096467,084756,075488,093595
0000000174,0000173000,033940,-88284,094686,088008,074414,091417
0000000175,0000174000,059884,-90222,092285,090908,074360,088571
0000000176,0000175000,080654,-83202,089507,093168,075333,085339
0000000177,0000176000,094110,-67865,086628,094564,077237,082038
0000000178,0000177000,099033,-45680,083917,094964,079888,078987
0000000179,0000178000,094974,-18866,081641,094327,083026,076486
0000000180,0000179000,082284,009900,080033,092718,086340,074782
0000000181,0000180000,062172,037881,079246,090291,089508,074041
0000000182,0000181000,036621,062366,079353,087283,092223,074334
0000000183,0000182000,008193,080881,080345,083992,094216,075631
0000000184,0000183000,-20352,091627,082125,080741,095291,077808
0000000185,0000184000,-46301,093574,084525,077842,095344,080653
0000000186,0000185000,-67052,086530,087304,075582,094373,083884
0000000187,0000186000,-80544,071221,090184,074185,092470,087184
0000000188,0000187000,-85491,049056,092895,073786,089820,090234
0000000189,0000188000,-81408,022207,095172,074421,086684,092735
0000000190,0000189000,-68734,-06559,096781,076029,083372,094439
0000000191,0000190000,-48652,-34519,097569,078455,080204,095180
0000000192,0000191000,-23074,-59039,097464,081462,077489,094889
0000000193,0000192000,005365,-77578,096473,084750,075497,093592
0000000194,0000193000,033887,-88304,094693,088001,074422,091417
0000000195,0000194000,059858,-90272,092293,090899,074367,088573
0000000196,0000195000,080643,-83263,089514,093158,075337,085343
0000000197,0000196000,094122,-67934,086633,094556,077239,082045
0000000198,0000197000,099077,-45764,083921,094956,079887,078996
0000000199,0000198000,095033,-18943,081643,094322,083022,076495
0000000200,0000199000,082352,009841,080033,092715,086333,074791
0000000201,0000200000,062256,037830,079243,090291,089499,074049
0000000202,0000201000,036704,062336,079348,087286,092214,074340
0000000203,0000202000,008260,080886,080337,083998,094206,075635
0000000204,0000203000,-20295,091653,082116,080749,095282,077809
0000000205,0000204000,-46260,093618,084516,077851,095337,080651
0000000206,0000205000,-67045,086602,087296,075592,094368,083879
0000000207,0000206000,-80564,071307,090178,074195,092468,087176
0000000208,0000207000,-85528,049138,092891,073794,089821,090224
0000000209,0000208000,-81474,022291,095170,074427,086688,092725
0000000210,0000209000,-68820,-06482,096782,076032,083379,094429
0000000211,0000210000,-48738,-34468,097573,078455,080213,095172
0000000212,0000211000,-23161,-59013,097470,081458,077499,094882
0000000213,0000212000,005281,-77573,096481,084744,075507,093588
0000000214,0000213000,033826,-88333,094702,087992,074431,091416
0000000215,0000214000,059823,-90330,092302,090889,074374,088576
0000000216,0000215000,080628,-83335,089523,093148,075342,085349
0000000217,0000216000,094140,-68023,086640,094545,077241,082053
0000000218,0000217000,099128,-45864,083926,094948,079886,079006
0000000219,0000218000,095102,-19034,081645,094316,083017,076506
0000000220,0000219000,082437,009765,080032,092712,086325,074802
0000000221,0000220000,062358,037767,079239,090291,089489,074059
0000000222,0000221000,036802,062303,079341,087290,092203,074347
0000000223,0000222000,008343,080890,080329,084005,094195,075639
0000000224,0000223000,-20224,091682,082106,080758,095271,077810
0000000225,0000224000,-46215,093674,084506,077863,095329,080648
0000000226,0000225000,-67038,086689,087287,075604,094363,083873
0000000227,0000226000,-80585,071406,090170,074206,092466,087167
0000000228,0000227000,-85576,049239,092885,073803,089823,090213
0000000229,0000228000,-81555,022394,095168,074433,086693,092712
0000000230,0000229000,-68919,-06392,096783,076035,083387,094417
0000000231,0000230000,-48841,-34408,097577,078454,080224,095161
0000000232,0000231000,-23268,-58978,097477,081454,077512,094874
0000000233,0000232000,005182,-77569,096491,084736,075520,093583
0000000234,0000233000,033754,-88369,094713,087982,074442,091415
0000000235,0000234000,059778,-90396,092314,090877,074384,088579
0000000236,0000235000,080612,-83421,089533,093135,075349,085356
0000000237,0000236000,094164,-68131,086649,094533,077243,082063
0000000238,0000237000,099187,-45982,083932,094937,079884,079018
0000000239,0000238000,095184,-19141,081648,094308,083012,076519
0000000240,0000239000,082543,009672,080030,092709,086316,074815
0000000241,0000240000,062479,037693,079235,090292,089478,074070
0000000242,0000241000,036917,062266,079333,087294,092189,074356
0000000243,0000242000,008443,080892,080318,084014,094182,075644
0000000244,0000243000,-20139,091715,082095,080770,095259,077810
0000000245,0000244000,-46164,093743,084494,077876,095319,080644
0000000246,0000245000,-67028,086790,087276,075618,094356,083865
0000000247,0000246000,-80608,071522,090160,074219,092464,087156
0000000248,0000247000,-85635,049361,092879,073814,089825,090200
0000000249,0000248000,-81650,022516,095165,074441,086700,092698
0000000250,0000249000,-69034,-06289,096784,076039,083397,094403
0000000251,0000250000,-48964,-34335,097582,078454,080237,095149
0000000252,0000251000,-23396,-58935,097485,081449,077526,094865
0000000253,0000252000,005069,-77566,096502,084727,075534,093578
0000000254,0000253000,033669,-88411,094726,087969,074456,091414
0000000255,0000254000,059722,-90472,092327,090862,074394,088583
0000000256,0000255000,080594,-83524,089545,093120,075355,085364
0000000257,0000256000,094193,-68260,086659,094519,077245,082075
0000000258,0000257000,099254,-46119,083939,094925,079882,079033
0000000259,0000258000,095280,-19267,081651,094300,083005,076535
0000000260,0000259000,082668,009560,080029,092704,086305,074830
0000000261,0000260000,062618,037608,079229,090292,089464,074083
0000000262,0000261000,037050,062224,079324,087300,092174,074366
0000000263,0000262000,008564,080892,080306,084023,094166,075650
0000000264,0000263000,-20041,091754,082081,080783,095245,077811
0000000265,0000264000,-46105,093825,084480,077891,095308,080640
0000000266,0000265000,-67013,086907,087263,075634,094349,083856
0000000267,0000266000,-80634,071657,090150,074235,092461,087143
0000000268,0000267000,-85705,049506,092872,073827,089828,090185
0000000269,0000268000,-81759,022658,095162,074450,086707,092682
0000000270,0000269000,-69167,-06170,096786,076044,083409,094387
0000000271,0000270000,-49111,-34247,097588,078453,080252,095135
0000000272,0000271000,-23545,-58884,097495,081443,077543,094854
0000000273,0000272000,004938,-77564,096515,084717,075551,093572
0000000274,0000273000,033568,-88459,094741,087955,074471,091413
0000000275,0000274000,059656,-90558,092342,090846,074407,088587
0000000276,0000275000,080575,-83646,089559,093102,075363,085373
0000000277,0000276000,094226,-68410,086670,094503,077248,082089
0000000278,0000277000,099329,-46275,083947,094912,079879,079049
0000000279,0000278000,095393,-19414,081654,094290,082997,076552
0000000280,0000279000,082814,009429,080028,092700,086293,074847
0000000281,0000280000,062777,037511,079223,090293,089448,074098
0000000282,0000281000,037205,062174,079314,087306,092156,074377
0000000283,0000282000,008706,080889,080292,084035,094148,075657
0000000284,0000283000,-19928,091800,082065,080798,095228,077812
0000000285,0000284000,-46038,093920,084464,077909,095295,080636
0000000286,0000285000,-66994,087040,087248,075653,094340,083846
0000000287,0000286000,-80664,071812,090137,074252,092458,087129
0000000288,0000287000,-85787,049673,092863,073842,089831,090167
0000000289,0000288000,-81883,022820,095158,074461,086716,092663
0000000290,0000289000,-69318,-06034,096787,076049,083422,094368
0000000291,0000290000,-49280,-34145,097595,078452,080269,095119
0000000292,0000291000,-23715,-58825,097506,081436,077562,094842
0000000293,0000292000,004788,-77562,096529,084705,075570,093565
0000000294,0000293000,033450,-88511,094758,087939,074488,091412
0000000295,0000294000,059579,-90656,092359,090827,074421,088592
0000000296,0000295000,080554,-83786,089575,093083,075372,085384
0000000297,0000296000,094262,-68580,086684,094484,077251,082104
0000000298,0000297000,099414,-46452,083956,094896,079876,079068
0000000299,0000298000,095522,-19585,081658,094279,082988,076572
0000000300,0000299000,082980,009279,080026,092694,086278,074867
0000000301,0000300000,062958,037400,079216,090294,089430,074115
