DIgSILENT PowerFactory,21000900,2000
6,06A,00D
1,TTPP_200000_100:Secondary Voltage A,,,V,0.10000000,-8294.645508,0.000000,64755,99998,1,1,P
2,TTPP_200000_100:Secondary Voltage B,,,V,0.10000000,-8179.838867,0.000000,64893,99998,1,1,P
3,TTPP_200000_100:Secondary Voltage C,,,V,0.10000000,-8388.307617,0.000000,65337,99998,1,1,P
4,TTCC_300_1:Secondary Current A,,,A,0.00010000000,-3.366608,0.000000,-10346,99998,1,1,P
5,TTCC_300_1:Secondary Current B,,,A,0.00010000000,-5.027144,0.000000,580,99998,1,1,P
6,TTCC_300_1:Secondary Current C,,,A,0.00010000000,-4.898218,0.000000,-1814,99998,1,1,P
50
1
1000.000000,1101
30/06/2023,06:07:12.000000
30/06/2023,06:07:12.000000
ASCII
1.000000
0000000001,0000000000,090053,083273,075302,012736,036282,083902
0000000002,0000001000,087919,085990,074717,022488,027004,083427
0000000003,0000002000,085278,088321,075029,033328,020005,079586
0000000004,0000003000,082422,090000,076205,044207,015962,072750
0000000005,0000004000,079629,090862,078138,054050,015288,063581
0000000006,0000005000,077141,090853,080635,061898,018040,052981
0000000007,0000006000,075220,089967,083442,066985,023934,042001
0000000008,0000007000,074075,088260,086294,068807,032410,031703
0000000009,0000008000,073790,085921,088916,067184,042651,023086
0000000010,0000009000,074387,083199,091042,062286,053626,017008
0000000011,0000010000,075835,080328,092465,054593,064259,014068
0000000012,0000011000,077988,077591,093049,044833,073545,014541
0000000013,0000012000,080610,075282,092738,033984,080553,018383
0000000014,0000013000,083461,073607,091561,023119,084582,025219
0000000015,0000014000,086275,072724,089629,013276,085257,034388
0000000016,0000015000,088755,072741,087132,005417,082517,044987
0000000017,0000016000,090662,073641,084324,000338,076614,055968
0000000018,0000017000,091824,075332,081473,-01481,068134,066266
0000000019,0000018000,092109,077668,078850,000135,057902,074882
0000000020,0000019000,091497,080408,076724,005033,046927,080959
0000000021,0000020000,090059,083268,075301,012735,036284,083901
0000000022,0000021000,087913,085997,074717,022486,027006,083427
0000000023,0000022000,085276,088323,075029,033336,019999,079585
0000000024,0000023000,082430,089993,076205,044207,015963,072749
0000000025,0000024000,079626,090864,078138,054047,015291,063581
0000000026,0000025000,077134,090859,080635,061902,018036,052982
0000000027,0000026000,075225,089961,083441,066990,023930,042000
0000000028,0000027000,074078,088257,086294,068804,032413,031703
0000000029,0000028000,073783,085928,088916,067184,042649,023086
0000000030,0000029000,074388,083198,091042,062293,053619,017008
0000000031,0000030000,075841,080322,092464,054592,064260,014067
0000000032,0000031000,077983,077595,093049,044832,073546,014540
0000000033,0000032000,080607,075284,092738,033990,080548,018382
0000000034,0000033000,083466,073601,091561,023123,084579,025218
0000000035,0000034000,086275,072725,089629,013274,085260,034386
0000000036,0000035000,088750,072746,087132,005420,082514,044985
0000000037,0000036000,090665,073638,084325,000342,076611,055966
0000000038,0000037000,091826,075329,081473,-01480,068135,066264
0000000039,0000038000,092105,077673,078850,000135,057904,074880
0000000040,0000039000,091498,080407,076724,005037,046924,080958
0000000041,0000040000,090062,083265,075302,012735,036285,083900
0000000042,0000041000,087911,086000,074717,022486,027008,083426
0000000043,0000042000,085276,088323,075028,033337,019999,079585
0000000044,0000043000,082432,089991,076205,044207,015963,072749
0000000045,0000044000,079625,090866,078138,054046,015292,063581
0000000046,0000045000,077133,090861,080634,061903,018035,052982
0000000047,0000046000,075227,089959,083441,066989,023929,042001
0000000048,0000047000,074076,088258,086294,068804,032412,031704
0000000049,0000048000,073781,085930,088916,067186,042647,023087
0000000050,0000049000,074390,083196,091042,062293,053617,017010
0000000051,0000050000,075840,080323,092465,054592,064259,014068
0000000052,0000051000,077981,077598,093050,044836,073543,014541
0000000053,0000052000,080609,075281,092738,033993,080544,018383
0000000054,0000053000,083467,073600,091561,023124,084578,025218
0000000055,0000054000,086271,072728,089629,013278,085258,034385
0000000056,0000055000,088752,072744,087132,005425,082511,044983
0000000057,0000056000,090668,073635,084325,000343,076612,055964
0000000058,0000057000,091823,075332,081473,-01478,068136,066262
0000000059,0000058000,092105,077673,078850,000140,057902,074877
0000000060,0000059000,091502,080402,076724,005038,046926,080955
0000000061,0000060000,090060,083266,075301,012734,036289,083897
0000000062,0000061000,087908,086003,074717,022488,027008,083424
0000000063,0000062000,085280,088320,075028,033337,020000,079583
0000000064,0000063000,082433,089990,076205,044203,015968,072749
0000000065,0000064000,079621,090870,078137,054045,015293,063582
0000000066,0000065000,077135,090859,080634,061903,018033,052983
0000000067,0000066000,075230,089957,083441,066985,023931,042003
0000000068,0000067000,074072,088262,086293,068801,032412,031706
0000000069,0000068000,073780,085931,088916,067187,042642,023090
0000000070,0000069000,074393,083193,091042,062293,053614,017013
0000000071,0000070000,075837,080325,092465,054592,064257,014071
0000000072,0000071000,077978,077600,093050,044839,073537,014543
0000000073,0000072000,080612,075278,092738,033997,080539,018384
0000000074,0000073000,083466,073599,091562,023126,084576,025218
0000000075,0000074000,086268,072730,089630,013283,085254,034383
0000000076,0000075000,088754,072742,087133,005432,082507,044981
0000000077,0000076000,090670,073633,084326,000347,076612,055961
0000000078,0000077000,091821,075334,081473,-01475,068137,066257
0000000079,0000078000,092107,077672,078850,000145,057902,074873
0000000080,0000079000,091505,080399,076724,005040,046930,080950
0000000081,0000080000,090059,083268,075301,012734,036294,083893
0000000082,0000081000,087909,086003,074716,022488,027011,083421
0000000083,0000082000,085283,088317,075027,033334,020005,079581
0000000084,0000083000,082433,089992,076204,044199,015973,072748
0000000085,0000084000,079620,090872,078136,054041,015295,063583
0000000086,0000085000,077137,090858,080633,061898,018035,052986
0000000087,0000086000,075229,089958,083440,066980,023933,042008
0000000088,0000087000,074070,088265,086293,068798,032411,031711
0000000089,0000088000,073781,085931,088916,067185,042639,023096
0000000090,0000089000,074393,083193,091043,062290,053611,017019
0000000091,0000090000,075834,080328,092466,054593,064251,014076
0000000092,0000091000,077978,077600,093050,044843,073529,014547
0000000093,0000092000,080612,075277,092739,034000,080533,018386
0000000094,0000093000,083463,073601,091563,023132,084570,025218
0000000095,0000094000,086267,072730,089631,013291,085247,034381
0000000096,0000095000,088756,072738,087134,005439,082504,044977
0000000097,0000096000,090668,073633,084327,000353,076612,055955
0000000098,0000097000,091820,075334,081474,-01467,068136,066250
0000000099,0000098000,092110,077668,078850,000150,057905,074865
0000000100,0000099000,091506,080398,076724,005041,046936,080943
0000000101,0000100000,090058,083269,075301,012735,036300,083886
0000000102,0000101000,087912,086001,074715,022487,027018,083415
0000000103,0000102000,085286,088316,075026,033328,020014,079578
0000000104,0000103000,082431,089994,076202,044192,015981,072747
0000000105,0000104000,079621,090872,078134,054035,015300,063585
0000000106,0000105000,077140,090857,080631,061889,018040,052991
0000000107,0000106000,075227,089961,083439,066971,023935,042014
0000000108,0000107000,074068,088268,086292,068792,032408,031720
0000000109,0000108000,073782,085930,088915,067180,042634,023105
0000000110,0000109000,074390,083195,091043,062287,053605,017028
0000000111,0000110000,075831,080331,092466,054594,064242,014084
0000000112,0000111000,077978,077599,093052,044848,073518,014553
0000000113,0000112000,080611,075276,092741,034006,080524,018390
0000000114,0000113000,083460,073603,091565,023141,084561,025219
0000000115,0000114000,086267,072728,089633,013303,085238,034379
0000000116,0000115000,088757,072735,087136,005449,082499,044972
0000000117,0000116000,090667,073633,084328,000363,076610,055946
0000000118,0000117000,091821,075332,081475,-01457,068137,066240
0000000119,0000118000,092113,077664,078851,000156,057909,074854
0000000120,0000119000,091507,080398,076724,005044,046944,080931
0000000121,0000120000,090060,083269,075300,012735,036309,083876
0000000122,0000121000,087916,085999,074713,022483,027029,083408
0000000123,0000122000,085287,088316,075024,033321,020026,079573
0000000124,0000123000,082431,089997,076200,044183,015991,072746
0000000125,0000124000,079624,090872,078132,054023,015308,063587
0000000126,0000125000,077140,090859,080629,061876,018047,052997
0000000127,0000126000,075225,089965,083437,066959,023937,042024
0000000128,0000127000,074068,088269,086290,068783,032406,031732
0000000129,0000128000,073782,085931,088915,067172,042629,023119
0000000130,0000129000,074387,083198,091043,062283,053596,017041
0000000131,0000130000,075828,080333,092467,054595,064229,014095
0000000132,0000131000,077977,077598,093053,044852,073505,014562
0000000133,0000132000,080608,075277,092743,034014,080511,018395
0000000134,0000133000,083458,073603,091568,023153,084547,025220
0000000135,0000134000,086268,072725,089635,013317,085227,034376
0000000136,0000135000,088756,072733,087138,005463,082493,044964
0000000137,0000136000,090666,073631,084330,000378,076607,055935
0000000138,0000137000,091823,075329,081476,-01444,068138,066226
0000000139,0000138000,092116,077661,078852,000164,057917,074838
0000000140,0000139000,091508,080397,076723,005049,046955,080916
0000000141,0000140000,090063,083267,075298,012736,036322,083862
0000000142,0000141000,087920,085996,074712,022478,027046,083397
0000000143,0000142000,085288,088318,075022,033311,020043,079566
0000000144,0000143000,082433,089998,076197,044170,016005,072744
0000000145,0000144000,079626,090873,078129,054007,015321,063591
0000000146,0000145000,077140,090862,080627,061858,018056,053006
0000000147,0000146000,075224,089969,083435,066943,023940,042037
0000000148,0000147000,074068,088271,086289,068769,032403,031748
0000000149,0000148000,073779,085934,088914,067161,042622,023136
0000000150,0000149000,074382,083202,091043,062278,053583,017058
0000000151,0000150000,075826,080334,092468,054596,064212,014111
0000000152,0000151000,077974,077598,093056,044858,073487,014575
0000000153,0000152000,080604,075278,092746,034025,080492,018402
0000000154,0000153000,083456,073601,091571,023170,084529,025221
0000000155,0000154000,086267,072722,089639,013335,085214,034371
0000000156,0000155000,088755,072731,087142,005483,082484,044954
0000000157,0000156000,090667,073628,084333,000398,076602,055920
0000000158,0000157000,091826,075324,081478,-01428,068140,066207
0000000159,0000158000,092118,077658,078852,000176,057926,074818
0000000160,0000159000,091510,080395,076723,005055,046969,080896
0000000161,0000160000,090068,083263,075297,012736,036340,083844
0000000162,0000161000,087924,085995,074709,022470,027067,083383
0000000163,0000162000,085291,088319,075018,033298,020064,079558
0000000164,0000163000,082437,089999,076193,044153,016024,072742
0000000165,0000164000,079629,090874,078125,053986,015337,063596
0000000166,0000165000,077139,090866,080623,061836,018067,053017
0000000167,0000166000,075223,089973,083432,066923,023943,042054
0000000168,0000167000,074066,088275,086287,068751,032400,031769
0000000169,0000168000,073775,085939,088914,067148,042613,023159
0000000170,0000169000,074378,083206,091044,062272,053567,017081
0000000171,0000170000,075823,080335,092470,054597,064191,014131
0000000172,0000171000,077969,077600,093059,044865,073464,014590
0000000173,0000172000,080599,075279,092750,034040,080468,018412
0000000174,0000173000,083454,073599,091575,023190,084506,025223
0000000175,0000174000,086266,072719,089643,013359,085196,034366
0000000176,0000175000,088753,072729,087146,005508,082472,044940
0000000177,0000176000,090668,073623,084336,000422,076597,055901
0000000178,0000177000,091830,075318,081480,-01408,068144,066183
0000000179,0000178000,092120,077654,078853,000190,057937,074792
0000000180,0000179000,091515,080391,076722,005063,046986,080870
0000000181,0000180000,090074,083259,075295,012735,036363,083821
0000000182,0000181000,087928,085994,074706,022461,027094,083365
0000000183,0000182000,085294,088320,075014,033282,020091,079547
0000000184,0000183000,082441,089999,076188,044131,016049,072740
0000000185,0000184000,079630,090878,078120,053959,015358,063603
0000000186,0000185000,077139,090871,080618,061808,018080,053032
0000000187,0000186000,075223,089978,083428,066897,023948,042075
0000000188,0000187000,074064,088279,086284,068728,032397,031795
0000000189,0000188000,073770,085945,088912,067132,042601,023188
0000000190,0000189000,074373,083210,091044,062264,053546,017109
0000000191,0000190000,075818,080338,092473,054598,064165,014157
0000000192,0000191000,077963,077602,093063,044875,073435,014609
0000000193,0000192000,080594,075279,092755,034059,080437,018423
0000000194,0000193000,083451,073596,091581,023215,084479,025226
0000000195,0000194000,086263,072716,089649,013388,085174,034358
0000000196,0000195000,088752,072725,087151,005539,082456,044924
0000000197,0000196000,090671,073617,084340,000452,076591,055877
0000000198,0000197000,091832,075312,081483,-01383,068148,066154
0000000199,0000198000,092124,077649,078855,000209,057951,074760
0000000200,0000199000,091521,080386,076721,005073,047008,080839
0000000201,0000200000,090080,083256,075292,012734,036392,083794
0000000202,0000201000,087933,085993,074702,022450,027126,083344
0000000203,0000202000,085300,088320,075008,033262,020123,079535
0000000204,0000203000,082446,090001,076182,044103,016079,072738
0000000205,0000204000,079632,090882,078114,053926,015383,063610
0000000206,0000205000,077139,090877,080612,061774,018096,053050
0000000207,0000206000,075222,089983,083423,066864,023954,042101
0000000208,0000207000,074060,088286,086281,068700,032393,031828
0000000209,0000208000,073765,085952,088911,067112,042585,023223
0000000210,0000209000,074368,083215,091045,062254,053522,017144
0000000211,0000210000,075811,080342,092475,054598,064134,014187
0000000212,0000211000,077956,077605,093067,044887,073399,014633
0000000213,0000212000,080589,075279,092761,034082,080401,018437
0000000214,0000213000,083446,073594,091588,023246,084446,025228
0000000215,0000214000,086259,072712,089656,013424,085147,034349
0000000216,0000215000,088752,072719,087157,005577,082438,044904
0000000217,0000216000,090673,073610,084346,000487,076584,055848
0000000218,0000217000,091836,075305,081487,-01353,068154,066118
0000000219,0000218000,092129,077643,078856,000231,057967,074721
0000000220,0000219000,091529,080379,076720,005084,047035,080801
0000000221,0000220000,090087,083251,075289,012733,036427,083760
0000000222,0000221000,087940,085991,074697,022437,027165,083318
0000000223,0000222000,085307,088319,075002,033238,020162,079519
0000000224,0000223000,082451,090003,076174,044069,016116,072735
0000000225,0000224000,079635,090887,078106,053887,015412,063620
0000000226,0000225000,077140,090883,080605,061734,018115,053071
0000000227,0000226000,075221,089990,083417,066825,023962,042133
0000000228,0000227000,074056,088295,086277,068667,032387,031866
0000000229,0000228000,073759,085959,088909,067089,042566,023265
0000000230,0000229000,074361,083220,091046,062242,053492,017185
0000000231,0000230000,075803,080347,092479,054599,064097,014224
0000000232,0000231000,077948,077608,093072,044902,073356,014661
0000000233,0000232000,080582,075278,092768,034109,080357,018454
0000000234,0000233000,083441,073591,091596,023282,084407,025232
0000000235,0000234000,086255,072708,089664,013466,085115,034339
0000000236,0000235000,088751,072712,087165,005622,082417,044881
0000000237,0000236000,090675,073601,084352,000529,076577,055814
0000000238,0000237000,091839,075297,081491,-01317,068160,066076
0000000239,0000238000,092136,077634,078858,000257,057987,074675
0000000240,0000239000,091537,080372,076719,005097,047067,080756
0000000241,0000240000,090096,083247,075286,012731,036468,083720
0000000242,0000241000,087948,085989,074691,022421,027211,083288
0000000243,0000242000,085315,088319,074994,033209,020209,079502
0000000244,0000243000,082456,090006,076166,044029,016159,072731
0000000245,0000244000,079638,090893,078097,053841,015446,063632
0000000246,0000245000,077142,090890,080597,061685,018137,053097
0000000247,0000246000,075218,089999,083411,066779,023971,042170
0000000248,0000247000,074051,088305,086272,068628,032380,031912
0000000249,0000248000,073752,085968,088907,067061,042545,023315
0000000250,0000249000,074353,083228,091047,062228,053458,017234
0000000251,0000250000,075792,080353,092483,054601,064052,014266
0000000252,0000251000,077938,077611,093079,044920,073306,014693
0000000253,0000252000,080574,075277,092777,034140,080307,018473
0000000254,0000253000,083434,073588,091606,023324,084360,025235
0000000255,0000254000,086251,072702,089674,013517,085077,034326
0000000256,0000255000,088751,072703,087174,005675,082392,044853
0000000257,0000256000,090677,073592,084359,000579,076568,055773
0000000258,0000257000,091844,075288,081496,-01275,068167,066027
0000000259,0000258000,092144,077624,078860,000287,058010,074622
0000000260,0000259000,091546,080363,076718,005111,047104,080704
0000000261,0000260000,090105,083241,075281,012729,036516,083674
0000000262,0000261000,087959,085985,074684,022403,027265,083253
0000000263,0000262000,085325,088318,074985,033175,020264,079481
0000000264,0000263000,082463,090010,076155,043983,016209,072727
0000000265,0000264000,079643,090899,078086,053788,015486,063645
0000000266,0000265000,077143,090898,080587,061629,018164,053127
0000000267,0000266000,075216,090010,083403,066725,023981,042214
0000000268,0000267000,074045,088316,086267,068584,032372,031965
0000000269,0000268000,073745,085978,088905,067029,042519,023372
0000000270,0000269000,074342,083237,091049,062212,053418,017290
0000000271,0000270000,075781,080360,092487,054604,064001,014315
0000000272,0000271000,077928,077614,093086,044940,073248,014731
0000000273,0000272000,080564,075277,092786,034176,080249,018495
0000000274,0000273000,083426,073585,091617,023374,084307,025239
0000000275,0000274000,086247,072695,089686,013574,085034,034312
0000000276,0000275000,088750,072693,087185,005735,082364,044821
0000000277,0000276000,090679,073581,084368,000636,076557,055727
0000000278,0000277000,091850,075276,081502,-01227,068176,065970
0000000279,0000278000,092153,077613,078862,000321,058037,074561
0000000280,0000279000,091557,080354,076717,005128,047148,080644
0000000281,0000280000,090117,083234,075276,012727,036571,083622
0000000282,0000281000,087971,085981,074676,022381,027326,083213
0000000283,0000282000,085335,088318,074974,033136,020327,079457
0000000284,0000283000,082471,090014,076143,043931,016266,072723
0000000285,0000284000,079648,090906,078074,053726,015532,063661
0000000286,0000285000,077145,090908,080576,061564,018194,053161
0000000287,0000286000,075213,090022,083393,066665,023992,042263
0000000288,0000287000,074039,088328,086260,068533,032362,032025
0000000289,0000288000,073735,085990,088902,066992,042490,023437
0000000290,0000289000,074330,083248,091050,062194,053372,017353
0000000291,0000290000,075768,080368,092492,054606,063941,014371
0000000292,0000291000,077915,077618,093095,044963,073182,014774
0000000293,0000292000,080553,075278,092798,034218,080182,018520
0000000294,0000293000,083417,073582,091630,023430,084246,025243
0000000295,0000294000,086241,072687,089699,013640,084985,034295
0000000296,0000295000,088748,072683,087197,005803,082332,044785
0000000297,0000296000,090681,073569,084378,000700,076546,055673
0000000298,0000297000,091857,075262,081509,-01172,068186,065906
0000000299,0000298000,092163,077600,078865,000360,058069,074491
0000000300,0000299000,091569,080343,076716,005147,047197,080576
0000000301,0000300000,090131,083226,075271,012724,036634,083562
