DIgSILENT PowerFactory,21000900,2000
6,06A,00D
1,TTPP_200000_100:Secondary Voltage A,,,V,0.010000000,-67.888412,0.000000,-86352,99998,1,1,P
2,TTPP_200000_100:Secondary Voltage B,,,V,0.010000000,-19.454206,0.000000,-93316,99998,1,1,P
3,TTPP_200000_100:Secondary Voltage C,,,V,0.10000000,-8993.536133,0.000000,79872,99998,1,1,P
4,TTCC_500_5:Secondary Current A,,,A,0.0010000000,-83.409416,0.000000,58346,99998,1,1,P
5,TTCC_500_5:Secondary Current B,,,A,0.0010000000,-84.800949,0.000000,69595,99998,1,1,P
6,TTCC_500_5:Secondary Current C,,,A,0.0010000000,-84.637474,0.000000,69258,99998,1,1,P
50
1
1000.000000,1101
30/06/2023,06:04:57.000000
30/06/2023,06:04:57.000000
ASCII
1.000000
0000000001,0000000000,061935,038321,080783,089327,089478,074043
0000000002,0000001000,036470,062649,080896,086312,092195,074341
0000000003,0000002000,007921,081236,081893,083014,094189,075645
0000000004,0000003000,-20570,091892,083676,079757,095261,077830
0000000005,0000004000,-46307,093630,086077,076855,095309,080684
0000000006,0000005000,-67067,086603,088854,074591,094334,083923
0000000007,0000006000,-80546,071330,091730,073195,092423,087230
0000000008,0000007000,-85353,049074,094436,072802,089761,090285
0000000009,0000008000,-81219,022237,096706,073442,086617,092789
0000000010,0000009000,-68545,-06439,098307,075059,083297,094492
0000000011,0000010000,-48374,-34410,099087,077496,080122,095231
0000000012,0000011000,-22750,-58901,098974,080510,077405,094933
0000000013,0000012000,005557,-77255,097978,083806,075413,093629
0000000014,0000013000,034021,-87884,096195,087067,074338,091444
0000000015,0000014000,060019,-89878,093794,089970,074288,088590
0000000016,0000015000,080673,-82753,091017,092229,075268,085350
0000000017,0000016000,094031,-67343,088140,093626,077179,082044
0000000018,0000017000,098988,-45238,085434,094022,079837,078989
0000000019,0000018000,094821,-18379,083165,093378,082985,076485
0000000020,0000019000,082009,010436,081564,091763,086303,074781
0000000021,0000020000,061978,038276,080784,089330,089475,074043
0000000022,0000021000,036450,062670,080896,086311,092196,074341
0000000023,0000022000,007960,081207,081893,083013,094190,075645
0000000024,0000023000,-20517,091855,083675,079757,095261,077830
0000000025,0000024000,-46360,093684,086077,076853,095311,080684
0000000026,0000025000,-67112,086655,088855,074591,094333,083923
0000000027,0000026000,-80527,071309,091731,073197,092421,087230
0000000028,0000027000,-85307,049034,094436,072801,089762,090285
0000000029,0000028000,-81214,022242,096706,073440,086619,092789
0000000030,0000029000,-68558,-06418,098307,075058,083297,094492
0000000031,0000030000,-48372,-34410,099087,077494,080123,095231
0000000032,0000031000,-22790,-58867,098975,080509,077405,094933
0000000033,0000032000,005551,-77249,097979,083807,075412,093629
0000000034,0000033000,034087,-87949,096195,087066,074338,091444
0000000035,0000034000,060021,-89875,093794,089967,074290,088590
0000000036,0000035000,080630,-82711,091017,092228,075269,085351
0000000037,0000036000,094038,-67349,088140,093626,077178,082044
0000000038,0000037000,098985,-45242,085435,094021,079838,078989
0000000039,0000038000,094817,-18379,083165,093378,082984,076485
0000000040,0000039000,082047,010404,081563,091763,086303,074782
0000000041,0000040000,061991,038263,080783,089328,089477,074043
0000000042,0000041000,036415,062706,080896,086310,092196,074341
0000000043,0000042000,007941,081224,081892,083014,094189,075645
0000000044,0000043000,-20489,091827,083675,079757,095261,077830
0000000045,0000044000,-46350,093675,086076,076853,095312,080684
0000000046,0000045000,-67119,086668,088854,074591,094333,083923
0000000047,0000046000,-80513,071299,091730,073197,092421,087230
0000000048,0000047000,-85327,049052,094436,072800,089763,090285
0000000049,0000048000,-81250,022276,096706,073441,086618,092788
0000000050,0000049000,-68535,-06445,098307,075058,083297,094492
0000000051,0000050000,-48350,-34432,099087,077493,080124,095231
0000000052,0000051000,-22817,-58843,098975,080508,077407,094933
0000000053,0000052000,005543,-77243,097979,083807,075413,093629
0000000054,0000053000,034088,-87958,096195,087065,074339,091444
0000000055,0000054000,060000,-89863,093795,089967,074290,088591
0000000056,0000055000,080635,-82720,091017,092228,075269,085351
0000000057,0000056000,094070,-67384,088140,093624,077179,082045
0000000058,0000057000,098978,-45237,085435,094020,079838,078990
0000000059,0000058000,094791,-18355,083165,093378,082984,076486
0000000060,0000059000,082064,010388,081564,091763,086302,074783
0000000061,0000060000,062008,038246,080783,089328,089476,074044
0000000062,0000061000,036410,062718,080896,086311,092195,074342
0000000063,0000062000,007962,081212,081891,083014,094188,075646
0000000064,0000063000,-20473,091820,083674,079757,095261,077831
0000000065,0000064000,-46377,093708,086076,076853,095311,080684
0000000066,0000065000,-67121,086677,088853,074593,094333,083923
0000000067,0000066000,-80486,071278,091729,073197,092421,087229
0000000068,0000067000,-85336,049065,094436,072800,089763,090284
0000000069,0000068000,-81267,022298,096706,073441,086619,092788
0000000070,0000069000,-68530,-06450,098307,075058,083298,094491
0000000071,0000070000,-48366,-34421,099088,077493,080125,095230
0000000072,0000071000,-22843,-58824,098976,080508,077407,094932
0000000073,0000072000,005555,-77261,097979,083806,075414,093628
0000000074,0000073000,034096,-87975,096196,087063,074341,091444
0000000075,0000074000,059973,-89846,093796,089965,074292,088591
0000000076,0000075000,080630,-82723,091018,092227,075269,085352
0000000077,0000076000,094086,-67410,088141,093623,077179,082046
0000000078,0000077000,098973,-45239,085436,094018,079838,078991
0000000079,0000078000,094798,-18364,083166,093377,082983,076488
0000000080,0000079000,082095,010359,081563,091762,086302,074784
0000000081,0000080000,062010,038248,080783,089327,089475,074045
0000000082,0000081000,036403,062732,080895,086311,092194,074343
0000000083,0000082000,007988,081197,081890,083015,094186,075646
0000000084,0000083000,-20456,091813,083673,079758,095260,077831
0000000085,0000084000,-46385,093730,086075,076854,095310,080683
0000000086,0000085000,-67113,086683,088852,074594,094332,083922
0000000087,0000086000,-80481,071283,091728,073199,092421,087228
0000000088,0000087000,-85361,049095,094435,072801,089764,090283
0000000089,0000088000,-81278,022313,096705,073443,086619,092786
0000000090,0000089000,-68524,-06457,098307,075059,083300,094490
0000000091,0000090000,-48388,-34405,099088,077492,080127,095228
0000000092,0000091000,-22871,-58805,098977,080507,077409,094931
0000000093,0000092000,005552,-77272,097981,083805,075415,093628
0000000094,0000093000,034083,-87980,096198,087061,074343,091444
0000000095,0000094000,059953,-89843,093798,089963,074293,088591
0000000096,0000095000,080641,-82749,091019,092225,075270,085353
0000000097,0000096000,094097,-67435,088143,093620,077180,082048
0000000098,0000097000,098964,-45239,085437,094017,079838,078993
0000000099,0000098000,094811,-18381,083166,093376,082982,076490
0000000100,0000099000,082126,010329,081563,091761,086300,074786
0000000101,0000100000,062021,038243,080782,089327,089474,074047
0000000102,0000101000,036418,062731,080894,086312,092192,074344
0000000103,0000102000,008019,081183,081889,083016,094184,075647
0000000104,0000103000,-20449,091824,083671,079759,095258,077831
0000000105,0000104000,-46388,093754,086072,076857,095308,080683
0000000106,0000105000,-67097,086687,088850,074597,094330,083921
0000000107,0000106000,-80479,071297,091727,073201,092421,087226
0000000108,0000107000,-85384,049131,094434,072803,089764,090280
0000000109,0000108000,-81291,022332,096704,073444,086620,092783
0000000110,0000109000,-68536,-06447,098307,075059,083302,094487
0000000111,0000110000,-48424,-34380,099089,077492,080130,095226
0000000112,0000111000,-22895,-58795,098978,080507,077412,094930
0000000113,0000112000,005545,-77286,097983,083803,075418,093627
0000000114,0000113000,034059,-87981,096201,087058,074346,091444
0000000115,0000114000,059932,-89847,093800,089960,074295,088592
0000000116,0000115000,080648,-82779,091022,092222,075271,085355
0000000117,0000116000,094102,-67462,088145,093617,077180,082050
0000000118,0000117000,098966,-45256,085438,094014,079838,078996
0000000119,0000118000,094839,-18414,083166,093374,082980,076493
0000000120,0000119000,082156,010300,081563,091760,086298,074790
0000000121,0000120000,062036,038239,080781,089327,089471,074050
0000000122,0000121000,036447,062721,080892,086313,092188,074346
0000000123,0000122000,008056,081171,081886,083018,094181,075649
0000000124,0000123000,-20435,091839,083669,079762,095255,077831
0000000125,0000124000,-46380,093777,086069,076860,095306,080682
0000000126,0000125000,-67083,086701,088847,074600,094329,083919
0000000127,0000126000,-80488,071329,091725,073204,092421,087223
0000000128,0000127000,-85409,049172,094432,072806,089765,090277
0000000129,0000128000,-81304,022354,096704,073446,086622,092779
0000000130,0000129000,-68562,-06425,098308,075060,083305,094483
0000000131,0000130000,-48468,-34348,099091,077492,080133,095223
0000000132,0000131000,-22925,-58786,098980,080505,077416,094927
0000000133,0000132000,005523,-77293,097986,083800,075423,093625
0000000134,0000133000,034027,-87983,096204,087055,074349,091443
0000000135,0000134000,059916,-89865,093803,089956,074298,088593
0000000136,0000135000,080654,-82819,091025,092217,075273,085357
0000000137,0000136000,094104,-67492,088148,093613,077181,082053
0000000138,0000137000,098976,-45285,085440,094011,079837,079000
0000000139,0000138000,094876,-18459,083167,093372,082978,076498
0000000140,0000139000,082192,010266,081563,091759,086295,074794
0000000141,0000140000,062066,038224,080780,089327,089467,074054
0000000142,0000141000,036491,062703,080889,086315,092183,074349
0000000143,0000142000,008096,081165,081883,083021,094176,075651
0000000144,0000143000,-20417,091860,083665,079766,095250,077832
0000000145,0000144000,-46361,093801,086065,076865,095302,080681
0000000146,0000145000,-67069,086726,088843,074605,094326,083916
0000000147,0000146000,-80503,071375,091721,073208,092420,087219
0000000148,0000147000,-85434,049221,094430,072810,089765,090272
0000000149,0000148000,-81328,022387,096703,073449,086624,092774
0000000150,0000149000,-68605,-06388,098308,075061,083308,094478
0000000151,0000150000,-48520,-34314,099092,077492,080138,095218
0000000152,0000151000,-22963,-58778,098983,080504,077421,094923
0000000153,0000152000,005485,-77297,097990,083797,075428,093623
0000000154,0000153000,033986,-87988,096209,087050,074354,091443
0000000155,0000154000,059899,-89894,093808,089951,074302,088595
0000000156,0000155000,080655,-82864,091030,092211,075276,085360
0000000157,0000156000,094107,-67532,088151,093607,077183,082058
0000000158,0000157000,098999,-45332,085442,094006,079836,079006
0000000159,0000158000,094920,-18514,083168,093368,082976,076504
0000000160,0000159000,082235,010228,081562,091757,086291,074800
0000000161,0000160000,062111,038199,080777,089327,089461,074059
0000000162,0000161000,036550,062680,080886,086317,092177,074353
0000000163,0000162000,008143,081162,081878,083025,094170,075653
0000000164,0000163000,-20388,091884,083659,079771,095245,077832
0000000165,0000164000,-46334,093828,086060,076871,095297,080679
0000000166,0000165000,-67058,086765,088838,074611,094324,083913
0000000167,0000166000,-80521,071434,091717,073214,092419,087214
0000000168,0000167000,-85461,049277,094427,072816,089766,090266
0000000169,0000168000,-81363,022434,096701,073453,086627,092768
0000000170,0000169000,-68662,-06337,098309,075063,083313,094472
0000000171,0000170000,-48582,-34274,099095,077492,080144,095212
0000000172,0000171000,-23014,-58765,098987,080501,077428,094919
0000000173,0000172000,005432,-77296,097995,083792,075435,093621
0000000174,0000173000,033939,-88000,096215,087045,074361,091442
0000000175,0000174000,059878,-89934,093814,089944,074307,088596
0000000176,0000175000,080651,-82917,091035,092204,075280,085364
0000000177,0000176000,094113,-67585,088156,093600,077184,082063
0000000178,0000177000,099032,-45397,085446,094000,079835,079013
0000000179,0000178000,094973,-18581,083170,093364,082973,076511
0000000180,0000179000,082288,010180,081562,091755,086286,074807
0000000181,0000180000,062175,038162,080775,089327,089455,074066
0000000182,0000181000,036621,062652,080881,086320,092170,074358
0000000183,0000182000,008198,081164,081873,083029,094163,075656
0000000184,0000183000,-20346,091909,083653,079778,095238,077833
0000000185,0000184000,-46300,093863,086053,076879,095291,080678
0000000186,0000185000,-67050,086819,088832,074619,094320,083909
0000000187,0000186000,-80541,071507,091712,073222,092417,087208
0000000188,0000187000,-85493,049346,094423,072822,089767,090258
0000000189,0000188000,-81412,022498,096700,073458,086631,092759
0000000190,0000189000,-68734,-06273,098309,075065,083319,094463
0000000191,0000190000,-48655,-34230,099098,077491,080151,095205
0000000192,0000191000,-23081,-58747,098992,080498,077436,094914
0000000193,0000192000,005363,-77292,098002,083787,075444,093617
0000000194,0000193000,033885,-88019,096222,087037,074369,091442
0000000195,0000194000,059852,-89984,093822,089936,074313,088598
0000000196,0000195000,080641,-82979,091042,092195,075284,085369
0000000197,0000196000,094124,-67654,088162,093592,077186,082070
0000000198,0000197000,099075,-45479,085450,093993,079834,079021
0000000199,0000198000,095033,-18660,083172,093359,082969,076520
0000000200,0000199000,082356,010120,081561,091752,086280,074816
0000000201,0000200000,062258,038113,080771,089328,089446,074074
0000000202,0000201000,036706,062621,080876,086323,092160,074365
0000000203,0000202000,008266,081167,081865,083035,094153,075660
0000000204,0000203000,-20291,091937,083644,079786,095229,077833
0000000205,0000204000,-46260,093907,086044,076888,095284,080675
0000000206,0000205000,-67042,086889,088824,074629,094315,083903
0000000207,0000206000,-80562,071593,091706,073232,092416,087201
0000000208,0000207000,-85531,049429,094419,072830,089769,090249
0000000209,0000208000,-81476,022581,096698,073463,086635,092749
0000000210,0000209000,-68819,-06196,098310,075068,083326,094454
0000000211,0000210000,-48742,-34178,099101,077491,080160,095196
0000000212,0000211000,-23166,-58722,098998,080495,077447,094907
0000000213,0000212000,005280,-77288,098010,083780,075454,093613
0000000214,0000213000,033822,-88047,096231,087029,074378,091441
0000000215,0000214000,059817,-90042,093831,089925,074321,088601
0000000216,0000215000,080628,-83052,091051,092184,075289,085374
0000000217,0000216000,094141,-67742,088169,093582,077187,082079
0000000218,0000217000,099126,-45579,085454,093984,079832,079031
0000000219,0000218000,095104,-18752,083174,093353,082964,076531
0000000220,0000219000,082442,010045,081560,091749,086272,074827
0000000221,0000220000,062359,038051,080768,089328,089436,074083
0000000222,0000221000,036805,062587,080869,086327,092149,074372
0000000223,0000222000,008349,081171,081857,083042,094142,075664
0000000224,0000223000,-20221,091967,083634,079795,095218,077834
0000000225,0000224000,-46214,093962,086034,076900,095276,080672
0000000226,0000225000,-67034,086975,088815,074641,094310,083897
0000000227,0000226000,-80584,071694,091698,073243,092414,087191
0000000228,0000227000,-85579,049531,094413,072840,089770,090238
0000000229,0000228000,-81555,022682,096696,073470,086641,092737
0000000230,0000229000,-68920,-06105,098311,075072,083335,094442
0000000231,0000230000,-48846,-34117,099105,077491,080171,095186
0000000232,0000231000,-23272,-58688,099005,080490,077459,094899
0000000233,0000232000,005181,-77283,098019,083773,075467,093609
0000000234,0000233000,033749,-88081,096242,087018,074389,091440
0000000235,0000234000,059773,-90109,093842,089913,074330,088604
0000000236,0000235000,080612,-83140,091061,092171,075295,085381
0000000237,0000236000,094163,-67849,088178,093570,077190,082089
0000000238,0000237000,099185,-45698,085460,093974,079830,079043
0000000239,0000238000,095187,-18860,083176,093345,082958,076545
0000000240,0000239000,082546,009953,081559,091745,086263,074840
0000000241,0000240000,062479,037978,080763,089329,089424,074095
0000000242,0000241000,036920,062549,080862,086331,092136,074381
0000000243,0000242000,008449,081174,081847,083051,094128,075669
0000000244,0000243000,-20137,092001,083623,079807,095206,077835
0000000245,0000244000,-46161,094030,086022,076913,095266,080669
0000000246,0000245000,-67024,087076,088804,074655,094303,083890
0000000247,0000246000,-80608,071811,091688,073256,092411,087181
0000000248,0000247000,-85637,049652,094407,072851,089772,090225
0000000249,0000248000,-81650,022804,096693,073478,086647,092723
0000000250,0000249000,-69036,-06001,098313,075076,083345,094428
0000000251,0000250000,-48970,-34043,099110,077490,080184,095174
0000000252,0000251000,-23399,-58647,099014,080485,077473,094890
0000000253,0000252000,005066,-77280,098030,083763,075481,093603
0000000254,0000253000,033663,-88123,096255,087006,074403,091439
0000000255,0000254000,059718,-90186,093855,089899,074341,088608
0000000256,0000255000,080594,-83243,091074,092156,075302,085389
0000000257,0000256000,094191,-67977,088187,093555,077192,082100
0000000258,0000257000,099253,-45835,085467,093962,079828,079058
0000000259,0000258000,095283,-18987,083179,093337,082951,076560
0000000260,0000259000,082670,009842,081557,091741,086252,074855
0000000261,0000260000,062619,037892,080757,089329,089410,074108
0000000262,0000261000,037055,062505,080853,086337,092121,074391
0000000263,0000262000,008569,081174,081834,083060,094113,075675
0000000264,0000263000,-20039,092041,083609,079820,095192,077836
0000000265,0000264000,-46102,094111,086008,076928,095255,080665
0000000266,0000265000,-67010,087193,088791,074671,094296,083881
0000000267,0000266000,-80635,071946,091677,073271,092408,087168
0000000268,0000267000,-85706,049796,094400,072864,089775,090209
0000000269,0000268000,-81759,022945,096690,073487,086654,092706
0000000270,0000269000,-69169,-05881,098314,075080,083356,094412
0000000271,0000270000,-49115,-33957,099116,077489,080199,095160
0000000272,0000271000,-23547,-58597,099023,080479,077490,094879
0000000273,0000272000,004934,-77277,098043,083753,075498,093597
0000000274,0000273000,033562,-88170,096269,086991,074418,091438
0000000275,0000274000,059653,-90273,093871,089882,074353,088612
0000000276,0000275000,080574,-83363,091088,092139,075310,085399
0000000277,0000276000,094224,-68125,088199,093539,077195,082114
0000000278,0000277000,099329,-45992,085475,093948,079826,079074
0000000279,0000278000,095396,-19134,083183,093327,082943,076578
0000000280,0000279000,082815,009712,081556,091736,086239,074872
0000000281,0000280000,062779,037794,080751,089330,089394,074123
0000000282,0000281000,037210,062455,080842,086343,092103,074402
0000000283,0000282000,008709,081173,081821,083072,094095,075681
0000000284,0000283000,-19926,092087,083593,079835,095175,077837
0000000285,0000284000,-46033,094205,085992,076946,095242,080660
0000000286,0000285000,-66991,087326,088775,074689,094287,083871
0000000287,0000286000,-80665,072102,091665,073289,092405,087154
0000000288,0000287000,-85787,049962,094391,072878,089778,090192
0000000289,0000288000,-81883,023108,096686,073497,086663,092688
0000000290,0000289000,-69322,-05744,098315,075085,083370,094393
0000000291,0000290000,-49284,-33855,099123,077488,080216,095144
0000000292,0000291000,-23717,-58538,099035,080472,077509,094867
0000000293,0000292000,004784,-77274,098058,083741,075517,093590
0000000294,0000293000,033445,-88223,096286,086975,074435,091437
0000000295,0000294000,059577,-90372,093888,089863,074367,088617
0000000296,0000295000,080552,-83503,091104,092119,075319,085409
0000000297,0000296000,094260,-68296,088213,093521,077198,082129
0000000298,0000297000,099414,-46170,085485,093933,079823,079093
0000000299,0000298000,095525,-19304,083187,093316,082934,076598
0000000300,0000299000,082981,009563,081554,091731,086225,074892
0000000301,0000300000,062961,037683,080744,089331,089376,074140
