DIgSILENT PowerFactory,21000900,2000
6,06A,00D
1,TTPP_200000_100:Secondary Voltage A,,,V,0.10000000,-8354.172852,0.000000,64724,99998,1,1,P
2,TTPP_200000_100:Secondary Voltage B,,,V,0.10000000,-8194.170898,0.000000,65659,99998,1,1,P
3,TTPP_200000_100:Secondary Voltage C,,,V,0.10000000,-8367.720703,0.000000,64004,99998,1,1,P
4,TTCC_300_1:Secondary Current A,,,A,0.00010000000,-3.226887,0.000000,-12475,99998,1,1,P
5,TTCC_300_1:Secondary Current B,,,A,0.00010000000,-5.024147,0.000000,489,99998,1,1,P
6,TTCC_300_1:Secondary Current C,,,A,0.00010000000,-4.892220,0.000000,-1912,99998,1,1,P
50
1
1000.000000,1101
30/06/2023,06:08:03.000000
30/06/2023,06:08:03.000000
ASCII
1.000000
0000000001,0000000000,090648,083416,075096,011339,036252,083842
0000000002,0000001000,088514,086134,074511,021091,026975,083367
0000000003,0000002000,085873,088464,074823,031932,019976,079526
0000000004,0000003000,083017,090144,075999,042810,015932,072691
0000000005,0000004000,080224,091005,077932,052653,015258,063521
0000000006,0000005000,077736,090997,080429,060501,018011,052922
0000000007,0000006000,075815,090110,083236,065588,023905,041941
0000000008,0000007000,074670,088403,086088,067411,032379,031643
0000000009,0000008000,074385,086064,088710,065786,042621,023026
0000000010,0000009000,074982,083342,090836,060888,053596,016948
0000000011,0000010000,076431,080471,092259,053195,064230,014008
0000000012,0000011000,078583,077734,092844,043436,073514,014481
0000000013,0000012000,081205,075425,092532,032587,080522,018323
0000000014,0000013000,084056,073750,091354,021721,084552,025159
0000000015,0000014000,086871,072867,089423,011878,085227,034327
0000000016,0000015000,089350,072885,086926,004020,082487,044927
0000000017,0000016000,091257,073785,084118,-01060,076584,055908
0000000018,0000017000,092419,075475,081267,-02878,068105,066206
0000000019,0000018000,092704,077812,078644,-01262,057873,074822
0000000020,0000019000,092092,080551,076518,003637,046896,080899
0000000021,0000020000,090654,083411,075096,011338,036254,083841
0000000022,0000021000,088508,086141,074512,021089,026977,083367
0000000023,0000022000,085871,088466,074823,031939,019969,079525
0000000024,0000023000,083025,090136,075999,042810,015933,072689
0000000025,0000024000,080222,091007,077932,052650,015260,063521
0000000026,0000025000,077729,091003,080429,060505,018006,052922
0000000027,0000026000,075821,090105,083236,065592,023900,041940
0000000028,0000027000,074673,088400,086088,067407,032383,031643
0000000029,0000028000,074378,086072,088711,065787,042620,023026
0000000030,0000029000,074983,083341,090836,060895,053589,016948
0000000031,0000030000,076436,080466,092258,053195,064230,014007
0000000032,0000031000,078579,077739,092843,043435,073516,014481
0000000033,0000032000,081202,075427,092532,032592,080518,018322
0000000034,0000033000,084062,073744,091355,021726,084549,025158
0000000035,0000034000,086870,072868,089423,011876,085230,034326
0000000036,0000035000,089345,072889,086926,004023,082484,044925
0000000037,0000036000,091261,073781,084119,-01056,076581,055907
0000000038,0000037000,092421,075473,081267,-02878,068105,066204
0000000039,0000038000,092701,077816,078644,-01262,057874,074820
0000000040,0000039000,092093,080550,076518,003640,046894,080898
0000000041,0000040000,090657,083408,075096,011338,036255,083840
0000000042,0000041000,088506,086143,074511,021089,026978,083366
0000000043,0000042000,085871,088467,074822,031940,019969,079525
0000000044,0000043000,083027,090134,075999,042810,015933,072689
0000000045,0000044000,080220,091009,077932,052649,015262,063521
0000000046,0000045000,077728,091004,080428,060505,018005,052922
0000000047,0000046000,075823,090103,083235,065592,023899,041941
0000000048,0000047000,074671,088401,086088,067407,032382,031643
0000000049,0000048000,074377,086074,088710,065789,042617,023027
0000000050,0000049000,074986,083339,090836,060896,053587,016950
0000000051,0000050000,076435,080466,092259,053195,064229,014008
0000000052,0000051000,078576,077741,092844,043439,073513,014481
0000000053,0000052000,081205,075425,092532,032595,080514,018323
0000000054,0000053000,084062,073743,091355,021726,084548,025158
0000000055,0000054000,086866,072871,089423,011880,085228,034325
0000000056,0000055000,089347,072887,086926,004028,082481,044924
0000000057,0000056000,091263,073778,084119,-01054,076582,055904
0000000058,0000057000,092418,075476,081267,-02876,068106,066202
0000000059,0000058000,092701,077816,078644,-01257,057872,074818
0000000060,0000059000,092098,080546,076518,003641,046896,080895
0000000061,0000060000,090655,083410,075096,011337,036259,083837
0000000062,0000061000,088504,086146,074511,021091,026978,083364
0000000063,0000062000,085876,088463,074822,031940,019970,079523
0000000064,0000063000,083028,090134,075999,042806,015938,072689
0000000065,0000064000,080216,091013,077931,052648,015263,063522
0000000066,0000065000,077730,091003,080428,060505,018003,052923
0000000067,0000066000,075825,090100,083235,065588,023901,041943
0000000068,0000067000,074667,088406,086088,067404,032383,031646
0000000069,0000068000,074376,086075,088710,065790,042613,023030
0000000070,0000069000,074988,083336,090836,060896,053584,016953
0000000071,0000070000,076433,080469,092259,053194,064227,014011
0000000072,0000071000,078573,077744,092844,043442,073507,014483
0000000073,0000072000,081207,075422,092532,032599,080509,018324
0000000074,0000073000,084062,073743,091356,021729,084546,025158
0000000075,0000074000,086863,072874,089424,011886,085224,034324
0000000076,0000075000,089349,072885,086927,004034,082477,044921
0000000077,0000076000,091265,073776,084120,-01051,076582,055901
0000000078,0000077000,092416,075477,081268,-02872,068107,066197
0000000079,0000078000,092702,077815,078644,-01253,057872,074813
0000000080,0000079000,092100,080543,076518,003642,046900,080891
0000000081,0000080000,090654,083411,075095,011337,036264,083833
0000000082,0000081000,088504,086146,074510,021091,026981,083361
0000000083,0000082000,085878,088461,074821,031937,019975,079521
0000000084,0000083000,083028,090135,075998,042802,015943,072688
0000000085,0000084000,080216,091015,077930,052644,015266,063523
0000000086,0000085000,077733,091001,080427,060501,018005,052926
0000000087,0000086000,075825,090102,083234,065582,023903,041948
0000000088,0000087000,074665,088409,086087,067401,032381,031651
0000000089,0000088000,074377,086074,088710,065788,042609,023036
0000000090,0000089000,074988,083336,090837,060893,053581,016959
0000000091,0000090000,076429,080472,092260,053195,064221,014016
0000000092,0000091000,078573,077743,092845,043446,073499,014487
0000000093,0000092000,081207,075420,092533,032603,080503,018326
0000000094,0000093000,084058,073745,091358,021734,084540,025158
0000000095,0000094000,086862,072873,089425,011894,085217,034322
0000000096,0000095000,089351,072882,086928,004042,082474,044917
0000000097,0000096000,091264,073776,084121,-01044,076582,055895
0000000098,0000097000,092415,075478,081268,-02864,068106,066190
0000000099,0000098000,092705,077811,078644,-01247,057875,074805
0000000100,0000099000,092101,080542,076518,003644,046906,080883
0000000101,0000100000,090653,083412,075095,011337,036270,083826
0000000102,0000101000,088507,086144,074509,021090,026988,083355
0000000103,0000102000,085881,088459,074820,031931,019984,079518
0000000104,0000103000,083026,090138,075996,042795,015951,072687
0000000105,0000104000,080217,091016,077928,052637,015270,063525
0000000106,0000105000,077735,091000,080425,060492,018010,052931
0000000107,0000106000,075823,090105,083233,065573,023905,041954
0000000108,0000107000,074663,088411,086086,067395,032378,031660
0000000109,0000108000,074378,086073,088709,065783,042605,023045
0000000110,0000109000,074986,083338,090837,060890,053575,016968
0000000111,0000110000,076426,080474,092260,053197,064212,014024
0000000112,0000111000,078573,077742,092846,043450,073488,014493
0000000113,0000112000,081206,075419,092535,032608,080494,018330
0000000114,0000113000,084055,073746,091359,021743,084531,025159
0000000115,0000114000,086862,072871,089427,011905,085208,034319
0000000116,0000115000,089352,072879,086930,004052,082469,044912
0000000117,0000116000,091262,073776,084122,-01034,076580,055887
0000000118,0000117000,092416,075476,081269,-02854,068107,066180
0000000119,0000118000,092708,077808,078645,-01241,057879,074794
0000000120,0000119000,092102,080541,076518,003647,046914,080871
0000000121,0000120000,090655,083412,075094,011338,036279,083816
0000000122,0000121000,088511,086142,074508,021086,026999,083348
0000000123,0000122000,085882,088460,074818,031923,019996,079513
0000000124,0000123000,083027,090140,075994,042786,015961,072686
0000000125,0000124000,080219,091016,077926,052626,015278,063527
0000000126,0000125000,077735,091002,080424,060478,018017,052937
0000000127,0000126000,075821,090109,083232,065562,023907,041964
0000000128,0000127000,074663,088413,086085,067386,032376,031672
0000000129,0000128000,074377,086075,088709,065775,042600,023058
0000000130,0000129000,074982,083341,090837,060886,053566,016981
0000000131,0000130000,076424,080476,092261,053198,064199,014036
0000000132,0000131000,078572,077741,092847,043455,073475,014502
0000000133,0000132000,081203,075420,092538,032616,080481,018335
0000000134,0000133000,084053,073746,091362,021756,084517,025160
0000000135,0000134000,086863,072868,089429,011920,085197,034316
0000000136,0000135000,089351,072877,086932,004066,082463,044904
0000000137,0000136000,091262,073775,084124,-01019,076577,055875
0000000138,0000137000,092419,075472,081270,-02841,068108,066166
0000000139,0000138000,092711,077804,078646,-01233,057887,074778
0000000140,0000139000,092103,080540,076517,003652,046925,080856
0000000141,0000140000,090658,083410,075092,011339,036292,083802
0000000142,0000141000,088515,086140,074506,021081,027016,083337
0000000143,0000142000,085884,088461,074816,031913,020013,079506
0000000144,0000143000,083028,090141,075991,042773,015975,072684
0000000145,0000144000,080222,091016,077923,052610,015291,063531
0000000146,0000145000,077735,091005,080421,060461,018026,052946
0000000147,0000146000,075819,090113,083229,065546,023910,041977
0000000148,0000147000,074663,088415,086083,067372,032373,031688
0000000149,0000148000,074374,086077,088709,065764,042593,023076
0000000150,0000149000,074978,083345,090838,060881,053554,016998
0000000151,0000150000,076421,080477,092263,053199,064182,014051
0000000152,0000151000,078569,077742,092850,043460,073457,014515
0000000153,0000152000,081199,075421,092541,032628,080462,018342
0000000154,0000153000,084051,073745,091365,021773,084499,025161
0000000155,0000154000,086863,072865,089433,011938,085184,034311
0000000156,0000155000,089350,072875,086936,004085,082454,044894
0000000157,0000156000,091262,073772,084127,-01000,076572,055860
0000000158,0000157000,092422,075467,081272,-02825,068110,066147
0000000159,0000158000,092713,077801,078647,-01222,057896,074758
0000000160,0000159000,092106,080538,076517,003658,046939,080836
0000000161,0000160000,090663,083407,075091,011339,036310,083784
0000000162,0000161000,088519,086138,074503,021073,027037,083323
0000000163,0000162000,085886,088462,074812,031901,020034,079498
0000000164,0000163000,083032,090142,075987,042756,015994,072682
0000000165,0000164000,080224,091018,077919,052589,015307,063536
0000000166,0000165000,077734,091009,080417,060438,018037,052957
0000000167,0000166000,075818,090117,083226,065526,023913,041994
0000000168,0000167000,074662,088418,086081,067354,032370,031709
0000000169,0000168000,074370,086082,088708,065751,042583,023099
0000000170,0000169000,074973,083349,090838,060875,053537,017021
0000000171,0000170000,076418,080479,092264,053200,064161,014071
0000000172,0000171000,078565,077743,092853,043468,073434,014530
0000000173,0000172000,081194,075422,092544,032643,080438,018352
0000000174,0000173000,084049,073742,091369,021793,084476,025163
0000000175,0000174000,086861,072862,089438,011961,085166,034306
0000000176,0000175000,089349,072872,086940,004111,082442,044881
0000000177,0000176000,091264,073767,084130,-00975,076567,055841
0000000178,0000177000,092425,075461,081275,-02805,068114,066123
0000000179,0000178000,092716,077798,078648,-01207,057907,074732
0000000180,0000179000,092110,080534,076516,003666,046956,080810
0000000181,0000180000,090669,083403,075089,011338,036333,083761
0000000182,0000181000,088523,086137,074500,021064,027064,083305
0000000183,0000182000,085890,088463,074808,031885,020060,079487
0000000184,0000183000,083036,090143,075982,042733,016019,072680
0000000185,0000184000,080226,091021,077914,052562,015328,063542
0000000186,0000185000,077734,091015,080412,060411,018050,052972
0000000187,0000186000,075818,090121,083222,065499,023918,042015
0000000188,0000187000,074659,088423,086078,067331,032367,031735
0000000189,0000188000,074365,086088,088707,065734,042571,023128
0000000190,0000189000,074969,083353,090839,060867,053516,017049
0000000191,0000190000,076413,080481,092267,053200,064135,014097
0000000192,0000191000,078559,077746,092857,043478,073405,014549
0000000193,0000192000,081189,075422,092549,032662,080407,018363
0000000194,0000193000,084046,073740,091375,021818,084449,025166
0000000195,0000194000,086858,072859,089443,011990,085144,034298
0000000196,0000195000,089348,072868,086945,004142,082426,044864
0000000197,0000196000,091266,073760,084134,-00945,076561,055817
0000000198,0000197000,092428,075456,081278,-02780,068118,066094
0000000199,0000198000,092719,077793,078649,-01188,057921,074700
0000000200,0000199000,092116,080529,076515,003676,046978,080779
0000000201,0000200000,090675,083399,075086,011337,036362,083733
0000000202,0000201000,088528,086136,074496,021053,027096,083284
0000000203,0000202000,085895,088463,074802,031865,020093,079475
0000000204,0000203000,083041,090144,075976,042706,016049,072678
0000000205,0000204000,080228,091025,077908,052529,015353,063550
0000000206,0000205000,077734,091020,080406,060377,018066,052989
0000000207,0000206000,075817,090126,083217,065467,023924,042041
0000000208,0000207000,074656,088430,086075,067303,032363,031767
0000000209,0000208000,074360,086095,088705,065715,042555,023163
0000000210,0000209000,074963,083358,090839,060857,053492,017084
0000000211,0000210000,076406,080485,092270,053201,064104,014127
0000000212,0000211000,078551,077748,092861,043490,073369,014573
0000000213,0000212000,081184,075422,092555,032685,080371,018377
0000000214,0000213000,084042,073737,091382,021848,084416,025169
0000000215,0000214000,086855,072855,089450,012026,085117,034290
0000000216,0000215000,089347,072862,086951,004180,082408,044845
0000000217,0000216000,091268,073753,084140,-00910,076554,055788
0000000218,0000217000,092431,075449,081281,-02750,068124,066059
0000000219,0000218000,092725,077786,078650,-01166,057937,074661
0000000220,0000219000,092124,080523,076514,003687,047005,080741
0000000221,0000220000,090682,083395,075083,011336,036397,083700
0000000222,0000221000,088535,086135,074491,021040,027135,083258
0000000223,0000222000,085902,088462,074796,031841,020132,079459
0000000224,0000223000,083046,090146,075969,042672,016086,072674
0000000225,0000224000,080230,091030,077900,052490,015382,063560
0000000226,0000225000,077736,091026,080399,060336,018085,053011
0000000227,0000226000,075816,090133,083212,065428,023932,042073
0000000228,0000227000,074651,088438,086071,067270,032357,031806
0000000229,0000228000,074354,086103,088704,065691,042537,023205
0000000230,0000229000,074956,083364,090840,060845,053462,017125
0000000231,0000230000,076398,080490,092273,053202,064067,014164
0000000232,0000231000,078543,077751,092867,043505,073326,014601
0000000233,0000232000,081177,075421,092562,032711,080327,018394
0000000234,0000233000,084036,073734,091390,021884,084377,025172
0000000235,0000234000,086851,072851,089459,012069,085085,034279
0000000236,0000235000,089347,072855,086959,004225,082387,044821
0000000237,0000236000,091270,073745,084146,-00868,076547,055754
0000000238,0000237000,092435,075441,081286,-02714,068130,066016
0000000239,0000238000,092731,077778,078652,-01140,057957,074616
0000000240,0000239000,092132,080515,076513,003700,047037,080696
0000000241,0000240000,090691,083390,075080,011334,036438,083660
0000000242,0000241000,088544,086132,074485,021024,027181,083228
0000000243,0000242000,085910,088462,074788,031812,020179,079442
0000000244,0000243000,083052,090149,075960,042632,016129,072671
0000000245,0000244000,080234,091036,077891,052444,015417,063571
0000000246,0000245000,077737,091033,080391,060288,018108,053037
0000000247,0000246000,075814,090142,083205,065381,023941,042110
0000000248,0000247000,074646,088448,086067,067231,032350,031852
0000000249,0000248000,074348,086111,088702,065664,042515,023254
0000000250,0000249000,074948,083371,090841,060831,053428,017174
0000000251,0000250000,076388,080496,092277,053204,064022,014206
0000000252,0000251000,078534,077754,092873,043523,073276,014633
0000000253,0000252000,081169,075421,092571,032743,080277,018413
0000000254,0000253000,084029,073732,091400,021927,084331,025175
0000000255,0000254000,086847,072845,089468,012119,085047,034266
0000000256,0000255000,089346,072846,086968,004277,082362,044793
0000000257,0000256000,091272,073735,084154,-00819,076538,055713
0000000258,0000257000,092439,075431,081291,-02672,068137,065967
0000000259,0000258000,092739,077768,078654,-01110,057980,074562
0000000260,0000259000,092142,080507,076512,003714,047074,080644
0000000261,0000260000,090701,083384,075075,011332,036486,083614
0000000262,0000261000,088554,086129,074478,021006,027235,083193
0000000263,0000262000,085920,088462,074779,031778,020234,079421
0000000264,0000263000,083058,090153,075949,042586,016179,072667
0000000265,0000264000,080238,091042,077880,052391,015456,063585
0000000266,0000265000,077738,091041,080381,060232,018134,053066
0000000267,0000266000,075811,090153,083197,065328,023951,042154
0000000268,0000267000,074640,088459,086061,067186,032342,031905
0000000269,0000268000,074340,086121,088699,065632,042489,023312
0000000270,0000269000,074938,083380,090843,060815,053388,017230
0000000271,0000270000,076376,080503,092281,053206,063971,014255
0000000272,0000271000,078523,077757,092880,043543,073218,014671
0000000273,0000272000,081160,075421,092581,032779,080219,018435
0000000274,0000273000,084021,073729,091411,021976,084277,025179
0000000275,0000274000,086842,072839,089480,012177,085004,034252
0000000276,0000275000,089345,072837,086979,004337,082334,044761
0000000277,0000276000,091274,073724,084162,-00762,076527,055667
0000000278,0000277000,092445,075419,081297,-02624,068146,065910
0000000279,0000278000,092748,077756,078656,-01076,058007,074501
0000000280,0000279000,092152,080497,076511,003731,047118,080584
0000000281,0000280000,090713,083377,075071,011330,036541,083562
0000000282,0000281000,088566,086124,074470,020984,027296,083153
0000000283,0000282000,085930,088462,074768,031739,020297,079398
0000000284,0000283000,083066,090157,075937,042534,016236,072663
0000000285,0000284000,080244,091049,077868,052329,015502,063601
0000000286,0000285000,077740,091051,080370,060167,018164,053101
0000000287,0000286000,075808,090165,083187,065268,023962,042203
0000000288,0000287000,074634,088472,086054,067135,032332,031965
0000000289,0000288000,074331,086133,088696,065595,042460,023377
0000000290,0000289000,074926,083391,090844,060797,053342,017293
0000000291,0000290000,076364,080511,092286,053209,063912,014312
0000000292,0000291000,078511,077761,092889,043566,073152,014714
0000000293,0000292000,081148,075421,092592,032820,080152,018460
0000000294,0000293000,084012,073725,091424,022033,084216,025183
0000000295,0000294000,086837,072831,089493,012243,084955,034235
0000000296,0000295000,089343,072826,086991,004406,082302,044725
0000000297,0000296000,091276,073712,084172,-00697,076516,055614
0000000298,0000297000,092452,075405,081303,-02569,068156,065846
0000000299,0000298000,092758,077743,078660,-01037,058038,074431
0000000300,0000299000,092164,080487,076510,003750,047167,080516
0000000301,0000300000,090726,083369,075065,011327,036604,083502
