DIgSILENT PowerFactory,21000900,2000
6,06A,00D
1,TTPP_200000_100:Secondary Voltage A,,,V,0.010000000,-71.429359,0.000000,-85630,99998,1,1,P
2,TTPP_200000_100:Secondary Voltage B,,,V,0.010000000,-57.617680,0.000000,-87950,99998,1,1,P
3,TTPP_200000_100:Secondary Voltage C,,,V,0.10000000,-8968.964844,0.000000,79615,99998,1,1,P
4,TTCC_300_1:Secondary Current A,,,A,0.00010000000,-4.087944,0.000000,-47041,99998,1,1,P
5,TTCC_300_1:Secondary Current B,,,A,0.00010000000,-4.940618,0.000000,-1189,99998,1,1,P
6,TTCC_300_1:Secondary Current C,,,A,0.00010000000,-4.876954,0.000000,-2398,99998,1,1,P
50
1
1000.000000,1101
30/06/2023,06:03:48.000000
30/06/2023,06:03:48.000000
ASCII
1.000000
0000000001,0000000000,078209,020514,081108,019942,035426,083687
0000000002,0000001000,056861,047701,080524,029697,026142,083217
0000000003,0000002000,030493,070959,080835,040533,019145,079377
0000000004,0000003000,001916,087773,082011,051406,015106,072544
0000000005,0000004000,-26072,096436,083945,061254,014422,063378
0000000006,0000005000,-50955,096336,086442,069108,017169,052779
0000000007,0000006000,-70118,087437,089249,074196,023062,041796
0000000008,0000007000,-81550,070343,092100,076022,031536,031499
0000000009,0000008000,-84421,046994,094723,074397,041777,022880
0000000010,0000009000,-78469,019778,096850,069501,052754,016801
0000000011,0000010000,-63972,-08943,098272,061814,063384,013857
0000000012,0000011000,-42451,-36302,098857,052058,072670,014327
0000000013,0000012000,-16222,-59423,098545,041207,079683,018166
0000000014,0000013000,012316,-76183,097367,030343,083712,024999
0000000015,0000014000,040448,-84993,095434,020495,084395,034166
0000000016,0000015000,065218,-84798,092938,012633,081658,044765
0000000017,0000016000,084277,-75781,090131,007556,075753,055746
0000000018,0000017000,095928,-58912,087279,005737,067273,066045
0000000019,0000018000,098809,-35565,084656,007344,057049,074662
0000000020,0000019000,092644,-08137,082530,012241,046072,080742
0000000021,0000020000,078251,020480,081107,019941,035427,083687
0000000022,0000021000,056814,047749,080523,029690,026149,083216
0000000023,0000022000,030433,071016,080835,040539,019140,079377
0000000024,0000023000,001955,087731,082011,051414,015098,072543
0000000025,0000024000,-26041,096402,083945,061253,014425,063377
0000000026,0000025000,-50965,096354,086441,069107,017170,052778
0000000027,0000026000,-70107,087425,089248,074198,023059,041797
0000000028,0000027000,-81570,070365,092101,076019,031538,031499
0000000029,0000028000,-84468,047028,094724,074401,041774,022880
0000000030,0000029000,-78445,019752,096850,069510,052745,016800
0000000031,0000030000,-63929,-08984,098271,061813,063386,013856
0000000032,0000031000,-42465,-36292,098856,052055,072673,014327
0000000033,0000032000,-16252,-59391,098545,041211,079678,018166
0000000034,0000033000,012315,-76191,097368,030346,083711,024999
0000000035,0000034000,040443,-84993,095435,020498,084393,034165
0000000036,0000035000,065216,-84799,092938,012639,081653,044763
0000000037,0000036000,084319,-75823,090131,007556,075754,055745
0000000038,0000037000,095926,-58911,087279,005734,067277,066043
0000000039,0000038000,098757,-35516,084656,007347,057046,074661
0000000040,0000039000,092652,-08148,082530,012245,046069,080741
0000000041,0000040000,078283,020445,081107,019942,035428,083685
0000000042,0000041000,056809,047757,080523,029691,026149,083215
0000000043,0000042000,030436,071017,080835,040539,019141,079376
0000000044,0000043000,001968,087722,082011,051412,015100,072543
0000000045,0000044000,-26070,096427,083944,061254,014424,063377
0000000046,0000045000,-50980,096370,086441,069110,017167,052778
0000000047,0000046000,-70068,087388,089248,074199,023059,041798
0000000048,0000047000,-81562,070357,092100,076017,031538,031500
0000000049,0000048000,-84501,047064,094723,074401,041773,022882
0000000050,0000049000,-78446,019751,096849,069511,052743,016801
0000000051,0000050000,-63926,-08990,098272,061815,063383,013857
0000000052,0000051000,-42487,-36276,098857,052058,072670,014327
0000000053,0000052000,-16235,-59409,098545,041214,079675,018166
0000000054,0000053000,012334,-76212,097368,030347,083710,024998
0000000055,0000054000,040411,-84966,095435,020499,084392,034164
0000000056,0000055000,065199,-84786,092938,012644,081650,044762
0000000057,0000056000,084345,-75854,090131,007561,075752,055742
0000000058,0000057000,095931,-58918,087279,005736,067278,066041
0000000059,0000058000,098749,-35507,084656,007349,057048,074658
0000000060,0000059000,092673,-08165,082529,012246,046071,080738
0000000061,0000060000,078282,020445,081107,019942,035430,083683
0000000062,0000061000,056787,047781,080523,029692,026151,083213
0000000063,0000062000,030458,071000,080834,040540,019141,079375
0000000064,0000063000,001995,087700,082011,051409,015103,072543
0000000065,0000064000,-26086,096450,083944,061250,014427,063378
0000000066,0000065000,-50987,096384,086441,069108,017167,052780
0000000067,0000066000,-70055,087380,089248,074197,023058,041800
0000000068,0000067000,-81575,070371,092100,076015,031538,031502
0000000069,0000068000,-84509,047076,094723,074401,041770,022884
0000000070,0000069000,-78428,019734,096849,069511,052740,016805
0000000071,0000070000,-63937,-08982,098272,061814,063381,013860
0000000072,0000071000,-42519,-36249,098857,052061,072665,014329
0000000073,0000072000,-16230,-59420,098545,041219,079669,018167
0000000074,0000073000,012343,-76229,097369,030350,083707,024998
0000000075,0000074000,040394,-84957,095436,020504,084390,034162
0000000076,0000075000,065203,-84794,092939,012649,081647,044759
0000000077,0000076000,084358,-75873,090132,007565,075752,055739
0000000078,0000077000,095916,-58909,087280,005740,067278,066036
0000000079,0000078000,098749,-35510,084656,007354,057047,074653
0000000080,0000079000,092705,-08196,082529,012248,046073,080733
0000000081,0000080000,078288,020442,081107,019941,035436,083679
0000000082,0000081000,056779,047796,080522,029691,026155,083209
0000000083,0000082000,030477,070991,080833,040538,019145,079372
0000000084,0000083000,002004,087698,082010,051405,015108,072542
0000000085,0000084000,-26096,096470,083943,061246,014430,063379
0000000086,0000085000,-50974,096382,086440,069104,017168,052783
0000000087,0000086000,-70044,087377,089247,074191,023060,041804
0000000088,0000087000,-81600,070400,092100,076011,031537,031507
0000000089,0000088000,-84522,047091,094723,074399,041766,022890
0000000090,0000089000,-78420,019725,096850,069510,052735,016810
0000000091,0000090000,-63954,-08970,098273,061814,063376,013865
0000000092,0000091000,-42538,-36236,098858,052064,072658,014333
0000000093,0000092000,-16227,-59433,098546,041223,079662,018169
0000000094,0000093000,012331,-76230,097370,030356,083701,024999
0000000095,0000094000,040373,-84948,095437,020511,084384,034161
0000000096,0000095000,065214,-84816,092940,012658,081643,044755
0000000097,0000096000,084371,-75896,090133,007571,075751,055733
0000000098,0000097000,095907,-58907,087280,005746,067280,066029
0000000099,0000098000,098759,-35522,084657,007360,057050,074645
0000000100,0000099000,092728,-08219,082529,012251,046079,080726
0000000101,0000100000,078292,020443,081107,019941,035443,083672
0000000102,0000101000,056790,047795,080521,029690,026162,083204
0000000103,0000102000,030506,070975,080832,040533,019153,079369
0000000104,0000103000,002009,087707,082009,051397,015117,072541
0000000105,0000104000,-26103,096493,083941,061238,014436,063380
0000000106,0000105000,-50961,096384,086438,069096,017172,052787
0000000107,0000106000,-70043,087386,089246,074182,023062,041811
0000000108,0000107000,-81620,070429,092099,076004,031536,031516
0000000109,0000108000,-84529,047103,094722,074395,041761,022899
0000000110,0000109000,-78428,019730,096850,069507,052729,016819
0000000111,0000110000,-63985,-08947,098273,061814,063368,013873
0000000112,0000111000,-42556,-36228,098859,052068,072647,014339
0000000113,0000112000,-16228,-59447,098548,041230,079652,018173
0000000114,0000113000,012312,-76230,097372,030364,083692,024999
0000000115,0000114000,040356,-84950,095439,020522,084375,034158
0000000116,0000115000,065222,-84842,092942,012669,081637,044750
0000000117,0000116000,084375,-75916,090134,007581,075749,055725
0000000118,0000117000,095907,-58916,087281,005756,067281,066019
0000000119,0000118000,098784,-35549,084657,007367,057054,074634
0000000120,0000119000,092754,-08243,082529,012254,046087,080714
0000000121,0000120000,078300,020443,081106,019941,035453,083661
0000000122,0000121000,056812,047789,080520,029687,026173,083196
0000000123,0000122000,030535,070964,080830,040526,019165,079364
0000000124,0000123000,002016,087721,082006,051387,015128,072540
0000000125,0000124000,-26098,096511,083939,061227,014444,063383
0000000126,0000125000,-50948,096392,086436,069084,017177,052794
0000000127,0000126000,-70052,087411,089244,074170,023065,041820
0000000128,0000127000,-81641,070462,092098,075994,031534,031527
0000000129,0000128000,-84537,047116,094722,074388,041755,022913
0000000130,0000129000,-78446,019745,096850,069503,052720,016832
0000000131,0000130000,-64021,-08922,098274,061815,063356,013885
0000000132,0000131000,-42577,-36223,098860,052074,072633,014348
0000000133,0000132000,-16243,-59456,098550,041238,079639,018178
0000000134,0000133000,012286,-76230,097375,030375,083680,025000
0000000135,0000134000,040344,-84963,095442,020537,084364,034155
0000000136,0000135000,065230,-84874,092944,012684,081630,044742
0000000137,0000136000,084375,-75937,090136,007595,075747,055713
0000000138,0000137000,095913,-58936,087283,005769,067282,066004
0000000139,0000138000,098814,-35585,084657,007376,057060,074619
0000000140,0000139000,092780,-08267,082529,012258,046098,080699
0000000141,0000140000,078320,020435,081104,019941,035467,083648
0000000142,0000141000,056847,047775,080518,029682,026188,083185
0000000143,0000142000,030566,070959,080828,040516,019182,079358
0000000144,0000143000,002027,087740,082003,051373,015143,072538
0000000145,0000144000,-26084,096529,083936,061212,014456,063387
0000000146,0000145000,-50936,096408,086433,069067,017186,052802
0000000147,0000146000,-70065,087448,089242,074153,023069,041833
0000000148,0000147000,-81661,070500,092096,075981,031531,031544
0000000149,0000148000,-84552,047139,094721,074378,041747,022930
0000000150,0000149000,-78479,019773,096851,069497,052708,016850
0000000151,0000150000,-64062,-08895,098276,061816,063339,013900
0000000152,0000151000,-42603,-36219,098863,052080,072614,014361
0000000153,0000152000,-16270,-59459,098553,041249,079620,018186
0000000154,0000153000,012254,-76232,097378,030391,083662,025002
0000000155,0000154000,040333,-84986,095445,020556,084349,034150
0000000156,0000155000,065233,-84910,092948,012703,081620,044732
0000000157,0000156000,084376,-75965,090139,007614,075743,055698
0000000158,0000157000,095931,-58970,087284,005785,067284,065986
0000000159,0000158000,098850,-35628,084658,007388,057069,074598
0000000160,0000159000,092811,-08294,082529,012264,046112,080679
0000000161,0000160000,078353,020419,081103,019941,035485,083630
0000000162,0000161000,056892,047755,080515,029676,026209,083171
0000000163,0000162000,030600,070958,080824,040503,019203,079350
0000000164,0000163000,002046,087760,082000,051356,015163,072537
0000000165,0000164000,-26064,096549,083932,061191,014472,063392
0000000166,0000165000,-50928,096436,086430,069044,017197,052814
0000000167,0000166000,-70082,087494,089239,074132,023073,041850
0000000168,0000167000,-81682,070542,092094,075963,031528,031565
0000000169,0000168000,-84577,047172,094720,074365,041737,022953
0000000170,0000169000,-78524,019812,096851,069490,052692,016873
0000000171,0000170000,-64108,-08865,098278,061817,063318,013920
0000000172,0000171000,-42639,-36213,098866,052088,072590,014376
0000000173,0000172000,-16309,-59459,098557,041264,079597,018195
0000000174,0000173000,012218,-76240,097382,030412,083640,025004
0000000175,0000174000,040320,-85018,095450,020580,084331,034144
0000000176,0000175000,065231,-84951,092952,012728,081609,044719
0000000177,0000176000,084379,-76003,090142,007638,075738,055679
0000000178,0000177000,095957,-59020,087287,005806,067287,065962
0000000179,0000178000,098891,-35679,084659,007403,057080,074572
0000000180,0000179000,092850,-08328,082528,012271,046131,080653
0000000181,0000180000,078400,020392,081101,019941,035508,083607
0000000182,0000181000,056947,047734,080512,029667,026235,083154
0000000183,0000182000,030640,070961,080820,040486,019230,079339
0000000184,0000183000,002075,087781,081994,051334,015187,072534
0000000185,0000184000,-26037,096574,083927,061165,014491,063398
0000000186,0000185000,-50923,096477,086425,069016,017211,052828
0000000187,0000186000,-70099,087551,089235,074105,023078,041872
0000000188,0000187000,-81705,070592,092091,075941,031524,031591
0000000189,0000188000,-84614,047218,094719,074348,041725,022982
0000000190,0000189000,-78579,019861,096852,069482,052672,016901
0000000191,0000190000,-64163,-08833,098280,061818,063292,013945
0000000192,0000191000,-42688,-36202,098869,052098,072561,014396
0000000193,0000192000,-16362,-59457,098562,041282,079567,018206
0000000194,0000193000,012178,-76255,097388,030437,083612,025006
0000000195,0000194000,040303,-85058,095455,020610,084308,034137
0000000196,0000195000,065225,-84997,092957,012759,081594,044703
0000000197,0000196000,084388,-76054,090147,007668,075732,055655
0000000198,0000197000,095991,-59082,087289,005832,067291,065933
0000000199,0000198000,098937,-35738,084660,007421,057094,074540
0000000200,0000199000,092900,-08370,082527,012281,046153,080622
0000000201,0000200000,078463,020356,081098,019940,035536,083579
0000000202,0000201000,057011,047711,080508,029656,026267,083132
0000000203,0000202000,030689,070966,080814,040466,019264,079326
0000000204,0000203000,002115,087803,081988,051306,015217,072532
0000000205,0000204000,-26007,096606,083920,061133,014516,063406
0000000206,0000205000,-50920,096531,086419,068981,017227,052846
0000000207,0000206000,-70117,087616,089230,074073,023084,041898
0000000208,0000207000,-81733,070653,092088,075913,031519,031623
0000000209,0000208000,-84663,047280,094718,074328,041710,023017
0000000210,0000209000,-78645,019919,096853,069472,052648,016936
0000000211,0000210000,-64227,-08796,098283,061819,063260,013976
0000000212,0000211000,-42751,-36184,098874,052110,072526,014419
0000000213,0000212000,-16425,-59453,098568,041304,079531,018220
0000000214,0000213000,012132,-76277,097395,030468,083578,025009
0000000215,0000214000,040279,-85103,095462,020646,084281,034129
0000000216,0000215000,065215,-85052,092964,012796,081576,044683
0000000217,0000216000,084401,-76120,090152,007704,075725,055626
0000000218,0000217000,096032,-59159,087293,005862,067296,065897
0000000219,0000218000,098990,-35806,084662,007442,057111,074502
0000000220,0000219000,092964,-08425,082526,012292,046180,080584
0000000221,0000220000,078540,020310,081095,019939,035570,083546
0000000222,0000221000,057086,047686,080503,029642,026307,083107
0000000223,0000222000,030749,070971,080808,040441,019303,079311
0000000224,0000223000,002167,087827,081981,051273,015253,072528
0000000225,0000224000,-25972,096648,083913,061093,014546,063416
0000000226,0000225000,-50916,096597,086412,068940,017247,052868
0000000227,0000226000,-70135,087693,089224,074034,023091,041930
0000000228,0000227000,-81769,070728,092084,075880,031513,031662
0000000229,0000228000,-84724,047356,094717,074304,041692,023059
0000000230,0000229000,-78722,019986,096854,069460,052618,016977
0000000231,0000230000,-64305,-08752,098286,061820,063222,014013
0000000232,0000231000,-42830,-36160,098879,052124,072483,014447
0000000233,0000232000,-16499,-59450,098575,041331,079487,018237
0000000234,0000233000,012079,-76305,097403,030504,083539,025012
0000000235,0000234000,040247,-85155,095471,020688,084250,034118
0000000236,0000235000,065203,-85117,092971,012841,081555,044659
0000000237,0000236000,084420,-76201,090158,007746,075717,055592
0000000238,0000237000,096078,-59249,087297,005898,067302,065855
0000000239,0000238000,099053,-35887,084664,007468,057131,074456
0000000240,0000239000,093042,-08493,082525,012305,046211,080539
0000000241,0000240000,078632,020254,081091,019938,035611,083506
0000000242,0000241000,057172,047659,080497,029626,026353,083076
0000000243,0000242000,030823,070975,080800,040412,019350,079293
0000000244,0000243000,002230,087853,081972,051234,015296,072525
0000000245,0000244000,-25934,096700,083904,061047,014580,063427
0000000246,0000245000,-50910,096675,086404,068892,017270,052893
0000000247,0000246000,-70154,087781,089218,073989,023100,041967
0000000248,0000247000,-81813,070819,092079,075841,031507,031708
0000000249,0000248000,-84796,047448,094715,074276,041671,023109
0000000250,0000249000,-78810,020064,096855,069446,052584,017025
0000000251,0000250000,-64397,-08698,098290,061822,063177,014055
0000000252,0000251000,-42926,-36129,098886,052142,072433,014480
0000000253,0000252000,-16586,-59448,098584,041362,079437,018256
0000000254,0000253000,012016,-76338,097412,030547,083492,025016
0000000255,0000254000,040207,-85214,095481,020738,084212,034105
0000000256,0000255000,065190,-85195,092980,012893,081530,044632
0000000257,0000256000,084443,-76298,090166,007796,075708,055551
0000000258,0000257000,096131,-59352,087302,005939,067309,065806
0000000259,0000258000,099125,-35981,084666,007498,057154,074403
0000000260,0000259000,093136,-08576,082524,012320,046248,080487
0000000261,0000260000,078738,020190,081087,019936,035659,083460
0000000262,0000261000,057272,047627,080490,029607,026407,083041
0000000263,0000262000,030913,070977,080791,040379,019404,079272
0000000264,0000263000,002304,087884,081961,051188,015345,072521
0000000265,0000264000,-25890,096762,083893,060993,014621,063441
0000000266,0000265000,-50901,096764,086394,068836,017296,052923
0000000267,0000266000,-70175,087883,089209,073936,023109,042010
0000000268,0000267000,-81866,070927,092074,075796,031499,031761
0000000269,0000268000,-84880,047555,094712,074244,041646,023166
0000000270,0000269000,-78911,020154,096856,069431,052543,017081
0000000271,0000270000,-64506,-08634,098294,061824,063126,014104
0000000272,0000271000,-43039,-36092,098893,052162,072376,014517
0000000273,0000272000,-16685,-59447,098593,041399,079378,018278
0000000274,0000273000,011941,-76376,097424,030597,083439,025020
0000000275,0000274000,040158,-85280,095492,020795,084170,034091
0000000276,0000275000,065175,-85286,092991,012954,081502,044599
0000000277,0000276000,084469,-76411,090174,007853,075697,055505
0000000278,0000277000,096189,-59471,087309,005987,067318,065749
0000000279,0000278000,099210,-36092,084669,007532,057181,074341
0000000280,0000279000,093247,-08673,082523,012337,046291,080427
0000000281,0000280000,078859,020117,081082,019933,035715,083408
0000000282,0000281000,057389,047590,080482,029585,026469,083001
0000000283,0000282000,031018,070977,080780,040340,019467,079249
0000000284,0000283000,002389,087918,081949,051135,015402,072517
0000000285,0000284000,-25839,096834,083881,060931,014667,063457
0000000286,0000285000,-50888,096866,086383,068772,017326,052957
0000000287,0000286000,-70198,088000,089200,073875,023120,042060
0000000288,0000287000,-81928,071053,092067,075745,031489,031821
0000000289,0000288000,-84975,047679,094710,074208,041616,023232
0000000290,0000289000,-79026,020257,096857,069413,052497,017145
0000000291,0000290000,-64634,-08558,098299,061827,063067,014161
0000000292,0000291000,-43168,-36048,098902,052185,072310,014560
0000000293,0000292000,-16798,-59446,098605,041441,079311,018303
0000000294,0000293000,011854,-76417,097436,030653,083378,025024
0000000295,0000294000,040100,-85355,095505,020861,084121,034074
0000000296,0000295000,065159,-85392,093003,013022,081470,044563
0000000297,0000296000,084498,-76541,090184,007918,075686,055452
0000000298,0000297000,096254,-59606,087316,006042,067328,065685
0000000299,0000298000,099308,-36220,084672,007571,057212,074272
0000000300,0000299000,093373,-08786,082522,012356,046341,080359
0000000301,0000300000,078997,020033,081077,019930,035777,083348
