DIgSILENT PowerFactory,21000900,2000
6,06A,00D
1,TTPP_200000_100:Secondary Voltage A,,,V,0.10000000,-8587.656250,0.000000,70685,99998,1,1,P
2,TTPP_200000_100:Secondary Voltage B,,,V,0.10000000,-8400.331055,0.000000,67534,99998,1,1,P
3,TTPP_200000_100:Secondary Voltage C,,,V,0.10000000,-8463.112305,0.000000,69403,99998,1,1,P
4,TTCC_500_5:Secondary Current A,,,A,0.0010000000,-86.953117,0.000000,68209,99998,1,1,P
5,TTCC_500_5:Secondary Current B,,,A,0.0010000000,-85.115974,0.000000,70223,99998,1,1,P
6,TTCC_500_5:Secondary Current C,,,A,0.0010000000,-84.679573,0.000000,69346,99998,1,1,P
50
1
1000.000000,1101
30/06/2023,06:07:02.000000
30/06/2023,06:07:02.000000
ASCII
1.000000
0000000001,0000000000,091389,087644,075479,092869,089795,074084
0000000002,0000001000,088840,090077,075593,089854,092511,074383
0000000003,0000002000,085989,091933,076591,086554,094506,075688
0000000004,0000003000,083144,092994,078373,083299,095576,077874
0000000005,0000004000,080559,093177,080775,080395,095626,080728
0000000006,0000005000,078487,092470,083553,078134,094647,083968
0000000007,0000006000,077141,090940,086429,076740,092734,087274
0000000008,0000007000,076668,088709,089134,076345,090075,090329
0000000009,0000008000,077076,086031,091403,076986,086930,092833
0000000010,0000009000,078344,083164,093004,078604,083609,094535
0000000011,0000010000,080363,080365,093783,081041,080434,095273
0000000012,0000011000,082925,077917,093669,084055,077719,094975
0000000013,0000012000,085753,076085,092673,087354,075725,093669
0000000014,0000013000,088607,075015,090888,090613,074652,091484
0000000015,0000014000,091204,074820,088487,093515,074604,088630
0000000016,0000015000,093263,075538,085709,095773,075586,085390
0000000017,0000016000,094600,077078,082833,097171,077494,082083
0000000018,0000017000,095098,079286,080128,097565,080155,079029
0000000019,0000018000,094679,081973,077859,096922,083301,076525
0000000020,0000019000,093397,084856,076259,095305,086621,074822
0000000021,0000020000,091394,087637,075479,092871,089793,074085
0000000022,0000021000,088839,090079,075592,089852,092514,074383
0000000023,0000022000,085988,091934,076590,086555,094505,075689
0000000024,0000023000,083143,092994,078374,083298,095576,077874
0000000025,0000024000,080562,093174,080776,080395,095626,080728
0000000026,0000025000,078484,092474,083553,078133,094648,083968
0000000027,0000026000,077144,090937,086429,076740,092734,087274
0000000028,0000027000,076666,088710,089135,076344,090075,090329
0000000029,0000028000,077076,086031,091403,076985,086931,092832
0000000030,0000029000,078344,083164,093004,078604,083610,094536
0000000031,0000030000,080365,080363,093783,081040,080436,095273
0000000032,0000031000,082920,077921,093670,084055,077719,094975
0000000033,0000032000,085756,076083,092672,087353,075726,093669
0000000034,0000033000,088609,075013,090888,090612,074653,091484
0000000035,0000034000,091201,074822,088488,093513,074605,088630
0000000036,0000035000,093262,075539,085709,095774,075584,085390
0000000037,0000036000,094605,077073,082833,097170,077495,082084
0000000038,0000037000,095096,079288,080128,097565,080155,079029
0000000039,0000038000,094676,081976,077859,096921,083301,076526
0000000040,0000039000,093402,084851,076258,095306,086620,074823
0000000041,0000040000,091396,087636,075479,092869,089794,074085
0000000042,0000041000,088834,090084,075593,089852,092513,074384
0000000043,0000042000,085990,091932,076589,086555,094505,075689
0000000044,0000043000,083148,092990,078373,083298,095577,077874
0000000045,0000044000,080557,093179,080775,080394,095627,080728
0000000046,0000045000,078483,092475,083553,078134,094647,083968
0000000047,0000046000,077149,090933,086429,076740,092735,087274
0000000048,0000047000,076665,088712,089134,076343,090076,090329
0000000049,0000048000,077071,086036,091403,076986,086931,092832
0000000050,0000049000,078348,083159,093004,078604,083610,094535
0000000051,0000050000,080365,080362,093783,081039,080437,095273
0000000052,0000051000,082916,077925,093670,084055,077720,094975
0000000053,0000052000,085757,076082,092673,087353,075726,093669
0000000054,0000053000,088612,075009,090889,090611,074654,091484
0000000055,0000054000,091197,074826,088488,093512,074606,088630
0000000056,0000055000,093262,075539,085710,095773,075584,085391
0000000057,0000056000,094608,077069,082834,097169,077495,082085
0000000058,0000057000,095094,079289,080128,097563,080156,079030
0000000059,0000058000,094674,081978,077859,096921,083301,076527
0000000060,0000059000,093405,084847,076258,095305,086620,074824
0000000061,0000060000,091396,087636,075479,092869,089794,074086
0000000062,0000061000,088833,090086,075592,089852,092512,074384
0000000063,0000062000,085993,091930,076589,086556,094504,075689
0000000064,0000063000,083149,092989,078373,083298,095577,077874
0000000065,0000064000,080555,093182,080774,080395,095626,080728
0000000066,0000065000,078484,092475,083552,078135,094646,083967
0000000067,0000066000,077151,090932,086428,076740,092735,087274
0000000068,0000067000,076662,088715,089134,076344,090077,090328
0000000069,0000068000,077071,086037,091403,076986,086931,092831
0000000070,0000069000,078350,083158,093004,078604,083611,094534
0000000071,0000070000,080362,080365,093784,081038,080438,095272
0000000072,0000071000,082914,077927,093671,084054,077720,094974
0000000073,0000072000,085758,076079,092674,087352,075727,093669
0000000074,0000073000,088610,075010,090890,090609,074655,091484
0000000075,0000074000,091195,074827,088489,093511,074607,088631
0000000076,0000075000,093264,075536,085711,095772,075585,085392
0000000077,0000076000,094609,077068,082835,097167,077496,082086
0000000078,0000077000,095092,079290,080129,097562,080156,079031
0000000079,0000078000,094677,081975,077859,096921,083300,076528
0000000080,0000079000,093408,084844,076258,095304,086619,074825
0000000081,0000080000,091394,087638,075478,092868,089793,074087
0000000082,0000081000,088834,090086,075591,089853,092510,074385
0000000083,0000082000,085997,091927,076588,086556,094503,075690
0000000084,0000083000,083148,092991,078372,083298,095576,077875
0000000085,0000084000,080554,093184,080773,080396,095625,080728
0000000086,0000085000,078487,092473,083550,078137,094645,083967
0000000087,0000086000,077150,090934,086427,076741,092735,087272
0000000088,0000087000,076658,088719,089133,076345,090077,090327
0000000089,0000088000,077072,086036,091403,076988,086931,092830
0000000090,0000089000,078350,083158,093004,078603,083612,094533
0000000091,0000090000,080358,080368,093785,081038,080440,095271
0000000092,0000091000,082913,077927,093672,084054,077722,094973
0000000093,0000092000,085759,076077,092675,087351,075729,093669
0000000094,0000093000,088607,075012,090892,090607,074658,091484
0000000095,0000094000,091193,074827,088490,093509,074608,088631
0000000096,0000095000,093266,075532,085712,095770,075586,085393
0000000097,0000096000,094608,077067,082836,097164,077497,082087
0000000098,0000097000,095091,079290,080130,097560,080155,079033
0000000099,0000098000,094680,081972,077860,096920,083299,076530
0000000100,0000099000,093410,084843,076258,095303,086618,074827
0000000101,0000100000,091394,087639,075478,092868,089791,074089
0000000102,0000101000,088837,090084,075590,089854,092508,074387
0000000103,0000102000,085999,091925,076586,086557,094501,075691
0000000104,0000103000,083148,092994,078370,083300,095574,077875
0000000105,0000104000,080555,093185,080771,080399,095623,080727
0000000106,0000105000,078489,092473,083549,078139,094644,083965
0000000107,0000106000,077148,090937,086426,076743,092735,087270
0000000108,0000107000,076657,088722,089132,076347,090077,090324
0000000109,0000108000,077072,086037,091402,076989,086933,092827
0000000110,0000109000,078347,083160,093004,078604,083615,094530
0000000111,0000110000,080355,080371,093785,081038,080443,095268
0000000112,0000111000,082912,077926,093673,084053,077725,094971
0000000113,0000112000,085757,076077,092677,087349,075732,093668
0000000114,0000113000,088604,075013,090894,090604,074660,091484
0000000115,0000114000,091193,074825,088493,093507,074610,088632
0000000116,0000115000,093267,075529,085715,095767,075587,085395
0000000117,0000116000,094607,077066,082838,097161,077498,082090
0000000118,0000117000,095093,079288,080131,097558,080155,079036
0000000119,0000118000,094684,081967,077860,096917,083298,076534
0000000120,0000119000,093411,084842,076258,095302,086616,074831
0000000121,0000120000,091396,087638,075476,092869,089788,074092
0000000122,0000121000,088842,090081,075588,089855,092505,074389
0000000123,0000122000,086001,091926,076584,086559,094497,075692
0000000124,0000123000,083148,092996,078367,083303,095570,077875
0000000125,0000124000,080558,093186,080768,080402,095620,080726
0000000126,0000125000,078490,092475,083546,078142,094643,083963
0000000127,0000126000,077146,090942,086423,076747,092734,087268
0000000128,0000127000,076656,088725,089130,076350,090077,090321
0000000129,0000128000,077071,086038,091401,076991,086934,092823
0000000130,0000129000,078342,083164,093005,078605,083618,094526
0000000131,0000130000,080351,080374,093787,081038,080446,095265
0000000132,0000131000,082911,077925,093675,084052,077729,094969
0000000133,0000132000,085753,076078,092680,087346,075737,093666
0000000134,0000133000,088600,075013,090898,090601,074664,091484
0000000135,0000134000,091193,074821,088496,093503,074613,088633
0000000136,0000135000,093266,075526,085718,095762,075590,085397
0000000137,0000136000,094606,077064,082841,097157,077498,082093
0000000138,0000137000,095095,079283,080133,097555,080154,079040
0000000139,0000138000,094687,081963,077861,096915,083296,076538
0000000140,0000139000,093413,084840,076258,095301,086613,074835
0000000141,0000140000,091401,087635,075475,092869,089784,074096
0000000142,0000141000,088847,090079,075585,089856,092500,074392
0000000143,0000142000,086004,091927,076580,086562,094493,075694
0000000144,0000143000,083151,092998,078362,083307,095566,077876
0000000145,0000144000,080561,093187,080763,080407,095616,080725
0000000146,0000145000,078490,092479,083542,078147,094641,083961
0000000147,0000146000,077144,090947,086420,076751,092733,087264
0000000148,0000147000,076655,088728,089128,076354,090078,090316
0000000149,0000148000,077068,086043,091401,076993,086937,092818
0000000150,0000149000,078337,083169,093005,078606,083621,094521
0000000151,0000150000,080348,080375,093788,081038,080450,095261
0000000152,0000151000,082907,077926,093678,084050,077734,094965
0000000153,0000152000,085748,076079,092684,087343,075742,093664
0000000154,0000153000,088598,075011,090902,090597,074669,091483
0000000155,0000154000,091192,074817,088501,093497,074617,088634
0000000156,0000155000,093265,075524,085723,095756,075593,085400
0000000157,0000156000,094607,077060,082844,097152,077499,082097
0000000158,0000157000,095099,079277,080135,097550,080153,079046
0000000159,0000158000,094690,081959,077862,096911,083294,076544
0000000160,0000159000,093417,084837,076257,095299,086609,074841
0000000161,0000160000,091407,087631,075473,092869,089778,074101
0000000162,0000161000,088852,090077,075582,089858,092494,074396
0000000163,0000162000,086007,091928,076576,086565,094487,075696
0000000164,0000163000,083155,092999,078357,083313,095560,077876
0000000165,0000164000,080564,093189,080758,080413,095612,080724
0000000166,0000165000,078489,092484,083537,078153,094638,083957
0000000167,0000166000,077143,090952,086416,076758,092732,087259
0000000168,0000167000,076654,088732,089125,076359,090079,090310
0000000169,0000168000,077063,086049,091399,076997,086940,092812
0000000170,0000169000,078331,083175,093005,078608,083626,094515
0000000171,0000170000,080343,080378,093791,081038,080456,095255
0000000172,0000171000,082900,077928,093682,084047,077741,094961
0000000173,0000172000,085742,076080,092689,087338,075749,093661
0000000174,0000173000,088594,075009,090908,090591,074675,091483
0000000175,0000174000,091190,074813,088507,093490,074622,088636
0000000176,0000175000,093263,075520,085728,095749,075596,085404
0000000177,0000176000,094609,077054,082849,097145,077500,082103
0000000178,0000177000,095103,079270,080139,097544,080152,079053
0000000179,0000178000,094694,081954,077864,096907,083290,076551
0000000180,0000179000,093423,084832,076256,095297,086604,074848
0000000181,0000180000,091414,087626,075470,092869,089772,074108
0000000182,0000181000,088858,090075,075578,089861,092487,074401
0000000183,0000182000,086013,091929,076570,086570,094479,075699
0000000184,0000183000,083161,093000,078350,083319,095553,077877
0000000185,0000184000,080567,093193,080751,080420,095606,080722
0000000186,0000185000,078489,092491,083531,078161,094634,083953
0000000187,0000186000,077143,090958,086410,076765,092730,087253
0000000188,0000187000,076650,088739,089121,076366,090080,090303
0000000189,0000188000,077057,086056,091398,077002,086944,092803
0000000190,0000189000,078325,083180,093006,078611,083631,094507
0000000191,0000190000,080336,080381,093794,081037,080464,095248
0000000192,0000191000,082892,077931,093687,084044,077750,094955
0000000193,0000192000,085735,076080,092696,087333,075758,093658
0000000194,0000193000,088590,075005,090915,090584,074683,091482
0000000195,0000194000,091186,074809,088515,093481,074629,088638
0000000196,0000195000,093262,075514,085735,095740,075600,085408
0000000197,0000196000,094611,077045,082855,097137,077502,082110
0000000198,0000197000,095107,079262,080143,097537,080151,079061
0000000199,0000198000,094699,081947,077866,096902,083286,076561
0000000200,0000199000,093431,084824,076256,095294,086597,074857
0000000201,0000200000,091423,087621,075467,092869,089763,074116
0000000202,0000201000,088865,090073,075572,089864,092478,074407
0000000203,0000202000,086020,091928,076563,086576,094469,075703
0000000204,0000203000,083167,093002,078342,083327,095544,077877
0000000205,0000204000,080570,093199,080743,080430,095599,080720
0000000206,0000205000,078490,092498,083523,078171,094629,083948
0000000207,0000206000,077142,090965,086404,076775,092729,087245
0000000208,0000207000,076646,088748,089117,076374,090082,090293
0000000209,0000208000,077050,086065,091396,077007,086948,092793
0000000210,0000209000,078317,083187,093007,078614,083638,094497
0000000211,0000210000,080327,080387,093797,081037,080473,095239
0000000212,0000211000,082883,077935,093693,084040,077760,094948
0000000213,0000212000,085728,076080,092704,087327,075768,093654
0000000214,0000213000,088584,075002,090925,090575,074693,091481
0000000215,0000214000,091182,074805,088524,093471,074637,088641
0000000216,0000215000,093261,075506,085744,095729,075605,085414
0000000217,0000216000,094613,077036,082862,097126,077504,082118
0000000218,0000217000,095111,079253,080148,097528,080150,079071
0000000219,0000218000,094706,081938,077868,096895,083281,076572
0000000220,0000219000,093440,084816,076255,095291,086589,074868
0000000221,0000220000,091432,087615,075463,092870,089754,074125
0000000222,0000221000,088874,090071,075566,089868,092466,074415
0000000223,0000222000,086029,091928,076554,086583,094458,075707
0000000224,0000223000,083174,093005,078333,083337,095534,077878
0000000225,0000224000,080573,093205,080733,080441,095591,080717
0000000226,0000225000,078492,092506,083513,078183,094624,083942
0000000227,0000226000,077140,090975,086396,076786,092727,087236
0000000228,0000227000,076640,088759,089112,076383,090083,090282
0000000229,0000228000,077042,086076,091393,077014,086953,092781
0000000230,0000229000,078308,083195,093008,078617,083647,094485
0000000231,0000230000,080316,080394,093802,081036,080484,095228
0000000232,0000231000,082872,077939,093700,084036,077772,094940
0000000233,0000232000,085719,076079,092713,087319,075780,093649
0000000234,0000233000,088576,074999,090935,090564,074704,091481
0000000235,0000234000,091177,074799,088535,093459,074646,088644
0000000236,0000235000,093260,075497,085754,095716,075611,085421
0000000237,0000236000,094616,077025,082871,097114,077506,082128
0000000238,0000237000,095116,079242,080154,097518,080148,079083
0000000239,0000238000,094714,081927,077870,096888,083276,076585
0000000240,0000239000,093451,084806,076254,095288,086580,074881
0000000241,0000240000,091444,087609,075458,092870,089742,074137
0000000242,0000241000,088886,090067,075558,089872,092453,074423
0000000243,0000242000,086040,091927,076544,086592,094444,075712
0000000244,0000243000,083182,093008,078321,083348,095522,077879
0000000245,0000244000,080578,093212,080721,080454,095581,080713
0000000246,0000245000,078494,092515,083502,078197,094617,083934
0000000247,0000246000,077137,090987,086387,076799,092724,087225
0000000248,0000247000,076633,088772,089105,076394,090085,090269
0000000249,0000248000,077033,086087,091391,077022,086960,092767
0000000250,0000249000,078297,083205,093009,078621,083657,094471
0000000251,0000250000,080303,080402,093807,081036,080497,095216
0000000252,0000251000,082860,077943,093709,084031,077786,094931
0000000253,0000252000,085708,076079,092724,087310,075795,093644
0000000254,0000253000,088567,074995,090948,090552,074717,091480
0000000255,0000254000,091171,074791,088548,093444,074656,088648
0000000256,0000255000,093259,075486,085766,095701,075618,085429
0000000257,0000256000,094618,077012,082881,097100,077509,082140
0000000258,0000257000,095122,079228,080161,097506,080146,079098
0000000259,0000258000,094725,081913,077873,096880,083269,076600
0000000260,0000259000,093464,084795,076252,095283,086569,074896
0000000261,0000260000,091457,087601,075453,092871,089728,074150
0000000262,0000261000,088900,090062,075549,089878,092437,074433
0000000263,0000262000,086052,091927,076532,086602,094429,075718
0000000264,0000263000,083191,093013,078307,083361,095507,077880
0000000265,0000264000,080584,093221,080707,080470,095570,080709
0000000266,0000265000,078496,092526,083489,078213,094610,083926
0000000267,0000266000,077134,091001,086376,076814,092722,087213
0000000268,0000267000,076626,088787,089098,076407,090088,090254
0000000269,0000268000,077023,086101,091387,077031,086967,092750
0000000270,0000269000,078283,083217,093011,078625,083669,094455
0000000271,0000270000,080288,080411,093812,081035,080512,095202
0000000272,0000271000,082845,077947,093719,084025,077803,094920
0000000273,0000272000,085695,076079,092737,087299,075812,093638
0000000274,0000273000,088556,074991,090963,090537,074733,091479
0000000275,0000274000,091165,074782,088563,093428,074669,088652
0000000276,0000275000,093257,075473,085780,095684,075626,085438
0000000277,0000276000,094621,076998,082892,097084,077512,082154
0000000278,0000277000,095130,079213,080169,097492,080143,079114
0000000279,0000278000,094737,081898,077876,096870,083261,076618
0000000280,0000279000,093478,084782,076251,095279,086557,074913
0000000281,0000280000,091473,087591,075447,092872,089712,074165
0000000282,0000281000,088916,090057,075538,089884,092419,074445
0000000283,0000282000,086066,091927,076518,086613,094411,075725
0000000284,0000283000,083202,093018,078291,083377,095491,077881
0000000285,0000284000,080591,093230,080690,080488,095556,080705
0000000286,0000285000,078498,092539,083474,078232,094601,083916
0000000287,0000286000,077130,091017,086364,076832,092719,087198
0000000288,0000287000,076618,088803,089089,076422,090091,090236
0000000289,0000288000,077011,086116,091384,077042,086975,092731
0000000290,0000289000,078268,083231,093012,078630,083682,094436
0000000291,0000290000,080271,080421,093819,081034,080529,095186
0000000292,0000291000,082829,077953,093730,084018,077822,094908
0000000293,0000292000,085680,076079,092752,087287,075831,093631
0000000294,0000293000,088544,074986,090980,090521,074750,091478
0000000295,0000294000,091158,074772,088581,093409,074683,088657
0000000296,0000295000,093255,075459,085797,095664,075635,085449
0000000297,0000296000,094624,076981,082906,097065,077515,082169
0000000298,0000297000,095139,079195,080178,097476,080140,079133
0000000299,0000298000,094750,081881,077881,096859,083252,076638
0000000300,0000299000,093494,084768,076249,095273,086542,074933
0000000301,0000300000,091491,087580,075440,092873,089694,074182
