DIgSILENT PowerFactory,21000900,2000
6,06A,00D
1,TTPP_200000_100:Secondary Voltage A,,,V,0.10000000,-8333.021484,0.000000,67857,99998,1,1,P
2,TTPP_200000_100:Secondary Voltage B,,,V,0.10000000,-8401.078125,0.000000,68150,99998,1,1,P
3,TTPP_200000_100:Secondary Voltage C,,,V,0.10000000,-8482.783203,0.000000,66384,99998,1,1,P
4,TTCC_300_1:Secondary Current A,,,A,0.00010000000,-5.583973,0.000000,-10706,99998,1,1,P
5,TTCC_300_1:Secondary Current B,,,A,0.00010000000,-4.559819,0.000000,-7195,99998,1,1,P
6,TTCC_300_1:Secondary Current C,,,A,0.00010000000,-5.086239,0.000000,799,99998,1,1,P
50
1
1000.000000,1101
30/06/2023,06:09:11.000000
30/06/2023,06:09:11.000000
ASCII
1.000000
0000000001,0000000000,090436,085486,076246,034910,031608,085782
0000000002,0000001000,088302,088203,075662,044663,022330,085308
0000000003,0000002000,085662,090534,075973,055501,015333,081465
0000000004,0000003000,082805,092213,077150,066383,011289,074630
0000000005,0000004000,080012,093074,079083,076223,010615,065461
0000000006,0000005000,077524,093065,081580,084074,013366,054861
0000000007,0000006000,075603,092180,084386,089157,019263,043880
0000000008,0000007000,074459,090471,087239,090983,027736,033582
0000000009,0000008000,074173,088134,089861,089356,037979,024966
0000000010,0000009000,074772,085410,091987,084460,048952,018888
0000000011,0000010000,076218,082541,093409,076764,059588,015948
0000000012,0000011000,078373,079802,093994,067006,068872,016421
0000000013,0000012000,080993,077494,093682,056158,075879,020264
0000000014,0000013000,083846,075818,092505,045291,079909,027100
0000000015,0000014000,086659,074937,090573,035449,080584,036268
0000000016,0000015000,089139,074953,088076,027589,077844,046867
0000000017,0000016000,091046,075854,085268,022512,071940,057849
0000000018,0000017000,092208,077544,082417,020692,063461,068147
0000000019,0000018000,092492,079882,079795,022309,053228,076763
0000000020,0000019000,091880,082621,077668,027207,042253,082840
0000000021,0000020000,090443,085480,076246,034910,031609,085782
0000000022,0000021000,088296,088210,075662,044660,022333,085307
0000000023,0000022000,085659,090536,075974,055510,015325,081465
0000000024,0000023000,082813,092205,077150,066382,011290,074629
0000000025,0000024000,080010,093076,079083,076221,010617,065461
0000000026,0000025000,077517,093072,081580,084076,013363,054861
0000000027,0000026000,075609,092174,084387,089164,019257,043880
0000000028,0000027000,074462,090468,087239,090978,027741,033582
0000000029,0000028000,074166,088141,089861,089358,037977,024966
0000000030,0000029000,074772,085410,091987,084465,048947,018888
0000000031,0000030000,076225,082534,093409,076766,059587,015947
0000000032,0000031000,078368,079807,093994,067005,068874,016421
0000000033,0000032000,080991,077496,093682,056163,075874,020263
0000000034,0000033000,083850,075813,092505,045295,079906,027099
0000000035,0000034000,086659,074937,090573,035447,080586,036267
0000000036,0000035000,089134,074958,088076,027593,077841,046866
0000000037,0000036000,091049,075851,085269,022515,071937,057848
0000000038,0000037000,092210,077542,082417,020693,063462,068145
0000000039,0000038000,092490,079885,079794,022309,053229,076761
0000000040,0000039000,091881,082620,077668,027211,042250,082839
0000000041,0000040000,090445,085477,076246,034910,031611,085780
0000000042,0000041000,088294,088213,075662,044661,022334,085306
0000000043,0000042000,085660,090536,075973,055511,015325,081464
0000000044,0000043000,082815,092203,077150,066382,011290,074629
0000000045,0000044000,080008,093078,079083,076221,010618,065461
0000000046,0000045000,077517,093073,081579,084077,013362,054861
0000000047,0000046000,075611,092171,084386,089163,019257,043881
0000000048,0000047000,074459,090470,087239,090978,027740,033583
0000000049,0000048000,074165,088142,089861,089360,037974,024967
0000000050,0000049000,074774,085407,091987,084466,048944,018890
0000000051,0000050000,076224,082535,093410,076765,059587,015948
0000000052,0000051000,078365,079810,093994,067009,068870,016421
0000000053,0000052000,080994,077493,093682,056166,075871,020263
0000000054,0000053000,083851,075812,092506,045296,079906,027099
0000000055,0000054000,086655,074940,090574,035451,080585,036266
0000000056,0000055000,089136,074956,088076,027599,077837,046864
0000000057,0000056000,091053,075847,085269,022516,071939,057845
0000000058,0000057000,092206,077545,082417,020695,063463,068143
0000000059,0000058000,092489,079886,079794,022314,053228,076758
0000000060,0000059000,091886,082615,077668,027213,042252,082836
0000000061,0000060000,090444,085479,076246,034908,031615,085778
0000000062,0000061000,088291,088216,075661,044662,022334,085304
0000000063,0000062000,085664,090532,075973,055512,015326,081463
0000000064,0000063000,082817,092203,077150,066378,011294,074628
0000000065,0000064000,080004,093083,079082,076219,010620,065461
0000000066,0000065000,077519,093072,081579,084077,013360,054863
0000000067,0000066000,075614,092169,084386,089159,019258,043883
0000000068,0000067000,074456,090474,087238,090975,027740,033586
0000000069,0000068000,074164,088144,089861,089361,037970,024970
0000000070,0000069000,074777,085404,091987,084466,048942,018893
0000000071,0000070000,076222,082537,093410,076764,059585,015951
0000000072,0000071000,078362,079813,093995,067012,068864,016423
0000000073,0000072000,080996,077490,093683,056170,075866,020264
0000000074,0000073000,083850,075812,092507,045299,079903,027098
0000000075,0000074000,086652,074943,090574,035456,080581,036264
0000000076,0000075000,089138,074954,088077,027605,077834,046862
0000000077,0000076000,091053,075845,085270,022520,071939,057842
0000000078,0000077000,092204,077547,082418,020699,063463,068138
0000000079,0000078000,092490,079884,079794,022318,053228,076753
0000000080,0000079000,091888,082612,077668,027214,042256,082831
0000000081,0000080000,090442,085481,076246,034908,031620,085773
0000000082,0000081000,088292,088216,075661,044662,022338,085301
0000000083,0000082000,085667,090530,075972,055508,015331,081461
0000000084,0000083000,082816,092204,077149,066373,011299,074628
0000000085,0000084000,080004,093084,079081,076216,010622,065462
0000000086,0000085000,077521,093070,081578,084072,013363,054866
0000000087,0000086000,075613,092171,084385,089153,019260,043887
0000000088,0000087000,074453,090477,087238,090972,027738,033591
0000000089,0000088000,074165,088143,089861,089359,037966,024976
0000000090,0000089000,074777,085405,091988,084463,048938,018898
0000000091,0000090000,076218,082541,093411,076766,059579,015956
0000000092,0000091000,078362,079812,093995,067016,068856,016427
0000000093,0000092000,080997,077488,093684,056173,075860,020267
0000000094,0000093000,083847,075814,092508,045304,079897,027099
0000000095,0000094000,086651,074942,090575,035465,080574,036262
0000000096,0000095000,089140,074950,088078,027612,077830,046858
0000000097,0000096000,091052,075845,085271,022526,071938,057836
0000000098,0000097000,092203,077547,082418,020707,063462,068131
0000000099,0000098000,092494,079880,079795,022324,053231,076746
0000000100,0000099000,091890,082611,077668,027215,042262,082823
0000000101,0000100000,090441,085482,076245,034909,031626,085766
0000000102,0000101000,088295,088214,075660,044661,022344,085295
0000000103,0000102000,085669,090529,075971,055503,015340,081458
0000000104,0000103000,082815,092207,077147,066366,011307,074627
0000000105,0000104000,080005,093085,079079,076209,010627,065464
0000000106,0000105000,077523,093069,081576,084063,013367,054870
0000000107,0000106000,075611,092174,084384,089144,019262,043894
0000000108,0000107000,074452,090480,087237,090966,027735,033599
0000000109,0000108000,074166,088142,089860,089354,037962,024985
0000000110,0000109000,074774,085407,091988,084460,048933,018907
0000000111,0000110000,076215,082543,093411,076767,059569,015964
0000000112,0000111000,078362,079811,093996,067020,068846,016434
0000000113,0000112000,080995,077488,093686,056179,075851,020270
0000000114,0000113000,083844,075815,092510,045313,079888,027099
0000000115,0000114000,086651,074940,090577,035476,080565,036260
0000000116,0000115000,089141,074948,088080,027622,077826,046853
0000000117,0000116000,091051,075845,085273,022536,071936,057827
0000000118,0000117000,092205,077545,082419,020717,063463,068121
0000000119,0000118000,092497,079877,079795,022330,053236,076734
0000000120,0000119000,091890,082611,077668,027218,042270,082812
0000000121,0000120000,090443,085482,076244,034910,031635,085756
0000000122,0000121000,088299,088211,075658,044658,022355,085288
0000000123,0000122000,085670,090529,075969,055495,015353,081453
0000000124,0000123000,082815,092209,077145,066357,011317,074625
0000000125,0000124000,080007,093085,079077,076198,010635,065467
0000000126,0000125000,077524,093071,081575,084050,013374,054877
0000000127,0000126000,075609,092178,084383,089133,019265,043903
0000000128,0000127000,074452,090481,087236,090957,027733,033611
0000000129,0000128000,074165,088143,089860,089346,037957,024998
0000000130,0000129000,074770,085410,091988,084456,048924,018920
0000000131,0000130000,076212,082545,093412,076768,059556,015976
0000000132,0000131000,078361,079810,093998,067025,068832,016443
0000000133,0000132000,080992,077489,093688,056187,075838,020276
0000000134,0000133000,083842,075815,092512,045326,079874,027100
0000000135,0000134000,086652,074937,090580,035490,080554,036257
0000000136,0000135000,089140,074946,088083,027636,077820,046845
0000000137,0000136000,091050,075844,085274,022551,071933,057816
0000000138,0000137000,092207,077541,082421,020730,063464,068106
0000000139,0000138000,092499,079874,079796,022338,053243,076719
0000000140,0000139000,091891,082610,077668,027223,042281,082797
0000000141,0000140000,090446,085479,076243,034911,031648,085742
0000000142,0000141000,088303,088209,075656,044652,022372,085277
0000000143,0000142000,085672,090531,075967,055485,015369,081446
0000000144,0000143000,082817,092210,077142,066345,011332,074624
0000000145,0000144000,080010,093085,079074,076182,010648,065471
0000000146,0000145000,077523,093074,081572,084032,013383,054885
0000000147,0000146000,075607,092182,084380,089117,019267,043916
0000000148,0000147000,074451,090483,087234,090943,027730,033627
0000000149,0000148000,074163,088146,089859,089335,037950,025016
0000000150,0000149000,074766,085414,091988,084451,048911,018938
0000000151,0000150000,076210,082546,093413,076769,059539,015991
0000000152,0000151000,078358,079810,094001,067031,068814,016455
0000000153,0000152000,080988,077490,093691,056198,075819,020283
0000000154,0000153000,083840,075814,092515,045343,079856,027102
0000000155,0000154000,086651,074934,090583,035508,080540,036252
0000000156,0000155000,089139,074944,088086,027656,077810,046835
0000000157,0000156000,091051,075841,085277,022571,071928,057801
0000000158,0000157000,092210,077536,082422,020746,063466,068088
0000000159,0000158000,092502,079871,079797,022349,053252,076699
0000000160,0000159000,091894,082608,077667,027229,042295,082776
0000000161,0000160000,090452,085476,076241,034910,031666,085724
0000000162,0000161000,088307,088208,075654,044645,022393,085263
0000000163,0000162000,085674,090532,075963,055472,015390,081438
0000000164,0000163000,082820,092211,077138,066327,011351,074622
0000000165,0000164000,080012,093087,079070,076160,010664,065476
0000000166,0000165000,077522,093079,081568,084010,013394,054897
0000000167,0000166000,075607,092185,084377,089097,019271,043933
0000000168,0000167000,074450,090487,087232,090925,027728,033648
0000000169,0000168000,074159,088151,089859,089321,037941,025039
0000000170,0000169000,074762,085418,091989,084445,048894,018961
0000000171,0000170000,076207,082547,093415,076770,059518,016012
0000000172,0000171000,078354,079812,094004,067038,068791,016470
0000000173,0000172000,080983,077491,093695,056213,075795,020292
0000000174,0000173000,083838,075811,092520,045363,079833,027104
0000000175,0000174000,086650,074931,090588,035531,080523,036246
0000000176,0000175000,089137,074941,088090,027681,077798,046821
0000000177,0000176000,091052,075836,085280,022595,071923,057782
0000000178,0000177000,092213,077531,082425,020766,063470,068064
0000000179,0000178000,092504,079867,079798,022364,053263,076673
0000000180,0000179000,091899,082604,077666,027238,042312,082751
0000000181,0000180000,090457,085472,076239,034910,031689,085702
0000000182,0000181000,088311,088207,075651,044635,022420,085245
0000000183,0000182000,085678,090532,075959,055457,015417,081427
0000000184,0000183000,082824,092212,077133,066305,011375,074620
0000000185,0000184000,080014,093090,079065,076133,010685,065482
0000000186,0000185000,077522,093084,081563,083982,013407,054911
0000000187,0000186000,075606,092190,084373,089070,019275,043955
0000000188,0000187000,074448,090492,087229,090902,027724,033675
0000000189,0000188000,074154,088157,089858,089305,037928,025068
0000000190,0000189000,074757,085422,091989,084438,048874,018989
0000000191,0000190000,076202,082550,093417,076770,059493,016037
0000000192,0000191000,078347,079814,094007,067048,068762,016490
0000000193,0000192000,080978,077491,093700,056232,075764,020304
0000000194,0000193000,083835,075809,092525,045388,079806,027106
0000000195,0000194000,086647,074928,090594,035561,080501,036239
0000000196,0000195000,089136,074937,088095,027713,077783,046805
0000000197,0000196000,091055,075830,085285,022625,071917,057758
0000000198,0000197000,092216,077525,082428,020791,063475,068035
0000000199,0000198000,092508,079862,079799,022383,053277,076641
0000000200,0000199000,091905,082598,077666,027247,042334,082719
0000000201,0000200000,090464,085468,076237,034908,031718,085674
0000000202,0000201000,088316,088206,075646,044625,022452,085224
0000000203,0000202000,085683,090532,075953,055437,015449,081414
0000000204,0000203000,082829,092213,077127,066277,011406,074617
0000000205,0000204000,080016,093094,079059,076100,010710,065490
0000000206,0000205000,077523,093089,081557,083948,013423,054929
0000000207,0000206000,075606,092195,084368,089038,019282,043981
0000000208,0000207000,074444,090498,087226,090874,027720,033707
0000000209,0000208000,074148,088164,089856,089286,037913,025103
0000000210,0000209000,074752,085427,091990,084428,048849,019024
0000000211,0000210000,076195,082554,093420,076771,059462,016067
0000000212,0000211000,078340,079817,094012,067060,068726,016513
0000000213,0000212000,080973,077491,093706,056255,075728,020318
0000000214,0000213000,083831,075806,092532,045418,079773,027109
0000000215,0000214000,086643,074925,090601,035597,080474,036230
0000000216,0000215000,089136,074931,088101,027751,077764,046786
0000000217,0000216000,091057,075822,085290,022661,071910,057729
0000000218,0000217000,092219,077518,082432,020821,063480,067999
0000000219,0000218000,092513,079856,079800,022405,053293,076602
0000000220,0000219000,091912,082592,077665,027258,042361,082682
0000000221,0000220000,090471,085464,076234,034907,031753,085640
0000000222,0000221000,088323,088204,075641,044611,022491,085198
0000000223,0000222000,085690,090532,075946,055413,015489,081399
0000000224,0000223000,082834,092215,077119,066243,011443,074614
0000000225,0000224000,080018,093100,079051,076061,010739,065500
0000000226,0000225000,077524,093095,081550,083908,013442,054951
0000000227,0000226000,075604,092202,084363,088999,019289,044012
0000000228,0000227000,074439,090507,087222,090840,027715,033746
0000000229,0000228000,074143,088171,089854,089262,037894,025145
0000000230,0000229000,074745,085432,091991,084416,048820,019065
0000000231,0000230000,076186,082559,093424,076772,059424,016104
0000000232,0000231000,078332,079820,094017,067075,068684,016541
0000000233,0000232000,080966,077490,093713,056281,075684,020334
0000000234,0000233000,083825,075803,092541,045455,079734,027112
0000000235,0000234000,086640,074920,090609,035639,080442,036220
0000000236,0000235000,089136,074924,088109,027796,077743,046762
0000000237,0000236000,091059,075814,085296,022703,071903,057695
0000000238,0000237000,092223,077510,082436,020857,063486,067957
0000000239,0000238000,092520,079847,079802,022431,053313,076556
0000000240,0000239000,091921,082585,077664,027271,042393,082637
0000000241,0000240000,090479,085460,076230,034905,031794,085601
0000000242,0000241000,088332,088201,075635,044596,022537,085168
0000000243,0000242000,085699,090531,075939,055383,015536,081381
0000000244,0000243000,082840,092219,077111,066204,011486,074611
0000000245,0000244000,080022,093105,079042,076016,010773,065511
0000000246,0000245000,077525,093102,081542,083859,013465,054976
0000000247,0000246000,075602,092211,084356,088952,019298,044050
0000000248,0000247000,074434,090517,087218,090802,027708,033791
0000000249,0000248000,074136,088180,089852,089234,037872,025194
0000000250,0000249000,074737,085440,091992,084402,048786,019113
0000000251,0000250000,076176,082565,093428,076774,059380,016146
0000000252,0000251000,078323,079823,094024,067093,068633,016574
0000000253,0000252000,080958,077490,093721,056313,075634,020353
0000000254,0000253000,083818,075801,092550,045497,079687,027116
0000000255,0000254000,086635,074914,090619,035690,080404,036207
0000000256,0000255000,089135,074915,088118,027848,077719,046734
0000000257,0000256000,091061,075804,085304,022752,071894,057654
0000000258,0000257000,092228,077500,082441,020899,063493,067908
0000000259,0000258000,092528,079837,079804,022461,053336,076503
0000000260,0000259000,091930,082576,077663,027285,042430,082585
0000000261,0000260000,090489,085454,076226,034904,031842,085555
0000000262,0000261000,088342,088198,075628,044577,022591,085133
0000000263,0000262000,085708,090531,075930,055349,015590,081361
0000000264,0000263000,082846,092222,077100,066158,011535,074607
0000000265,0000264000,080026,093111,079031,075962,010813,065525
0000000266,0000265000,077527,093110,081532,083803,013491,055006
0000000267,0000266000,075599,092222,084348,088899,019308,044093
0000000268,0000267000,074429,090528,087212,090757,027699,033844
0000000269,0000268000,074128,088190,089850,089202,037847,025252
0000000270,0000269000,074726,085449,091994,084386,048746,019169
0000000271,0000270000,076165,082572,093432,076776,059328,016195
0000000272,0000271000,078312,079826,094031,067113,068575,016611
0000000273,0000272000,080948,077490,093731,056349,075576,020375
0000000274,0000273000,083810,075798,092561,045547,079634,027120
0000000275,0000274000,086631,074908,090630,035747,080361,036193
0000000276,0000275000,089134,074906,088129,027908,077691,046702
0000000277,0000276000,091063,075794,085313,022809,071884,057608
0000000278,0000277000,092234,077489,082447,020947,063502,067851
0000000279,0000278000,092537,079825,079807,022495,053363,076442
0000000280,0000279000,091940,082567,077662,027302,042474,082525
0000000281,0000280000,090501,085447,076221,034901,031897,085502
0000000282,0000281000,088355,088194,075620,044556,022652,085093
0000000283,0000282000,085718,090531,075919,055310,015653,081337
0000000284,0000283000,082855,092226,077088,066105,011592,074603
0000000285,0000284000,080032,093118,079019,075901,010859,065541
0000000286,0000285000,077528,093120,081521,083739,013521,055040
0000000287,0000286000,075596,092234,084338,088839,019319,044143
0000000288,0000287000,074423,090540,087205,090706,027690,033905
0000000289,0000288000,074119,088202,089847,089166,037818,025317
0000000290,0000289000,074714,085460,091995,084368,048699,019233
0000000291,0000290000,076152,082580,093437,076779,059269,016252
0000000292,0000291000,078300,079830,094040,067136,068509,016654
0000000293,0000292000,080937,077490,093742,056391,075509,020400
0000000294,0000293000,083801,075794,092574,045603,079573,027124
0000000295,0000294000,086626,074900,090643,035813,080312,036176
0000000296,0000295000,089132,074895,088141,027976,077659,046666
0000000297,0000296000,091065,075781,085323,022874,071872,057554
0000000298,0000297000,092241,077475,082454,021001,063512,067787
0000000299,0000298000,092547,079812,079810,022534,053395,076372
0000000300,0000299000,091953,082556,077660,027321,042523,082456
0000000301,0000300000,090515,085438,076216,034898,031960,085442
