DIgSILENT PowerFactory,21000900,2000
6,06A,00D
1,TTPP_200000_100:Secondary Voltage A,,,V,0.10000000,-8465.974609,0.000000,68465,99998,1,1,P
2,TTPP_200000_100:Secondary Voltage B,,,V,0.10000000,-8394.063477,0.000000,68482,99998,1,1,P
3,TTPP_200000_100:Secondary Voltage C,,,V,0.10000000,-8436.305664,0.000000,67396,99998,1,1,P
4,TTCC_500_5:Secondary Current A,,,A,0.0010000000,-86.414192,0.000000,66849,99998,1,1,P
5,TTCC_500_5:Secondary Current B,,,A,0.0010000000,-85.061470,0.000000,70134,99998,1,1,P
6,TTCC_500_5:Secondary Current C,,,A,0.0010000000,-84.699142,0.000000,69347,99998,1,1,P
50
1
1000.000000,1101
30/06/2023,06:06:31.000000
30/06/2023,06:06:31.000000
ASCII
1.000000
0000000001,0000000000,090172,087581,075211,092330,089741,074104
0000000002,0000001000,087624,090015,075325,089315,092457,074403
0000000003,0000002000,084772,091870,076323,086015,094452,075708
0000000004,0000003000,081927,092931,078105,082760,095521,077894
0000000005,0000004000,079343,093114,080507,079856,095571,080748
0000000006,0000005000,077270,092407,083285,077595,094592,083988
0000000007,0000006000,075924,090877,086161,076201,092679,087294
0000000008,0000007000,075452,088646,088866,075806,090020,090349
0000000009,0000008000,075859,085968,091135,076447,086876,092852
0000000010,0000009000,077127,083101,092736,078065,083555,094555
0000000011,0000010000,079147,080302,093515,080503,080380,095293
0000000012,0000011000,081708,077854,093401,083516,077664,094994
0000000013,0000012000,084536,076023,092404,086815,075671,093689
0000000014,0000013000,087390,074952,090620,090074,074598,091503
0000000015,0000014000,089988,074757,088219,092976,074549,088649
0000000016,0000015000,092047,075476,085441,095234,075531,085410
0000000017,0000016000,093383,077016,082565,096632,077439,082103
0000000018,0000017000,093881,079223,079860,097026,080101,079048
0000000019,0000018000,093462,081910,077590,096383,083247,076545
0000000020,0000019000,092180,084793,075990,094766,086567,074842
0000000021,0000020000,090177,087575,075211,092332,089738,074104
0000000022,0000021000,087623,090016,075325,089313,092459,074403
0000000023,0000022000,084771,091871,076322,086016,094451,075708
0000000024,0000023000,081926,092932,078106,082759,095522,077894
0000000025,0000024000,079345,093111,080508,079856,095571,080748
0000000026,0000025000,077267,092411,083285,077594,094593,083988
0000000027,0000026000,075928,090875,086161,076201,092680,087294
0000000028,0000027000,075449,088647,088867,075805,090020,090349
0000000029,0000028000,075859,085969,091135,076447,086876,092852
0000000030,0000029000,077128,083101,092736,078065,083555,094555
0000000031,0000030000,079148,080300,093515,080501,080381,095293
0000000032,0000031000,081703,077858,093402,083516,077664,094994
0000000033,0000032000,084539,076020,092404,086815,075671,093689
0000000034,0000033000,087392,074950,090620,090073,074598,091503
0000000035,0000034000,089984,074760,088219,092974,074551,088649
0000000036,0000035000,092045,075477,085441,095235,075530,085410
0000000037,0000036000,093388,077011,082565,096631,077441,082103
0000000038,0000037000,093879,079225,079860,097026,080101,079049
0000000039,0000038000,093459,081914,077591,096382,083247,076545
0000000040,0000039000,092185,084788,075990,094767,086566,074842
0000000041,0000040000,090179,087573,075211,092330,089740,074105
0000000042,0000041000,087617,090021,075325,089313,092458,074403
0000000043,0000042000,084773,091869,076321,086016,094450,075708
0000000044,0000043000,081932,092927,078105,082759,095522,077894
0000000045,0000044000,079340,093117,080507,079855,095572,080748
0000000046,0000045000,077266,092413,083285,077595,094592,083987
0000000047,0000046000,075933,090870,086161,076201,092680,087294
0000000048,0000047000,075448,088649,088866,075804,090022,090349
0000000049,0000048000,075854,085974,091135,076447,086876,092852
0000000050,0000049000,077132,083097,092736,078065,083555,094555
0000000051,0000050000,079149,080299,093515,080500,080382,095293
0000000052,0000051000,081699,077863,093402,083516,077665,094994
0000000053,0000052000,084540,076019,092405,086815,075671,093689
0000000054,0000053000,087396,074947,090621,090072,074599,091504
0000000055,0000054000,089981,074763,088220,092973,074552,088650
0000000056,0000055000,092045,075477,085441,095235,075530,085410
0000000057,0000056000,093391,077007,082566,096630,077441,082104
0000000058,0000057000,093878,079226,079860,097024,080101,079049
0000000059,0000058000,093457,081915,077591,096382,083246,076546
0000000060,0000059000,092188,084785,075990,094766,086565,074843
0000000061,0000060000,090179,087573,075211,092330,089740,074105
0000000062,0000061000,087616,090023,075324,089313,092458,074404
0000000063,0000062000,084776,091867,076321,086017,094449,075709
0000000064,0000063000,081932,092927,078105,082759,095522,077894
0000000065,0000064000,079338,093119,080506,079856,095572,080748
0000000066,0000065000,077268,092412,083284,077596,094592,083987
0000000067,0000066000,075934,090869,086160,076201,092680,087293
0000000068,0000067000,075445,088652,088866,075805,090022,090348
0000000069,0000068000,075854,085974,091135,076448,086876,092851
0000000070,0000069000,077133,083095,092736,078065,083556,094554
0000000071,0000070000,079146,080302,093516,080499,080384,095292
0000000072,0000071000,081697,077864,093403,083516,077666,094994
0000000073,0000072000,084542,076016,092405,086814,075672,093689
0000000074,0000073000,087393,074948,090622,090070,074601,091504
0000000075,0000074000,089978,074765,088221,092972,074552,088650
0000000076,0000075000,092048,075473,085442,095233,075530,085411
0000000077,0000076000,093392,077005,082566,096628,077442,082105
0000000078,0000077000,093875,079228,079861,097023,080101,079051
0000000079,0000078000,093460,081913,077591,096382,083245,076548
0000000080,0000079000,092191,084782,075990,094765,086565,074845
0000000081,0000080000,090177,087576,075210,092329,089739,074107
0000000082,0000081000,087617,090023,075323,089314,092456,074405
0000000083,0000082000,084780,091864,076320,086017,094448,075709
0000000084,0000083000,081931,092929,078104,082759,095521,077894
0000000085,0000084000,079337,093122,080505,079857,095570,080747
0000000086,0000085000,077271,092410,083283,077598,094591,083986
0000000087,0000086000,075933,090871,086159,076202,092681,087292
0000000088,0000087000,075442,088656,088865,075806,090022,090346
0000000089,0000088000,075855,085974,091135,076449,086877,092849
0000000090,0000089000,077133,083095,092736,078065,083558,094552
0000000091,0000090000,079142,080306,093517,080499,080386,095290
0000000092,0000091000,081696,077864,093403,083515,077667,094992
0000000093,0000092000,084542,076014,092407,086812,075675,093688
0000000094,0000093000,087391,074949,090624,090068,074603,091504
0000000095,0000094000,089977,074765,088222,092971,074553,088651
0000000096,0000095000,092050,075470,085444,095231,075531,085412
0000000097,0000096000,093391,077004,082568,096626,077442,082107
0000000098,0000097000,093874,079228,079862,097022,080101,079053
0000000099,0000098000,093463,081909,077591,096381,083244,076550
0000000100,0000099000,092193,084780,075990,094764,086564,074847
0000000101,0000100000,090177,087576,075210,092329,089737,074109
0000000102,0000101000,087620,090021,075322,089315,092453,074406
0000000103,0000102000,084782,091863,076318,086018,094446,075710
0000000104,0000103000,081931,092931,078102,082761,095519,077895
0000000105,0000104000,079338,093123,080503,079860,095568,080747
0000000106,0000105000,077272,092410,083281,077600,094590,083985
0000000107,0000106000,075931,090874,086158,076204,092680,087290
0000000108,0000107000,075440,088659,088864,075808,090022,090344
0000000109,0000108000,075855,085974,091134,076450,086878,092847
0000000110,0000109000,077130,083098,092736,078065,083560,094550
0000000111,0000110000,079138,080308,093517,080499,080388,095288
0000000112,0000111000,081696,077863,093405,083514,077670,094991
0000000113,0000112000,084540,076014,092409,086810,075678,093687
0000000114,0000113000,087387,074950,090626,090066,074606,091503
0000000115,0000114000,089977,074762,088225,092968,074555,088651
0000000116,0000115000,092050,075467,085447,095228,075533,085414
0000000117,0000116000,093390,077004,082570,096622,077443,082109
0000000118,0000117000,093876,079225,079863,097019,080100,079056
0000000119,0000118000,093467,081905,077592,096378,083243,076553
0000000120,0000119000,092194,084779,075990,094763,086562,074850
0000000121,0000120000,090179,087576,075208,092330,089734,074112
0000000122,0000121000,087625,090018,075320,089316,092450,074409
0000000123,0000122000,084784,091863,076316,086020,094443,075712
0000000124,0000123000,081931,092934,078099,082764,095516,077895
0000000125,0000124000,079341,093123,080500,079863,095565,080746
0000000126,0000125000,077273,092412,083278,077603,094588,083983
0000000127,0000126000,075929,090879,086155,076208,092680,087287
0000000128,0000127000,075439,088662,088862,075811,090023,090341
0000000129,0000128000,075854,085976,091133,076452,086880,092843
0000000130,0000129000,077125,083102,092737,078066,083563,094546
0000000131,0000130000,079134,080311,093518,080499,080391,095285
0000000132,0000131000,081694,077863,093407,083513,077674,094988
0000000133,0000132000,084536,076015,092412,086807,075682,093685
0000000134,0000133000,087384,074950,090629,090062,074609,091503
0000000135,0000134000,089977,074758,088228,092964,074558,088653
0000000136,0000135000,092050,075464,085450,095223,075535,085416
0000000137,0000136000,093389,077002,082573,096618,077444,082112
0000000138,0000137000,093879,079220,079865,097016,080099,079060
0000000139,0000138000,093470,081901,077593,096376,083242,076558
0000000140,0000139000,092196,084777,075990,094762,086559,074855
0000000141,0000140000,090184,087573,075207,092330,089729,074115
0000000142,0000141000,087630,090016,075317,089317,092446,074412
0000000143,0000142000,084787,091864,076312,086023,094438,075714
0000000144,0000143000,081934,092935,078094,082768,095511,077895
0000000145,0000144000,079344,093124,080496,079868,095562,080745
0000000146,0000145000,077273,092416,083274,077608,094586,083981
0000000147,0000146000,075927,090884,086152,076212,092679,087284
0000000148,0000147000,075439,088665,088860,075815,090023,090336
0000000149,0000148000,075851,085980,091133,076455,086882,092838
0000000150,0000149000,077120,083107,092737,078067,083566,094541
0000000151,0000150000,079131,080313,093520,080499,080396,095280
0000000152,0000151000,081690,077863,093410,083511,077680,094985
0000000153,0000152000,084531,076016,092416,086804,075688,093683
0000000154,0000153000,087381,074949,090634,090058,074614,091503
0000000155,0000154000,089976,074755,088233,092958,074563,088654
0000000156,0000155000,092048,075461,085454,095217,075538,085419
0000000157,0000156000,093390,076998,082576,096613,077445,082117
0000000158,0000157000,093882,079214,079867,097011,080099,079065
0000000159,0000158000,093473,081896,077594,096372,083239,076564
0000000160,0000159000,092200,084774,075989,094760,086555,074860
0000000161,0000160000,090190,087569,075205,092330,089724,074121
0000000162,0000161000,087635,090014,075314,089319,092440,074416
0000000163,0000162000,084790,091866,076308,086026,094432,075716
0000000164,0000163000,081938,092936,078089,082774,095506,077896
0000000165,0000164000,079347,093126,080490,079874,095557,080744
0000000166,0000165000,077272,092422,083269,077614,094583,083977
0000000167,0000166000,075926,090889,086148,076219,092677,087279
0000000168,0000167000,075437,088669,088857,075821,090024,090330
0000000169,0000168000,075846,085986,091131,076458,086885,092831
0000000170,0000169000,077114,083112,092737,078069,083571,094534
0000000171,0000170000,079126,080315,093522,080499,080402,095274
0000000172,0000171000,081684,077866,093414,083508,077687,094980
0000000173,0000172000,084525,076017,092421,086800,075695,093681
0000000174,0000173000,087378,074946,090640,090052,074620,091502
0000000175,0000174000,089973,074751,088239,092951,074568,088656
0000000176,0000175000,092046,075457,085460,095210,075542,085423
0000000177,0000176000,093392,076991,082581,096606,077446,082122
0000000178,0000177000,093886,079207,079871,097005,080098,079072
0000000179,0000178000,093477,081891,077596,096368,083236,076571
0000000180,0000179000,092206,084769,075988,094758,086549,074868
0000000181,0000180000,090198,087564,075202,092330,089717,074127
0000000182,0000181000,087641,090013,075310,089321,092433,074421
0000000183,0000182000,084796,091866,076302,086031,094424,075719
0000000184,0000183000,081944,092937,078083,082780,095498,077896
0000000185,0000184000,079350,093130,080484,079881,095552,080742
0000000186,0000185000,077272,092428,083263,077622,094579,083973
0000000187,0000186000,075926,090895,086142,076226,092676,087272
0000000188,0000187000,075434,088676,088854,075827,090025,090322
0000000189,0000188000,075840,085994,091130,076463,086889,092823
0000000190,0000189000,077108,083117,092738,078072,083577,094526
0000000191,0000190000,079120,080319,093525,080498,080409,095267
0000000192,0000191000,081676,077869,093419,083505,077695,094975
0000000193,0000192000,084519,076017,092428,086794,075703,093677
0000000194,0000193000,087373,074943,090647,090045,074628,091502
0000000195,0000194000,089970,074747,088247,092942,074574,088658
0000000196,0000195000,092045,075451,085467,095201,075546,085428
0000000197,0000196000,093394,076983,082587,096598,077448,082129
0000000198,0000197000,093890,079199,079875,096998,080097,079080
0000000199,0000198000,093482,081884,077597,096363,083232,076580
0000000200,0000199000,092214,084762,075987,094755,086543,074877
0000000201,0000200000,090206,087558,075199,092330,089709,074135
0000000202,0000201000,087648,090011,075304,089325,092423,074427
0000000203,0000202000,084803,091866,076295,086037,094415,075723
0000000204,0000203000,081950,092939,078074,082788,095490,077897
0000000205,0000204000,079353,093136,080475,079891,095545,080739
0000000206,0000205000,077273,092435,083255,077632,094575,083968
0000000207,0000206000,075925,090903,086136,076236,092674,087265
0000000208,0000207000,075429,088685,088849,075835,090027,090313
0000000209,0000208000,075833,086003,091128,076469,086893,092813
0000000210,0000209000,077101,083124,092739,078075,083584,094516
0000000211,0000210000,079111,080324,093529,080498,080419,095258
0000000212,0000211000,081666,077872,093425,083502,077705,094968
0000000213,0000212000,084511,076017,092435,086788,075713,093674
0000000214,0000213000,087367,074939,090656,090036,074638,091501
0000000215,0000214000,089965,074742,088256,092932,074582,088660
0000000216,0000215000,092044,075444,085476,095190,075551,085433
0000000217,0000216000,093397,076973,082594,096588,077449,082138
0000000218,0000217000,093894,079190,079880,096989,080095,079091
0000000219,0000218000,093489,081875,077599,096357,083227,076591
0000000220,0000219000,092224,084753,075987,094752,086535,074888
0000000221,0000220000,090215,087553,075195,092331,089699,074145
0000000222,0000221000,087657,090008,075298,089329,092412,074434
0000000223,0000222000,084812,091865,076286,086044,094403,075727
0000000224,0000223000,081957,092942,078065,082798,095479,077898
0000000225,0000224000,079356,093142,080465,079902,095536,080736
0000000226,0000225000,077275,092443,083245,077644,094569,083961
0000000227,0000226000,075923,090912,086128,076247,092672,087256
0000000228,0000227000,075423,088696,088844,075844,090029,090302
0000000229,0000228000,075825,086013,091126,076475,086899,092801
0000000230,0000229000,077092,083132,092740,078078,083592,094504
0000000231,0000230000,079099,080331,093533,080497,080430,095248
0000000232,0000231000,081655,077876,093432,083497,077718,094960
0000000233,0000232000,084502,076016,092445,086780,075726,093669
0000000234,0000233000,087360,074936,090667,090025,074649,091500
0000000235,0000234000,089960,074736,088267,092920,074591,088663
0000000236,0000235000,092043,075434,085486,095178,075557,085440
0000000237,0000236000,093399,076962,082602,096575,077452,082148
0000000238,0000237000,093899,079179,079886,096979,080093,079103
0000000239,0000238000,093498,081864,077602,096349,083221,076604
0000000240,0000239000,092235,084743,075985,094749,086526,074901
0000000241,0000240000,090227,087546,075190,092331,089687,074156
0000000242,0000241000,087669,090005,075290,089333,092398,074443
0000000243,0000242000,084823,091865,076276,086053,094390,075732
0000000244,0000243000,081965,092946,078053,082809,095467,077899
0000000245,0000244000,079361,093150,080453,079915,095527,080733
0000000246,0000245000,077277,092453,083234,077658,094563,083954
0000000247,0000246000,075920,090924,086119,076260,092670,087245
0000000248,0000247000,075417,088709,088837,075855,090031,090289
0000000249,0000248000,075816,086024,091123,076483,086905,092786
0000000250,0000249000,077080,083142,092741,078082,083602,094491
0000000251,0000250000,079086,080339,093539,080497,080442,095236
0000000252,0000251000,081643,077880,093441,083492,077732,094951
0000000253,0000252000,084491,076016,092456,086771,075740,093663
0000000254,0000253000,087350,074933,090680,090013,074663,091499
0000000255,0000254000,089954,074729,088280,092906,074602,088667
0000000256,0000255000,092042,075423,085498,095163,075564,085448
0000000257,0000256000,093401,076950,082612,096561,077454,082159
0000000258,0000257000,093905,079166,079892,096967,080091,079117
0000000259,0000258000,093508,081851,077605,096341,083214,076620
0000000260,0000259000,092247,084732,075984,094744,086515,074916
0000000261,0000260000,090240,087538,075185,092332,089674,074169
0000000262,0000261000,087683,090000,075281,089339,092383,074453
0000000263,0000262000,084835,091864,076264,086063,094374,075738
0000000264,0000263000,081974,092950,078039,082822,095453,077900
0000000265,0000264000,079367,093158,080439,079931,095515,080729
0000000266,0000265000,077279,092464,083221,077674,094555,083945
0000000267,0000266000,075917,090938,086108,076275,092667,087232
0000000268,0000267000,075410,088724,088830,075868,090033,090273
0000000269,0000268000,075806,086038,091120,076493,086912,092770
0000000270,0000269000,077067,083154,092743,078086,083614,094474
0000000271,0000270000,079071,080348,093544,080496,080457,095222
0000000272,0000271000,081629,077885,093450,083487,077748,094940
0000000273,0000272000,084478,076016,092469,086760,075757,093657
0000000274,0000273000,087340,074929,090695,089999,074678,091498
0000000275,0000274000,089948,074720,088295,092889,074614,088671
0000000276,0000275000,092041,075411,085512,095145,075572,085458
0000000277,0000276000,093404,076935,082624,096545,077457,082173
0000000278,0000277000,093913,079150,079900,096953,080088,079133
0000000279,0000278000,093520,081836,077608,096331,083206,076637
0000000280,0000279000,092261,084720,075983,094740,086502,074933
0000000281,0000280000,090256,087529,075179,092333,089658,074184
0000000282,0000281000,087699,089994,075270,089345,092365,074464
0000000283,0000282000,084849,091864,076250,086074,094357,075744
0000000284,0000283000,081985,092956,078023,082838,095437,077901
0000000285,0000284000,079375,093167,080422,079949,095502,080724
0000000286,0000285000,077281,092477,083206,077693,094547,083935
0000000287,0000286000,075914,090954,086096,076293,092664,087218
0000000288,0000287000,075402,088740,088821,075883,090036,090256
0000000289,0000288000,075794,086054,091116,076503,086921,092751
0000000290,0000289000,077051,083168,092744,078091,083628,094456
0000000291,0000290000,079054,080358,093551,080495,080474,095206
0000000292,0000291000,081612,077890,093462,083480,077768,094928
0000000293,0000292000,084463,076017,092484,086748,075776,093650
0000000294,0000293000,087328,074924,090712,089982,074695,091497
0000000295,0000294000,089941,074709,088313,092870,074628,088677
0000000296,0000295000,092038,075397,085528,095125,075581,085468
0000000297,0000296000,093407,076919,082637,096526,077460,082188
0000000298,0000297000,093922,079132,079910,096938,080085,079152
0000000299,0000298000,093533,081818,077612,096320,083197,076658
0000000300,0000299000,092277,084705,075981,094734,086488,074952
0000000301,0000300000,090274,087518,075171,092334,089639,074202
