DIgSILENT PowerFactory,21000900,2000
6,06A,00D
1,TTPP_200000_100:Secondary Voltage A,,,V,0.10000000,-8475.659180,0.000000,70798,99998,1,1,P
2,TTPP_200000_100:Secondary Voltage B,,,V,0.10000000,-8520.420898,0.000000,72013,99998,1,1,P
3,TTPP_200000_100:Secondary Voltage C,,,V,0.10000000,-8458.717773,0.000000,66409,99998,1,1,P
4,TTCC_300_1:Secondary Current A,,,A,0.00010000000,-5.467425,0.000000,-10810,99998,1,1,P
5,TTCC_300_1:Secondary Current B,,,A,0.00010000000,-4.867699,0.000000,-3444,99998,1,1,P
6,TTCC_300_1:Secondary Current C,,,A,0.00010000000,-5.026998,0.000000,283,99998,1,1,P
50
1
1000.000000,1101
30/06/2023,06:11:56.000000
30/06/2023,06:11:56.000000
ASCII
1.000000
0000000001,0000000000,091863,086679,076006,033744,034688,085189
0000000002,0000001000,089729,089397,075421,043497,025409,084716
0000000003,0000002000,087088,091728,075733,054336,018412,080873
0000000004,0000003000,084232,093406,076909,065216,014368,074038
0000000005,0000004000,081438,094268,078843,075058,013693,064869
0000000006,0000005000,078951,094258,081339,082906,016446,054269
0000000007,0000006000,077029,093373,084146,087993,022340,043288
0000000008,0000007000,075885,091665,086999,089816,030816,032991
0000000009,0000008000,075600,089327,089621,088191,041056,024374
0000000010,0000009000,076197,086604,091746,083294,052031,018296
0000000011,0000010000,077645,083734,093169,075600,062665,015356
0000000012,0000011000,079799,080995,093754,065841,071951,015828
0000000013,0000012000,082420,078687,093442,054992,078958,019671
0000000014,0000013000,085271,077012,092264,044127,082988,026507
0000000015,0000014000,088086,076130,090333,034283,083663,035676
0000000016,0000015000,090565,076147,087835,026425,080923,046274
0000000017,0000016000,092472,077048,085028,021346,075019,057256
0000000018,0000017000,093635,078738,082176,019527,066540,067554
0000000019,0000018000,093919,081075,079554,021143,056308,076170
0000000020,0000019000,093307,083814,077428,026042,045332,082247
0000000021,0000020000,091869,086674,076005,033744,034689,085189
0000000022,0000021000,089723,089404,075421,043494,025412,084715
0000000023,0000022000,087086,091729,075733,054344,018405,080873
0000000024,0000023000,084240,093399,076909,065215,014369,074037
0000000025,0000024000,081436,094270,078842,075055,013696,064869
0000000026,0000025000,078943,094265,081339,082910,016442,054269
0000000027,0000026000,077035,093367,084146,087998,022335,043288
0000000028,0000027000,075888,091662,086998,089813,030819,032990
0000000029,0000028000,075593,089334,089621,088193,041055,024374
0000000030,0000029000,076198,086603,091747,083301,052025,018296
0000000031,0000030000,077652,083728,093169,075600,062666,015355
0000000032,0000031000,079794,081001,093753,065840,071952,015828
0000000033,0000032000,082417,078689,093442,054998,078953,019670
0000000034,0000033000,085277,077006,092265,044131,082985,026506
0000000035,0000034000,088085,076130,090333,034282,083666,035674
0000000036,0000035000,090560,076152,087835,026428,080920,046273
0000000037,0000036000,092476,077044,085028,021350,075017,057254
0000000038,0000037000,093636,078736,082176,019528,066541,067552
0000000039,0000038000,093916,081079,079554,021143,056309,076168
0000000040,0000039000,093308,083813,077428,026046,045329,082246
0000000041,0000040000,091871,086671,076006,033744,034690,085188
0000000042,0000041000,089720,089406,075421,043494,025413,084714
0000000043,0000042000,087086,091730,075733,054345,018404,080872
0000000044,0000043000,084242,093397,076909,065216,014368,074037
0000000045,0000044000,081435,094272,078842,075055,013697,064869
0000000046,0000045000,078943,094267,081339,082911,016440,054270
0000000047,0000046000,077037,093365,084146,087997,022335,043289
0000000048,0000047000,075886,091664,086998,089812,030818,032991
0000000049,0000048000,075591,089336,089621,088194,041053,024375
0000000050,0000049000,076201,086601,091747,083301,052022,018297
0000000051,0000050000,077650,083728,093169,075600,062665,015356
0000000052,0000051000,079791,081003,093754,065844,071948,015829
0000000053,0000052000,082420,078687,093442,055001,078950,019670
0000000054,0000053000,085277,077005,092265,044132,082984,026506
0000000055,0000054000,088081,076134,090333,034286,083663,035673
0000000056,0000055000,090562,076150,087836,026434,080917,046271
0000000057,0000056000,092479,077041,085029,021351,075018,057252
0000000058,0000057000,093633,078738,082177,019530,066542,067550
0000000059,0000058000,093915,081079,079554,021148,056307,076165
0000000060,0000059000,093312,083808,077427,026046,045331,082243
0000000061,0000060000,091870,086672,076005,033742,034694,085185
0000000062,0000061000,089718,089409,075421,043496,025413,084712
0000000063,0000062000,087090,091726,075732,054345,018405,080871
0000000064,0000063000,084243,093396,076909,065212,014373,074036
0000000065,0000064000,081431,094276,078842,075053,013698,064869
0000000066,0000065000,078945,094265,081338,082911,016439,054271
0000000067,0000066000,077040,093363,084145,087994,022337,043291
0000000068,0000067000,075882,091668,086998,089809,030818,032994
0000000069,0000068000,075590,089337,089620,088195,041048,024378
0000000070,0000069000,076203,086598,091747,083301,052020,018300
0000000071,0000070000,077648,083731,093169,075600,062663,015359
0000000072,0000071000,079788,081006,093754,065847,071942,015831
0000000073,0000072000,082422,078684,093442,055005,078945,019671
0000000074,0000073000,085277,077005,092266,044134,082982,026506
0000000075,0000074000,088078,076136,090334,034291,083660,035671
0000000076,0000075000,090564,076147,087836,026440,080913,046269
0000000077,0000076000,092480,077039,085029,021355,075018,057249
0000000078,0000077000,093631,078740,082177,019534,066542,067545
0000000079,0000078000,093917,081078,079554,021153,056307,076161
0000000080,0000079000,093315,083806,077428,026048,045335,082238
0000000081,0000080000,091869,086674,076005,033742,034699,085180
0000000082,0000081000,089719,089409,075420,043496,025417,084708
0000000083,0000082000,087093,091723,075731,054343,018410,080869
0000000084,0000083000,084242,093398,076908,065207,014378,074036
0000000085,0000084000,081430,094278,078840,075049,013701,064870
0000000086,0000085000,078947,094264,081337,082906,016441,054274
0000000087,0000086000,077039,093364,084145,087988,022338,043295
0000000088,0000087000,075880,091671,086997,089806,030816,032999
0000000089,0000088000,075592,089336,089620,088193,041045,024384
0000000090,0000089000,076203,086598,091747,083298,052016,018306
0000000091,0000090000,077644,083734,093170,075600,062657,015364
0000000092,0000091000,079788,081005,093755,065851,071935,015835
0000000093,0000092000,082423,078682,093443,055008,078939,019674
0000000094,0000093000,085274,077007,092267,044140,082976,026506
0000000095,0000094000,088078,076136,090335,034299,083653,035669
0000000096,0000095000,090566,076144,087837,026447,080909,046265
0000000097,0000096000,092479,077039,085030,021361,075017,057243
0000000098,0000097000,093630,078741,082178,019541,066542,067538
0000000099,0000098000,093920,081074,079554,021158,056310,076153
0000000100,0000099000,093316,083805,077428,026049,045341,082231
0000000101,0000100000,091868,086675,076005,033743,034705,085173
0000000102,0000101000,089722,089407,075419,043495,025423,084703
0000000103,0000102000,087095,091722,075730,054337,018419,080865
0000000104,0000103000,084241,093401,076907,065200,014386,074035
0000000105,0000104000,081431,094278,078839,075043,013706,064872
0000000106,0000105000,078950,094263,081336,082897,016446,054278
0000000107,0000106000,077037,093367,084144,087979,022341,043302
0000000108,0000107000,075878,091673,086996,089801,030814,033007
0000000109,0000108000,075593,089335,089620,088188,041040,024393
0000000110,0000109000,076201,086600,091747,083295,052011,018315
0000000111,0000110000,077641,083737,093170,075602,062647,015372
0000000112,0000111000,079788,081004,093756,065856,071924,015841
0000000113,0000112000,082422,078681,093445,055014,078930,019678
0000000114,0000113000,085271,077008,092269,044149,082967,026506
0000000115,0000114000,088078,076134,090336,034311,083644,035667
0000000116,0000115000,090567,076141,087839,026457,080905,046260
0000000117,0000116000,092477,077039,085032,021371,075016,057234
0000000118,0000117000,093631,078739,082179,019551,066542,067528
0000000119,0000118000,093923,081070,079555,021164,056315,076142
0000000120,0000119000,093317,083804,077427,026052,045350,082219
0000000121,0000120000,091869,086675,076003,033744,034714,085163
0000000122,0000121000,089725,089405,075417,043492,025435,084695
0000000123,0000122000,087097,091723,075728,054329,018432,080861
0000000124,0000123000,084241,093403,076904,065191,014397,074033
0000000125,0000124000,081434,094278,078836,075032,013714,064875
0000000126,0000125000,078950,094264,081334,082884,016452,054285
0000000127,0000126000,077035,093371,084142,087967,022343,043311
0000000128,0000127000,075878,091675,086995,089791,030811,033019
0000000129,0000128000,075592,089337,089619,088180,041035,024406
0000000130,0000129000,076197,086603,091748,083291,052002,018328
0000000131,0000130000,077639,083738,093171,075603,062634,015383
0000000132,0000131000,079787,081003,093757,065860,071910,015850
0000000133,0000132000,082418,078682,093447,055022,078916,019683
0000000134,0000133000,085268,077008,092272,044161,082953,026507
0000000135,0000134000,088078,076131,090339,034325,083633,035664
0000000136,0000135000,090567,076139,087842,026471,080898,046252
0000000137,0000136000,092477,077037,085034,021386,075012,057223
0000000138,0000137000,093634,078735,082180,019564,066543,067513
0000000139,0000138000,093926,081067,079555,021173,056322,076126
0000000140,0000139000,093318,083803,077427,026057,045360,082204
0000000141,0000140000,091873,086673,076002,033745,034727,085150
0000000142,0000141000,089730,089403,075416,043486,025451,084685
0000000143,0000142000,087098,091724,075726,054319,018449,080854
0000000144,0000143000,084243,093404,076901,065178,014411,074032
0000000145,0000144000,081436,094279,078833,075016,013726,064879
0000000146,0000145000,078950,094268,081331,082866,016461,054293
0000000147,0000146000,077034,093375,084139,087952,022346,043324
0000000148,0000147000,075878,091677,086993,089778,030808,033036
0000000149,0000148000,075589,089340,089619,088169,041028,024424
0000000150,0000149000,076193,086607,091748,083286,051989,018346
0000000151,0000150000,077636,083739,093173,075604,062618,015399
0000000152,0000151000,079785,081004,093760,065866,071893,015862
0000000153,0000152000,082414,078684,093450,055033,078898,019690
0000000154,0000153000,085266,077007,092275,044178,082934,026509
0000000155,0000154000,088078,076127,090343,034343,083619,035659
0000000156,0000155000,090565,076137,087845,026491,080889,046242
0000000157,0000156000,092477,077034,085036,021406,075008,057208
0000000158,0000157000,093637,078730,082182,019580,066546,067495
0000000159,0000158000,093928,081064,079556,021184,056331,076106
0000000160,0000159000,093320,083801,077426,026063,045374,082184
0000000161,0000160000,091878,086670,076001,033745,034745,085132
0000000162,0000161000,089733,089401,075413,043479,025472,084671
0000000163,0000162000,087100,091725,075722,054306,018470,080846
0000000164,0000163000,084246,093405,076897,065161,014430,074030
0000000165,0000164000,081438,094280,078830,074994,013743,064884
0000000166,0000165000,078949,094272,081327,082844,016472,054305
0000000167,0000166000,077033,093379,084136,087931,022349,043341
0000000168,0000167000,075876,091680,086991,089759,030806,033057
0000000169,0000168000,075585,089344,089618,088156,041019,024447
0000000170,0000169000,076188,086611,091748,083280,051973,018368
0000000171,0000170000,077633,083741,093174,075605,062597,015419
0000000172,0000171000,079780,081005,093763,065873,071870,015878
0000000173,0000172000,082409,078685,093454,055048,078873,019699
0000000174,0000173000,085264,077005,092279,044198,082912,026511
0000000175,0000174000,088076,076124,090347,034367,083602,035654
0000000176,0000175000,090564,076135,087849,026516,080877,046228
0000000177,0000176000,092479,077029,085040,021430,075002,057189
0000000178,0000177000,093640,078724,082184,019600,066549,067471
0000000179,0000178000,093931,081060,079557,021199,056343,076080
0000000180,0000179000,093325,083797,077426,026072,045391,082158
0000000181,0000180000,091884,086666,075999,033744,034769,085109
0000000182,0000181000,089737,089400,075410,043469,025499,084653
0000000183,0000182000,087104,091726,075718,054290,018496,080835
0000000184,0000183000,084251,093405,076892,065139,014454,074028
0000000185,0000184000,081440,094283,078825,074967,013763,064890
0000000186,0000185000,078948,094277,081323,082816,016485,054319
0000000187,0000186000,077033,093383,084132,087905,022354,043363
0000000188,0000187000,075874,091685,086989,089736,030803,033083
0000000189,0000188000,075580,089350,089617,088140,041006,024476
0000000190,0000189000,076184,086615,091749,083272,051952,018397
0000000191,0000190000,077628,083743,093177,075605,062571,015444
0000000192,0000191000,079774,081008,093767,065883,071841,015897
0000000193,0000192000,082405,078685,093459,055067,078843,019711
0000000194,0000193000,085261,077002,092285,044223,082884,026514
0000000195,0000194000,088073,076121,090353,034396,083580,035646
0000000196,0000195000,090563,076130,087855,026547,080862,046212
0000000197,0000196000,092481,077023,085044,021460,074996,057165
0000000198,0000197000,093643,078718,082187,019625,066554,067442
0000000199,0000198000,093934,081056,079558,021217,056356,076048
0000000200,0000199000,093331,083792,077425,026081,045413,082127
0000000201,0000200000,091890,086662,075996,033743,034798,085081
0000000202,0000201000,089743,089399,075406,043458,025532,084632
0000000203,0000202000,087110,091726,075712,054271,018528,080822
0000000204,0000203000,084255,093407,076886,065111,014485,074025
0000000205,0000204000,081442,094288,078818,074935,013788,064898
0000000206,0000205000,078949,094283,081317,082783,016501,054337
0000000207,0000206000,077032,093389,084128,087872,022360,043389
0000000208,0000207000,075870,091692,086986,089708,030798,033115
0000000209,0000208000,075575,089357,089616,088120,040991,024511
0000000210,0000209000,076178,086620,091750,083263,051927,018431
0000000211,0000210000,077621,083747,093180,075606,062540,015475
0000000212,0000211000,079766,081011,093771,065895,071805,015921
0000000213,0000212000,082399,078684,093465,055090,078806,019725
0000000214,0000213000,085257,076999,092292,044254,082851,026516
0000000215,0000214000,088070,076118,090360,034432,083553,035637
0000000216,0000215000,090562,076125,087861,026586,080844,046192
0000000217,0000216000,092483,077016,085049,021495,074990,057136
0000000218,0000217000,093646,078712,082191,019655,066559,067406
0000000219,0000218000,093940,081049,079560,021239,056372,076009
0000000220,0000219000,093339,083785,077424,026092,045440,082089
0000000221,0000220000,091897,086658,075993,033741,034833,085048
0000000222,0000221000,089749,089398,075401,043445,025570,084606
0000000223,0000222000,087117,091725,075706,054246,018568,080807
0000000224,0000223000,084261,093409,076879,065077,014521,074022
0000000225,0000224000,081445,094293,078811,074896,013818,064908
0000000226,0000225000,078950,094288,081310,082742,016520,054359
0000000227,0000226000,077030,093396,084122,087833,022368,043421
0000000228,0000227000,075866,091700,086982,089675,030793,033154
0000000229,0000228000,075569,089365,089614,088097,040972,024553
0000000230,0000229000,076171,086626,091751,083251,051898,018473
0000000231,0000230000,077613,083752,093183,075607,062502,015511
0000000232,0000231000,079758,081013,093777,065910,071762,015949
0000000233,0000232000,082393,078683,093472,055117,078763,019742
0000000234,0000233000,085251,076997,092300,044290,082812,026520
0000000235,0000234000,088066,076114,090368,034474,083521,035627
0000000236,0000235000,090562,076117,087868,026630,080822,046169
0000000237,0000236000,092485,077007,085056,021538,074982,057102
0000000238,0000237000,093649,078704,082195,019691,066565,067364
0000000239,0000238000,093946,081041,079561,021265,056392,075963
0000000240,0000239000,093347,083778,077423,026105,045472,082044
0000000241,0000240000,091905,086653,075990,033740,034874,085008
0000000242,0000241000,089758,089395,075395,043430,025616,084576
0000000243,0000242000,087125,091725,075698,054217,018615,080789
0000000244,0000243000,084266,093412,076870,065038,014565,074019
0000000245,0000244000,081448,094299,078801,074850,013852,064919
0000000246,0000245000,078951,094295,081301,082694,016543,054384
0000000247,0000246000,077028,093405,084115,087787,022377,043458
0000000248,0000247000,075861,091710,086977,089636,030786,033199
0000000249,0000248000,075562,089373,089612,088069,040950,024602
0000000250,0000249000,076163,086633,091752,083236,051864,018521
0000000251,0000250000,077603,083758,093187,075609,062458,015554
0000000252,0000251000,079749,081016,093783,065928,071712,015981
0000000253,0000252000,082385,078683,093481,055148,078712,019761
0000000254,0000253000,085244,076994,092310,044332,082766,026523
0000000255,0000254000,088062,076108,090378,034525,083483,035614
0000000256,0000255000,090561,076109,087878,026683,080798,046141
0000000257,0000256000,092487,076998,085063,021587,074973,057061
0000000258,0000257000,093654,078694,082200,019733,066573,067315
0000000259,0000258000,093954,081030,079563,021295,056415,075910
0000000260,0000259000,093356,083770,077422,026120,045510,081992
0000000261,0000260000,091915,086647,075985,033738,034922,084962
0000000262,0000261000,089769,089391,075388,043411,025670,084540
0000000263,0000262000,087134,091725,075689,054183,018669,080769
0000000264,0000263000,084273,093416,076859,064992,014614,074015
0000000265,0000264000,081453,094305,078791,074796,013892,064933
0000000266,0000265000,078953,094304,081292,082637,016570,054414
0000000267,0000266000,077026,093415,084107,087734,022386,043501
0000000268,0000267000,075855,091721,086971,089592,030778,033252
0000000269,0000268000,075555,089383,089610,088037,040925,024659
0000000270,0000269000,076153,086642,091753,083220,051824,018577
0000000271,0000270000,077591,083765,093191,075611,062406,015603
0000000272,0000271000,079738,081020,093790,065948,071654,016019
0000000273,0000272000,082375,078683,093490,055184,078654,019783
0000000274,0000273000,085236,076991,092321,044382,082713,026527
0000000275,0000274000,088057,076101,090389,034582,083440,035600
0000000276,0000275000,090560,076099,087888,026743,080770,046109
0000000277,0000276000,092489,076987,085072,021644,074963,057015
0000000278,0000277000,093660,078682,082206,019781,066581,067258
0000000279,0000278000,093963,081019,079566,021329,056443,075849
0000000280,0000279000,093367,083760,077421,026136,045553,081932
0000000281,0000280000,091927,086640,075980,033735,034977,084910
0000000282,0000281000,089781,089387,075380,043390,025732,084500
0000000283,0000282000,087145,091725,075678,054144,018732,080745
0000000284,0000283000,084281,093420,076847,064939,014671,074011
0000000285,0000284000,081458,094312,078778,074735,013937,064949
0000000286,0000285000,078954,094314,081280,082573,016600,054449
0000000287,0000286000,077023,093427,084098,087673,022397,043551
0000000288,0000287000,075849,091734,086965,089541,030768,033313
0000000289,0000288000,075546,089395,089607,088001,040896,024725
0000000290,0000289000,076141,086653,091754,083203,051778,018641
0000000291,0000290000,077579,083773,093197,075614,062347,015659
0000000292,0000291000,079726,081023,093799,065971,071588,016062
0000000293,0000292000,082363,078683,093502,055226,078588,019808
0000000294,0000293000,085227,076987,092334,044438,082652,026531
0000000295,0000294000,088052,076093,090403,034648,083391,035583
0000000296,0000295000,090559,076089,087901,026811,080738,046073
0000000297,0000296000,092491,076975,085082,021708,074951,056961
0000000298,0000297000,093667,078668,082213,019836,066591,067194
0000000299,0000298000,093973,081006,079569,021368,056474,075779
0000000300,0000299000,093379,083749,077420,026155,045602,081864
0000000301,0000300000,091941,086632,075975,033732,035039,084850
