DIgSILENT PowerFactory,21000900,2000
6,06A,00D
1,TTPP_200000_100:Secondary Voltage A,,,V,0.010000000,-67.871109,0.000000,-86353,99998,1,1,P
2,TTPP_200000_100:Secondary Voltage B,,,V,0.010000000,-37.358261,0.000000,-90689,99998,1,1,P
3,TTPP_200000_100:Secondary Voltage C,,,V,0.010000000,-12.755715,0.000000,-97990,99998,1,1,P
4,TTCC_500_5:Secondary Current A,,,A,0.0010000000,-85.293762,0.000000,63645,99998,1,1,P
5,TTCC_500_5:Secondary Current B,,,A,0.0010000000,-84.922478,0.000000,69871,99998,1,1,P
6,TTCC_500_5:Secondary Current C,,,A,0.0010000000,-84.629044,0.000000,69246,99998,1,1,P
50
1
1000.000000,1101
30/06/2023,06:05:02.000000
30/06/2023,06:05:02.000000
ASCII
1.000000
0000000001,0000000000,061923,040124,-90248,091211,089600,074034
0000000002,0000001000,036445,064461,-89113,088195,092317,074332
0000000003,0000002000,007911,083036,-79135,084897,094311,075637
0000000004,0000003000,-20531,093640,-61310,081641,095382,077823
0000000005,0000004000,-46341,095449,-37297,078737,095432,080676
0000000006,0000005000,-67091,088409,-09521,076474,094456,083916
0000000007,0000006000,-80585,073139,019242,075082,092541,087223
0000000008,0000007000,-85325,050823,046297,074686,089882,090278
0000000009,0000008000,-81164,023967,068984,075327,086737,092781
0000000010,0000009000,-68562,-04631,084994,076942,083419,094484
0000000011,0000010000,-48386,-32612,092791,079381,080242,095223
0000000012,0000011000,-22764,-57099,091669,082396,077525,094924
0000000013,0000012000,005594,-75493,081696,085693,075533,093619
0000000014,0000013000,034063,-86121,063858,088952,074459,091434
0000000015,0000014000,060033,-88081,039849,091853,074411,088581
0000000016,0000015000,080648,-80927,012076,094115,075390,085341
0000000017,0000016000,094035,-65541,-16688,095510,077301,082034
0000000018,0000017000,098994,-43449,-43750,095907,079960,078979
0000000019,0000018000,094810,-16573,-66435,095262,083107,076476
0000000020,0000019000,082004,012234,-82445,093647,086426,074772
0000000021,0000020000,061966,040073,-90245,091212,089598,074034
0000000022,0000021000,036446,064463,-89113,088194,092319,074333
0000000023,0000022000,007917,083028,-79148,084896,094312,075637
0000000024,0000023000,-20536,093652,-61311,081640,095383,077823
0000000025,0000024000,-46360,095455,-37295,078737,095432,080677
0000000026,0000025000,-67108,088431,-09519,076475,094455,083916
0000000027,0000026000,-80526,073087,019236,075081,092542,087223
0000000028,0000027000,-85329,050830,046296,074684,089883,090278
0000000029,0000028000,-81230,024036,068992,075326,086738,092781
0000000030,0000029000,-68540,-04658,084995,076944,083417,094484
0000000031,0000030000,-48334,-32657,092793,079379,080244,095223
0000000032,0000031000,-22794,-57074,091665,082394,077526,094925
0000000033,0000032000,005549,-75450,081700,085693,075533,093620
0000000034,0000033000,034099,-86166,063862,088952,074459,091434
0000000035,0000034000,060035,-88089,039851,091853,074412,088581
0000000036,0000035000,080636,-80911,012074,094113,075391,085341
0000000037,0000036000,094043,-65553,-16690,095510,077300,082035
0000000038,0000037000,098988,-43443,-43741,095906,079960,078980
0000000039,0000038000,094798,-16564,-66435,095262,083107,076476
0000000040,0000039000,082040,012207,-82448,093647,086426,074773
0000000041,0000040000,061980,040062,-90247,091211,089599,074035
0000000042,0000041000,036395,064512,-89112,088194,092318,074333
0000000043,0000042000,007935,083014,-79150,084897,094311,075638
0000000044,0000043000,-20492,093609,-61318,081640,095383,077823
0000000045,0000044000,-46382,095483,-37299,078736,095433,080677
0000000046,0000045000,-67142,088464,-09524,076475,094454,083916
0000000047,0000046000,-80496,073059,019236,075081,092542,087222
0000000048,0000047000,-85321,050823,046294,074684,089884,090277
0000000049,0000048000,-81257,024066,068988,075326,086739,092781
0000000050,0000049000,-68531,-04665,084996,076944,083418,094484
0000000051,0000050000,-48340,-32658,092798,079379,080244,095222
0000000052,0000051000,-22813,-57056,091670,082394,077527,094924
0000000053,0000052000,005562,-75466,081700,085692,075533,093620
0000000054,0000053000,034110,-86180,063867,088950,074460,091435
0000000055,0000054000,059996,-88059,039858,091852,074412,088581
0000000056,0000055000,080637,-80918,012079,094113,075390,085342
0000000057,0000056000,094083,-65596,-16686,095509,077301,082035
0000000058,0000057000,098971,-43431,-43739,095904,079961,078981
0000000059,0000058000,094776,-16542,-66433,095262,083106,076477
0000000060,0000059000,082070,012175,-82448,093647,086425,074774
0000000061,0000060000,061998,040046,-90248,091211,089599,074035
0000000062,0000061000,036377,064537,-89118,088194,092318,074333
0000000063,0000062000,007949,083006,-79156,084898,094310,075638
0000000064,0000063000,-20477,093599,-61322,081640,095382,077823
0000000065,0000064000,-46396,095503,-37307,078736,095433,080676
0000000066,0000065000,-67131,088463,-09533,076476,094454,083915
0000000067,0000066000,-80484,073051,019229,075081,092542,087222
0000000068,0000067000,-85349,050853,046292,074684,089884,090277
0000000069,0000068000,-81268,024079,068985,075326,086739,092780
0000000070,0000069000,-68507,-04689,084995,076943,083419,094483
0000000071,0000070000,-48360,-32641,092802,079378,080246,095222
0000000072,0000071000,-22847,-57028,091676,082394,077528,094924
0000000073,0000072000,005576,-75486,081709,085692,075534,093619
0000000074,0000073000,034114,-86195,063877,088949,074462,091435
0000000075,0000074000,059969,-88040,039867,091850,074413,088581
0000000076,0000075000,080640,-80930,012087,094112,075391,085343
0000000077,0000076000,094099,-65622,-16676,095507,077301,082037
0000000078,0000077000,098960,-43426,-43733,095903,079961,078982
0000000079,0000078000,094786,-16553,-66433,095261,083105,076479
0000000080,0000079000,082097,012150,-82449,093646,086424,074775
0000000081,0000080000,061993,040053,-90251,091210,089598,074037
0000000082,0000081000,036382,064542,-89127,088195,092316,074334
0000000083,0000082000,007985,082982,-79168,084898,094308,075639
0000000084,0000083000,-20473,093607,-61333,081641,095382,077823
0000000085,0000084000,-46413,095534,-37320,078738,095432,080676
0000000086,0000085000,-67112,088458,-09546,076478,094453,083915
0000000087,0000086000,-80473,073051,019220,075082,092542,087221
0000000088,0000087000,-85376,050888,046284,074685,089885,090275
0000000089,0000088000,-81277,024093,068981,075328,086739,092778
0000000090,0000089000,-68505,-04693,084997,076944,083420,094482
0000000091,0000090000,-48388,-32620,092808,079377,080248,095220
0000000092,0000091000,-22866,-57017,091684,082393,077530,094923
0000000093,0000092000,005578,-75502,081722,085690,075536,093619
0000000094,0000093000,034092,-86191,063895,088947,074464,091435
0000000095,0000094000,059951,-88038,039883,091849,074415,088582
0000000096,0000095000,080657,-80961,012102,094110,075392,085344
0000000097,0000096000,094102,-65640,-16662,095505,077302,082038
0000000098,0000097000,098948,-43424,-43723,095901,079961,078984
0000000099,0000098000,094811,-16581,-66429,095260,083104,076481
0000000100,0000099000,082127,012120,-82449,093645,086423,074777
0000000101,0000100000,061995,040059,-90258,091210,089596,074039
0000000102,0000101000,036399,064537,-89140,088196,092314,074336
0000000103,0000102000,008019,082964,-79184,084900,094306,075640
0000000104,0000103000,-20468,093621,-61352,081642,095380,077823
0000000105,0000104000,-46411,095554,-37342,078740,095430,080675
0000000106,0000105000,-67095,088460,-09566,076481,094451,083913
0000000107,0000106000,-80482,073074,019205,075084,092542,087219
0000000108,0000107000,-85399,050923,046271,074688,089885,090273
0000000109,0000108000,-81279,024102,068974,075329,086741,092776
0000000110,0000109000,-68522,-04679,085000,076944,083422,094479
0000000111,0000110000,-48429,-32588,092818,079377,080250,095218
0000000112,0000111000,-22883,-57015,091699,082392,077532,094921
0000000113,0000112000,005570,-75516,081744,085688,075539,093618
0000000114,0000113000,034061,-86184,063920,088944,074467,091434
0000000115,0000114000,059936,-88047,039907,091846,074417,088583
0000000116,0000115000,080669,-80997,012126,094107,075393,085345
0000000117,0000116000,094101,-65660,-16641,095502,077303,082041
0000000118,0000117000,098951,-43440,-43710,095898,079960,078987
0000000119,0000118000,094843,-16620,-66423,095259,083103,076484
0000000120,0000119000,082152,012096,-82450,093644,086421,074781
0000000121,0000120000,062010,040054,-90269,091210,089593,074042
0000000122,0000121000,036437,064519,-89160,088197,092310,074338
0000000123,0000122000,008050,082957,-79208,084901,094303,075641
0000000124,0000123000,-20462,093644,-61381,081645,095377,077824
0000000125,0000124000,-46395,095569,-37373,078744,095427,080675
0000000126,0000125000,-67078,088471,-09594,076484,094450,083912
0000000127,0000126000,-80499,073114,019182,075088,092542,087216
0000000128,0000127000,-85420,050962,046254,074691,089885,090269
0000000129,0000128000,-81289,024119,068967,075331,086742,092772
0000000130,0000129000,-68555,-04650,085004,076945,083425,094475
0000000131,0000130000,-48472,-32556,092830,079377,080254,095214
0000000132,0000131000,-22906,-57013,091720,082391,077536,094918
0000000133,0000132000,005542,-75519,081775,085685,075544,093616
0000000134,0000133000,034025,-86182,063954,088940,074471,091434
0000000135,0000134000,059927,-88073,039942,091842,074419,088584
0000000136,0000135000,080672,-81034,012160,094102,075395,085348
0000000137,0000136000,094096,-65683,-16612,095497,077304,082044
0000000138,0000137000,098969,-43476,-43692,095895,079959,078991
0000000139,0000138000,094883,-16668,-66414,095256,083101,076489
0000000140,0000139000,082179,012072,-82453,093642,086418,074785
0000000141,0000140000,062042,040039,-90285,091210,089589,074046
0000000142,0000141000,036488,064494,-89186,088198,092306,074341
0000000143,0000142000,008084,082956,-79242,084904,094299,075643
0000000144,0000143000,-20445,093667,-61421,081649,095372,077824
0000000145,0000144000,-46370,095586,-37415,078749,095423,080674
0000000146,0000145000,-67068,088499,-09631,076489,094448,083909
0000000147,0000146000,-80518,073165,019150,075092,092541,087212
0000000148,0000147000,-85438,051003,046230,074695,089886,090265
0000000149,0000148000,-81312,024152,068958,075334,086745,092767
0000000150,0000149000,-68605,-04605,085009,076946,083429,094470
0000000151,0000150000,-48519,-32526,092846,079377,080258,095210
0000000152,0000151000,-22940,-57009,091750,082389,077542,094915
0000000153,0000152000,005497,-75514,081815,085682,075549,093614
0000000154,0000153000,033985,-86188,063999,088936,074476,091434
0000000155,0000154000,059916,-88109,039989,091837,074423,088585
0000000156,0000155000,080668,-81075,012206,094096,075398,085351
0000000157,0000156000,094096,-65719,-16576,095492,077305,082048
0000000158,0000157000,098998,-43530,-43667,095891,079959,078996
0000000159,0000158000,094925,-16723,-66402,095252,083099,076494
0000000160,0000159000,082216,012039,-82457,093640,086414,074791
0000000161,0000160000,062094,040008,-90306,091211,089584,074051
0000000162,0000161000,036547,064469,-89220,088200,092300,074345
0000000163,0000162000,008124,082961,-79286,084908,094293,075645
0000000164,0000163000,-20412,093688,-61475,081654,095366,077825
0000000165,0000164000,-46338,095608,-37469,078755,095419,080672
0000000166,0000165000,-67064,088544,-09680,076495,094445,083906
0000000167,0000166000,-80537,073226,019107,075098,092540,087207
0000000168,0000167000,-85458,051053,046201,074700,089887,090258
0000000169,0000168000,-81351,024202,068946,075337,086748,092760
0000000170,0000169000,-68666,-04549,085014,076948,083434,094464
0000000171,0000170000,-48574,-32493,092869,079377,080264,095204
0000000172,0000171000,-22991,-56997,091790,082387,077548,094910
0000000173,0000172000,005438,-75507,081867,085678,075556,093611
0000000174,0000173000,033943,-86204,064057,088930,074482,091433
0000000175,0000174000,059899,-88153,040050,091830,074429,088587
0000000176,0000175000,080656,-81122,012263,094089,075402,085354
0000000177,0000176000,094103,-65773,-16530,095485,077306,082054
0000000178,0000177000,099037,-43601,-43635,095885,079958,079003
0000000179,0000178000,094972,-16784,-66387,095248,083095,076502
0000000180,0000179000,082268,011994,-82464,093638,086409,074798
0000000181,0000180000,062164,039965,-90333,091211,089577,074057
0000000182,0000181000,036616,064443,-89263,088203,092292,074350
0000000183,0000182000,008174,082968,-79344,084912,094285,075648
0000000184,0000183000,-20365,093708,-61542,081661,095359,077825
0000000185,0000184000,-46303,095641,-37537,078762,095413,080670
0000000186,0000185000,-67062,088605,-09743,076503,094441,083901
0000000187,0000186000,-80554,073297,019054,075106,092538,087201
0000000188,0000187000,-85485,051117,046164,074707,089888,090251
0000000189,0000188000,-81406,024271,068932,075342,086751,092752
0000000190,0000189000,-68738,-04484,085021,076950,083439,094456
0000000191,0000190000,-48641,-32455,092897,079377,080272,095197
0000000192,0000191000,-23063,-56976,091839,082384,077557,094905
0000000193,0000192000,005366,-75500,081932,085672,075565,093608
0000000194,0000193000,033895,-86229,064131,088923,074490,091433
0000000195,0000194000,059871,-88202,040126,091821,074435,088589
0000000196,0000195000,080641,-81178,012334,094080,075406,085359
0000000197,0000196000,094119,-65846,-16472,095477,077308,082061
0000000198,0000197000,099082,-43687,-43594,095877,079956,079012
0000000199,0000198000,095027,-16857,-66369,095243,083092,076511
0000000200,0000199000,082338,011933,-82473,093636,086402,074807
0000000201,0000200000,062252,039910,-90366,091211,089569,074065
0000000202,0000201000,036696,064416,-89316,088206,092283,074356
0000000203,0000202000,008241,082974,-79416,084918,094275,075652
0000000204,0000203000,-20304,093729,-61625,081669,095350,077826
0000000205,0000204000,-46265,095686,-37620,078772,095406,080668
0000000206,0000205000,-67059,088679,-09821,076513,094436,083896
0000000207,0000206000,-80569,073378,018989,075116,092536,087193
0000000208,0000207000,-85523,051199,046120,074715,089889,090242
0000000209,0000208000,-81476,024360,068913,075348,086756,092742
0000000210,0000209000,-68820,-04410,085029,076953,083446,094446
0000000211,0000210000,-48725,-32407,092933,079376,080281,095188
0000000212,0000211000,-23154,-56945,091900,082380,077567,094898
0000000213,0000212000,005283,-75495,082010,085666,075575,093604
0000000214,0000213000,033838,-86262,064221,088914,074499,091432
0000000215,0000214000,059833,-88257,040220,091811,074443,088592
0000000216,0000215000,080626,-81248,012420,094069,075411,085365
0000000217,0000216000,094141,-65939,-16402,095467,077310,082069
0000000218,0000217000,099132,-43786,-43545,095869,079955,079022
0000000219,0000218000,095093,-16944,-66348,095236,083087,076522
0000000220,0000219000,082427,011854,-82483,093633,086394,074818
0000000221,0000220000,062355,039846,-90405,091212,089559,074075
0000000222,0000221000,036790,064388,-89381,088210,092272,074364
0000000223,0000222000,008326,082976,-79503,084925,094264,075656
0000000224,0000223000,-20230,093755,-61724,081679,095340,077827
0000000225,0000224000,-46223,095746,-37721,078783,095398,080665
0000000226,0000225000,-67052,088767,-09916,076525,094431,083890
0000000227,0000226000,-80587,073474,018910,075127,092534,087184
0000000228,0000227000,-85573,051302,046067,074724,089891,090230
0000000229,0000228000,-81558,024465,068890,075354,086761,092730
0000000230,0000229000,-68916,-04324,085039,076957,083455,094434
0000000231,0000230000,-48829,-32347,092977,079376,080292,095178
0000000232,0000231000,-23264,-56907,091972,082376,077580,094890
0000000233,0000232000,005187,-75493,082104,085658,075588,093600
0000000234,0000233000,033767,-86300,064329,088904,074511,091431
0000000235,0000234000,059784,-88320,040332,091798,074452,088595
0000000236,0000235000,080610,-81335,012522,094056,075417,085372
0000000237,0000236000,094168,-66051,-16317,095454,077312,082079
0000000238,0000237000,099188,-43902,-43485,095858,079953,079034
0000000239,0000238000,095173,-17050,-66323,095229,083081,076535
0000000240,0000239000,082536,011757,-82495,093629,086385,074831
0000000241,0000240000,062474,039773,-90451,091212,089547,074086
0000000242,0000241000,036902,064354,-89459,088214,092258,074372
0000000243,0000242000,008430,082976,-79607,084934,094250,075661
0000000244,0000243000,-20145,093787,-61842,081690,095328,077828
0000000245,0000244000,-46175,095819,-37842,078796,095388,080662
0000000246,0000245000,-67039,088867,-10029,076539,094424,083882
0000000247,0000246000,-80608,073587,018818,075140,092532,087173
0000000248,0000247000,-85635,051427,046004,074735,089893,090217
0000000249,0000248000,-81654,024588,068862,075362,086767,092715
0000000250,0000249000,-69028,-04224,085051,076961,083465,094420
0000000251,0000250000,-48955,-32272,093028,079375,080305,095165
0000000252,0000251000,-23394,-56862,092056,082370,077594,094881
0000000253,0000252000,005077,-75493,082215,085649,075602,093594
0000000254,0000253000,033681,-86342,064458,088891,074524,091430
0000000255,0000254000,059725,-88392,040463,091784,074463,088598
0000000256,0000255000,080595,-81440,012643,094041,075424,085380
0000000257,0000256000,094198,-66182,-16217,095440,077314,082091
0000000258,0000257000,099252,-44035,-43416,095846,079951,079048
0000000259,0000258000,095271,-17176,-66294,095221,083074,076551
0000000260,0000259000,082664,011643,-82509,093625,086374,074846
0000000261,0000260000,062610,039690,-90504,091213,089533,074099
0000000262,0000261000,037035,064312,-89551,088220,092243,074382
0000000263,0000262000,008553,082972,-79727,084944,094235,075667
0000000264,0000263000,-20048,093827,-61979,081703,095313,077829
0000000265,0000264000,-46119,095903,-37983,078812,095376,080658
0000000266,0000265000,-67022,088981,-10160,076555,094417,083874
0000000267,0000266000,-80634,073721,018710,075155,092529,087161
0000000268,0000267000,-85709,051574,045930,074748,089895,090202
0000000269,0000268000,-81761,024729,068829,075372,086775,092699
0000000270,0000269000,-69159,-04107,085065,076965,083477,094404
0000000271,0000270000,-49104,-32182,093086,079374,080320,095151
0000000272,0000271000,-23542,-56811,092154,082365,077611,094870
0000000273,0000272000,004949,-75494,082344,085639,075619,093588
0000000274,0000273000,033578,-86388,064606,088877,074539,091429
0000000275,0000274000,059658,-88477,040615,091767,074475,088603
0000000276,0000275000,080579,-81564,012783,094024,075432,085389
0000000277,0000276000,094230,-66331,-16100,095424,077317,082104
0000000278,0000277000,099325,-44188,-43335,095833,079948,079065
0000000279,0000278000,095386,-17326,-66260,095211,083066,076568
0000000280,0000279000,082810,011511,-82523,093620,086362,074863
0000000281,0000280000,062767,039596,-90566,091213,089517,074115
0000000282,0000281000,037190,064262,-89656,088226,092225,074394
0000000283,0000282000,008697,082968,-79866,084955,094217,075674
0000000284,0000283000,-19937,093876,-62138,081719,095297,077830
0000000285,0000284000,-46052,095999,-38146,078829,095363,080653
0000000286,0000285000,-67000,089111,-10312,076573,094408,083864
0000000287,0000286000,-80665,073877,018585,075173,092526,087146
0000000288,0000287000,-85792,051744,045843,074762,089898,090184
0000000289,0000288000,-81883,024889,068791,075382,086783,092680
0000000290,0000289000,-69311,-03971,085081,076970,083490,094385
0000000291,0000290000,-49276,-32077,093153,079373,080337,095135
0000000292,0000291000,-23711,-56754,092265,082358,077630,094858
0000000293,0000292000,004800,-75494,082492,085626,075638,093581
0000000294,0000293000,033458,-86438,064777,088860,074557,091428
0000000295,0000294000,059582,-88575,040789,091748,074489,088608
0000000296,0000295000,080560,-81707,012945,094004,075441,085400
0000000297,0000296000,094265,-66499,-15965,095405,077320,082120
0000000298,0000297000,099408,-44365,-43242,095817,079945,079083
0000000299,0000298000,095518,-17498,-66219,095200,083057,076588
0000000300,0000299000,082976,011361,-82539,093615,086348,074883
0000000301,0000300000,062946,039487,-90637,091215,089499,074132
