DIgSILENT PowerFactory,21000900,2000
6,06A,00D
1,TTPP_200000_100:Secondary Voltage A,,,V,0.10000000,-8261.574219,0.000000,68011,99998,1,1,P
2,TTPP_200000_100:Secondary Voltage B,,,V,0.10000000,-8413.146484,0.000000,68681,99998,1,1,P
3,TTPP_200000_100:Secondary Voltage C,,,V,0.10000000,-8141.300781,0.000000,59547,99998,1,1,P
4,TTCC_500_5:Secondary Current A,,,A,0.0010000000,-79.453491,0.000000,65706,99998,1,1,P
5,TTCC_500_5:Secondary Current B,,,A,0.0010000000,-84.334999,0.000000,68920,99998,1,1,P
6,TTCC_500_5:Secondary Current C,,,A,0.0010000000,-84.973877,0.000000,70051,99998,1,1,P
50
1
1000.000000,1101
30/06/2023,06:10:30.000000
30/06/2023,06:10:30.000000
ASCII
1.000000
0000000001,0000000000,088128,087772,072260,085369,089014,074379
0000000002,0000001000,085580,090205,072375,082353,091731,074678
0000000003,0000002000,082729,092060,073373,079056,093723,075983
0000000004,0000003000,079880,093124,075155,075797,094797,078168
0000000005,0000004000,077301,093302,077557,072896,094844,081023
0000000006,0000005000,075223,092601,080336,070635,093865,084262
0000000007,0000006000,073882,091066,083211,069239,091954,087569
0000000008,0000007000,073407,088837,085917,068846,089292,090624
0000000009,0000008000,073815,086159,088186,069486,086149,093127
0000000010,0000009000,075083,083292,089786,071104,082829,094830
0000000011,0000010000,077104,080492,090565,073542,079653,095568
0000000012,0000011000,079663,078046,090451,076556,076938,095269
0000000013,0000012000,082494,076212,089454,079854,074945,093964
0000000014,0000013000,085346,075144,087670,083114,073870,091778
0000000015,0000014000,087944,074948,085268,086014,073824,088924
0000000016,0000015000,090003,075666,082491,088274,074804,085684
0000000017,0000016000,091339,077207,079615,089672,076713,082378
0000000018,0000017000,091837,079414,076910,090066,079374,079323
0000000019,0000018000,091419,082101,074640,089422,082521,076820
0000000020,0000019000,090135,084985,073040,087806,085840,075117
0000000021,0000020000,088133,087766,072261,085371,089013,074379
0000000022,0000021000,085579,090207,072374,082353,091732,074678
0000000023,0000022000,082726,092063,073372,079055,093725,075983
0000000024,0000023000,079883,093122,075156,075798,094795,078169
0000000025,0000024000,077301,093302,077558,072895,094845,081023
0000000026,0000025000,075223,092602,080335,070633,093867,084262
0000000027,0000026000,073883,091065,083211,069240,091953,087569
0000000028,0000027000,073406,088837,085917,068845,089294,090624
0000000029,0000028000,073814,086160,088186,069486,086150,093127
0000000030,0000029000,075084,083291,089786,071104,082828,094830
0000000031,0000030000,077104,080491,090565,073541,079654,095568
0000000032,0000031000,079660,078049,090452,076555,076938,095269
0000000033,0000032000,082495,076211,089454,079854,074945,093964
0000000034,0000033000,085349,075141,087670,083112,073872,091778
0000000035,0000034000,087940,074950,085269,086014,073824,088924
0000000036,0000035000,090002,075667,082491,088274,074803,085685
0000000037,0000036000,091344,077202,079614,089670,076714,082378
0000000038,0000037000,091835,079416,076910,090065,079374,079323
0000000039,0000038000,091415,082105,074641,089422,082520,076820
0000000040,0000039000,090141,084980,073040,087806,085839,075117
0000000041,0000040000,088135,087765,072261,085370,089013,074379
0000000042,0000041000,085573,090212,072374,082352,091732,074678
0000000043,0000042000,082729,092060,073371,079055,093724,075983
0000000044,0000043000,079887,093118,075155,075798,094796,078169
0000000045,0000044000,077296,093307,077557,072894,094846,081023
0000000046,0000045000,075222,092604,080335,070635,093866,084262
0000000047,0000046000,073889,091061,083211,069240,091953,087569
0000000048,0000047000,073404,088840,085917,068844,089295,090623
0000000049,0000048000,073810,086164,088186,069486,086150,093127
0000000050,0000049000,075088,083287,089786,071104,082828,094830
0000000051,0000050000,077105,080490,090565,073539,079656,095567
0000000052,0000051000,079655,078053,090452,076555,076939,095269
0000000053,0000052000,082496,076210,089455,079854,074945,093964
0000000054,0000053000,085352,075137,087671,083111,073873,091778
0000000055,0000054000,087937,074954,085269,086012,073825,088925
0000000056,0000055000,090001,075668,082491,088274,074803,085685
0000000057,0000056000,091348,077198,079615,089669,076714,082379
0000000058,0000057000,091834,079417,076910,090063,079375,079324
0000000059,0000058000,091413,082107,074640,089422,082520,076821
0000000060,0000059000,090144,084976,073040,087806,085839,075118
0000000061,0000060000,088135,087764,072261,085369,089013,074380
0000000062,0000061000,085572,090215,072374,082352,091731,074679
0000000063,0000062000,082731,092058,073371,079056,093723,075984
0000000064,0000063000,079888,093117,075155,075798,094795,078169
0000000065,0000064000,077294,093310,077556,072895,094845,081022
0000000066,0000065000,075223,092603,080334,070636,093865,084262
0000000067,0000066000,073890,091060,083210,069241,091954,087568
0000000068,0000067000,073401,088843,085916,068844,089296,090623
0000000069,0000068000,073810,086165,088185,069487,086150,093126
0000000070,0000069000,075089,083286,089786,071104,082830,094829
0000000071,0000070000,077102,080493,090566,073539,079657,095567
0000000072,0000071000,079653,078054,090453,076555,076939,095268
0000000073,0000072000,082498,076207,089455,079853,074946,093963
0000000074,0000073000,085350,075138,087672,083109,073874,091778
0000000075,0000074000,087934,074955,085270,086012,073826,088925
0000000076,0000075000,090004,075664,082492,088273,074804,085686
0000000077,0000076000,091348,077196,079616,089667,076715,082380
0000000078,0000077000,091831,079419,076910,090062,079375,079325
0000000079,0000078000,091416,082104,074641,089421,082519,076822
0000000080,0000079000,090147,084973,073040,087805,085838,075119
0000000081,0000080000,088133,087767,072260,085369,089012,074381
0000000082,0000081000,085573,090214,072373,082353,091729,074680
0000000083,0000082000,082736,092055,073370,079057,093722,075984
0000000084,0000083000,079887,093120,075154,075799,094795,078169
0000000085,0000084000,077293,093313,077555,072897,094844,081022
0000000086,0000085000,075226,092601,080333,070637,093864,084261
0000000087,0000086000,073889,091061,083209,069241,091954,087567
0000000088,0000087000,073397,088847,085915,068845,089296,090621
0000000089,0000088000,073811,086164,088185,069488,086150,093124
0000000090,0000089000,075089,083285,089786,071104,082831,094827
0000000091,0000090000,077098,080496,090567,073538,079659,095565
0000000092,0000091000,079652,078055,090453,076554,076941,095267
0000000093,0000092000,082499,076205,089457,079851,074948,093963
0000000094,0000093000,085347,075140,087674,083107,073877,091778
0000000095,0000094000,087933,074955,085272,086010,073827,088926
0000000096,0000095000,090006,075661,082494,088270,074805,085687
0000000097,0000096000,091348,077195,079618,089665,076716,082382
0000000098,0000097000,091830,079419,076911,090061,079374,079327
0000000099,0000098000,091419,082100,074641,089420,082518,076825
0000000100,0000099000,090149,084971,073040,087803,085837,075122
0000000101,0000100000,088133,087767,072259,085369,089010,074383
0000000102,0000101000,085576,090213,072372,082354,091727,074681
0000000103,0000102000,082738,092054,073368,079058,093720,075985
0000000104,0000103000,079887,093122,075152,075801,094793,078169
0000000105,0000104000,077294,093314,077553,072899,094842,081022
0000000106,0000105000,075228,092601,080331,070639,093863,084260
0000000107,0000106000,073887,091065,083208,069243,091954,087565
0000000108,0000107000,073396,088850,085914,068848,089296,090619
0000000109,0000108000,073811,086164,088184,069489,086152,093121
0000000110,0000109000,075086,083288,089786,071104,082834,094824
0000000111,0000110000,077094,080499,090567,073538,079661,095563
0000000112,0000111000,079652,078054,090455,076554,076944,095265
0000000113,0000112000,082497,076204,089459,079849,074951,093962
0000000114,0000113000,085343,075141,087676,083105,073879,091778
0000000115,0000114000,087933,074953,085274,086007,073829,088926
0000000116,0000115000,090007,075657,082496,088267,074807,085689
0000000117,0000116000,091346,077195,079620,089662,076717,082384
0000000118,0000117000,091832,079416,076913,090059,079374,079330
0000000119,0000118000,091423,082096,074642,089418,082517,076828
0000000120,0000119000,090150,084970,073040,087802,085835,075125
0000000121,0000120000,088135,087767,072258,085369,089007,074386
0000000122,0000121000,085581,090210,072370,082355,091724,074683
0000000123,0000122000,082740,092054,073366,079059,093717,075987
0000000124,0000123000,079887,093125,075149,075804,094789,078170
0000000125,0000124000,077297,093314,077550,072903,094839,081021
0000000126,0000125000,075229,092603,080328,070643,093862,084258
0000000127,0000126000,073885,091070,083205,069247,091953,087562
0000000128,0000127000,073395,088852,085912,068851,089296,090615
0000000129,0000128000,073810,086166,088184,069491,086153,093118
0000000130,0000129000,075081,083292,089787,071105,082837,094821
0000000131,0000130000,077091,080501,090568,073538,079665,095559
0000000132,0000131000,079650,078053,090457,076552,076948,095263
0000000133,0000132000,082493,076205,089462,079846,074956,093960
0000000134,0000133000,085340,075141,087679,083102,073883,091778
0000000135,0000134000,087933,074949,085278,086003,073832,088927
0000000136,0000135000,090006,075655,082500,088262,074809,085691
0000000137,0000136000,091345,077193,079622,089658,076717,082387
0000000138,0000137000,091835,079411,076914,090055,079373,079334
0000000139,0000138000,091426,082092,074643,089415,082515,076832
0000000140,0000139000,090152,084969,073039,087801,085832,075129
0000000141,0000140000,088140,087764,072256,085369,089003,074390
0000000142,0000141000,085586,090207,072367,082357,091719,074686
0000000143,0000142000,082742,092055,073362,079062,093712,075988
0000000144,0000143000,079890,093126,075145,075808,094785,078170
0000000145,0000144000,077300,093315,077546,072907,094835,081020
0000000146,0000145000,075229,092607,080325,070647,093860,084255
0000000147,0000146000,073883,091075,083202,069252,091952,087558
0000000148,0000147000,073394,088855,085910,068855,089297,090611
0000000149,0000148000,073807,086170,088183,069494,086156,093112
0000000150,0000149000,075076,083297,089787,071107,082840,094816
0000000151,0000150000,077087,080503,090570,073538,079669,095555
0000000152,0000151000,079646,078054,090460,076550,076953,095259
0000000153,0000152000,082487,076207,089466,079843,074961,093958
0000000154,0000153000,085337,075139,087684,083097,073888,091777
0000000155,0000154000,087932,074945,085283,085997,073836,088929
0000000156,0000155000,090004,075652,082504,088257,074812,085694
0000000157,0000156000,091346,077188,079626,089652,076718,082392
0000000158,0000157000,091838,079405,076917,090050,079372,079340
0000000159,0000158000,091429,082087,074644,089411,082513,076838
0000000160,0000159000,090156,084965,073039,087799,085828,075135
0000000161,0000160000,088146,087760,072254,085369,088997,074395
0000000162,0000161000,085591,090205,072364,082358,091713,074690
0000000163,0000162000,082746,092057,073358,079066,093706,075991
0000000164,0000163000,079894,093127,075139,075813,094779,078170
0000000165,0000164000,077303,093317,077540,072913,094831,081018
0000000166,0000165000,075228,092613,080319,070654,093857,084252
0000000167,0000166000,073882,091080,083198,069258,091951,087553
0000000168,0000167000,073393,088860,085907,068860,089298,090605
0000000169,0000168000,073802,086177,088182,069497,086159,093106
0000000170,0000169000,075070,083302,089788,071109,082845,094809
0000000171,0000170000,077082,080506,090573,073538,079675,095549
0000000172,0000171000,079640,078056,090464,076547,076960,095255
0000000173,0000172000,082481,076208,089471,079839,074968,093956
0000000174,0000173000,085334,075137,087690,083091,073894,091777
0000000175,0000174000,087930,074942,085289,085990,073841,088930
0000000176,0000175000,090002,075648,082510,088249,074815,085698
0000000177,0000176000,091348,077182,079630,089646,076719,082397
0000000178,0000177000,091842,079398,076920,090044,079371,079347
0000000179,0000178000,091433,082082,074645,089407,082510,076846
0000000180,0000179000,090162,084960,073038,087797,085823,075142
0000000181,0000180000,088153,087755,072252,085370,088991,074402
0000000182,0000181000,085597,090204,072360,082361,091706,074695
0000000183,0000182000,082751,092057,073352,079071,093698,075994
0000000184,0000183000,079900,093128,075133,075819,094772,078171
0000000185,0000184000,077306,093321,077534,072921,094825,081016
0000000186,0000185000,075228,092619,080313,070662,093853,084248
0000000187,0000186000,073882,091086,083193,069266,091949,087547
0000000188,0000187000,073389,088867,085904,068866,089299,090597
0000000189,0000188000,073796,086184,088180,069502,086163,093098
0000000190,0000189000,075064,083308,089788,071111,082850,094801
0000000191,0000190000,077076,080509,090576,073538,079683,095542
0000000192,0000191000,079632,078059,090469,076544,076969,095249
0000000193,0000192000,082475,076208,089478,079834,074977,093952
0000000194,0000193000,085330,075133,087697,083084,073902,091776
0000000195,0000194000,087926,074938,085297,085982,073848,088932
0000000196,0000195000,090001,075642,082517,088240,074819,085702
0000000197,0000196000,091350,077174,079636,089637,076721,082404
0000000198,0000197000,091846,079390,076924,090037,079370,079355
0000000199,0000198000,091438,082075,074647,089402,082506,076855
0000000200,0000199000,090170,084953,073037,087795,085816,075151
0000000201,0000200000,088162,087749,072249,085370,088983,074410
0000000202,0000201000,085604,090202,072354,082364,091697,074702
0000000203,0000202000,082759,092057,073345,079077,093688,075997
0000000204,0000203000,079906,093130,075124,075827,094763,078172
0000000205,0000204000,077308,093327,077525,072930,094818,081014
0000000206,0000205000,075229,092626,080305,070672,093848,084242
0000000207,0000206000,073881,091093,083186,069275,091948,087540
0000000208,0000207000,073385,088876,085899,068874,089301,090588
0000000209,0000208000,073789,086193,088178,069508,086167,093087
0000000210,0000209000,075057,083314,089789,071114,082857,094791
0000000211,0000210000,077067,080514,090579,073537,079692,095533
0000000212,0000211000,079622,078063,090475,076541,076979,095243
0000000213,0000212000,082467,076208,089485,079827,074987,093948
0000000214,0000213000,085324,075130,087706,083075,073912,091776
0000000215,0000214000,087921,074933,085306,085971,073856,088935
0000000216,0000215000,090000,075635,082525,088230,074824,085708
0000000217,0000216000,091353,077164,079643,089627,076723,082413
0000000218,0000217000,091850,079381,076929,090028,079369,079365
0000000219,0000218000,091445,082066,074649,089396,082501,076866
0000000220,0000219000,090179,084944,073036,087792,085808,075162
0000000221,0000220000,088171,087744,072245,085370,088973,074420
0000000222,0000221000,085613,090199,072348,082368,091685,074709
0000000223,0000222000,082768,092056,073336,079084,093677,076002
0000000224,0000223000,079913,093133,075115,075837,094753,078173
0000000225,0000224000,077312,093333,077515,072941,094810,081011
0000000226,0000225000,075231,092634,080296,070684,093843,084236
0000000227,0000226000,073879,091103,083178,069286,091946,087530
0000000228,0000227000,073379,088887,085894,068883,089302,090576
0000000229,0000228000,073781,086203,088176,069515,086172,093075
0000000230,0000229000,075048,083323,089790,071117,082866,094779
0000000231,0000230000,077056,080521,090584,073537,079703,095523
0000000232,0000231000,079611,078067,090482,076537,076991,095235
0000000233,0000232000,082458,076207,089495,079819,074999,093944
0000000234,0000233000,085316,075127,087717,083065,073923,091775
0000000235,0000234000,087916,074927,085317,085959,073865,088938
0000000236,0000235000,090000,075625,082536,088217,074830,085715
0000000237,0000236000,091355,077153,079652,089615,076725,082423
0000000238,0000237000,091855,079370,076935,090018,079367,079378
0000000239,0000238000,091454,082055,074652,089389,082495,076879
0000000240,0000239000,090190,084934,073035,087788,085799,075175
0000000241,0000240000,088182,087737,072240,085370,088961,074431
0000000242,0000241000,085625,090196,072340,082373,091672,074718
0000000243,0000242000,082779,092056,073326,079092,093663,076007
0000000244,0000243000,079921,093137,075103,075848,094741,078173
0000000245,0000244000,077317,093341,077503,072955,094800,081008
0000000246,0000245000,075232,092643,080284,070698,093836,084229
0000000247,0000246000,073876,091115,083169,069299,091943,087520
0000000248,0000247000,073373,088900,085888,068895,089304,090563
0000000249,0000248000,073772,086215,088173,069523,086178,093061
0000000250,0000249000,075036,083333,089791,071121,082876,094765
0000000251,0000250000,077042,080529,090589,073536,079716,095510
0000000252,0000251000,079599,078071,090491,076532,077005,095225
0000000253,0000252000,082448,076207,089506,079810,075014,093938
0000000254,0000253000,085307,075123,087730,083052,073936,091774
0000000255,0000254000,087911,074919,085330,085945,073876,088942
0000000256,0000255000,089999,075614,082548,088202,074837,085723
0000000257,0000256000,091358,077141,079662,089600,076728,082434
0000000258,0000257000,091861,079357,076942,090006,079365,079392
0000000259,0000258000,091464,082042,074654,089380,082488,076895
0000000260,0000259000,090203,084923,073034,087784,085788,075190
0000000261,0000260000,088196,087729,072235,085371,088947,074444
0000000262,0000261000,085639,090191,072330,082378,091656,074728
0000000263,0000262000,082791,092055,073314,079102,093648,076012
0000000264,0000263000,079930,093141,075089,075862,094726,078174
0000000265,0000264000,077323,093349,077489,072970,094789,081004
0000000266,0000265000,075234,092654,080271,070714,093829,084220
0000000267,0000266000,073873,091129,083158,069314,091941,087507
0000000268,0000267000,073365,088914,085880,068908,089307,090548
0000000269,0000268000,073762,086228,088170,069532,086186,093045
0000000270,0000269000,075023,083345,089793,071126,082888,094749
0000000271,0000270000,077027,080539,090594,073535,079731,095496
0000000272,0000271000,079585,078075,090500,076526,077022,095215
0000000273,0000272000,082434,076207,089519,079800,075031,093932
0000000274,0000273000,085296,075119,087745,083038,073952,091773
0000000275,0000274000,087904,074911,085345,085928,073888,088946
0000000276,0000275000,089997,075601,082562,088184,074845,085733
0000000277,0000276000,091360,077126,079674,089584,076731,082448
0000000278,0000277000,091869,079341,076950,089992,079362,079408
0000000279,0000278000,091476,082027,074658,089370,082480,076912
0000000280,0000279000,090217,084911,073032,087779,085776,075208
0000000281,0000280000,088212,087720,072228,085372,088931,074459
0000000282,0000281000,085655,090185,072320,082385,091639,074739
0000000283,0000282000,082805,092055,073300,079113,093630,076019
0000000284,0000283000,079941,093147,075073,075877,094710,078175
0000000285,0000284000,077330,093358,077472,072988,094775,080999
0000000286,0000285000,075236,092668,080256,070732,093820,084210
0000000287,0000286000,073869,091145,083146,069332,091938,087493
0000000288,0000287000,073358,088931,085871,068922,089310,090530
0000000289,0000288000,073750,086244,088166,069542,086194,093026
0000000290,0000289000,075007,083359,089794,071130,082901,094731
0000000291,0000290000,077010,080549,090601,073534,079748,095480
0000000292,0000291000,079568,078080,090512,076519,077041,095202
0000000293,0000292000,082419,076207,089534,079787,075050,093925
0000000294,0000293000,085284,075114,087762,083022,073969,091772
0000000295,0000294000,087897,074900,085363,085909,073902,088951
0000000296,0000295000,089995,075587,082578,088165,074854,085743
0000000297,0000296000,091363,077110,079687,089565,076734,082463
0000000298,0000297000,091878,079323,076959,089977,079359,079427
0000000299,0000298000,091489,082009,074662,089359,082471,076932
0000000300,0000299000,090233,084896,073031,087774,085762,075227
0000000301,0000300000,088230,087709,072221,085373,088913,074476
