DIgSILENT PowerFactory,21000900,2000
6,06A,00D
1,TTPP_200000_100:Secondary Voltage A,,,V,0.10000000,-8279.830078,0.000000,65596,99998,1,1,P
2,TTPP_200000_100:Secondary Voltage B,,,V,0.10000000,-8171.426270,0.000000,64288,99998,1,1,P
3,TTPP_200000_100:Secondary Voltage C,,,V,0.10000000,-8410.452148,0.000000,66534,99998,1,1,P
4,TTCC_300_1:Secondary Current A,,,A,0.00010000000,-3.542130,0.000000,-8010,99998,1,1,P
5,TTCC_300_1:Secondary Current B,,,A,0.00010000000,-5.028109,0.000000,628,99998,1,1,P
6,TTCC_300_1:Secondary Current C,,,A,0.00010000000,-4.893031,0.000000,-1792,99998,1,1,P
50
1
1000.000000,1101
30/06/2023,06:08:44.000000
30/06/2023,06:08:44.000000
ASCII
1.000000
0000000001,0000000000,089905,083189,075523,014491,036292,083850
0000000002,0000001000,087771,085906,074938,024243,027013,083375
0000000003,0000002000,085130,088237,075250,035083,020015,079534
0000000004,0000003000,082274,089916,076426,045962,015972,072698
0000000005,0000004000,079481,090777,078360,055806,015297,063529
0000000006,0000005000,076993,090769,080857,063654,018050,052930
0000000007,0000006000,075071,089883,083663,068740,023944,041949
0000000008,0000007000,073927,088175,086516,070563,032420,031651
0000000009,0000008000,073641,085837,089138,068939,042660,023034
0000000010,0000009000,074238,083115,091263,064041,053635,016957
0000000011,0000010000,075687,080244,092686,056347,064269,014016
0000000012,0000011000,077840,077506,093271,046588,073555,014489
0000000013,0000012000,080462,075197,092959,035740,080562,018331
0000000014,0000013000,083313,073523,091782,024874,084591,025168
0000000015,0000014000,086127,072640,089850,015030,085267,034335
0000000016,0000015000,088606,072657,087353,007172,082527,044935
0000000017,0000016000,090514,073557,084545,002093,076624,055916
0000000018,0000017000,091676,075248,081694,000274,068144,066214
0000000019,0000018000,091961,077584,079072,001890,057913,074830
0000000020,0000019000,091349,080324,076945,006789,046936,080907
0000000021,0000020000,089911,083184,075523,014490,036293,083850
0000000022,0000021000,087765,085913,074939,024241,027016,083375
0000000023,0000022000,085128,088239,075250,035091,020009,079533
0000000024,0000023000,082281,089909,076426,045962,015973,072698
0000000025,0000024000,079478,090780,078359,055802,015300,063530
0000000026,0000025000,076986,090775,080856,063657,018046,052930
0000000027,0000026000,075077,089877,083663,068745,023939,041948
0000000028,0000027000,073929,088173,086515,070560,032423,031651
0000000029,0000028000,073634,085844,089138,068940,042659,023034
0000000030,0000029000,074240,083114,091264,064048,053628,016957
0000000031,0000030000,075693,080238,092686,056348,064270,014015
0000000032,0000031000,077835,077511,093271,046588,073556,014489
0000000033,0000032000,080459,075200,092959,035745,080557,018330
0000000034,0000033000,083318,073516,091782,024878,084589,025166
0000000035,0000034000,086126,072641,089850,015029,085270,034334
0000000036,0000035000,088602,072662,087353,007176,082524,044933
0000000037,0000036000,090517,073554,084546,002097,076621,055915
0000000038,0000037000,091678,075245,081694,000275,068145,066212
0000000039,0000038000,091957,077588,079071,001890,057913,074829
0000000040,0000039000,091350,080322,076945,006793,046934,080906
0000000041,0000040000,089913,083181,075523,014491,036295,083848
0000000042,0000041000,087763,085916,074938,024241,027017,083374
0000000043,0000042000,085128,088239,075250,035092,020008,079533
0000000044,0000043000,082284,089906,076426,045963,015973,072697
0000000045,0000044000,079477,090782,078359,055801,015301,063529
0000000046,0000045000,076985,090777,080856,063658,018044,052930
0000000047,0000046000,075079,089875,083663,068744,023939,041949
0000000048,0000047000,073928,088174,086515,070559,032422,031652
0000000049,0000048000,073633,085846,089138,068941,042657,023035
0000000050,0000049000,074242,083111,091264,064049,053626,016958
0000000051,0000050000,075692,080239,092686,056348,064269,014016
0000000052,0000051000,077833,077514,093271,046591,073552,014489
0000000053,0000052000,080461,075197,092959,035748,080554,018331
0000000054,0000053000,083319,073516,091783,024879,084588,025166
0000000055,0000054000,086123,072644,089851,015033,085267,034333
0000000056,0000055000,088604,072660,087353,007181,082521,044932
0000000057,0000056000,090520,073551,084546,002098,076622,055912
0000000058,0000057000,091675,075248,081695,000277,068146,066210
0000000059,0000058000,091957,077589,079071,001895,057911,074826
0000000060,0000059000,091354,080318,076945,006793,046936,080903
0000000061,0000060000,089912,083182,075523,014489,036299,083845
0000000062,0000061000,087760,085918,074938,024243,027018,083372
0000000063,0000062000,085132,088236,075249,035092,020010,079531
0000000064,0000063000,082285,089906,076426,045958,015977,072697
0000000065,0000064000,079473,090786,078359,055800,015302,063530
0000000066,0000065000,076987,090775,080855,063658,018043,052932
0000000067,0000066000,075082,089873,083662,068741,023941,041952
0000000068,0000067000,073924,088178,086515,070557,032422,031655
0000000069,0000068000,073632,085847,089137,068943,042652,023038
0000000070,0000069000,074245,083108,091264,064048,053624,016961
0000000071,0000070000,075689,080241,092687,056347,064267,014019
0000000072,0000071000,077830,077516,093271,046595,073546,014491
0000000073,0000072000,080464,075194,092960,035752,080549,018332
0000000074,0000073000,083318,073515,091784,024881,084586,025166
0000000075,0000074000,086120,072646,089851,015038,085264,034331
0000000076,0000075000,088605,072657,087354,007187,082517,044929
0000000077,0000076000,090521,073549,084547,002102,076622,055909
0000000078,0000077000,091672,075250,081695,000281,068147,066205
0000000079,0000078000,091958,077587,079072,001900,057912,074821
0000000080,0000079000,091357,080315,076945,006795,046939,080899
0000000081,0000080000,089911,083184,075523,014489,036303,083841
0000000082,0000081000,087761,085919,074937,024243,027021,083369
0000000083,0000082000,085135,088233,075249,035089,020014,079529
0000000084,0000083000,082284,089908,076425,045954,015983,072696
0000000085,0000084000,079472,090788,078357,055796,015305,063531
0000000086,0000085000,076989,090774,080854,063653,018045,052934
0000000087,0000086000,075081,089874,083662,068735,023942,041956
0000000088,0000087000,073922,088181,086514,070553,032420,031660
0000000089,0000088000,073633,085847,089137,068940,042648,023044
0000000090,0000089000,074245,083108,091264,064046,053620,016967
0000000091,0000090000,075686,080244,092687,056348,064261,014024
0000000092,0000091000,077830,077516,093272,046599,073539,014495
0000000093,0000092000,080464,075192,092961,035756,080543,018334
0000000094,0000093000,083315,073517,091785,024887,084580,025166
0000000095,0000094000,086119,072646,089852,015047,085257,034330
0000000096,0000095000,088608,072654,087355,007194,082514,044925
0000000097,0000096000,090520,073549,084548,002108,076622,055903
0000000098,0000097000,091672,075250,081695,000288,068146,066198
0000000099,0000098000,091962,077584,079072,001905,057914,074813
0000000100,0000099000,091358,080314,076945,006796,046946,080891
0000000101,0000100000,089910,083185,075522,014490,036309,083834
0000000102,0000101000,087764,085917,074936,024242,027028,083363
0000000103,0000102000,085137,088232,075247,035084,020023,079526
0000000104,0000103000,082283,089910,076424,045947,015990,072695
0000000105,0000104000,079473,090788,078356,055790,015310,063533
0000000106,0000105000,076992,090773,080853,063644,018050,052939
0000000107,0000106000,075079,089877,083661,068726,023945,041962
0000000108,0000107000,073920,088184,086513,070548,032418,031668
0000000109,0000108000,073634,085846,089137,068935,042644,023054
0000000110,0000109000,074242,083110,091264,064042,053615,016976
0000000111,0000110000,075683,080247,092688,056349,064251,014032
0000000112,0000111000,077830,077515,093273,046603,073528,014502
0000000113,0000112000,080463,075192,092963,035761,080534,018338
0000000114,0000113000,083312,073519,091787,024896,084571,025167
0000000115,0000114000,086119,072644,089854,015058,085248,034327
0000000116,0000115000,088609,072651,087357,007204,082509,044920
0000000117,0000116000,090519,073548,084550,002118,076620,055895
0000000118,0000117000,091673,075248,081696,000298,068146,066188
0000000119,0000118000,091965,077580,079072,001911,057919,074802
0000000120,0000119000,091359,080314,076945,006799,046954,080880
0000000121,0000120000,089911,083185,075521,014491,036319,083824
0000000122,0000121000,087767,085914,074935,024239,027039,083356
0000000123,0000122000,085139,088232,075246,035076,020036,079521
0000000124,0000123000,082283,089912,076421,045938,016001,072694
0000000125,0000124000,079476,090788,078353,055779,015318,063536
0000000126,0000125000,076992,090774,080851,063631,018056,052945
0000000127,0000126000,075077,089881,083659,068714,023947,041972
0000000128,0000127000,073920,088185,086512,070538,032415,031680
0000000129,0000128000,073633,085847,089136,068927,042639,023067
0000000130,0000129000,074239,083114,091265,064038,053606,016989
0000000131,0000130000,075680,080249,092689,056350,064238,014044
0000000132,0000131000,077829,077514,093275,046607,073514,014511
0000000133,0000132000,080460,075193,092965,035769,080520,018343
0000000134,0000133000,083309,073519,091789,024909,084557,025168
0000000135,0000134000,086120,072641,089857,015072,085237,034324
0000000136,0000135000,088608,072649,087360,007218,082503,044912
0000000137,0000136000,090518,073547,084552,002133,076616,055883
0000000138,0000137000,091675,075244,081698,000311,068147,066174
0000000139,0000138000,091967,077577,079073,001920,057926,074786
0000000140,0000139000,091360,080313,076945,006804,046965,080864
0000000141,0000140000,089915,083182,075520,014491,036332,083810
0000000142,0000141000,087771,085912,074933,024233,027055,083345
0000000143,0000142000,085140,088234,075243,035066,020053,079514
0000000144,0000143000,082285,089914,076418,045925,016015,072692
0000000145,0000144000,079478,090789,078350,055763,015330,063539
0000000146,0000145000,076992,090778,080848,063613,018065,052954
0000000147,0000146000,075076,089885,083656,068699,023949,041985
0000000148,0000147000,073919,088187,086510,070525,032412,031696
0000000149,0000148000,073631,085850,089136,068917,042632,023084
0000000150,0000149000,074234,083118,091265,064033,053593,017006
0000000151,0000150000,075678,080250,092690,056352,064221,014059
0000000152,0000151000,077826,077514,093277,046613,073497,014523
0000000153,0000152000,080455,075194,092968,035780,080502,018350
0000000154,0000153000,083307,073517,091792,024925,084538,025169
0000000155,0000154000,086119,072637,089860,015091,085223,034319
0000000156,0000155000,088607,072647,087363,007238,082494,044902
0000000157,0000156000,090519,073544,084554,002153,076612,055868
0000000158,0000157000,091678,075239,081699,000327,068150,066155
0000000159,0000158000,091970,077574,079074,001931,057936,074766
0000000160,0000159000,091362,080311,076944,006810,046978,080844
0000000161,0000160000,089920,083179,075518,014491,036350,083792
0000000162,0000161000,087775,085911,074931,024225,027077,083331
0000000163,0000162000,085142,088235,075240,035053,020074,079506
0000000164,0000163000,082288,089914,076414,045908,016034,072691
0000000165,0000164000,079480,090790,078347,055741,015347,063544
0000000166,0000165000,076991,090782,080844,063591,018076,052965
0000000167,0000166000,075075,089889,083653,068678,023953,042002
0000000168,0000167000,073918,088190,086508,070506,032410,031717
0000000169,0000168000,073627,085855,089135,068903,042623,023107
0000000170,0000169000,074230,083122,091265,064027,053576,017029
0000000171,0000170000,075674,080251,092692,056352,064201,014080
0000000172,0000171000,077821,077516,093280,046620,073474,014538
0000000173,0000172000,080451,075195,092972,035796,080477,018360
0000000174,0000173000,083305,073515,091797,024946,084516,025171
0000000175,0000174000,086117,072634,089865,015114,085206,034314
0000000176,0000175000,088605,072645,087367,007263,082481,044889
0000000177,0000176000,090520,073539,084557,002177,076607,055849
0000000178,0000177000,091681,075234,081702,000347,068153,066131
0000000179,0000178000,091972,077570,079075,001946,057947,074740
0000000180,0000179000,091367,080307,076943,006819,046996,080818
0000000181,0000180000,089926,083175,075516,014491,036373,083769
0000000182,0000181000,087779,085910,074927,024216,027103,083313
0000000183,0000182000,085146,088235,075235,035037,020100,079495
0000000184,0000183000,082293,089915,076409,045886,016058,072688
0000000185,0000184000,079482,090793,078342,055714,015367,063551
0000000186,0000185000,076991,090787,080840,063563,018089,052980
0000000187,0000186000,075074,089893,083649,068652,023958,042023
0000000188,0000187000,073916,088195,086506,070483,032407,031743
0000000189,0000188000,073622,085861,089134,068887,042610,023136
0000000190,0000189000,074225,083126,091266,064020,053556,017057
0000000191,0000190000,075670,080254,092694,056353,064175,014105
0000000192,0000191000,077815,077518,093284,046630,073445,014558
0000000193,0000192000,080446,075195,092976,035814,080447,018371
0000000194,0000193000,083302,073512,091802,024971,084488,025174
0000000195,0000194000,086115,072631,089871,015143,085184,034306
0000000196,0000195000,088604,072640,087372,007295,082466,044872
0000000197,0000196000,090522,073533,084562,002207,076601,055825
0000000198,0000197000,091684,075228,081705,000372,068158,066102
0000000199,0000198000,091976,077565,079076,001964,057960,074708
0000000200,0000199000,091373,080302,076943,006828,047017,080787
0000000201,0000200000,089932,083171,075514,014489,036402,083742
0000000202,0000201000,087785,085909,074923,024205,027136,083292
0000000203,0000202000,085152,088235,075230,035017,020133,079483
0000000204,0000203000,082297,089916,076403,045858,016089,072686
0000000205,0000204000,079484,090798,078335,055681,015392,063559
0000000206,0000205000,076991,090793,080834,063529,018105,052998
0000000207,0000206000,075074,089899,083645,068619,023964,042050
0000000208,0000207000,073912,088202,086503,070455,032402,031776
0000000209,0000208000,073617,085868,089133,068867,042595,023171
0000000210,0000209000,074220,083131,091267,064010,053531,017092
0000000211,0000210000,075663,080257,092697,056353,064144,014135
0000000212,0000211000,077808,077521,093289,046642,073409,014581
0000000213,0000212000,080440,075194,092982,035837,080410,018385
0000000214,0000213000,083298,073510,091809,025001,084455,025177
0000000215,0000214000,086111,072628,089878,015179,085157,034298
0000000216,0000215000,088604,072635,087379,007333,082448,044853
0000000217,0000216000,090525,073525,084567,002243,076594,055796
0000000218,0000217000,091687,075221,081709,000402,068163,066067
0000000219,0000218000,091981,077559,079077,001986,057977,074669
0000000220,0000219000,091380,080295,076942,006839,047044,080749
0000000221,0000220000,089939,083167,075511,014488,036437,083708
0000000222,0000221000,087792,085907,074918,024192,027175,083266
0000000223,0000222000,085159,088235,075223,034993,020172,079467
0000000224,0000223000,082303,089919,076396,045824,016126,072683
0000000225,0000224000,079487,090803,078328,055642,015422,063568
0000000226,0000225000,076992,090799,080827,063489,018124,053019
0000000227,0000226000,075072,089906,083639,068580,023972,042081
0000000228,0000227000,073908,088211,086499,070422,032397,031814
0000000229,0000228000,073611,085875,089131,068844,042576,023213
0000000230,0000229000,074213,083136,091268,063998,053502,017133
0000000231,0000230000,075654,080263,092700,056355,064106,014172
0000000232,0000231000,077800,077524,093294,046657,073366,014609
0000000233,0000232000,080434,075194,092989,035864,080367,018402
0000000234,0000233000,083292,073507,091818,025037,084416,025180
0000000235,0000234000,086107,072624,089886,015222,085125,034287
0000000236,0000235000,088603,072627,087386,007378,082426,044829
0000000237,0000236000,090527,073517,084573,002285,076586,055762
0000000238,0000237000,091691,075213,081713,000438,068170,066024
0000000239,0000238000,091988,077550,079079,002012,057996,074624
0000000240,0000239000,091389,080288,076941,006852,047076,080704
0000000241,0000240000,089947,083163,075507,014486,036478,083669
0000000242,0000241000,087800,085905,074912,024177,027221,083236
0000000243,0000242000,085167,088235,075215,034964,020219,079450
0000000244,0000243000,082308,089922,076387,045785,016169,072679
0000000245,0000244000,079490,090809,078318,055596,015456,063580
0000000246,0000245000,076994,090806,080818,063440,018147,053045
0000000247,0000246000,075070,089915,083632,068534,023981,042118
0000000248,0000247000,073902,088221,086494,070383,032390,031860
0000000249,0000248000,073604,085884,089129,068816,042554,023263
0000000250,0000249000,074204,083144,091269,063984,053468,017182
0000000251,0000250000,075644,080269,092704,056356,064062,014214
0000000252,0000251000,077790,077527,093300,046675,073316,014642
0000000253,0000252000,080426,075193,092998,035895,080316,018421
0000000254,0000253000,083285,073504,091827,025079,084370,025183
0000000255,0000254000,086103,072618,089896,015272,085087,034274
0000000256,0000255000,088603,072619,087395,007430,082402,044802
0000000257,0000256000,090528,073508,084581,002334,076577,055721
0000000258,0000257000,091696,075203,081718,000480,068177,065975
0000000259,0000258000,091996,077540,079081,002042,058020,074570
0000000260,0000259000,091398,080279,076940,006867,047114,080652
0000000261,0000260000,089957,083157,075503,014485,036526,083623
0000000262,0000261000,087811,085901,074905,024158,027274,083201
0000000263,0000262000,085176,088234,075206,034930,020274,079429
0000000264,0000263000,082315,089926,076377,045739,016218,072675
0000000265,0000264000,079495,090815,078308,055543,015496,063593
0000000266,0000265000,076995,090814,080808,063384,018174,053075
0000000267,0000266000,075068,089925,083624,068481,023990,042162
0000000268,0000267000,073897,088232,086488,070339,032382,031913
0000000269,0000268000,073596,085894,089127,068784,042529,023320
0000000270,0000269000,074194,083153,091270,063968,053428,017238
0000000271,0000270000,075633,080276,092709,056359,064010,014264
0000000272,0000271000,077780,077530,093308,046695,073258,014679
0000000273,0000272000,080416,075193,093008,035931,080258,018443
0000000274,0000273000,083277,073501,091838,025129,084317,025187
0000000275,0000274000,086099,072611,089907,015330,085044,034260
0000000276,0000275000,088602,072609,087406,007490,082374,044769
0000000277,0000276000,090531,073497,084590,002391,076567,055675
0000000278,0000277000,091702,075192,081724,000529,068185,065918
0000000279,0000278000,092005,077529,079084,002076,058047,074509
0000000280,0000279000,091409,080270,076939,006883,047157,080592
0000000281,0000280000,089969,083150,075498,014482,036581,083570
0000000282,0000281000,087823,085897,074897,024136,027336,083161
0000000283,0000282000,085187,088234,075196,034891,020336,079406
0000000284,0000283000,082323,089930,076364,045686,016275,072671
0000000285,0000284000,079500,090822,078295,055482,015542,063609
0000000286,0000285000,076996,090824,080797,063320,018204,053109
0000000287,0000286000,075065,089938,083615,068420,024001,042212
0000000288,0000287000,073891,088244,086482,070288,032372,031973
0000000289,0000288000,073587,085906,089124,068748,042500,023386
0000000290,0000289000,074182,083164,091271,063950,053382,017302
0000000291,0000290000,075620,080283,092714,056362,063951,014320
0000000292,0000291000,077767,077534,093316,046719,073192,014722
0000000293,0000292000,080405,075194,093019,035973,080192,018468
0000000294,0000293000,083268,073497,091851,025186,084256,025191
0000000295,0000294000,086093,072603,089920,015395,084995,034243
0000000296,0000295000,088600,072599,087418,007558,082342,044733
0000000297,0000296000,090533,073484,084600,002456,076555,055622
0000000298,0000297000,091709,075178,081731,000583,068195,065854
0000000299,0000298000,092015,077515,079087,002115,058078,074439
0000000300,0000299000,091421,080259,076937,006902,047206,080524
0000000301,0000300000,089983,083142,075492,014479,036643,083510
