DIgSILENT PowerFactory,21000900,2000
6,06A,00D
1,TTPP_200000_100:Secondary Voltage A,,,V,0.10000000,-8236.946289,0.000000,63473,99998,1,1,P
2,TTPP_200000_100:Secondary Voltage B,,,V,0.10000000,-8186.901367,0.000000,66096,99998,1,1,P
3,TTPP_200000_100:Secondary Voltage C,,,V,0.10000000,-8349.550781,0.000000,61494,99998,1,1,P
4,TTCC_300_1:Secondary Current A,,,A,0.00010000000,-2.764189,0.000000,-18555,99998,1,1,P
5,TTCC_300_1:Secondary Current B,,,A,0.00010000000,-5.012077,0.000000,204,99998,1,1,P
6,TTCC_300_1:Secondary Current C,,,A,0.00010000000,-4.890879,0.000000,-2126,99998,1,1,P
50
1
1000.000000,1101
30/06/2023,06:05:32.000000
30/06/2023,06:05:32.000000
ASCII
1.000000
0000000001,0000000000,089476,083344,074914,006712,036131,083828
0000000002,0000001000,087342,086061,074330,016466,026853,083355
0000000003,0000002000,084701,088392,074641,027305,019855,079513
0000000004,0000003000,081845,090071,075818,038183,015812,072676
0000000005,0000004000,079051,090932,077751,048027,015137,063508
0000000006,0000005000,076564,090924,080247,055874,017889,052907
0000000007,0000006000,074642,090038,083054,060961,023785,041926
0000000008,0000007000,073498,088330,085907,062783,032259,031629
0000000009,0000008000,073213,085992,088529,061160,042501,023013
0000000010,0000009000,073810,083269,090654,056261,053475,016935
0000000011,0000010000,075258,080399,092077,048568,064110,013995
0000000012,0000011000,077411,077661,092662,038808,073395,014467
0000000013,0000012000,080033,075352,092350,027960,080402,018310
0000000014,0000013000,082884,073677,091172,017094,084431,025146
0000000015,0000014000,085698,072795,089241,007250,085107,034314
0000000016,0000015000,088177,072812,086744,-00608,082366,044914
0000000017,0000016000,090085,073712,083936,-05687,076463,055895
0000000018,0000017000,091247,075402,081085,-07505,067983,066193
0000000019,0000018000,091532,077740,078463,-05889,057751,074809
0000000020,0000019000,090920,080479,076336,-00990,046775,080886
0000000021,0000020000,089482,083338,074914,006712,036132,083828
0000000022,0000021000,087336,086068,074330,016462,026856,083354
0000000023,0000022000,084698,088394,074641,027312,019848,079511
0000000024,0000023000,081853,090063,075817,038184,015812,072675
0000000025,0000024000,079050,090934,077751,048023,015140,063507
0000000026,0000025000,076556,090930,080247,055878,017886,052907
0000000027,0000026000,074648,090032,083054,060966,023779,041926
0000000028,0000027000,073501,088327,085906,062780,032263,031629
0000000029,0000028000,073206,085999,088529,061160,042500,023012
0000000030,0000029000,073811,083269,090655,056268,053469,016935
0000000031,0000030000,075264,080392,092077,048568,064110,013994
0000000032,0000031000,077407,077666,092662,038807,073396,014467
0000000033,0000032000,080030,075355,092350,027965,080397,018309
0000000034,0000033000,082889,073671,091173,017098,084428,025145
0000000035,0000034000,085698,072795,089241,007249,085110,034313
0000000036,0000035000,088173,072816,086744,-00604,082364,044913
0000000037,0000036000,090088,073709,083937,-05683,076460,055894
0000000038,0000037000,091249,075400,081085,-07504,067984,066191
0000000039,0000038000,091529,077743,078462,-05889,057752,074807
0000000040,0000039000,090921,080478,076336,-00987,046773,080885
0000000041,0000040000,089484,083336,074914,006712,036134,083826
0000000042,0000041000,087334,086071,074330,016463,026856,083353
0000000043,0000042000,084699,088394,074641,027313,019848,079511
0000000044,0000043000,081855,090062,075818,038184,015812,072675
0000000045,0000044000,079047,090936,077750,048023,015141,063507
0000000046,0000045000,076556,090931,080247,055879,017884,052908
0000000047,0000046000,074650,090030,083054,060965,023779,041927
0000000048,0000047000,073499,088329,085906,062780,032262,031630
0000000049,0000048000,073204,086001,088529,061162,042497,023013
0000000050,0000049000,073814,083266,090655,056269,053467,016936
0000000051,0000050000,075263,080394,092077,048567,064109,013995
0000000052,0000051000,077404,077669,092662,038811,073392,014468
0000000053,0000052000,080033,075351,092350,027968,080394,018309
0000000054,0000053000,082890,073670,091174,017098,084428,025145
0000000055,0000054000,085694,072799,089241,007253,085107,034312
0000000056,0000055000,088175,072815,086744,-00599,082360,044911
0000000057,0000056000,090092,073705,083937,-05682,076461,055892
0000000058,0000057000,091245,075403,081085,-07503,067985,066189
0000000059,0000058000,091528,077744,078462,-05884,057750,074805
0000000060,0000059000,090925,080473,076336,-00985,046775,080882
0000000061,0000060000,089483,083337,074914,006710,036138,083824
0000000062,0000061000,087331,086074,074329,016464,026857,083351
0000000063,0000062000,084703,088390,074640,027314,019849,079509
0000000064,0000063000,081856,090061,075817,038180,015817,072675
0000000065,0000064000,079044,090941,077750,048021,015142,063508
0000000066,0000065000,076558,090930,080246,055879,017883,052909
0000000067,0000066000,074653,090027,083054,060962,023781,041929
0000000068,0000067000,073495,088333,085906,062777,032263,031632
0000000069,0000068000,073203,086002,088529,061163,042493,023016
0000000070,0000069000,073816,083263,090655,056268,053464,016939
0000000071,0000070000,075261,080396,092078,048567,064107,013997
0000000072,0000071000,077401,077671,092662,038814,073387,014470
0000000073,0000072000,080035,075349,092351,027972,080389,018311
0000000074,0000073000,082890,073670,091175,017101,084426,025145
0000000075,0000074000,085691,072801,089242,007258,085103,034311
0000000076,0000075000,088177,072812,086745,-00593,082356,044908
0000000077,0000076000,090093,073703,083938,-05678,076461,055888
0000000078,0000077000,091244,075405,081086,-07499,067986,066184
0000000079,0000078000,091530,077742,078462,-05880,057751,074800
0000000080,0000079000,090928,080470,076336,-00984,046778,080877
0000000081,0000080000,089482,083339,074914,006710,036142,083819
0000000082,0000081000,087332,086074,074328,016465,026860,083347
0000000083,0000082000,084706,088388,074640,027311,019854,079507
0000000084,0000083000,081855,090063,075816,038175,015822,072674
0000000085,0000084000,079043,090942,077749,048018,015145,063509
0000000086,0000085000,076561,090928,080245,055874,017885,052912
0000000087,0000086000,074652,090029,083053,060955,023783,041933
0000000088,0000087000,073493,088336,085905,062774,032260,031637
0000000089,0000088000,073205,086001,088528,061161,042489,023022
0000000090,0000089000,073816,083263,090655,056266,053461,016945
0000000091,0000090000,075257,080399,092078,048568,064101,014002
0000000092,0000091000,077401,077670,092663,038819,073379,014474
0000000093,0000092000,080036,075347,092352,027975,080383,018313
0000000094,0000093000,082886,073672,091176,017107,084420,025145
0000000095,0000094000,085690,072800,089243,007267,085096,034309
0000000096,0000095000,088179,072809,086746,-00586,082353,044905
0000000097,0000096000,090091,073704,083939,-05672,076461,055882
0000000098,0000097000,091243,075405,081086,-07491,067985,066177
0000000099,0000098000,091533,077739,078463,-05874,057753,074792
0000000100,0000099000,090929,080469,076336,-00983,046785,080870
0000000101,0000100000,089481,083340,074913,006711,036148,083812
0000000102,0000101000,087335,086072,074327,016463,026867,083342
0000000103,0000102000,084709,088387,074638,027305,019863,079504
0000000104,0000103000,081854,090065,075815,038168,015830,072673
0000000105,0000104000,079044,090943,077747,048011,015149,063511
0000000106,0000105000,076563,090928,080244,055865,017890,052917
0000000107,0000106000,074650,090032,083052,060947,023785,041940
0000000108,0000107000,073491,088338,085904,062768,032258,031646
0000000109,0000108000,073205,086000,088528,061156,042484,023031
0000000110,0000109000,073814,083265,090655,056262,053455,016954
0000000111,0000110000,075254,080401,092079,048569,064092,014010
0000000112,0000111000,077401,077669,092664,038823,073368,014480
0000000113,0000112000,080034,075346,092353,027981,080374,018317
0000000114,0000113000,082883,073673,091177,017116,084410,025146
0000000115,0000114000,085690,072798,089245,007278,085088,034306
0000000116,0000115000,088180,072806,086748,-00576,082348,044899
0000000117,0000116000,090090,073703,083940,-05661,076459,055874
0000000118,0000117000,091244,075403,081087,-07481,067985,066167
0000000119,0000118000,091536,077735,078463,-05868,057758,074781
0000000120,0000119000,090930,080469,076336,-00980,046793,080858
0000000121,0000120000,089482,083340,074912,006712,036158,083802
0000000122,0000121000,087339,086069,074326,016460,026878,083334
0000000123,0000122000,084710,088387,074637,027297,019875,079499
0000000124,0000123000,081854,090067,075813,038159,015840,072672
0000000125,0000124000,079047,090943,077745,048000,015158,063513
0000000126,0000125000,076563,090929,080242,055852,017896,052923
0000000127,0000126000,074648,090036,083050,060935,023787,041949
0000000128,0000127000,073491,088340,085903,062759,032255,031658
0000000129,0000128000,073205,086002,088527,061148,042479,023045
0000000130,0000129000,073810,083269,090656,056258,053446,016967
0000000131,0000130000,075251,080403,092080,048571,064079,014022
0000000132,0000131000,077400,077668,092666,038827,073355,014489
0000000133,0000132000,080031,075347,092356,027989,080360,018322
0000000134,0000133000,082881,073673,091180,017129,084396,025147
0000000135,0000134000,085691,072795,089247,007292,085077,034303
0000000136,0000135000,088179,072804,086750,-00562,082342,044891
0000000137,0000136000,090089,073702,083942,-05646,076456,055862
0000000138,0000137000,091247,075399,081088,-07468,067986,066153
0000000139,0000138000,091539,077732,078464,-05860,057765,074765
0000000140,0000139000,090931,080468,076336,-00975,046804,080843
0000000141,0000140000,089486,083337,074911,006713,036171,083789
0000000142,0000141000,087343,086067,074324,016454,026894,083323
0000000143,0000142000,084711,088389,074634,027287,019892,079493
0000000144,0000143000,081856,090069,075809,038147,015854,072670
0000000145,0000144000,079049,090943,077742,047984,015170,063517
0000000146,0000145000,076563,090932,080239,055834,017905,052932
0000000147,0000146000,074647,090040,083048,060919,023790,041962
0000000148,0000147000,073491,088342,085901,062745,032253,031674
0000000149,0000148000,073202,086005,088527,061137,042473,023062
0000000150,0000149000,073805,083272,090656,056254,053434,016984
0000000151,0000150000,075249,080404,092081,048572,064062,014038
0000000152,0000151000,077397,077669,092668,038833,073337,014501
0000000153,0000152000,080027,075349,092359,028000,080342,018329
0000000154,0000153000,082879,073672,091183,017145,084378,025148
0000000155,0000154000,085691,072792,089251,007310,085063,034299
0000000156,0000155000,088178,072802,086754,-00542,082333,044881
0000000157,0000156000,090090,073699,083945,-05627,076451,055847
0000000158,0000157000,091250,075394,081090,-07452,067989,066134
0000000159,0000158000,091541,077729,078465,-05848,057775,074745
0000000160,0000159000,090933,080466,076335,-00968,046817,080823
0000000161,0000160000,089491,083334,074909,006713,036189,083771
0000000162,0000161000,087346,086066,074322,016447,026916,083309
0000000163,0000162000,084713,088390,074631,027274,019913,079484
0000000164,0000163000,081859,090069,075805,038129,015873,072668
0000000165,0000164000,079051,090945,077738,047962,015187,063522
0000000166,0000165000,076562,090937,080236,055812,017916,052943
0000000167,0000166000,074646,090044,083044,060899,023793,041980
0000000168,0000167000,073489,088345,085899,062727,032250,031695
0000000169,0000168000,073198,086009,088526,061124,042463,023085
0000000170,0000169000,073801,083276,090656,056248,053417,017007
0000000171,0000170000,075246,080406,092083,048572,064041,014058
0000000172,0000171000,077393,077670,092671,038840,073314,014517
0000000173,0000172000,080022,075350,092363,028015,080317,018338
0000000174,0000173000,082877,073670,091188,017166,084356,025150
0000000175,0000174000,085689,072789,089256,007334,085045,034293
0000000176,0000175000,088176,072799,086758,-00517,082321,044868
0000000177,0000176000,090092,073694,083948,-05602,076446,055828
0000000178,0000177000,091253,075389,081093,-07432,067993,066111
0000000179,0000178000,091543,077725,078466,-05834,057786,074719
0000000180,0000179000,090938,080462,076334,-00960,046834,080797
0000000181,0000180000,089497,083330,074907,006712,036212,083748
0000000182,0000181000,087350,086065,074318,016438,026943,083292
0000000183,0000182000,084717,088390,074626,027259,019939,079474
0000000184,0000183000,081864,090070,075800,038107,015898,072666
0000000185,0000184000,079053,090948,077733,047935,015207,063529
0000000186,0000185000,076562,090942,080231,055784,017929,052958
0000000187,0000186000,074646,090048,083041,060873,023798,042001
0000000188,0000187000,073487,088350,085897,062704,032247,031721
0000000189,0000188000,073193,086015,088525,061107,042451,023114
0000000190,0000189000,073797,083280,090657,056240,053396,017035
0000000191,0000190000,075241,080408,092085,048573,064015,014083
0000000192,0000191000,077386,077673,092675,038850,073285,014536
0000000193,0000192000,080017,075350,092367,028034,080287,018350
0000000194,0000193000,082874,073667,091193,017191,084328,025153
0000000195,0000194000,085686,072786,089261,007363,085023,034286
0000000196,0000195000,088175,072795,086763,-00485,082305,044852
0000000197,0000196000,090094,073688,083952,-05573,076440,055804
0000000198,0000197000,091255,075383,081096,-07407,067997,066081
0000000199,0000198000,091547,077720,078467,-05815,057799,074687
0000000200,0000199000,090944,080457,076333,-00951,046856,080766
0000000201,0000200000,089503,083326,074905,006711,036241,083720
0000000202,0000201000,087356,086064,074314,016427,026975,083270
0000000203,0000202000,084723,088390,074621,027239,019972,079461
0000000204,0000203000,081868,090071,075794,038079,015928,072664
0000000205,0000204000,079055,090953,077726,047903,015232,063536
0000000206,0000205000,076562,090947,080225,055751,017945,052975
0000000207,0000206000,074645,090053,083036,060840,023804,042027
0000000208,0000207000,073483,088357,085894,062676,032243,031754
0000000209,0000208000,073188,086022,088524,061088,042435,023149
0000000210,0000209000,073791,083285,090658,056230,053372,017070
0000000211,0000210000,075234,080412,092088,048573,063984,014114
0000000212,0000211000,077379,077676,092680,038862,073249,014560
0000000213,0000212000,080012,075349,092373,028057,080250,018364
0000000214,0000213000,082870,073664,091200,017221,084295,025156
0000000215,0000214000,085682,072783,089268,007399,084996,034277
0000000216,0000215000,088175,072789,086769,-00447,082287,044832
0000000217,0000216000,090096,073680,083958,-05537,076433,055775
0000000218,0000217000,091258,075376,081099,-07377,068002,066046
0000000219,0000218000,091552,077714,078468,-05793,057816,074648
0000000220,0000219000,090951,080450,076333,-00940,046883,080728
0000000221,0000220000,089510,083322,074902,006709,036276,083687
0000000222,0000221000,087362,086062,074309,016414,027014,083244
0000000223,0000222000,084730,088390,074614,027215,020011,079446
0000000224,0000223000,081874,090074,075787,038045,015965,072661
0000000225,0000224000,079058,090958,077719,047864,015261,063546
0000000226,0000225000,076563,090953,080218,055710,017964,052997
0000000227,0000226000,074643,090061,083030,060801,023812,042059
0000000228,0000227000,073479,088365,085890,062643,032237,031792
0000000229,0000228000,073182,086030,088522,061064,042416,023191
0000000230,0000229000,073784,083291,090659,056218,053342,017111
0000000231,0000230000,075226,080417,092091,048574,063947,014150
0000000232,0000231000,077371,077678,092685,038877,073206,014588
0000000233,0000232000,080005,075348,092380,028084,080207,018381
0000000234,0000233000,082864,073662,091208,017257,084256,025159
0000000235,0000234000,085679,072778,089277,007442,084964,034266
0000000236,0000235000,088175,072782,086777,-00402,082266,044808
0000000237,0000236000,090098,073672,083964,-05495,076425,055741
0000000238,0000237000,091262,075368,081104,-07341,068009,066004
0000000239,0000238000,091559,077705,078470,-05767,057835,074603
0000000240,0000239000,090960,080443,076332,-00927,046915,080683
0000000241,0000240000,089518,083318,074898,006708,036317,083647
0000000242,0000241000,087371,086060,074303,016398,027060,083214
0000000243,0000242000,084738,088389,074606,027186,020058,079428
0000000244,0000243000,081879,090077,075778,038006,016008,072657
0000000245,0000244000,079061,090963,077710,047818,015296,063557
0000000246,0000245000,076565,090960,080209,055661,017987,053023
0000000247,0000246000,074641,090069,083023,060755,023821,042096
0000000248,0000247000,073474,088375,085885,062604,032230,031838
0000000249,0000248000,073175,086038,088520,061037,042395,023241
0000000250,0000249000,073776,083298,090660,056204,053308,017160
0000000251,0000250000,075216,080423,092095,048576,063902,014193
0000000252,0000251000,077362,077681,092691,038895,073156,014620
0000000253,0000252000,079997,075348,092389,028115,080157,018400
0000000254,0000253000,082857,073659,091218,017299,084210,025162
0000000255,0000254000,085675,072773,089286,007492,084927,034254
0000000256,0000255000,088174,072774,086786,-00350,082241,044781
0000000257,0000256000,090100,073663,083972,-05446,076416,055701
0000000258,0000257000,091267,075358,081109,-07299,068016,065954
0000000259,0000258000,091567,077695,078472,-05737,057859,074549
0000000260,0000259000,090969,080434,076331,-00912,046953,080631
0000000261,0000260000,089528,083312,074894,006706,036365,083601
0000000262,0000261000,087382,086056,074296,016379,027113,083179
0000000263,0000262000,084747,088389,074597,027151,020113,079407
0000000264,0000263000,081886,090080,075768,037960,016058,072653
0000000265,0000264000,079066,090970,077699,047764,015336,063571
0000000266,0000265000,076566,090969,080200,055605,018014,053052
0000000267,0000266000,074639,090080,083015,060701,023831,042140
0000000268,0000267000,073468,088386,085879,062559,032222,031891
0000000269,0000268000,073168,086048,088518,061005,042369,023298
0000000270,0000269000,073765,083307,090661,056188,053268,017216
0000000271,0000270000,075204,080430,092100,048579,063851,014242
0000000272,0000271000,077351,077684,092699,038915,073098,014658
0000000273,0000272000,079988,075348,092399,028151,080098,018422
0000000274,0000273000,082849,073656,091229,017349,084157,025166
0000000275,0000274000,085670,072766,089298,007549,084884,034239
0000000276,0000275000,088173,072764,086797,-00290,082213,044749
0000000277,0000276000,090102,073652,083980,-05389,076406,055654
0000000278,0000277000,091273,075347,081115,-07251,068024,065898
0000000279,0000278000,091576,077684,078475,-05703,057886,074488
0000000280,0000279000,090980,080425,076329,-00896,046996,080571
0000000281,0000280000,089540,083305,074889,006703,036420,083548
0000000282,0000281000,087394,086052,074288,016358,027175,083139
0000000283,0000282000,084758,088389,074587,027112,020176,079384
0000000284,0000283000,081894,090084,075756,037907,016115,072649
0000000285,0000284000,079071,090976,077687,047703,015381,063587
0000000286,0000285000,076567,090978,080188,055541,018044,053087
0000000287,0000286000,074636,090092,083006,060641,023841,042189
0000000288,0000287000,073462,088399,085873,062508,032212,031951
0000000289,0000288000,073158,086060,088515,060968,042340,023363
0000000290,0000289000,073753,083318,090662,056170,053222,017280
0000000291,0000290000,075191,080438,092105,048582,063791,014298
0000000292,0000291000,077339,077688,092707,038938,073032,014701
0000000293,0000292000,079976,075348,092410,028193,080032,018447
0000000294,0000293000,082840,073652,091242,017405,084096,025170
0000000295,0000294000,085665,072758,089311,007615,084835,034222
0000000296,0000295000,088171,072753,086809,-00222,082181,044712
0000000297,0000296000,090104,073639,083990,-05324,076395,055601
0000000298,0000297000,091280,075333,081122,-07196,068035,065833
0000000299,0000298000,091586,077670,078478,-05664,057917,074418
0000000300,0000299000,090992,080414,076328,-00877,047045,080503
0000000301,0000300000,089554,083296,074883,006701,036482,083489
