DIgSILENT PowerFactory,21000900,2000
6,06A,00D
1,TTPP_200000_100:Secondary Voltage A,,,V,0.10000000,-8393.556641,0.000000,67098,99998,1,1,P
2,TTPP_200000_100:Secondary Voltage B,,,V,0.10000000,-8179.256836,0.000000,65420,99998,1,1,P
3,TTPP_200000_100:Secondary Voltage C,,,V,0.10000000,-8394.044922,0.000000,67209,99998,1,1,P
4,TTCC_500_5:Secondary Current A,,,A,0.0010000000,-87.272621,0.000000,68832,99998,1,1,P
5,TTCC_500_5:Secondary Current B,,,A,0.0010000000,-85.137489,0.000000,70246,99998,1,1,P
6,TTCC_500_5:Secondary Current C,,,A,0.0010000000,-84.797363,0.000000,69448,99998,1,1,P
50
1
1000.000000,1101
30/06/2023,06:08:36.000000
30/06/2023,06:08:36.000000
ASCII
1.000000
0000000001,0000000000,089448,085433,074788,093188,089817,074202
0000000002,0000001000,086899,087866,074902,090173,092533,074501
0000000003,0000002000,084048,089722,075900,086874,094528,075806
0000000004,0000003000,081203,090783,077683,083619,095597,077992
0000000005,0000004000,078618,090966,080084,080714,095647,080846
0000000006,0000005000,076546,090259,082863,078454,094668,084086
0000000007,0000006000,075200,088729,085738,077060,092755,087392
0000000008,0000007000,074727,086498,088444,076664,090096,090447
0000000009,0000008000,075135,083820,090713,077305,086952,092950
0000000010,0000009000,076403,080953,092314,078923,083631,094653
0000000011,0000010000,078422,078155,093092,081361,080456,095391
0000000012,0000011000,080984,075706,092979,084375,077740,095092
0000000013,0000012000,083812,073875,091982,087674,075747,093787
0000000014,0000013000,086666,072804,090197,090932,074674,091601
0000000015,0000014000,089263,072609,087796,093834,074625,088747
0000000016,0000015000,091322,073328,085019,096093,075607,085508
0000000017,0000016000,092659,074868,082143,097491,077515,082201
0000000018,0000017000,093157,077075,079437,097885,080176,079146
0000000019,0000018000,092738,079762,077168,097241,083323,076643
0000000020,0000019000,091456,082645,075568,095624,086643,074940
0000000021,0000020000,089453,085426,074788,093191,089814,074203
0000000022,0000021000,086898,087868,074902,090171,092535,074501
0000000023,0000022000,084047,089723,075899,086874,094527,075806
0000000024,0000023000,081202,090783,077683,083618,095598,077992
0000000025,0000024000,078621,090963,080085,080714,095647,080846
0000000026,0000025000,076543,090263,082862,078453,094669,084086
0000000027,0000026000,075203,088727,085738,077060,092756,087392
0000000028,0000027000,074725,086499,088444,076664,090097,090447
0000000029,0000028000,075135,083821,090713,077305,086952,092950
0000000030,0000029000,076403,080953,092313,078923,083631,094653
0000000031,0000030000,078424,078152,093093,081359,080457,095391
0000000032,0000031000,080979,075710,092979,084375,077740,095092
0000000033,0000032000,083815,073872,091982,087673,075747,093787
0000000034,0000033000,086668,072802,090198,090931,074674,091602
0000000035,0000034000,089260,072611,087797,093833,074627,088748
0000000036,0000035000,091321,073329,085019,096093,075606,085508
0000000037,0000036000,092664,074863,082142,097489,077517,082202
0000000038,0000037000,093154,077077,079438,097884,080177,079147
0000000039,0000038000,092735,079766,077168,097241,083323,076644
0000000040,0000039000,091461,082640,075568,095625,086642,074941
0000000041,0000040000,089455,085425,074788,093189,089816,074203
0000000042,0000041000,086893,087873,074902,090172,092534,074501
0000000043,0000042000,084049,089721,075899,086875,094526,075807
0000000044,0000043000,081207,090779,077682,083617,095598,077992
0000000045,0000044000,078616,090968,080085,080713,095648,080846
0000000046,0000045000,076542,090265,082862,078454,094668,084085
0000000047,0000046000,075208,088722,085738,077059,092756,087392
0000000048,0000047000,074723,086501,088444,076663,090098,090447
0000000049,0000048000,075130,083825,090713,077305,086952,092950
0000000050,0000049000,076407,080948,092313,078923,083631,094653
0000000051,0000050000,078424,078152,093093,081358,080459,095391
0000000052,0000051000,080975,075715,092980,084374,077741,095092
0000000053,0000052000,083816,073871,091982,087673,075747,093787
0000000054,0000053000,086671,072799,090198,090930,074675,091602
0000000055,0000054000,089256,072615,087797,093832,074628,088748
0000000056,0000055000,091321,073329,085019,096093,075606,085509
0000000057,0000056000,092667,074859,082143,097488,077517,082202
0000000058,0000057000,093153,077078,079438,097883,080177,079148
0000000059,0000058000,092733,079767,077168,097241,083322,076645
0000000060,0000059000,091464,082637,075568,095625,086641,074941
0000000061,0000060000,089455,085425,074788,093188,089816,074204
0000000062,0000061000,086892,087875,074901,090172,092534,074502
0000000063,0000062000,084052,089719,075898,086875,094525,075807
0000000064,0000063000,081208,090778,077682,083617,095598,077992
0000000065,0000064000,078614,090971,080084,080714,095648,080846
0000000066,0000065000,076543,090264,082861,078455,094668,084085
0000000067,0000066000,075210,088721,085738,077060,092756,087391
0000000068,0000067000,074721,086504,088443,076663,090098,090446
0000000069,0000068000,075130,083826,090712,077306,086952,092949
0000000070,0000069000,076409,080947,092313,078923,083632,094652
0000000071,0000070000,078421,078154,093093,081358,080460,095390
0000000072,0000071000,080973,075716,092980,084374,077742,095092
0000000073,0000072000,083817,073868,091983,087672,075749,093787
0000000074,0000073000,086669,072800,090200,090928,074677,091602
0000000075,0000074000,089254,072616,087798,093831,074628,088748
0000000076,0000075000,091323,073325,085020,096092,075606,085510
0000000077,0000076000,092668,074857,082144,097486,077518,082203
0000000078,0000077000,093151,077080,079438,097882,080177,079149
0000000079,0000078000,092736,079765,077168,097240,083321,076646
0000000080,0000079000,091467,082634,075568,095624,086641,074943
0000000081,0000080000,089453,085427,074788,093188,089815,074205
0000000082,0000081000,086893,087875,074900,090172,092532,074503
0000000083,0000082000,084056,089716,075897,086876,094524,075808
0000000084,0000083000,081207,090781,077681,083618,095597,077992
0000000085,0000084000,078613,090974,080082,080716,095646,080846
0000000086,0000085000,076546,090262,082860,078456,094667,084084
0000000087,0000086000,075209,088723,085737,077060,092757,087390
0000000088,0000087000,074717,086508,088443,076664,090098,090445
0000000089,0000088000,075131,083826,090712,077307,086953,092947
0000000090,0000089000,076409,080947,092313,078923,083634,094651
0000000091,0000090000,078417,078158,093094,081357,080462,095389
0000000092,0000091000,080972,075716,092981,084374,077743,095091
0000000093,0000092000,083818,073866,091984,087670,075751,093786
0000000094,0000093000,086666,072801,090201,090926,074679,091602
0000000095,0000094000,089252,072616,087800,093829,074629,088749
0000000096,0000095000,091325,073322,085022,096089,075607,085511
0000000097,0000096000,092667,074856,082145,097484,077518,082205
0000000098,0000097000,093150,077080,079439,097880,080177,079151
0000000099,0000098000,092739,079761,077169,097239,083320,076648
0000000100,0000099000,091469,082632,075568,095623,086640,074945
0000000101,0000100000,089453,085428,074787,093188,089813,074207
0000000102,0000101000,086896,087873,074899,090173,092529,074505
0000000103,0000102000,084058,089715,075895,086877,094522,075809
0000000104,0000103000,081207,090783,077679,083620,095595,077993
0000000105,0000104000,078614,090975,080080,080718,095644,080845
0000000106,0000105000,076548,090262,082858,078459,094666,084083
0000000107,0000106000,075207,088726,085735,077063,092757,087388
0000000108,0000107000,074716,086511,088441,076667,090098,090442
0000000109,0000108000,075131,083826,090711,077308,086954,092945
0000000110,0000109000,076406,080950,092314,078923,083636,094648
0000000111,0000110000,078414,078161,093095,081357,080464,095386
0000000112,0000111000,080971,075715,092982,084373,077746,095089
0000000113,0000112000,083816,073866,091987,087668,075754,093785
0000000114,0000113000,086663,072802,090204,090924,074682,091602
0000000115,0000114000,089252,072614,087802,093826,074631,088750
0000000116,0000115000,091326,073318,085024,096086,075609,085512
0000000117,0000116000,092666,074856,082147,097481,077519,082208
0000000118,0000117000,093152,077077,079440,097878,080176,079154
0000000119,0000118000,092743,079757,077170,097237,083319,076651
0000000120,0000119000,091470,082631,075568,095621,086638,074948
0000000121,0000120000,089455,085427,074786,093188,089809,074210
0000000122,0000121000,086901,087870,074897,090174,092526,074507
0000000123,0000122000,084060,089715,075893,086878,094519,075810
0000000124,0000123000,081207,090785,077676,083623,095592,077993
0000000125,0000124000,078617,090975,080077,080722,095641,080844
0000000126,0000125000,076549,090264,082855,078462,094665,084081
0000000127,0000126000,075205,088731,085733,077066,092756,087385
0000000128,0000127000,074715,086514,088439,076670,090099,090439
0000000129,0000128000,075130,083828,090711,077310,086956,092941
0000000130,0000129000,076401,080954,092314,078924,083639,094644
0000000131,0000130000,078410,078163,093096,081357,080467,095383
0000000132,0000131000,080970,075715,092985,084371,077750,095086
0000000133,0000132000,083812,073867,091990,087665,075758,093784
0000000134,0000133000,086659,072802,090207,090921,074685,091601
0000000135,0000134000,089252,072610,087806,093822,074634,088751
0000000136,0000135000,091325,073316,085028,096081,075611,085515
0000000137,0000136000,092665,074854,082150,097477,077520,082211
0000000138,0000137000,093155,077072,079442,097874,080175,079158
0000000139,0000138000,092746,079752,077171,097234,083317,076656
0000000140,0000139000,091472,082629,075567,095620,086635,074953
0000000141,0000140000,089460,085425,074784,093188,089805,074214
0000000142,0000141000,086906,087868,074895,090176,092522,074510
0000000143,0000142000,084063,089716,075890,086881,094514,075812
0000000144,0000143000,081210,090787,077672,083627,095587,077993
0000000145,0000144000,078620,090976,080073,080727,095638,080843
0000000146,0000145000,076549,090268,082852,078466,094662,084079
0000000147,0000146000,075203,088736,085729,077071,092755,087382
0000000148,0000147000,074714,086517,088437,076674,090099,090434
0000000149,0000148000,075127,083832,090710,077313,086958,092936
0000000150,0000149000,076396,080959,092314,078926,083643,094639
0000000151,0000150000,078407,078165,093098,081357,080472,095378
0000000152,0000151000,080966,075715,092988,084369,077756,095083
0000000153,0000152000,083807,073868,091994,087662,075764,093782
0000000154,0000153000,086657,072800,090211,090916,074690,091601
0000000155,0000154000,089251,072607,087810,093817,074639,088752
0000000156,0000155000,091324,073313,085032,096076,075614,085518
0000000157,0000156000,092666,074849,082154,097472,077521,082215
0000000158,0000157000,093158,077066,079445,097870,080175,079163
0000000159,0000158000,092749,079748,077172,097231,083315,076662
0000000160,0000159000,091476,082626,075567,095618,086630,074959
0000000161,0000160000,089466,085420,074782,093189,089800,074219
0000000162,0000161000,086911,087866,074891,090178,092516,074514
0000000163,0000162000,084066,089717,075885,086885,094508,075814
0000000164,0000163000,081214,090788,077666,083632,095582,077994
0000000165,0000164000,078623,090978,080068,080732,095634,080842
0000000166,0000165000,076548,090274,082847,078473,094659,084075
0000000167,0000166000,075202,088741,085725,077077,092754,087377
0000000168,0000167000,074713,086521,088434,076679,090100,090428
0000000169,0000168000,075122,083838,090709,077317,086962,092929
0000000170,0000169000,076390,080964,092315,078928,083647,094633
0000000171,0000170000,078402,078167,093100,081357,080478,095373
0000000172,0000171000,080959,075718,092992,084367,077763,095078
0000000173,0000172000,083801,073869,091999,087658,075771,093779
0000000174,0000173000,086653,072798,090217,090910,074696,091600
0000000175,0000174000,089249,072603,087817,093809,074644,088754
0000000176,0000175000,091322,073309,085038,096068,075618,085521
0000000177,0000176000,092668,074843,082158,097465,077522,082221
0000000178,0000177000,093162,077059,079448,097864,080174,079170
0000000179,0000178000,092753,079743,077173,097226,083312,076669
0000000180,0000179000,091482,082621,075566,095616,086625,074966
0000000181,0000180000,089473,085415,074779,093189,089793,074225
0000000182,0000181000,086917,087865,074887,090180,092508,074519
0000000183,0000182000,084072,089718,075879,086890,094500,075817
0000000184,0000183000,081220,090789,077660,083639,095574,077994
0000000185,0000184000,078626,090982,080061,080740,095628,080840
0000000186,0000185000,076548,090280,082840,078481,094656,084071
0000000187,0000186000,075202,088747,085720,077085,092752,087371
0000000188,0000187000,074709,086528,088431,076685,090102,090420
0000000189,0000188000,075116,083846,090707,077321,086965,092921
0000000190,0000189000,076384,080969,092315,078930,083653,094624
0000000191,0000190000,078395,078171,093103,081357,080485,095365
0000000192,0000191000,080951,075721,092997,084364,077771,095073
0000000193,0000192000,083794,073869,092005,087653,075779,093776
0000000194,0000193000,086649,072795,090225,090903,074704,091600
0000000195,0000194000,089245,072599,087824,093801,074651,088756
0000000196,0000195000,091321,073303,085045,096060,075622,085526
0000000197,0000196000,092670,074835,082164,097456,077523,082228
0000000198,0000197000,093166,077051,079452,097856,080173,079179
0000000199,0000198000,092758,079736,077175,097221,083308,076678
0000000200,0000199000,091490,082614,075565,095614,086619,074975
0000000201,0000200000,089482,085410,074776,093189,089785,074233
0000000202,0000201000,086924,087863,074882,090183,092499,074525
0000000203,0000202000,084079,089718,075872,086896,094491,075821
0000000204,0000203000,081226,090791,077652,083647,095566,077995
0000000205,0000204000,078629,090988,080052,080749,095621,080837
0000000206,0000205000,076549,090287,082832,078491,094651,084066
0000000207,0000206000,075201,088755,085713,077094,092750,087363
0000000208,0000207000,074705,086537,088426,076693,090103,090411
0000000209,0000208000,075109,083855,090705,077327,086970,092911
0000000210,0000209000,076376,080976,092316,078933,083660,094614
0000000211,0000210000,078386,078176,093107,081356,080495,095357
0000000212,0000211000,080942,075724,093003,084360,077781,095066
0000000213,0000212000,083787,073869,092013,087646,075789,093772
0000000214,0000213000,086643,072791,090234,090894,074714,091599
0000000215,0000214000,089241,072594,087834,093790,074658,088759
0000000216,0000215000,091320,073296,085053,096049,075627,085532
0000000217,0000216000,092672,074825,082171,097446,077525,082236
0000000218,0000217000,093170,077042,079457,097847,080171,079189
0000000219,0000218000,092765,079727,077177,097215,083303,076690
0000000220,0000219000,091499,082605,075564,095611,086611,074986
0000000221,0000220000,089491,085404,074772,093189,089775,074243
0000000222,0000221000,086933,087860,074875,090187,092488,074532
0000000223,0000222000,084088,089717,075863,086903,094479,075825
0000000224,0000223000,081233,090794,077642,083656,095555,077996
0000000225,0000224000,078632,090994,080042,080760,095613,080835
0000000226,0000225000,076551,090295,082823,078503,094645,084060
0000000227,0000226000,075199,088764,085705,077105,092748,087354
0000000228,0000227000,074699,086548,088421,076703,090105,090400
0000000229,0000228000,075101,083865,090703,077334,086975,092899
0000000230,0000229000,076367,080984,092317,078936,083668,094603
0000000231,0000230000,078375,078183,093111,081356,080506,095346
0000000232,0000231000,080931,075728,093010,084356,077794,095058
0000000233,0000232000,083778,073868,092022,087639,075802,093767
0000000234,0000233000,086635,072788,090245,090884,074725,091598
0000000235,0000234000,089236,072588,087845,093778,074667,088762
0000000236,0000235000,091319,073286,085063,096036,075633,085539
0000000237,0000236000,092675,074814,082180,097434,077528,082246
0000000238,0000237000,093175,077031,079463,097837,080169,079201
0000000239,0000238000,092773,079716,077179,097208,083297,076703
0000000240,0000239000,091510,082595,075563,095607,086602,074999
0000000241,0000240000,089503,085398,074768,093190,089763,074254
0000000242,0000241000,086945,087856,074867,090192,092474,074541
0000000243,0000242000,084099,089716,075853,086911,094466,075830
0000000244,0000243000,081241,090798,077630,083668,095543,077997
0000000245,0000244000,078637,091002,080030,080774,095603,080831
0000000246,0000245000,076553,090305,082812,078517,094639,084052
0000000247,0000246000,075196,088776,085696,077118,092746,087343
0000000248,0000247000,074692,086561,088415,076714,090107,090387
0000000249,0000248000,075092,083876,090700,077342,086981,092885
0000000250,0000249000,076356,080994,092319,078940,083679,094589
0000000251,0000250000,078362,078191,093116,081355,080519,095334
0000000252,0000251000,080919,075732,093018,084351,077808,095049
0000000253,0000252000,083767,073868,092034,087629,075816,093762
0000000254,0000253000,086626,072785,090258,090871,074739,091597
0000000255,0000254000,089230,072581,087858,093764,074678,088765
0000000256,0000255000,091318,073275,085075,096021,075640,085547
0000000257,0000256000,092677,074802,082190,097419,077530,082258
0000000258,0000257000,093181,077018,079470,097825,080167,079215
0000000259,0000258000,092784,079703,077182,097199,083290,076718
0000000260,0000259000,091523,082584,075562,095603,086591,075014
0000000261,0000260000,089516,085390,074762,093190,089749,074268
0000000262,0000261000,086959,087852,074858,090197,092459,074551
0000000263,0000262000,084111,089716,075841,086921,094450,075836
0000000264,0000263000,081250,090802,077616,083681,095529,077998
0000000265,0000264000,078643,091010,080016,080789,095591,080827
0000000266,0000265000,076555,090316,082798,078533,094631,084043
0000000267,0000266000,075193,088790,085686,077134,092743,087330
0000000268,0000267000,074685,086576,088407,076727,090109,090371
0000000269,0000268000,075082,083890,090697,077351,086988,092868
0000000270,0000269000,076342,081006,092320,078945,083690,094573
0000000271,0000270000,078347,078200,093122,081354,080533,095320
0000000272,0000271000,080904,075737,093028,084345,077825,095038
0000000273,0000272000,083754,073868,092047,087619,075833,093756
0000000274,0000273000,086615,072781,090272,090857,074754,091596
0000000275,0000274000,089224,072572,087873,093747,074690,088770
0000000276,0000275000,091316,073263,085090,096004,075648,085556
0000000277,0000276000,092680,074787,082202,097403,077533,082271
0000000278,0000277000,093189,077002,079478,097812,080164,079232
0000000279,0000278000,092796,079687,077186,097189,083282,076736
0000000280,0000279000,091537,082571,075560,095598,086578,075031
0000000281,0000280000,089532,085381,074756,093191,089733,074283
0000000282,0000281000,086975,087846,074848,090204,092441,074562
0000000283,0000282000,084125,089716,075827,086932,094432,075843
0000000284,0000283000,081261,090807,077600,083696,095513,077999
0000000285,0000284000,078650,091019,080000,080807,095578,080822
0000000286,0000285000,076557,090329,082783,078551,094623,084033
0000000287,0000286000,075189,088806,085673,077151,092740,087316
0000000288,0000287000,074677,086592,088398,076741,090112,090354
0000000289,0000288000,075070,083906,090693,077361,086997,092849
0000000290,0000289000,076327,081020,092322,078950,083704,094554
0000000291,0000290000,078330,078211,093128,081353,080550,095304
0000000292,0000291000,080888,075742,093039,084338,077844,095026
0000000293,0000292000,083739,073869,092061,087606,075852,093749
0000000294,0000293000,086603,072776,090289,090841,074771,091595
0000000295,0000294000,089217,072561,087890,093728,074704,088775
0000000296,0000295000,091314,073248,085106,095984,075657,085567
0000000297,0000296000,092683,074771,082215,097384,077536,082287
0000000298,0000297000,093198,076984,079487,097796,080161,079250
0000000299,0000298000,092809,079670,077190,097178,083273,076756
0000000300,0000299000,091553,082557,075559,095593,086564,075051
0000000301,0000300000,089550,085370,074749,093192,089715,074300
