DIgSILENT PowerFactory,21000900,2000
6,06A,00D
1,TTPP_200000_100:Secondary Voltage A,,,V,0.10000000,-8035.786621,0.000000,66443,99998,1,1,P
2,TTPP_200000_100:Secondary Voltage B,,,V,0.10000000,-8120.063477,0.000000,61313,99998,1,1,P
3,TTPP_200000_100:Secondary Voltage C,,,V,0.10000000,-8430.130859,0.000000,69067,99998,1,1,P
4,TTCC_500_5:Secondary Current A,,,A,0.0010000000,-79.335587,0.000000,66219,99998,1,1,P
5,TTCC_500_5:Secondary Current B,,,A,0.0010000000,-84.145355,0.000000,66835,99998,1,1,P
6,TTCC_500_5:Secondary Current C,,,A,0.0010000000,-84.392487,0.000000,69692,99998,1,1,P
50
1
1000.000000,1101
30/06/2023,06:09:41.000000
30/06/2023,06:09:41.000000
ASCII
1.000000
0000000001,0000000000,085870,084841,075149,085251,088825,073797
0000000002,0000001000,083321,087275,075263,082236,091541,074096
0000000003,0000002000,080470,089130,076261,078936,093536,075401
0000000004,0000003000,077625,090191,078044,075681,094605,077587
0000000005,0000004000,075041,090374,080446,072777,094655,080441
0000000006,0000005000,072968,089667,083224,070516,093676,083681
0000000007,0000006000,071623,088137,086099,069123,091763,086987
0000000008,0000007000,071149,085906,088805,068727,089104,090043
0000000009,0000008000,071558,083227,091074,069368,085959,092546
0000000010,0000009000,072825,080361,092675,070987,082638,094249
0000000011,0000010000,074845,077562,093453,073424,079463,094986
0000000012,0000011000,077406,075114,093340,076438,076748,094687
0000000013,0000012000,080235,073282,092342,079737,074755,093382
0000000014,0000013000,083088,072213,090558,082996,073681,091196
0000000015,0000014000,085687,072016,088157,085897,073634,088342
0000000016,0000015000,087745,072736,085379,088156,074615,085103
0000000017,0000016000,089081,074276,082503,089553,076524,081796
0000000018,0000017000,089579,076484,079798,089949,079184,078741
0000000019,0000018000,089161,079170,077528,089304,082332,076238
0000000020,0000019000,087878,082053,075929,087688,085650,074535
0000000021,0000020000,085875,084835,075149,085253,088823,073798
0000000022,0000021000,083321,087276,075263,082234,091543,074096
0000000023,0000022000,080469,089131,076260,078936,093535,075402
0000000024,0000023000,077625,090191,078044,075680,094606,077587
0000000025,0000024000,075042,090372,080446,072777,094655,080442
0000000026,0000025000,072966,089670,083223,070516,093677,083681
0000000027,0000026000,071625,088135,086099,069122,091763,086988
0000000028,0000027000,071148,085907,088805,068727,089104,090043
0000000029,0000028000,071556,083229,091074,069368,085960,092546
0000000030,0000029000,072827,080359,092674,070986,082639,094249
0000000031,0000030000,074846,077560,093454,073423,079465,094986
0000000032,0000031000,077402,075118,093340,076438,076748,094688
0000000033,0000032000,080237,073280,092342,079737,074755,093382
0000000034,0000033000,083092,072210,090558,082994,073682,091197
0000000035,0000034000,085682,072020,088157,085896,073634,088343
0000000036,0000035000,087744,072737,085379,088156,074614,085103
0000000037,0000036000,089087,074271,082503,089552,076524,081797
0000000038,0000037000,089577,076485,079798,089947,079185,078742
0000000039,0000038000,089156,079175,077529,089304,082331,076239
0000000040,0000039000,087883,082048,075928,087688,085650,074536
0000000041,0000040000,085877,084833,075149,085251,088824,073798
0000000042,0000041000,083315,087282,075263,082234,091543,074097
0000000043,0000042000,080471,089129,076260,078937,093534,075402
0000000044,0000043000,077630,090187,078044,075680,094606,077588
0000000045,0000044000,075038,090376,080446,072776,094656,080442
0000000046,0000045000,072964,089673,083223,070517,093676,083681
0000000047,0000046000,071631,088130,086099,069122,091764,086988
0000000048,0000047000,071146,085908,088805,068726,089105,090042
0000000049,0000048000,071552,083233,091074,069368,085960,092545
0000000050,0000049000,072830,080356,092674,070987,082639,094248
0000000051,0000050000,074847,077559,093454,073421,079466,094986
0000000052,0000051000,077397,075122,093340,076437,076749,094687
0000000053,0000052000,080238,073279,092343,079736,074755,093382
0000000054,0000053000,083094,072207,090559,082993,073683,091197
0000000055,0000054000,085679,072023,088158,085895,073636,088343
0000000056,0000055000,087743,072737,085379,088156,074614,085104
0000000057,0000056000,089089,074267,082503,089551,076525,081797
0000000058,0000057000,089576,076486,079798,089946,079186,078742
0000000059,0000058000,089156,079175,077529,089304,082331,076239
0000000060,0000059000,087886,082045,075928,087687,085650,074536
0000000061,0000060000,085877,084834,075149,085251,088824,073799
0000000062,0000061000,083314,087283,075262,082234,091542,074097
0000000063,0000062000,080474,089127,076259,078938,093533,075402
0000000064,0000063000,077630,090187,078043,075680,094606,077588
0000000065,0000064000,075036,090379,080445,072777,094655,080441
0000000066,0000065000,072966,089672,083222,070517,093675,083681
0000000067,0000066000,071632,088129,086099,069122,091764,086987
0000000068,0000067000,071143,085912,088805,068726,089106,090041
0000000069,0000068000,071553,083233,091073,069369,085960,092544
0000000070,0000069000,072831,080355,092674,070986,082640,094247
0000000071,0000070000,074844,077562,093454,073421,079467,094985
0000000072,0000071000,077395,075124,093341,076437,076749,094687
0000000073,0000072000,080241,073276,092344,079735,074756,093382
0000000074,0000073000,083092,072208,090560,082992,073685,091197
0000000075,0000074000,085676,072025,088159,085894,073636,088343
0000000076,0000075000,087746,072733,085380,088155,074614,085104
0000000077,0000076000,089090,074265,082504,089549,076526,081798
0000000078,0000077000,089573,076489,079799,089944,079185,078744
0000000079,0000078000,089158,079173,077529,089303,082330,076241
0000000080,0000079000,087890,082042,075928,087686,085649,074538
0000000081,0000080000,085875,084836,075149,085250,088823,073800
0000000082,0000081000,083315,087284,075261,082235,091540,074098
0000000083,0000082000,080478,089124,076258,078938,093532,075403
0000000084,0000083000,077629,090189,078042,075680,094605,077588
0000000085,0000084000,075035,090382,080443,072779,094654,080441
0000000086,0000085000,072969,089670,083221,070519,093675,083680
0000000087,0000086000,071631,088130,086098,069123,091764,086986
0000000088,0000087000,071140,085916,088804,068727,089106,090040
0000000089,0000088000,071553,083233,091073,069370,085960,092543
0000000090,0000089000,072831,080355,092674,070986,082641,094246
0000000091,0000090000,074840,077565,093455,073421,079469,094984
0000000092,0000091000,077395,075124,093342,076437,076751,094686
0000000093,0000092000,080241,073274,092345,079734,074758,093381
0000000094,0000093000,083089,072209,090562,082990,073687,091197
0000000095,0000094000,085675,072024,088160,085892,073637,088344
0000000096,0000095000,087748,072730,085382,088153,074615,085105
0000000097,0000096000,089089,074265,082506,089547,076527,081800
0000000098,0000097000,089572,076488,079800,089943,079185,078746
0000000099,0000098000,089161,079169,077529,089302,082329,076243
0000000100,0000099000,087891,082040,075928,087685,085648,074540
0000000101,0000100000,085875,084837,075148,085251,088821,073802
0000000102,0000101000,083318,087281,075260,082236,091538,074100
0000000103,0000102000,080480,089123,076257,078939,093530,075404
0000000104,0000103000,077629,090191,078040,075682,094603,077588
0000000105,0000104000,075036,090382,080441,072781,094652,080440
0000000106,0000105000,072971,089670,083219,070521,093674,083679
0000000107,0000106000,071629,088134,086096,069125,091764,086984
0000000108,0000107000,071138,085919,088802,068730,089106,090038
0000000109,0000108000,071554,083233,091073,069372,085962,092540
0000000110,0000109000,072828,080357,092675,070986,082644,094243
0000000111,0000110000,074836,077568,093456,073421,079472,094981
0000000112,0000111000,077394,075123,093343,076436,076754,094684
0000000113,0000112000,080239,073274,092347,079731,074762,093380
0000000114,0000113000,083085,072210,090564,082987,073690,091197
0000000115,0000114000,085675,072022,088163,085889,073639,088345
0000000116,0000115000,087749,072726,085385,088149,074617,085107
0000000117,0000116000,089088,074264,082508,089544,076527,081802
0000000118,0000117000,089574,076485,079801,089941,079184,078749
0000000119,0000118000,089165,079165,077530,089300,082327,076246
0000000120,0000119000,087892,082039,075928,087684,085646,074543
0000000121,0000120000,085877,084836,075146,085251,088818,073805
0000000122,0000121000,083323,087279,075258,082237,091534,074102
0000000123,0000122000,080482,089123,076254,078941,093527,075405
0000000124,0000123000,077629,090194,078037,075685,094600,077588
0000000125,0000124000,075039,090383,080438,072785,094649,080440
0000000126,0000125000,072971,089672,083217,070525,093672,083677
0000000127,0000126000,071627,088139,086094,069129,091764,086981
0000000128,0000127000,071138,085921,088801,068733,089106,090034
0000000129,0000128000,071552,083235,091072,069373,085964,092536
0000000130,0000129000,072823,080362,092675,070987,082647,094239
0000000131,0000130000,074833,077570,093457,073421,079475,094978
0000000132,0000131000,077392,075122,093345,076434,076758,094681
0000000133,0000132000,080235,073275,092350,079729,074766,093379
0000000134,0000133000,083082,072210,090567,082984,073693,091196
0000000135,0000134000,085675,072018,088166,085885,073642,088346
0000000136,0000135000,087748,072724,085388,088145,074619,085109
0000000137,0000136000,089087,074262,082511,089540,076528,081806
0000000138,0000137000,089577,076480,079803,089937,079183,078753
0000000139,0000138000,089168,079161,077531,089297,082326,076251
0000000140,0000139000,087894,082038,075928,087683,085643,074548
0000000141,0000140000,085882,084833,075145,085251,088813,073809
0000000142,0000141000,083328,087276,075256,082238,091530,074105
0000000143,0000142000,080484,089125,076251,078944,093522,075407
0000000144,0000143000,077632,090195,078033,075690,094595,077589
0000000145,0000144000,075042,090384,080434,072789,094646,080439
0000000146,0000145000,072971,089676,083213,070529,093670,083674
0000000147,0000146000,071625,088144,086090,069134,091762,086977
0000000148,0000147000,071137,085924,088798,068737,089107,090029
0000000149,0000148000,071549,083239,091071,069376,085966,092531
0000000150,0000149000,072818,080366,092675,070989,082650,094234
0000000151,0000150000,074829,077572,093458,073421,079479,094974
0000000152,0000151000,077388,075123,093349,076432,076763,094678
0000000153,0000152000,080229,073276,092354,079725,074771,093377
0000000154,0000153000,083079,072208,090572,082980,073698,091196
0000000155,0000154000,085674,072014,088171,085880,073647,088347
0000000156,0000155000,087746,072721,085392,088139,074622,085112
0000000157,0000156000,089088,074258,082514,089535,076529,081810
0000000158,0000157000,089581,076474,079805,089933,079183,078758
0000000159,0000158000,089171,079157,077532,089293,082323,076257
0000000160,0000159000,087898,082035,075927,087681,085639,074554
0000000161,0000160000,085888,084829,075143,085251,088808,073814
0000000162,0000161000,083333,087274,075252,082240,091524,074109
0000000163,0000162000,080488,089126,076246,078948,093516,075409
0000000164,0000163000,077636,090196,078028,075695,094589,077589
0000000165,0000164000,075045,090386,080429,072795,094641,080437
0000000166,0000165000,072970,089682,083208,070536,093667,083671
0000000167,0000166000,071624,088149,086086,069140,091761,086972
0000000168,0000167000,071135,085929,088796,068742,089108,090023
0000000169,0000168000,071544,083246,091070,069380,085969,092525
0000000170,0000169000,072813,080372,092676,070991,082655,094228
0000000171,0000170000,074825,077575,093461,073420,079485,094968
0000000172,0000171000,077382,075125,093353,076430,076770,094673
0000000173,0000172000,080223,073277,092359,079721,074778,093374
0000000174,0000173000,083076,072206,090578,082974,073704,091195
0000000175,0000174000,085672,072011,088177,085873,073652,088349
0000000176,0000175000,087744,072717,085398,088132,074626,085116
0000000177,0000176000,089090,074251,082519,089528,076530,081816
0000000178,0000177000,089584,076467,079809,089927,079182,078765
0000000179,0000178000,089175,079151,077534,089289,082320,076264
0000000180,0000179000,087904,082029,075926,087679,085633,074561
0000000181,0000180000,085896,084824,075140,085251,088801,073821
0000000182,0000181000,083339,087273,075248,082243,091517,074114
0000000183,0000182000,080493,089126,076240,078952,093508,075412
0000000184,0000183000,077642,090197,078021,075701,094582,077590
0000000185,0000184000,075048,090390,080422,072803,094636,080435
0000000186,0000185000,072970,089688,083201,070544,093663,083667
0000000187,0000186000,071624,088155,086081,069148,091760,086966
0000000188,0000187000,071132,085936,088792,068748,089109,090016
0000000189,0000188000,071538,083254,091068,069384,085973,092516
0000000190,0000189000,072806,080377,092676,070993,082660,094220
0000000191,0000190000,074818,077578,093464,073420,079493,094961
0000000192,0000191000,077374,075129,093357,076427,076779,094668
0000000193,0000192000,080217,073277,092366,079716,074787,093371
0000000194,0000193000,083072,072203,090585,082966,073712,091195
0000000195,0000194000,085668,072007,088185,085864,073658,088351
0000000196,0000195000,087743,072711,085405,088123,074630,085121
0000000197,0000196000,089092,074243,082525,089519,076532,081823
0000000198,0000197000,089588,076459,079813,089919,079181,078774
0000000199,0000198000,089180,079145,077535,089284,082316,076273
0000000200,0000199000,087912,082022,075926,087677,085627,074570
0000000201,0000200000,085904,084819,075137,085252,088793,073829
0000000202,0000201000,083346,087271,075243,082246,091507,074120
0000000203,0000202000,080501,089126,076233,078958,093499,075416
0000000204,0000203000,077648,090199,078013,075709,094574,077591
0000000205,0000204000,075050,090396,080414,072812,094629,080433
0000000206,0000205000,072971,089695,083193,070554,093659,083661
0000000207,0000206000,071623,088162,086074,069157,091758,086958
0000000208,0000207000,071127,085945,088788,068756,089111,090006
0000000209,0000208000,071531,083262,091066,069390,085977,092506
0000000210,0000209000,072799,080384,092677,070996,082667,094210
0000000211,0000210000,074809,077584,093467,073419,079502,094952
0000000212,0000211000,077364,075132,093363,076423,076789,094661
0000000213,0000212000,080210,073277,092374,079710,074797,093367
0000000214,0000213000,083066,072199,090594,082957,073722,091194
0000000215,0000214000,085663,072002,088194,085854,073666,088353
0000000216,0000215000,087742,072704,085414,088112,074635,085127
0000000217,0000216000,089095,074233,082532,089509,076534,081831
0000000218,0000217000,089592,076450,079818,089910,079179,078784
0000000219,0000218000,089187,079136,077537,089278,082311,076284
0000000220,0000219000,087922,082013,075925,087674,085619,074581
0000000221,0000220000,085913,084813,075133,085252,088783,073838
0000000222,0000221000,083355,087269,075236,082250,091496,074128
0000000223,0000222000,080510,089125,076224,078966,093487,075420
0000000224,0000223000,077655,090202,078003,075719,094563,077591
0000000225,0000224000,075054,090403,080403,072823,094620,080430
0000000226,0000225000,072973,089703,083184,070566,093653,083655
0000000227,0000226000,071621,088172,086067,069168,091756,086949
0000000228,0000227000,071121,085956,088782,068766,089112,089995
0000000229,0000228000,071523,083272,091064,069397,085982,092494
0000000230,0000229000,072790,080392,092678,071000,082676,094198
0000000231,0000230000,074798,077591,093472,073419,079513,094941
0000000232,0000231000,077354,075136,093370,076419,076801,094653
0000000233,0000232000,080201,073276,092383,079702,074810,093362
0000000234,0000233000,083058,072196,090605,082947,073733,091193
0000000235,0000234000,085658,071996,088205,085841,073675,088357
0000000236,0000235000,087742,072694,085424,088099,074641,085133
0000000237,0000236000,089097,074222,082540,089497,076536,081841
0000000238,0000237000,089597,076439,079824,089900,079177,078796
0000000239,0000238000,089196,079124,077540,089271,082305,076298
0000000240,0000239000,087933,082004,075924,087670,085610,074594
0000000241,0000240000,085924,084806,075129,085252,088771,073850
0000000242,0000241000,083367,087265,075228,082255,091483,074136
0000000243,0000242000,080521,089125,076214,078974,093474,075425
0000000244,0000243000,077663,090206,077991,075730,094551,077592
0000000245,0000244000,075059,090410,080391,072837,094610,080427
0000000246,0000245000,072975,089712,083173,070579,093646,083648
0000000247,0000246000,071618,088184,086058,069181,091754,086938
0000000248,0000247000,071115,085969,088776,068777,089114,089982
0000000249,0000248000,071514,083284,091061,069405,085989,092480
0000000250,0000249000,072778,080402,092680,071003,082686,094184
0000000251,0000250000,074785,077599,093477,073418,079526,094929
0000000252,0000251000,077341,075140,093379,076414,076816,094644
0000000253,0000252000,080190,073276,092394,079693,074824,093357
0000000254,0000253000,083049,072193,090618,082934,073747,091192
0000000255,0000254000,085653,071989,088218,085827,073686,088360
0000000256,0000255000,087741,072683,085436,088084,074648,085142
0000000257,0000256000,089100,074210,082550,089482,076538,081853
0000000258,0000257000,089603,076426,079830,089888,079175,078810
0000000259,0000258000,089206,079111,077543,089262,082298,076313
0000000260,0000259000,087945,081993,075922,087666,085599,074609
0000000261,0000260000,085938,084799,075123,085253,088758,073863
0000000262,0000261000,083381,087260,075219,082260,091467,074146
0000000263,0000262000,080533,089124,076202,078984,093458,075431
0000000264,0000263000,077672,090211,077977,075743,094537,077593
0000000265,0000264000,075065,090418,080377,072852,094599,080423
0000000266,0000265000,072977,089724,083160,070596,093639,083639
0000000267,0000266000,071615,088198,086047,069197,091751,086926
0000000268,0000267000,071108,085984,088768,068790,089117,089967
0000000269,0000268000,071504,083297,091058,069414,085996,092463
0000000270,0000269000,072765,080414,092681,071008,082698,094168
0000000271,0000270000,074770,077608,093483,073418,079541,094915
0000000272,0000271000,077327,075144,093389,076408,076832,094633
0000000273,0000272000,080177,073276,092407,079682,074841,093351
0000000274,0000273000,083038,072189,090633,082920,073762,091191
0000000275,0000274000,085646,071980,088233,085811,073698,088365
0000000276,0000275000,087739,072671,085450,088067,074656,085151
0000000277,0000276000,089102,074196,082562,089466,076541,081866
0000000278,0000277000,089611,076411,079838,089874,079172,078827
0000000279,0000278000,089218,079096,077546,089252,082291,076331
0000000280,0000279000,087959,081980,075921,087661,085587,074626
0000000281,0000280000,085954,084789,075117,085254,088742,073878
0000000282,0000281000,083397,087254,075208,082266,091449,074158
0000000283,0000282000,080547,089124,076188,078995,093440,075438
0000000284,0000283000,077683,090216,077962,075759,094520,077594
0000000285,0000284000,075072,090427,080361,072870,094586,080418
0000000286,0000285000,072979,089737,083145,070614,093631,083629
0000000287,0000286000,071612,088214,086034,069214,091748,086911
0000000288,0000287000,071100,086000,088760,068804,089120,089949
0000000289,0000288000,071492,083313,091054,069424,086004,092445
0000000290,0000289000,072749,080428,092683,071013,082711,094149
0000000291,0000290000,074753,077618,093489,073417,079558,094899
0000000292,0000291000,077311,075150,093400,076401,076851,094621
0000000293,0000292000,080161,073276,092422,079670,074860,093344
0000000294,0000293000,083026,072184,090650,082904,073779,091190
0000000295,0000294000,085639,071969,088251,085792,073712,088370
0000000296,0000295000,087737,072657,085466,088047,074665,085162
0000000297,0000296000,089106,074179,082575,089448,076544,081882
0000000298,0000297000,089620,076392,079848,089859,079169,078845
0000000299,0000298000,089231,079078,077550,089241,082281,076351
0000000300,0000299000,087975,081965,075919,087656,085572,074646
0000000301,0000300000,085972,084778,075110,085255,088723,073895
