DIgSILENT PowerFactory,21000900,2000
6,06A,00D
1,TTPP_200000_100:Secondary Voltage A,,,V,0.10000000,-8224.941406,0.000000,63807,99998,1,1,P
2,TTPP_200000_100:Secondary Voltage B,,,V,0.10000000,-8188.198242,0.000000,66125,99998,1,1,P
3,TTPP_200000_100:Secondary Voltage C,,,V,0.10000000,-8363.527344,0.000000,61095,99998,1,1,P
4,TTCC_300_1:Secondary Current A,,,A,0.00010000000,-3.180998,0.000000,-14925,99998,1,1,P
5,TTCC_300_1:Secondary Current B,,,A,0.00010000000,-5.006079,0.000000,70,99998,1,1,P
6,TTCC_300_1:Secondary Current C,,,A,0.00010000000,-4.888740,0.000000,-2191,99998,1,1,P
50
1
1000.000000,1101
30/06/2023,06:07:14.000000
30/06/2023,06:07:14.000000
ASCII
1.000000
0000000001,0000000000,089356,083357,075054,010881,036070,083807
0000000002,0000001000,087222,086074,074469,020634,026792,083333
0000000003,0000002000,084581,088405,074781,031472,019795,079490
0000000004,0000003000,081724,090084,075958,042353,015751,072654
0000000005,0000004000,078931,090945,077891,052193,015078,063485
0000000006,0000005000,076443,090937,080387,060045,017829,052886
0000000007,0000006000,074522,090051,083194,065127,023726,041905
0000000008,0000007000,073378,088342,086047,066953,032199,031607
0000000009,0000008000,073092,086005,088669,065326,042442,022991
0000000010,0000009000,073691,083282,090794,060431,053415,016913
0000000011,0000010000,075138,080412,092217,052734,064051,013973
0000000012,0000011000,077292,077674,092802,042977,073335,014446
0000000013,0000012000,079913,075365,092490,032127,080342,018289
0000000014,0000013000,082765,073689,091312,021262,084371,025125
0000000015,0000014000,085578,072808,089381,011418,085047,034294
0000000016,0000015000,088058,072825,086883,003560,082306,044893
0000000017,0000016000,089965,073725,084076,-01518,076402,055874
0000000018,0000017000,091128,075415,081224,-03338,067924,066172
0000000019,0000018000,091411,077753,078602,-01720,057690,074788
0000000020,0000019000,090800,080492,076476,003178,046715,080865
0000000021,0000020000,089362,083351,075053,010881,036071,083807
0000000022,0000021000,087215,086082,074470,020630,026796,083332
0000000023,0000022000,084578,088407,074781,031481,019787,079490
0000000024,0000023000,081733,090076,075957,042352,015752,072653
0000000025,0000024000,078930,090947,077890,052192,015080,063486
0000000026,0000025000,076436,090944,080387,060046,017826,052886
0000000027,0000026000,074528,090045,083194,065135,023719,041904
0000000028,0000027000,073381,088339,086046,066948,032204,031607
0000000029,0000028000,073085,086012,088669,065328,042440,022991
0000000030,0000029000,073690,083282,090795,060436,053410,016913
0000000031,0000030000,075144,080405,092217,052736,064050,013972
0000000032,0000031000,077287,077678,092802,042975,073337,014446
0000000033,0000032000,079910,075368,092490,032132,080337,018288
0000000034,0000033000,082769,073684,091313,021265,084369,025124
0000000035,0000034000,085578,072808,089381,011417,085049,034292
0000000036,0000035000,088054,072829,086883,003563,082304,044892
0000000037,0000036000,089968,073722,084076,-01514,076400,055873
0000000038,0000037000,091129,075413,081225,-03337,067924,066171
0000000039,0000038000,091409,077756,078602,-01720,057691,074786
0000000040,0000039000,090800,080491,076476,003181,046713,080864
0000000041,0000040000,089364,083349,075054,010881,036073,083805
0000000042,0000041000,087213,086084,074469,020631,026796,083331
0000000043,0000042000,084579,088407,074780,031482,019787,079489
0000000044,0000043000,081734,090075,075957,042352,015752,072653
0000000045,0000044000,078927,090949,077890,052192,015081,063485
0000000046,0000045000,076436,090944,080387,060047,017824,052886
0000000047,0000046000,074531,090043,083194,065133,023720,041905
0000000048,0000047000,073378,088342,086046,066948,032203,031608
0000000049,0000048000,073084,086013,088669,065330,042437,022992
0000000050,0000049000,073694,083278,090794,060436,053407,016914
0000000051,0000050000,075143,080407,092217,052735,064050,013973
0000000052,0000051000,077284,077682,092802,042979,073332,014446
0000000053,0000052000,079913,075364,092490,032136,080334,018288
0000000054,0000053000,082770,073683,091313,021266,084369,025124
0000000055,0000054000,085573,072812,089381,011420,085047,034291
0000000056,0000055000,088055,072828,086884,003569,082300,044890
0000000057,0000056000,089972,073718,084077,-01514,076401,055871
0000000058,0000057000,091125,075417,081225,-03335,067925,066168
0000000059,0000058000,091408,077757,078602,-01715,057690,074783
0000000060,0000059000,090805,080486,076476,003183,046714,080861
0000000061,0000060000,089363,083350,075054,010878,036077,083803
0000000062,0000061000,087210,086087,074469,020633,026796,083329
0000000063,0000062000,084583,088403,074780,031482,019788,079488
0000000064,0000063000,081736,090074,075957,042348,015757,072653
0000000065,0000064000,078924,090954,077890,052189,015083,063486
0000000066,0000065000,076438,090943,080386,060047,017823,052887
0000000067,0000066000,074533,090040,083193,065130,023721,041908
0000000068,0000067000,073375,088345,086046,066945,032203,031610
0000000069,0000068000,073083,086015,088668,065331,042433,022995
0000000070,0000069000,073696,083276,090795,060436,053404,016917
0000000071,0000070000,075141,080408,092217,052734,064048,013976
0000000072,0000071000,077281,077684,092802,042982,073327,014448
0000000073,0000072000,079915,075362,092490,032139,080329,018289
0000000074,0000073000,082770,073683,091314,021269,084366,025124
0000000075,0000074000,085571,072814,089382,011426,085043,034290
0000000076,0000075000,088057,072825,086884,003575,082296,044887
0000000077,0000076000,089972,073717,084078,-01510,076401,055867
0000000078,0000077000,091124,075418,081225,-03331,067925,066163
0000000079,0000078000,091410,077755,078602,-01711,057690,074779
0000000080,0000079000,090808,080484,076476,003184,046718,080856
0000000081,0000080000,089362,083352,075053,010879,036082,083798
0000000082,0000081000,087212,086087,074468,020633,026800,083326
0000000083,0000082000,084586,088401,074779,031479,019794,079486
0000000084,0000083000,081735,090076,075956,042344,015762,072652
0000000085,0000084000,078923,090955,077888,052186,015085,063487
0000000086,0000085000,076441,090941,080385,060042,017825,052890
0000000087,0000086000,074532,090042,083193,065124,023723,041912
0000000088,0000087000,073372,088349,086045,066942,032201,031616
0000000089,0000088000,073085,086014,088668,065329,042429,023001
0000000090,0000089000,073696,083276,090795,060433,053402,016923
0000000091,0000090000,075137,080412,092218,052735,064041,013981
0000000092,0000091000,077281,077683,092803,042986,073319,014452
0000000093,0000092000,079916,075360,092491,032143,080323,018292
0000000094,0000093000,082766,073685,091315,021274,084360,025124
0000000095,0000094000,085570,072814,089383,011434,085036,034288
0000000096,0000095000,088059,072822,086886,003582,082293,044884
0000000097,0000096000,089972,073717,084079,-01504,076401,055861
0000000098,0000097000,091123,075419,081226,-03323,067925,066156
0000000099,0000098000,091413,077752,078602,-01706,057693,074771
0000000100,0000099000,090809,080482,076476,003185,046724,080849
0000000101,0000100000,089361,083353,075053,010879,036088,083791
0000000102,0000101000,087214,086085,074467,020632,026806,083320
0000000103,0000102000,084588,088400,074778,031473,019803,079482
0000000104,0000103000,081734,090078,075955,042337,015770,072651
0000000105,0000104000,078924,090956,077887,052180,015089,063489
0000000106,0000105000,076442,090941,080384,060033,017830,052895
0000000107,0000106000,074530,090045,083192,065115,023725,041918
0000000108,0000107000,073371,088351,086044,066936,032198,031624
0000000109,0000108000,073085,086013,088668,065324,042425,023010
0000000110,0000109000,073694,083278,090795,060430,053396,016932
0000000111,0000110000,075134,080414,092218,052737,064032,013989
0000000112,0000111000,077281,077682,092804,042990,073309,014459
0000000113,0000112000,079914,075359,092493,032148,080314,018296
0000000114,0000113000,082763,073686,091317,021283,084351,025125
0000000115,0000114000,085571,072811,089384,011446,085028,034285
0000000116,0000115000,088060,072819,086887,003592,082288,044878
0000000117,0000116000,089970,073716,084080,-01493,076399,055853
0000000118,0000117000,091124,075416,081227,-03313,067925,066146
0000000119,0000118000,091416,077748,078603,-01700,057698,074760
0000000120,0000119000,090809,080482,076476,003188,046733,080837
0000000121,0000120000,089362,083353,075052,010881,036097,083781
0000000122,0000121000,087218,086082,074466,020628,026818,083313
0000000123,0000122000,084589,088400,074777,031466,019815,079478
0000000124,0000123000,081734,090080,075952,042328,015780,072650
0000000125,0000124000,078927,090956,077884,052168,015098,063492
0000000126,0000125000,076443,090942,080382,060020,017837,052901
0000000127,0000126000,074528,090049,083190,065103,023727,041928
0000000128,0000127000,073371,088353,086043,066927,032196,031636
0000000129,0000128000,073085,086014,088667,065316,042420,023023
0000000130,0000129000,073690,083281,090796,060426,053387,016945
0000000131,0000130000,075131,080416,092219,052738,064019,014001
0000000132,0000131000,077280,077681,092806,042995,073295,014468
0000000133,0000132000,079911,075360,092496,032156,080301,018301
0000000134,0000133000,082761,073686,091320,021296,084337,025126
0000000135,0000134000,085571,072808,089387,011460,085017,034282
0000000136,0000135000,088059,072817,086890,003606,082282,044870
0000000137,0000136000,089969,073715,084082,-01478,076395,055841
0000000138,0000137000,091127,075412,081228,-03300,067926,066132
0000000139,0000138000,091419,077745,078604,-01691,057705,074744
0000000140,0000139000,090811,080481,076475,003193,046743,080822
0000000141,0000140000,089366,083351,075050,010881,036110,083767
0000000142,0000141000,087222,086080,074464,020623,026834,083302
0000000143,0000142000,084591,088402,074774,031456,019832,079471
0000000144,0000143000,081736,090082,075949,042315,015794,072649
0000000145,0000144000,078929,090956,077881,052152,015110,063495
0000000146,0000145000,076442,090945,080379,060003,017845,052910
0000000147,0000146000,074526,090053,083187,065088,023730,041941
0000000148,0000147000,073371,088355,086041,066913,032193,031652
0000000149,0000148000,073082,086018,088667,065305,042413,023041
0000000150,0000149000,073685,083285,090796,060422,053374,016963
0000000151,0000150000,075129,080417,092221,052739,064002,014016
0000000152,0000151000,077277,077682,092808,043000,073277,014480
0000000153,0000152000,079907,075362,092498,032168,080282,018308
0000000154,0000153000,082759,073685,091323,021313,084318,025127
0000000155,0000154000,085571,072805,089391,011478,085003,034278
0000000156,0000155000,088058,072815,086893,003626,082273,044860
0000000157,0000156000,089970,073712,084084,-01459,076391,055826
0000000158,0000157000,091130,075407,081230,-03284,067929,066113
0000000159,0000158000,091421,077742,078604,-01680,057714,074724
0000000160,0000159000,090813,080479,076475,003200,046757,080802
0000000161,0000160000,089371,083347,075049,010881,036128,083749
0000000162,0000161000,087226,086079,074461,020615,026855,083288
0000000163,0000162000,084593,088403,074770,031443,019853,079462
0000000164,0000163000,081739,090082,075945,042298,015813,072647
0000000165,0000164000,078931,090958,077878,052131,015127,063500
0000000166,0000165000,076442,090950,080376,059980,017856,052921
0000000167,0000166000,074526,090057,083184,065067,023733,041958
0000000168,0000167000,073369,088358,086039,066895,032191,031673
0000000169,0000168000,073078,086022,088666,065291,042404,023064
0000000170,0000169000,073681,083289,090796,060415,053357,016985
0000000171,0000170000,075126,080418,092223,052740,063981,014037
0000000172,0000171000,077273,077683,092811,043008,073254,014496
0000000173,0000172000,079902,075362,092502,032183,080257,018317
0000000174,0000173000,082757,073682,091327,021333,084296,025129
0000000175,0000174000,085569,072802,089395,011501,084985,034272
0000000176,0000175000,088056,072813,086897,003651,082261,044847
0000000177,0000176000,089972,073707,084088,-01434,076385,055807
0000000178,0000177000,091133,075402,081232,-03264,067932,066090
0000000179,0000178000,091423,077738,078605,-01665,057725,074698
0000000180,0000179000,090818,080475,076474,003208,046774,080776
0000000181,0000180000,089377,083343,075047,010880,036152,083727
0000000182,0000181000,087230,086078,074458,020606,026882,083270
0000000183,0000182000,084597,088403,074766,031427,019879,079452
0000000184,0000183000,081744,090083,075940,042276,015838,072645
0000000185,0000184000,078933,090961,077873,052104,015147,063507
0000000186,0000185000,076441,090955,080371,059953,017869,052936
0000000187,0000186000,074525,090061,083180,065041,023738,041979
0000000188,0000187000,073367,088363,086037,066872,032187,031699
0000000189,0000188000,073073,086028,088665,065275,042391,023092
0000000190,0000189000,073677,083293,090797,060408,053337,017014
0000000191,0000190000,075121,080421,092225,052740,063956,014062
0000000192,0000191000,077266,077686,092815,043018,073225,014515
0000000193,0000192000,079897,075362,092507,032202,080227,018329
0000000194,0000193000,082754,073680,091333,021358,084269,025132
0000000195,0000194000,085566,072799,089401,011531,084963,034265
0000000196,0000195000,088056,072808,086903,003683,082245,044831
0000000197,0000196000,089974,073701,084092,-01405,076379,055783
0000000198,0000197000,091135,075396,081235,-03239,067937,066060
0000000199,0000198000,091427,077733,078606,-01647,057739,074666
0000000200,0000199000,090824,080470,076473,003218,046796,080745
0000000201,0000200000,089383,083339,075044,010879,036181,083699
0000000202,0000201000,087235,086077,074454,020595,026915,083249
0000000203,0000202000,084603,088403,074760,031407,019912,079439
0000000204,0000203000,081748,090084,075934,042248,015868,072642
0000000205,0000204000,078935,090966,077866,052071,015172,063515
0000000206,0000205000,076442,090960,080365,059919,017885,052954
0000000207,0000206000,074525,090066,083176,065008,023745,042006
0000000208,0000207000,073363,088370,086034,066844,032183,031732
0000000209,0000208000,073068,086035,088664,065256,042376,023127
0000000210,0000209000,073671,083298,090798,060398,053312,017048
0000000211,0000210000,075114,080425,092228,052741,063925,014092
0000000212,0000211000,077259,077688,092819,043030,073189,014538
0000000213,0000212000,079892,075362,092513,032225,080190,018343
0000000214,0000213000,082750,073677,091340,021388,084236,025135
0000000215,0000214000,085562,072796,089408,011566,084936,034256
0000000216,0000215000,088055,072802,086909,003721,082227,044811
0000000217,0000216000,089976,073693,084097,-01369,076373,055754
0000000218,0000217000,091138,075389,081239,-03209,067942,066025
0000000219,0000218000,091432,077727,078608,-01625,057755,074627
0000000220,0000219000,090831,080463,076472,003229,046823,080707
0000000221,0000220000,089390,083335,075041,010878,036216,083665
0000000222,0000221000,087242,086075,074449,020582,026953,083223
0000000223,0000222000,084610,088403,074754,031383,019951,079424
0000000224,0000223000,081753,090087,075927,042214,015905,072639
0000000225,0000224000,078937,090971,077859,052032,015202,063524
0000000226,0000225000,076443,090966,080358,059878,017904,052975
0000000227,0000226000,074523,090073,083170,064969,023752,042037
0000000228,0000227000,073359,088378,086030,066811,032177,031770
0000000229,0000228000,073062,086043,088662,065232,042357,023169
0000000230,0000229000,073664,083304,090799,060386,053283,017090
0000000231,0000230000,075106,080430,092231,052742,063887,014129
0000000232,0000231000,077251,077691,092825,043045,073146,014566
0000000233,0000232000,079885,075361,092520,032251,080147,018359
0000000234,0000233000,082744,073675,091348,021424,084196,025138
0000000235,0000234000,085559,072791,089416,011609,084904,034245
0000000236,0000235000,088055,072795,086917,003765,082206,044787
0000000237,0000236000,089978,073685,084104,-01327,076365,055720
0000000238,0000237000,091142,075381,081243,-03173,067948,065983
0000000239,0000238000,091439,077718,078609,-01599,057775,074582
0000000240,0000239000,090840,080456,076471,003241,046855,080662
0000000241,0000240000,089398,083331,075038,010876,036257,083626
0000000242,0000241000,087251,086073,074443,020567,026999,083193
0000000243,0000242000,084618,088402,074746,031354,019998,079406
0000000244,0000243000,081759,090090,075918,042174,015948,072635
0000000245,0000244000,078941,090976,077849,051986,015236,063536
0000000246,0000245000,076444,090973,080349,059830,017927,053001
0000000247,0000246000,074521,090082,083163,064923,023761,042074
0000000248,0000247000,073353,088388,086025,066772,032171,031816
0000000249,0000248000,073055,086051,088660,065205,042335,023219
0000000250,0000249000,073656,083311,090800,060372,053249,017138
0000000251,0000250000,075096,080436,092235,052744,063843,014171
0000000252,0000251000,077242,077694,092831,043063,073096,014599
0000000253,0000252000,079877,075361,092529,032283,080097,018379
0000000254,0000253000,082737,073672,091358,021467,084150,025141
0000000255,0000254000,085555,072786,089426,011659,084867,034233
0000000256,0000255000,088054,072787,086926,003818,082181,044760
0000000257,0000256000,089980,073676,084111,-01278,076356,055680
0000000258,0000257000,091147,075372,081248,-03131,067955,065933
0000000259,0000258000,091447,077708,078612,-01569,057798,074528
0000000260,0000259000,090849,080447,076470,003256,046892,080610
0000000261,0000260000,089408,083325,075033,010874,036304,083580
0000000262,0000261000,087262,086069,074436,020548,027053,083158
0000000263,0000262000,084627,088402,074737,031320,020053,079386
0000000264,0000263000,081766,090093,075908,042129,015998,072632
0000000265,0000264000,078946,090983,077839,051933,015276,063549
0000000266,0000265000,076446,090981,080340,059774,017954,053031
0000000267,0000266000,074519,090093,083155,064870,023771,042118
0000000268,0000267000,073348,088399,086019,066728,032162,031869
0000000269,0000268000,073048,086061,088658,065173,042310,023276
0000000270,0000269000,073645,083320,090801,060356,053209,017194
0000000271,0000270000,075084,080443,092240,052746,063791,014220
0000000272,0000271000,077231,077697,092838,043083,073038,014636
0000000273,0000272000,079868,075361,092539,032319,080039,018401
0000000274,0000273000,082729,073669,091369,021516,084097,025145
0000000275,0000274000,085550,072779,089438,011717,084823,034218
0000000276,0000275000,088053,072777,086936,003878,082153,044728
0000000277,0000276000,089982,073665,084120,-01221,076346,055633
0000000278,0000277000,091153,075360,081254,-03083,067964,065877
0000000279,0000278000,091456,077697,078614,-01535,057825,074467
0000000280,0000279000,090860,080438,076469,003273,046936,080550
0000000281,0000280000,089420,083318,075029,010872,036359,083527
0000000282,0000281000,087274,086065,074428,020526,027115,083118
0000000283,0000282000,084638,088402,074727,031281,020115,079362
0000000284,0000283000,081774,090097,075895,042076,016055,072628
0000000285,0000284000,078951,090989,077826,051871,015321,063565
0000000286,0000285000,076447,090991,080328,059709,017984,053065
0000000287,0000286000,074516,090105,083146,064809,023782,042167
0000000288,0000287000,073342,088412,086013,066677,032152,031929
0000000289,0000288000,073038,086073,088655,065136,042281,023342
0000000290,0000289000,073633,083331,090802,060338,053162,017258
0000000291,0000290000,075071,080451,092245,052749,063732,014277
0000000292,0000291000,077219,077701,092847,043106,072972,014679
0000000293,0000292000,079856,075361,092550,032360,079972,018425
0000000294,0000293000,082720,073665,091382,021573,084036,025149
0000000295,0000294000,085545,072771,089451,011783,084775,034201
0000000296,0000295000,088051,072766,086949,003946,082121,044691
0000000297,0000296000,089984,073652,084130,-01156,076334,055580
0000000298,0000297000,091160,075346,081261,-03028,067974,065812
0000000299,0000298000,091466,077683,078617,-01496,057857,074397
0000000300,0000299000,090872,080427,076468,003291,046985,080482
0000000301,0000300000,089434,083310,075023,010869,036422,083467
