DIgSILENT PowerFactory,21000900,2000
6,06A,00D
1,TTPP_200000_100:Secondary Voltage A,,,V,0.10000000,-8142.517578,0.000000,61654,99998,1,1,P
2,TTPP_200000_100:Secondary Voltage B,,,V,0.10000000,-7654.014648,0.000000,56121,99998,1,1,P
3,TTPP_200000_100:Secondary Voltage C,,,V,0.10000000,-7955.111328,0.000000,59122,99998,1,1,P
4,TTCC_300_1:Secondary Current A,,,A,0.00010000000,-4.074005,0.000000,-593,99998,1,1,P
5,TTCC_300_1:Secondary Current B,,,A,0.00010000000,-5.001044,0.000000,518,99998,1,1,P
6,TTCC_300_1:Secondary Current C,,,A,0.00010000000,-4.879495,0.000000,-3099,99998,1,1,P
50
1
1000.000000,1101
30/06/2023,06:08:30.000000
30/06/2023,06:08:30.000000
ASCII
1.000000
0000000001,0000000000,088531,078015,070970,019811,036020,083714
0000000002,0000001000,086397,080732,070385,029564,026742,083240
0000000003,0000002000,083757,083063,070697,040402,019746,079398
0000000004,0000003000,080900,084742,071873,051283,015701,072562
0000000005,0000004000,078107,085604,073807,061123,015028,063394
0000000006,0000005000,075619,085595,076303,068975,017778,052793
0000000007,0000006000,073698,084709,079110,074056,023676,041813
0000000008,0000007000,072554,083001,081962,075883,032148,031515
0000000009,0000008000,072268,080663,084584,074256,042392,022898
0000000010,0000009000,072866,077940,086710,069361,053364,016821
0000000011,0000010000,074313,075070,088132,061664,064001,013881
0000000012,0000011000,076468,072332,088717,051907,073284,014354
0000000013,0000012000,079088,070024,088406,041057,080292,018196
0000000014,0000013000,081941,068347,087228,030192,084321,025033
0000000015,0000014000,084753,067467,085297,020348,084996,034201
0000000016,0000015000,087234,067483,082799,012490,082256,044800
0000000017,0000016000,089141,068384,079992,007412,076352,055781
0000000018,0000017000,090303,070073,077140,005592,067873,066080
0000000019,0000018000,090587,072411,074518,007210,057640,074695
0000000020,0000019000,089976,075150,072392,012108,046665,080773
0000000021,0000020000,088538,078009,070969,019811,036021,083714
0000000022,0000021000,086391,080740,070385,029560,026746,083240
0000000023,0000022000,083754,083065,070697,040411,019737,079397
0000000024,0000023000,080908,084734,071873,051282,015702,072561
0000000025,0000024000,078105,085606,073806,061122,015030,063394
0000000026,0000025000,075612,085602,076303,068976,017776,052794
0000000027,0000026000,073704,084703,079110,074064,023669,041812
0000000028,0000027000,072557,082998,081962,075879,032153,031515
0000000029,0000028000,072261,080670,084585,074258,042389,022898
0000000030,0000029000,072866,077940,086710,069366,053359,016821
0000000031,0000030000,074320,075064,088132,061666,063999,013880
0000000032,0000031000,076463,072337,088717,051905,073286,014353
0000000033,0000032000,079085,070026,088406,041063,080287,018196
0000000034,0000033000,081945,068342,087229,030196,084318,025031
0000000035,0000034000,084754,067466,085297,020348,084999,034200
0000000036,0000035000,087229,067488,082799,012493,082254,044799
0000000037,0000036000,089144,068380,079992,007416,076349,055780
0000000038,0000037000,090305,070071,077140,005593,067874,066078
0000000039,0000038000,090585,072414,074518,007210,057641,074694
0000000040,0000039000,089976,075149,072392,012111,046663,080771
0000000041,0000040000,088540,078007,070970,019811,036023,083713
0000000042,0000041000,086389,080742,070385,029561,026746,083239
0000000043,0000042000,083755,083065,070696,040412,019737,079397
0000000044,0000043000,080910,084733,071873,051282,015702,072561
0000000045,0000044000,078103,085607,073806,061121,015030,063393
0000000046,0000045000,075612,085602,076302,068977,017774,052794
0000000047,0000046000,073706,084701,079110,074063,023669,041813
0000000048,0000047000,072554,083000,081962,075878,032152,031516
0000000049,0000048000,072260,080672,084584,074260,042386,022899
0000000050,0000049000,072869,077937,086710,069367,053357,016822
0000000051,0000050000,074319,075065,088133,061665,063999,013881
0000000052,0000051000,076459,072340,088718,051909,073282,014354
0000000053,0000052000,079089,070022,088405,041066,080284,018196
0000000054,0000053000,081946,068341,087229,030196,084318,025031
0000000055,0000054000,084749,067470,085297,020351,084997,034198
0000000056,0000055000,087231,067486,082800,012499,082249,044797
0000000057,0000056000,089147,068376,079993,007417,076351,055778
0000000058,0000057000,090301,070075,077141,005595,067875,066075
0000000059,0000058000,090584,072415,074518,007215,057640,074691
0000000060,0000059000,089981,075144,072391,012113,046664,080769
0000000061,0000060000,088539,078008,070969,019808,036027,083710
0000000062,0000061000,086386,080745,070385,029563,026746,083237
0000000063,0000062000,083759,083061,070696,040412,019738,079395
0000000064,0000063000,080912,084732,071873,051278,015706,072561
0000000065,0000064000,078099,085612,073805,061119,015032,063394
0000000066,0000065000,075614,085601,076302,068977,017772,052795
0000000067,0000066000,073709,084698,079109,074060,023671,041815
0000000068,0000067000,072551,083004,081962,075875,032152,031518
0000000069,0000068000,072259,080673,084584,074261,042382,022903
0000000070,0000069000,072872,077934,086710,069367,053354,016825
0000000071,0000070000,074317,075067,088133,061665,063997,013883
0000000072,0000071000,076457,072342,088718,051913,073277,014356
0000000073,0000072000,079090,070020,088406,041070,080279,018197
0000000074,0000073000,081945,068341,087230,030199,084315,025031
0000000075,0000074000,084747,067472,085298,020356,084993,034197
0000000076,0000075000,087232,067483,082800,012505,082246,044795
0000000077,0000076000,089148,068375,079993,007420,076351,055774
0000000078,0000077000,090299,070076,077141,005599,067875,066071
0000000079,0000078000,090585,072413,074518,007219,057640,074686
0000000080,0000079000,089983,075142,072392,012114,046668,080764
0000000081,0000080000,088537,078010,070969,019809,036032,083705
0000000082,0000081000,086388,080745,070384,029563,026750,083233
0000000083,0000082000,083762,083059,070695,040409,019743,079393
0000000084,0000083000,080911,084734,071872,051273,015712,072560
0000000085,0000084000,078099,085614,073804,061116,015034,063395
0000000086,0000085000,075616,085599,076301,068972,017775,052798
0000000087,0000086000,073708,084700,079109,074054,023672,041820
0000000088,0000087000,072548,083007,081961,075872,032150,031523
0000000089,0000088000,072260,080672,084584,074259,042379,022908
0000000090,0000089000,072872,077934,086711,069364,053351,016831
0000000091,0000090000,074313,075070,088134,061666,063991,013889
0000000092,0000091000,076457,072341,088718,051917,073269,014360
0000000093,0000092000,079091,070018,088407,041073,080273,018199
0000000094,0000093000,081942,068343,087231,030205,084310,025031
0000000095,0000094000,084746,067472,085299,020365,084986,034195
0000000096,0000095000,087235,067480,082801,012512,082243,044791
0000000097,0000096000,089147,068375,079995,007426,076350,055769
0000000098,0000097000,090298,070077,077142,005607,067875,066063
0000000099,0000098000,090589,072410,074518,007224,057643,074678
0000000100,0000099000,089985,075140,072392,012115,046674,080756
0000000101,0000100000,088537,078011,070968,019809,036038,083698
0000000102,0000101000,086390,080743,070383,029562,026756,083228
0000000103,0000102000,083764,083058,070694,040403,019752,079390
0000000104,0000103000,080910,084736,071870,051267,015719,072559
0000000105,0000104000,078100,085614,073803,061109,015039,063397
0000000106,0000105000,075618,085599,076300,068963,017779,052803
0000000107,0000106000,073706,084703,079107,074045,023675,041826
0000000108,0000107000,072547,083009,081960,075866,032148,031532
0000000109,0000108000,072261,080672,084584,074254,042374,022918
0000000110,0000109000,072869,077936,086711,069360,053345,016840
0000000111,0000110000,074310,075073,088134,061667,063981,013897
0000000112,0000111000,076457,072340,088720,051921,073258,014366
0000000113,0000112000,079090,070018,088409,041079,080264,018203
0000000114,0000113000,081939,068344,087233,030214,084300,025032
0000000115,0000114000,084746,067470,085300,020376,084977,034193
0000000116,0000115000,087236,067477,082803,012522,082238,044785
0000000117,0000116000,089146,068375,079996,007437,076348,055760
0000000118,0000117000,090300,070074,077143,005617,067875,066053
0000000119,0000118000,090592,072406,074519,007230,057648,074667
0000000120,0000119000,089985,075140,072391,012118,046683,080745
0000000121,0000120000,088538,078011,070967,019810,036047,083688
0000000122,0000121000,086394,080740,070381,029558,026768,083220
0000000123,0000122000,083765,083059,070692,040395,019765,079385
0000000124,0000123000,080910,084738,071868,051258,015730,072558
0000000125,0000124000,078102,085614,073800,061098,015047,063399
0000000126,0000125000,075619,085600,076298,068950,017786,052809
0000000127,0000126000,073704,084707,079106,074033,023677,041836
0000000128,0000127000,072547,083011,081959,075857,032145,031544
0000000129,0000128000,072260,080673,084583,074246,042369,022931
0000000130,0000129000,072865,077940,086711,069356,053336,016853
0000000131,0000130000,074307,075074,088135,061669,063968,013908
0000000132,0000131000,076456,072339,088721,051925,073245,014375
0000000133,0000132000,079087,070019,088411,041087,080250,018208
0000000134,0000133000,081936,068344,087235,030227,084286,025033
0000000135,0000134000,084747,067466,085303,020390,084966,034189
0000000136,0000135000,087235,067475,082806,012537,082232,044777
0000000137,0000136000,089145,068373,079998,007452,076345,055749
0000000138,0000137000,090302,070070,077144,005630,067876,066039
0000000139,0000138000,090594,072403,074519,007239,057655,074652
0000000140,0000139000,089986,075139,072391,012123,046693,080729
0000000141,0000140000,088542,078009,070966,019811,036060,083675
0000000142,0000141000,086398,080738,070380,029552,026784,083209
0000000143,0000142000,083767,083060,070690,040385,019782,079379
0000000144,0000143000,080912,084740,071865,051245,015744,072556
0000000145,0000144000,078105,085614,073797,061082,015060,063403
0000000146,0000145000,075618,085603,076295,068932,017795,052818
0000000147,0000146000,073702,084711,079103,074018,023679,041849
0000000148,0000147000,072546,083013,081957,075843,032143,031560
0000000149,0000148000,072258,080676,084583,074235,042362,022948
0000000150,0000149000,072861,077944,086712,069352,053323,016870
0000000151,0000150000,074305,075075,088136,061670,063952,013924
0000000152,0000151000,076453,072340,088724,051931,073227,014387
0000000153,0000152000,079082,070020,088414,041098,080231,018215
0000000154,0000153000,081935,068343,087239,030243,084268,025035
0000000155,0000154000,084746,067463,085307,020408,084953,034185
0000000156,0000155000,087234,067473,082809,012556,082223,044767
0000000157,0000156000,089146,068370,080000,007471,076341,055733
0000000158,0000157000,090305,070065,077146,005646,067878,066021
0000000159,0000158000,090596,072400,074520,007250,057664,074631
0000000160,0000159000,089989,075137,072391,012130,046707,080709
0000000161,0000160000,088547,078005,070965,019811,036078,083657
0000000162,0000161000,086402,080737,070377,029545,026805,083196
0000000163,0000162000,083769,083061,070686,040373,019803,079370
0000000164,0000163000,080915,084740,071861,051228,015763,072555
0000000165,0000164000,078107,085616,073793,061060,015076,063408
0000000166,0000165000,075617,085608,076291,068910,017806,052829
0000000167,0000166000,073702,084715,079100,073997,023683,041866
0000000168,0000167000,072545,083016,081955,075825,032140,031581
0000000169,0000168000,072254,080681,084582,074222,042353,022971
0000000170,0000169000,072857,077947,086712,069346,053307,016893
0000000171,0000170000,074302,075077,088138,061670,063931,013944
0000000172,0000171000,076448,072341,088727,051938,073204,014403
0000000173,0000172000,079078,070021,088418,041114,080207,018225
0000000174,0000173000,081933,068341,087243,030264,084246,025037
0000000175,0000174000,084745,067460,085311,020432,084935,034179
0000000176,0000175000,087232,067471,082813,012581,082210,044754
0000000177,0000176000,089147,068365,080004,007496,076335,055714
0000000178,0000177000,090308,070060,077148,005666,067882,065997
0000000179,0000178000,090599,072396,074521,007265,057675,074605
0000000180,0000179000,089994,075133,072390,012138,046724,080683
0000000181,0000180000,088552,078001,070963,019810,036101,083634
0000000182,0000181000,086406,080736,070374,029536,026832,083178
0000000183,0000182000,083773,083062,070682,040357,019829,079360
0000000184,0000183000,080919,084741,071856,051205,015787,072552
0000000185,0000184000,078109,085619,073788,061033,015097,063415
0000000186,0000185000,075617,085613,076287,068883,017819,052844
0000000187,0000186000,073701,084719,079096,073971,023688,041887
0000000188,0000187000,072543,083021,081953,075802,032137,031607
0000000189,0000188000,072249,080687,084581,074205,042340,023000
0000000190,0000189000,072852,077951,086713,069338,053286,016921
0000000191,0000190000,074297,075079,088141,061671,063905,013969
0000000192,0000191000,076442,072344,088731,051948,073175,014422
0000000193,0000192000,079073,070021,088423,041132,080177,018236
0000000194,0000193000,081930,068338,087249,030289,084218,025039
0000000195,0000194000,084742,067457,085317,020461,084913,034172
0000000196,0000195000,087231,067466,082819,012613,082195,044738
0000000197,0000196000,089150,068359,080008,007526,076329,055690
0000000198,0000197000,090311,070054,077151,005691,067887,065968
0000000199,0000198000,090603,072392,074522,007283,057689,074573
0000000200,0000199000,090000,075128,072389,012148,046746,080652
0000000201,0000200000,088559,077998,070960,019809,036131,083606
0000000202,0000201000,086411,080735,070370,029525,026865,083156
0000000203,0000202000,083779,083061,070676,040337,019862,079347
0000000204,0000203000,080924,084742,071850,051177,015818,072550
0000000205,0000204000,078111,085624,073782,061001,015122,063422
0000000206,0000205000,075618,085618,076281,068849,017835,052861
0000000207,0000206000,073701,084725,079091,073938,023694,041913
0000000208,0000207000,072539,083028,081949,075774,032132,031640
0000000209,0000208000,072243,080693,084579,074186,042325,023035
0000000210,0000209000,072847,077956,086713,069328,053261,016956
0000000211,0000210000,074290,075083,088144,061671,063874,014000
0000000212,0000211000,076435,072347,088735,051960,073139,014446
0000000213,0000212000,079068,070020,088429,041155,080140,018250
0000000214,0000213000,081925,068335,087256,030319,084185,025042
0000000215,0000214000,084738,067454,085324,020497,084886,034163
0000000216,0000215000,087231,067461,082825,012651,082177,044718
0000000217,0000216000,089152,068351,080013,007561,076323,055662
0000000218,0000217000,090314,070048,077155,005721,067892,065932
0000000219,0000218000,090608,072385,074524,007305,057705,074535
0000000220,0000219000,090007,075121,072388,012158,046773,080614
0000000221,0000220000,088566,077993,070957,019807,036166,083573
0000000222,0000221000,086418,080733,070365,029512,026903,083131
0000000223,0000222000,083786,083061,070670,040313,019901,079332
0000000224,0000223000,080929,084745,071843,051144,015855,072547
0000000225,0000224000,078113,085629,073774,060962,015151,063432
0000000226,0000225000,075619,085624,076274,068808,017854,052883
0000000227,0000226000,073699,084732,079086,073899,023702,041945
0000000228,0000227000,072534,083036,081946,075741,032127,031678
0000000229,0000228000,072238,080701,084578,074162,042306,023077
0000000230,0000229000,072840,077962,086714,069316,053232,016997
0000000231,0000230000,074281,075088,088147,061673,063836,014036
0000000232,0000231000,076427,072349,088741,051975,073096,014474
0000000233,0000232000,079061,070019,088436,041182,080097,018267
0000000234,0000233000,081920,068333,087264,030355,084146,025045
0000000235,0000234000,084734,067450,085332,020540,084854,034152
0000000236,0000235000,087230,067453,082833,012696,082155,044695
0000000237,0000236000,089154,068343,080020,007603,076315,055627
0000000238,0000237000,090318,070039,077159,005757,067898,065890
0000000239,0000238000,090615,072376,074525,007331,057725,074489
0000000240,0000239000,090016,075114,072387,012171,046805,080569
0000000241,0000240000,088574,077989,070954,019806,036207,083533
0000000242,0000241000,086427,080731,070359,029496,026949,083100
0000000243,0000242000,083794,083061,070662,040284,019948,079314
0000000244,0000243000,080935,084748,071834,051104,015898,072543
0000000245,0000244000,078117,085635,073765,060916,015186,063444
0000000246,0000245000,075620,085631,076265,068760,017877,052909
0000000247,0000246000,073697,084741,079079,073853,023711,041982
0000000248,0000247000,072529,083046,081941,075702,032120,031724
0000000249,0000248000,072231,080709,084576,074135,042284,023127
0000000250,0000249000,072831,077969,086715,069302,053198,017046
0000000251,0000250000,074271,075094,088151,061674,063792,014079
0000000252,0000251000,076417,072352,088747,051993,073046,014506
0000000253,0000252000,079053,070019,088445,041213,080046,018286
0000000254,0000253000,081913,068330,087274,030397,084100,025049
0000000255,0000254000,084730,067444,085342,020590,084816,034140
0000000256,0000255000,087230,067445,082842,012748,082131,044667
0000000257,0000256000,089155,068334,080027,007652,076306,055587
0000000258,0000257000,090323,070030,077164,005799,067905,065841
0000000259,0000258000,090623,072366,074528,007361,057748,074436
0000000260,0000259000,090025,075105,072386,012186,046842,080517
0000000261,0000260000,088584,077983,070949,019804,036254,083487
0000000262,0000261000,086437,080727,070352,029478,027003,083065
0000000263,0000262000,083803,083060,070653,040250,020003,079293
0000000264,0000263000,080942,084752,071823,051058,015948,072539
0000000265,0000264000,078121,085641,073755,060863,015225,063457
0000000266,0000265000,075622,085640,076255,068703,017903,052938
0000000267,0000266000,073694,084751,079071,073800,023720,042026
0000000268,0000267000,072524,083057,081935,075658,032112,031777
0000000269,0000268000,072223,080719,084573,074103,042259,023184
0000000270,0000269000,072821,077978,086717,069286,053158,017102
0000000271,0000270000,074260,075101,088155,061677,063740,014128
0000000272,0000271000,076407,072356,088754,052013,072988,014544
0000000273,0000272000,079043,070019,088454,041249,079988,018308
0000000274,0000273000,081905,068327,087285,030447,084046,025052
0000000275,0000274000,084726,067437,085354,020648,084773,034125
0000000276,0000275000,087229,067435,082852,012808,082103,044635
0000000277,0000276000,089157,068323,080036,007709,076296,055540
0000000278,0000277000,090329,070018,077170,005847,067914,065784
0000000279,0000278000,090632,072355,074530,007395,057775,074374
0000000280,0000279000,090035,075096,072385,012202,046886,080457
0000000281,0000280000,088596,077976,070944,019802,036309,083435
0000000282,0000281000,086450,080723,070344,029456,027065,083025
0000000283,0000282000,083813,083060,070642,040211,020065,079270
0000000284,0000283000,080950,084756,071811,051006,016004,072535
0000000285,0000284000,078127,085648,073742,060801,015271,063473
0000000286,0000285000,075623,085650,076244,068639,017933,052973
0000000287,0000286000,073691,084764,079062,073739,023731,042075
0000000288,0000287000,072518,083070,081929,075607,032102,031837
0000000289,0000288000,072214,080731,084571,074066,042230,023250
0000000290,0000289000,072809,077989,086718,069268,053112,017166
0000000291,0000290000,074247,075109,088160,061680,063681,014184
0000000292,0000291000,076394,072359,088763,052037,072922,014587
0000000293,0000292000,079032,070019,088466,041291,079922,018333
0000000294,0000293000,081896,068323,087298,030503,083986,025057
0000000295,0000294000,084720,067429,085367,020713,084724,034108
0000000296,0000295000,087227,067425,082865,012876,082071,044598
0000000297,0000296000,089160,068310,080046,007774,076284,055487
0000000298,0000297000,090335,070004,077177,005902,067924,065719
0000000299,0000298000,090642,072342,074533,007434,057807,074304
0000000300,0000299000,090048,075085,072384,012221,046935,080389
0000000301,0000300000,088610,077968,070939,019799,036372,083375
