DIgSILENT PowerFactory,21000900,2000
6,06A,00D
1,TTPP_200000_100:Secondary Voltage A,,,V,0.010000000,-67.888390,0.000000,-86352,99998,1,1,P
2,TTPP_200000_100:Secondary Voltage B,,,V,0.010000000,-20.433538,0.000000,-93906,99998,1,1,P
3,TTPP_200000_100:Secondary Voltage C,,,V,0.10000000,-8993.041992,0.000000,79863,99998,1,1,P
4,TTCC_500_5:Secondary Current A,,,A,0.0010000000,-83.335686,0.000000,58107,99998,1,1,P
5,TTCC_500_5:Secondary Current B,,,A,0.0010000000,-84.797821,0.000000,69587,99998,1,1,P
6,TTCC_500_5:Secondary Current C,,,A,0.0010000000,-84.640297,0.000000,69262,99998,1,1,P
50
1
1000.000000,1101
30/06/2023,06:05:07.000000
30/06/2023,06:05:07.000000
ASCII
1.000000
0000000001,0000000000,061936,038419,080778,089254,089475,074045
0000000002,0000001000,036470,062747,080891,086238,092192,074344
0000000003,0000002000,007923,081332,081888,082940,094186,075648
0000000004,0000003000,-20572,091991,083671,079683,095258,077833
0000000005,0000004000,-46307,093728,086072,076781,095306,080687
0000000006,0000005000,-67065,086699,088849,074518,094330,083926
0000000007,0000006000,-80548,071430,091725,073121,092420,087233
0000000008,0000007000,-85352,049171,094431,072728,089758,090288
0000000009,0000008000,-81218,022334,096701,073368,086614,092792
0000000010,0000009000,-68547,-06340,098302,074985,083294,094495
0000000011,0000010000,-48374,-34312,099082,077422,080118,095233
0000000012,0000011000,-22750,-58803,098969,080436,077402,094936
0000000013,0000012000,005558,-77158,097973,083733,075410,093631
0000000014,0000013000,034022,-87786,096190,086993,074335,091446
0000000015,0000014000,060018,-89779,093789,089896,074285,088593
0000000016,0000015000,080674,-82655,091012,092155,075265,085353
0000000017,0000016000,094031,-67244,088135,093552,077176,082047
0000000018,0000017000,098987,-45139,085429,093948,079834,078992
0000000019,0000018000,094823,-18283,083160,093305,082981,076488
0000000020,0000019000,082009,010534,081559,091689,086300,074784
0000000021,0000020000,061976,038376,080779,089256,089472,074046
0000000022,0000021000,036451,062768,080891,086238,092193,074343
0000000023,0000022000,007960,081305,081888,082939,094187,075648
0000000024,0000023000,-20516,091952,083670,079683,095258,077833
0000000025,0000024000,-46359,093783,086072,076779,095308,080687
0000000026,0000025000,-67113,086754,088850,074517,094330,083926
0000000027,0000026000,-80527,071407,091726,073124,092417,087233
0000000028,0000027000,-85309,049134,094431,072727,089759,090288
0000000029,0000028000,-81214,022340,096701,073367,086615,092792
0000000030,0000029000,-68557,-06322,098302,074984,083294,094495
0000000031,0000030000,-48373,-34311,099082,077421,080120,095234
0000000032,0000031000,-22791,-58768,098970,080436,077402,094936
0000000033,0000032000,005551,-77151,097974,083734,075409,093631
0000000034,0000033000,034086,-87851,096190,086992,074335,091447
0000000035,0000034000,060021,-89778,093789,089894,074287,088593
0000000036,0000035000,080630,-82613,091012,092154,075266,085354
0000000037,0000036000,094037,-67252,088135,093552,077175,082047
0000000038,0000037000,098984,-45144,085430,093948,079834,078992
0000000039,0000038000,094816,-18280,083160,093305,082981,076488
0000000040,0000039000,082047,010501,081558,091689,086300,074785
0000000041,0000040000,061992,038360,080778,089254,089473,074046
0000000042,0000041000,036415,062805,080891,086237,092193,074344
0000000043,0000042000,007941,081322,081887,082940,094185,075648
0000000044,0000043000,-20489,091926,083670,079683,095258,077833
0000000045,0000044000,-46350,093773,086071,076779,095308,080687
0000000046,0000045000,-67118,086765,088849,074518,094330,083926
0000000047,0000046000,-80513,071397,091725,073123,092418,087233
0000000048,0000047000,-85327,049150,094431,072726,089760,090288
0000000049,0000048000,-81251,022374,096701,073367,086615,092791
0000000050,0000049000,-68536,-06347,098302,074985,083294,094495
0000000051,0000050000,-48350,-34335,099082,077420,080121,095234
0000000052,0000051000,-22817,-58745,098970,080435,077403,094936
0000000053,0000052000,005543,-77145,097974,083733,075409,093632
0000000054,0000053000,034088,-87860,096191,086991,074336,091447
0000000055,0000054000,059999,-89764,093790,089893,074287,088593
0000000056,0000055000,080635,-82622,091012,092154,075265,085354
0000000057,0000056000,094071,-67287,088136,093551,077176,082048
0000000058,0000057000,098979,-45140,085430,093946,079835,078993
0000000059,0000058000,094792,-18258,083160,093304,082981,076489
0000000060,0000059000,082064,010486,081559,091689,086299,074785
0000000061,0000060000,062008,038344,080778,089254,089473,074047
0000000062,0000061000,036410,062815,080891,086237,092192,074344
0000000063,0000062000,007962,081310,081886,082940,094185,075649
0000000064,0000063000,-20473,091917,083670,079683,095257,077833
0000000065,0000064000,-46377,093806,086071,076779,095308,080687
0000000066,0000065000,-67121,086775,088848,074519,094329,083926
0000000067,0000066000,-80486,071377,091724,073124,092418,087232
0000000068,0000067000,-85336,049162,094431,072726,089760,090287
0000000069,0000068000,-81267,022395,096701,073368,086616,092790
0000000070,0000069000,-68530,-06352,098302,074985,083295,094494
0000000071,0000070000,-48367,-34323,099083,077419,080122,095233
0000000072,0000071000,-22844,-58725,098971,080434,077404,094935
0000000073,0000072000,005555,-77163,097975,083732,075410,093631
0000000074,0000073000,034096,-87877,096191,086989,074337,091447
0000000075,0000074000,059973,-89749,093791,089891,074288,088594
0000000076,0000075000,080630,-82625,091013,092153,075266,085355
0000000077,0000076000,094085,-67312,088136,093549,077176,082049
0000000078,0000077000,098973,-45141,085431,093945,079835,078994
0000000079,0000078000,094798,-18266,083161,093304,082980,076491
0000000080,0000079000,082095,010457,081558,091688,086298,074787
0000000081,0000080000,062010,038345,080778,089253,089472,074048
0000000082,0000081000,036402,062830,080890,086237,092191,074345
0000000083,0000082000,007987,081295,081885,082941,094183,075649
0000000084,0000083000,-20456,091911,083668,079684,095256,077834
0000000085,0000084000,-46384,093827,086070,076781,095307,080686
0000000086,0000085000,-67112,086780,088847,074520,094329,083925
0000000087,0000086000,-80481,071381,091723,073125,092418,087231
0000000088,0000087000,-85361,049194,094430,072728,089761,090285
0000000089,0000088000,-81278,022411,096700,073369,086616,092789
0000000090,0000089000,-68524,-06359,098302,074985,083296,094492
0000000091,0000090000,-48388,-34308,099083,077419,080124,095231
0000000092,0000091000,-22871,-58707,098972,080434,077406,094934
0000000093,0000092000,005552,-77174,097976,083731,075412,093631
0000000094,0000093000,034083,-87882,096193,086988,074339,091447
0000000095,0000094000,059953,-89745,093793,089889,074290,088594
0000000096,0000095000,080641,-82651,091015,092151,075267,085356
0000000097,0000096000,094097,-67337,088138,093547,077177,082051
0000000098,0000097000,098964,-45142,085432,093943,079835,078996
0000000099,0000098000,094811,-18283,083161,093302,082979,076493
0000000100,0000099000,082125,010427,081558,091688,086297,074789
0000000101,0000100000,062021,038341,080777,089253,089470,074050
0000000102,0000101000,036418,062828,080889,086238,092188,074347
0000000103,0000102000,008019,081281,081884,082943,094181,075650
0000000104,0000103000,-20448,091922,083666,079686,095255,077834
0000000105,0000104000,-46388,093852,086068,076783,095305,080686
0000000106,0000105000,-67097,086785,088845,074523,094327,083923
0000000107,0000106000,-80479,071395,091722,073127,092418,087229
0000000108,0000107000,-85384,049229,094429,072729,089761,090283
0000000109,0000108000,-81291,022430,096700,073370,086617,092786
0000000110,0000109000,-68537,-06349,098302,074985,083299,094490
0000000111,0000110000,-48424,-34282,099084,077418,080127,095229
0000000112,0000111000,-22895,-58697,098973,080433,077409,094932
0000000113,0000112000,005545,-77188,097978,083729,075415,093630
0000000114,0000113000,034059,-87883,096196,086985,074342,091447
0000000115,0000114000,059932,-89749,093795,089887,074292,088595
0000000116,0000115000,080648,-82681,091017,092148,075268,085358
0000000117,0000116000,094102,-67364,088140,093544,077177,082053
0000000118,0000117000,098966,-45158,085433,093940,079835,078999
0000000119,0000118000,094839,-18316,083161,093301,082977,076496
0000000120,0000119000,082156,010398,081558,091686,086295,074792
0000000121,0000120000,062036,038337,080776,089253,089468,074053
0000000122,0000121000,036447,062819,080887,086240,092185,074349
0000000123,0000122000,008056,081269,081881,082945,094178,075652
0000000124,0000123000,-20435,091937,083664,079688,095252,077834
0000000125,0000124000,-46380,093875,086064,076787,095303,080685
0000000126,0000125000,-67083,086799,088842,074527,094326,083922
0000000127,0000126000,-80488,071427,091720,073130,092418,087226
0000000128,0000127000,-85409,049270,094427,072733,089762,090279
0000000129,0000128000,-81304,022452,096699,073373,086619,092782
0000000130,0000129000,-68562,-06327,098303,074986,083301,094486
0000000131,0000130000,-48468,-34251,099086,077418,080130,095226
0000000132,0000131000,-22925,-58688,098975,080432,077413,094930
0000000133,0000132000,005522,-77195,097981,083726,075419,093628
0000000134,0000133000,034026,-87885,096199,086981,074346,091446
0000000135,0000134000,059916,-89767,093798,089883,074295,088596
0000000136,0000135000,080654,-82721,091020,092143,075270,085360
0000000137,0000136000,094104,-67394,088143,093539,077178,082056
0000000138,0000137000,098976,-45187,085435,093937,079834,079003
0000000139,0000138000,094876,-18361,083162,093298,082975,076501
0000000140,0000139000,082192,010364,081558,091685,086292,074797
0000000141,0000140000,062066,038322,080775,089253,089464,074057
0000000142,0000141000,036491,062801,080884,086241,092180,074352
0000000143,0000142000,008096,081263,081878,082947,094173,075653
0000000144,0000143000,-20417,091958,083660,079692,095247,077834
0000000145,0000144000,-46361,093899,086060,076791,095299,080684
0000000146,0000145000,-67069,086824,088838,074531,094323,083919
0000000147,0000146000,-80502,071473,091716,073135,092417,087222
0000000148,0000147000,-85434,049319,094425,072737,089762,090275
0000000149,0000148000,-81328,022485,096698,073376,086621,092777
0000000150,0000149000,-68605,-06290,098303,074988,083305,094481
0000000151,0000150000,-48520,-34216,099087,077418,080135,095221
0000000152,0000151000,-22963,-58680,098978,080430,077418,094926
0000000153,0000152000,005485,-77199,097985,083723,075425,093626
0000000154,0000153000,033986,-87890,096204,086977,074351,091446
0000000155,0000154000,059899,-89796,093803,089877,074299,088597
0000000156,0000155000,080655,-82766,091025,092138,075273,085363
0000000157,0000156000,094107,-67435,088147,093534,077179,082061
0000000158,0000157000,098999,-45234,085437,093932,079833,079009
0000000159,0000158000,094920,-18416,083163,093295,082973,076506
0000000160,0000159000,082235,010326,081558,091683,086288,074803
0000000161,0000160000,062111,038297,080773,089253,089458,074062
0000000162,0000161000,036550,062778,080881,086243,092174,074356
0000000163,0000162000,008143,081260,081873,082951,094167,075656
0000000164,0000163000,-20388,091982,083654,079697,095242,077835
0000000165,0000164000,-46334,093926,086055,076798,095294,080682
0000000166,0000165000,-67058,086863,088833,074538,094320,083916
0000000167,0000166000,-80521,071532,091712,073141,092416,087217
0000000168,0000167000,-85461,049375,094422,072742,089763,090269
0000000169,0000168000,-81363,022532,096697,073379,086624,092771
0000000170,0000169000,-68662,-06239,098304,074989,083310,094474
0000000171,0000170000,-48582,-34176,099090,077418,080141,095215
0000000172,0000171000,-23014,-58667,098982,080427,077425,094922
0000000173,0000172000,005432,-77198,097990,083719,075432,093623
0000000174,0000173000,033939,-87902,096210,086971,074358,091445
0000000175,0000174000,059878,-89836,093809,089871,074304,088599
0000000176,0000175000,080651,-82819,091030,092130,075277,085367
0000000177,0000176000,094113,-67487,088151,093527,077181,082066
0000000178,0000177000,099032,-45299,085441,093927,079832,079015
0000000179,0000178000,094973,-18483,083165,093290,082970,076514
0000000180,0000179000,082289,010278,081557,091681,086283,074810
0000000181,0000180000,062175,038260,080770,089254,089451,074069
0000000182,0000181000,036621,062750,080876,086246,092167,074361
0000000183,0000182000,008198,081262,081868,082955,094159,075659
0000000184,0000183000,-20346,092007,083648,079704,095235,077836
0000000185,0000184000,-46300,093961,086048,076805,095288,080680
0000000186,0000185000,-67050,086917,088827,074546,094317,083912
0000000187,0000186000,-80541,071605,091707,073148,092414,087211
0000000188,0000187000,-85493,049444,094418,072749,089764,090261
0000000189,0000188000,-81412,022596,096695,073384,086628,092762
0000000190,0000189000,-68734,-06175,098305,074992,083316,094466
0000000191,0000190000,-48655,-34132,099093,077418,080148,095208
0000000192,0000191000,-23081,-58649,098987,080424,077433,094916
0000000193,0000192000,005363,-77194,097997,083713,075441,093620
0000000194,0000193000,033885,-87921,096217,086964,074365,091445
0000000195,0000194000,059852,-89886,093817,089862,074310,088601
0000000196,0000195000,080641,-82881,091038,092121,075281,085372
0000000197,0000196000,094124,-67556,088157,093518,077182,082073
0000000198,0000197000,099075,-45381,085445,093919,079831,079024
0000000199,0000198000,095033,-18562,083167,093285,082966,076523
0000000200,0000199000,082357,010218,081556,091678,086277,074819
0000000201,0000200000,062258,038211,080767,089254,089443,074077
0000000202,0000201000,036706,062719,080871,086249,092157,074367
0000000203,0000202000,008266,081265,081861,082961,094150,075662
0000000204,0000203000,-20291,092035,083639,079712,095226,077836
0000000205,0000204000,-46260,094005,086039,076815,095281,080678
0000000206,0000205000,-67042,086987,088819,074555,094312,083906
0000000207,0000206000,-80562,071691,091701,073158,092413,087203
0000000208,0000207000,-85531,049527,094414,072756,089765,090252
0000000209,0000208000,-81476,022679,096693,073389,086632,092752
0000000210,0000209000,-68819,-06098,098305,074994,083323,094456
0000000211,0000210000,-48742,-34080,099096,077417,080157,095199
0000000212,0000211000,-23166,-58624,098993,080421,077443,094910
0000000213,0000212000,005280,-77190,098005,083707,075451,093616
0000000214,0000213000,033822,-87949,096226,086955,074375,091444
0000000215,0000214000,059817,-89944,093826,089852,074318,088604
0000000216,0000215000,080628,-82955,091046,092110,075286,085377
0000000217,0000216000,094141,-67644,088164,093508,077184,082082
0000000218,0000217000,099126,-45481,085449,093911,079829,079034
0000000219,0000218000,095104,-18654,083169,093279,082961,076534
0000000220,0000219000,082442,010143,081555,091675,086269,074830
0000000221,0000220000,062359,038149,080763,089254,089433,074086
0000000222,0000221000,036805,062685,080864,086253,092146,074375
0000000223,0000222000,008349,081269,081852,082968,094139,075667
0000000224,0000223000,-20221,092065,083629,079722,095215,077837
0000000225,0000224000,-46214,094060,086029,076826,095273,080675
0000000226,0000225000,-67034,087073,088810,074567,094307,083900
0000000227,0000226000,-80584,071792,091693,073169,092410,087194
0000000228,0000227000,-85579,049629,094408,072766,089767,090241
0000000229,0000228000,-81555,022780,096691,073396,086638,092740
0000000230,0000229000,-68920,-06007,098306,074998,083331,094444
0000000231,0000230000,-48846,-34019,099100,077417,080168,095189
0000000232,0000231000,-23272,-58590,099000,080416,077456,094902
0000000233,0000232000,005181,-77185,098014,083699,075464,093611
0000000234,0000233000,033749,-87983,096237,086944,074386,091443
0000000235,0000234000,059773,-90011,093837,089839,074327,088607
0000000236,0000235000,080612,-83042,091057,092097,075292,085384
0000000237,0000236000,094163,-67751,088173,093496,077186,082091
0000000238,0000237000,099185,-45600,085455,093900,079827,079046
0000000239,0000238000,095187,-18762,083171,093271,082955,076547
0000000240,0000239000,082546,010050,081554,091672,086259,074843
0000000241,0000240000,062479,038076,080758,089255,089421,074098
0000000242,0000241000,036921,062647,080857,086257,092133,074383
0000000243,0000242000,008449,081272,081842,082977,094125,075672
0000000244,0000243000,-20137,092099,083618,079733,095203,077838
0000000245,0000244000,-46161,094128,086017,076839,095263,080672
0000000246,0000245000,-67024,087174,088799,074581,094300,083893
0000000247,0000246000,-80608,071909,091683,073182,092408,087183
0000000248,0000247000,-85637,049750,094402,072777,089769,090227
0000000249,0000248000,-81650,022902,096688,073404,086644,092726
0000000250,0000249000,-69036,-05903,098308,075002,083341,094431
0000000251,0000250000,-48970,-33945,099105,077416,080181,095177
0000000252,0000251000,-23399,-58549,099009,080411,077470,094892
0000000253,0000252000,005066,-77182,098025,083690,075478,093606
0000000254,0000253000,033663,-88025,096250,086932,074400,091442
0000000255,0000254000,059718,-90088,093850,089825,074338,088611
0000000256,0000255000,080594,-83145,091069,092082,075299,085392
0000000257,0000256000,094191,-67879,088183,093482,077189,082103
0000000258,0000257000,099253,-45737,085462,093888,079825,079061
0000000259,0000258000,095284,-18889,083174,093263,082948,076563
0000000260,0000259000,082670,009940,081553,091667,086249,074858
0000000261,0000260000,062619,037990,080752,089256,089407,074111
0000000262,0000261000,037055,062603,080848,086263,092117,074393
0000000263,0000262000,008569,081272,081830,082987,094110,075678
0000000264,0000263000,-20039,092139,083604,079746,095189,077839
0000000265,0000264000,-46101,094209,086003,076854,095252,080668
0000000266,0000265000,-67010,087291,088786,074597,094293,083884
0000000267,0000266000,-80635,072044,091673,073198,092405,087171
0000000268,0000267000,-85706,049894,094395,072790,089772,090212
0000000269,0000268000,-81759,023043,096685,073413,086651,092709
0000000270,0000269000,-69169,-05783,098309,075006,083353,094414
0000000271,0000270000,-49115,-33859,099111,077416,080196,095162
0000000272,0000271000,-23547,-58499,099018,080405,077487,094882
0000000273,0000272000,004934,-77179,098038,083679,075495,093600
0000000274,0000273000,033562,-88072,096264,086918,074415,091441
0000000275,0000274000,059653,-90175,093866,089808,074350,088615
0000000276,0000275000,080574,-83266,091083,092065,075307,085401
0000000277,0000276000,094224,-68028,088194,093465,077192,082117
0000000278,0000277000,099329,-45894,085470,093875,079823,079077
0000000279,0000278000,095396,-19036,083178,093253,082940,076580
0000000280,0000279000,082815,009810,081551,091663,086236,074875
0000000281,0000280000,062779,037892,080746,089256,089391,074126
0000000282,0000281000,037210,062553,080837,086269,092100,074405
0000000283,0000282000,008710,081271,081816,082998,094092,075684
0000000284,0000283000,-19926,092185,083588,079762,095172,077840
0000000285,0000284000,-46033,094303,085987,076872,095239,080663
0000000286,0000285000,-66991,087424,088770,074616,094284,083874
0000000287,0000286000,-80665,072200,091660,073215,092402,087156
0000000288,0000287000,-85787,050060,094386,072804,089775,090195
0000000289,0000288000,-81883,023206,096681,073423,086660,092690
0000000290,0000289000,-69322,-05646,098310,075011,083366,094396
0000000291,0000290000,-49284,-33757,099118,077415,080213,095146
0000000292,0000291000,-23717,-58440,099030,080399,077506,094869
0000000293,0000292000,004784,-77176,098053,083667,075514,093593
0000000294,0000293000,033445,-88125,096281,086901,074432,091440
0000000295,0000294000,059577,-90274,093883,089789,074364,088620
0000000296,0000295000,080552,-83405,091099,092045,075316,085412
0000000297,0000296000,094260,-68198,088208,093447,077195,082132
0000000298,0000297000,099414,-46072,085480,093859,079819,079096
0000000299,0000298000,095525,-19206,083182,093242,082931,076600
0000000300,0000299000,082981,009661,081549,091657,086222,074895
0000000301,0000300000,062961,037781,080739,089257,089373,074143
