DIgSILENT PowerFactory,21000900,2000
6,06A,00D
1,TTPP_200000_100:Secondary Voltage A,,,V,0.10000000,-8259.535156,0.000000,63657,99998,1,1,P
2,TTPP_200000_100:Secondary Voltage B,,,V,0.10000000,-8185.065430,0.000000,66092,99998,1,1,P
3,TTPP_200000_100:Secondary Voltage C,,,V,0.10000000,-8350.662109,0.000000,61734,99998,1,1,P
4,TTCC_300_1:Secondary Current A,,,A,0.00010000000,-3.668776,0.000000,-9342,99998,1,1,P
5,TTCC_300_1:Secondary Current B,,,A,0.00010000000,-5.013778,0.000000,242,99998,1,1,P
6,TTCC_300_1:Secondary Current C,,,A,0.00010000000,-4.889777,0.000000,-2117,99998,1,1,P
50
1
1000.000000,1101
30/06/2023,06:08:51.000000
30/06/2023,06:08:51.000000
ASCII
1.000000
0000000001,0000000000,089702,083326,074925,015758,036148,083817
0000000002,0000001000,087568,086043,074341,025512,026871,083344
0000000003,0000002000,084926,088373,074652,036350,019871,079501
0000000004,0000003000,082071,090053,075829,047228,015829,072664
0000000005,0000004000,079277,090914,077762,057073,015154,063497
0000000006,0000005000,076789,090906,080259,064920,017906,052897
0000000007,0000006000,074868,090019,083065,070007,023802,041916
0000000008,0000007000,073724,088312,085918,071828,032276,031617
0000000009,0000008000,073438,085973,088540,070206,042518,023002
0000000010,0000009000,074036,083251,090665,065307,053492,016923
0000000011,0000010000,075484,080380,092088,057614,064127,013984
0000000012,0000011000,077637,077643,092673,047854,073411,014456
0000000013,0000012000,080259,075334,092361,037006,080419,018299
0000000014,0000013000,083110,073658,091184,026140,084448,025136
0000000015,0000014000,085924,072776,089252,016296,085124,034303
0000000016,0000015000,088403,072794,086755,008438,082383,044903
0000000017,0000016000,090311,073694,083947,003359,076480,055884
0000000018,0000017000,091473,075384,081096,001541,068001,066182
0000000019,0000018000,091758,077721,078474,003156,057768,074798
0000000020,0000019000,091146,080460,076347,008056,046792,080875
0000000021,0000020000,089708,083320,074925,015757,036150,083817
0000000022,0000021000,087561,086050,074341,025508,026873,083343
0000000023,0000022000,084924,088375,074652,036358,019865,079500
0000000024,0000023000,082079,090045,075828,047230,015829,072664
0000000025,0000024000,079275,090916,077762,057069,015157,063497
0000000026,0000025000,076782,090912,080259,064924,017903,052897
0000000027,0000026000,074874,090014,083065,070012,023796,041915
0000000028,0000027000,073727,088309,085917,071826,032280,031618
0000000029,0000028000,073431,085981,088540,070206,042517,023001
0000000030,0000029000,074036,083250,090666,065314,053486,016924
0000000031,0000030000,075490,080374,092088,057614,064127,013983
0000000032,0000031000,077633,077647,092673,047853,073413,014456
0000000033,0000032000,080256,075336,092361,037011,080414,018298
0000000034,0000033000,083115,073653,091184,026144,084445,025134
0000000035,0000034000,085924,072777,089252,016295,085127,034302
0000000036,0000035000,088399,072798,086755,008442,082381,044902
0000000037,0000036000,090314,073691,083948,003363,076477,055883
0000000038,0000037000,091475,075382,081096,001542,068001,066180
0000000039,0000038000,091755,077725,078473,003157,057769,074796
0000000040,0000039000,091147,080459,076347,008059,046790,080874
0000000041,0000040000,089710,083317,074925,015758,036151,083815
0000000042,0000041000,087560,086052,074341,025509,026873,083342
0000000043,0000042000,084925,088376,074652,036359,019865,079500
0000000044,0000043000,082081,090043,075829,047230,015829,072664
0000000045,0000044000,079273,090918,077761,057069,015158,063496
0000000046,0000045000,076782,090913,080258,064925,017901,052897
0000000047,0000046000,074876,090011,083065,070011,023796,041916
0000000048,0000047000,073724,088310,085917,071826,032279,031619
0000000049,0000048000,073430,085982,088540,070208,042514,023002
0000000050,0000049000,074039,083247,090666,065315,053484,016925
0000000051,0000050000,075489,080375,092088,057613,064126,013984
0000000052,0000051000,077630,077650,092673,047857,073409,014457
0000000053,0000052000,080259,075333,092361,037014,080411,018298
0000000054,0000053000,083116,073652,091185,026144,084445,025134
0000000055,0000054000,085920,072780,089253,016299,085124,034301
0000000056,0000055000,088401,072796,086755,008447,082377,044900
0000000057,0000056000,090317,073687,083948,003364,076478,055881
0000000058,0000057000,091471,075385,081096,001543,068002,066178
0000000059,0000058000,091754,077725,078473,003162,057767,074793
0000000060,0000059000,091151,080454,076347,008060,046792,080871
0000000061,0000060000,089709,083319,074925,015756,036155,083813
0000000062,0000061000,087557,086055,074340,025510,026874,083340
0000000063,0000062000,084929,088372,074651,036359,019866,079498
0000000064,0000063000,082082,090042,075828,047225,015834,072664
0000000065,0000064000,079270,090922,077761,057067,015159,063497
0000000066,0000065000,076784,090912,080257,064925,017900,052898
0000000067,0000066000,074879,090009,083065,070007,023798,041918
0000000068,0000067000,073721,088314,085917,071823,032279,031621
0000000069,0000068000,073429,085984,088540,070209,042509,023005
0000000070,0000069000,074042,083245,090666,065314,053481,016928
0000000071,0000070000,075487,080377,092089,057613,064124,013986
0000000072,0000071000,077627,077653,092673,047860,073404,014459
0000000073,0000072000,080261,075330,092362,037018,080406,018299
0000000074,0000073000,083115,073652,091186,026147,084443,025134
0000000075,0000074000,085917,072782,089253,016304,085120,034300
0000000076,0000075000,088403,072794,086756,008453,082373,044897
0000000077,0000076000,090318,073685,083949,003368,076478,055877
0000000078,0000077000,091470,075386,081097,001547,068003,066173
0000000079,0000078000,091755,077724,078473,003166,057768,074789
0000000080,0000079000,091154,080452,076347,008062,046795,080866
0000000081,0000080000,089708,083320,074925,015756,036159,083808
0000000082,0000081000,087558,086055,074339,025510,026877,083336
0000000083,0000082000,084932,088370,074651,036356,019871,079496
0000000084,0000083000,082081,090044,075827,047221,015839,072663
0000000085,0000084000,079269,090924,077760,057063,015162,063498
0000000086,0000085000,076786,090910,080256,064920,017902,052901
0000000087,0000086000,074878,090011,083064,070001,023800,041923
0000000088,0000087000,073719,088317,085916,071820,032277,031626
0000000089,0000088000,073431,085983,088539,070207,042506,023011
0000000090,0000089000,074042,083245,090666,065312,053478,016934
0000000091,0000090000,075483,080381,092089,057614,064118,013991
0000000092,0000091000,077627,077652,092674,047864,073396,014463
0000000093,0000092000,080261,075329,092363,037021,080400,018302
0000000094,0000093000,083112,073654,091187,026153,084437,025134
0000000095,0000094000,085916,072782,089254,016313,085113,034298
0000000096,0000095000,088405,072790,086757,008460,082370,044893
0000000097,0000096000,090317,073685,083950,003374,076478,055871
0000000098,0000097000,091469,075387,081097,001555,068002,066166
0000000099,0000098000,091759,077720,078474,003172,057770,074781
0000000100,0000099000,091155,080451,076347,008063,046802,080859
0000000101,0000100000,089707,083322,074924,015757,036166,083801
0000000102,0000101000,087561,086053,074338,025509,026884,083331
0000000103,0000102000,084934,088368,074650,036351,019880,079493
0000000104,0000103000,082080,090047,075826,047214,015847,072662
0000000105,0000104000,079270,090925,077758,057057,015166,063500
0000000106,0000105000,076788,090909,080255,064911,017907,052906
0000000107,0000106000,074876,090014,083063,069992,023802,041929
0000000108,0000107000,073717,088320,085915,071814,032275,031635
0000000109,0000108000,073431,085982,088539,070202,042501,023021
0000000110,0000109000,074039,083247,090666,065308,053472,016943
0000000111,0000110000,075480,080383,092090,057615,064109,013999
0000000112,0000111000,077627,077651,092675,047869,073385,014469
0000000113,0000112000,080260,075328,092365,037027,080391,018306
0000000114,0000113000,083109,073655,091189,026162,084427,025135
0000000115,0000114000,085916,072780,089256,016324,085105,034295
0000000116,0000115000,088406,072788,086759,008470,082365,044888
0000000117,0000116000,090316,073685,083952,003385,076476,055863
0000000118,0000117000,091470,075385,081098,001565,068002,066156
0000000119,0000118000,091762,077717,078474,003178,057775,074770
0000000120,0000119000,091155,080450,076347,008066,046810,080847
0000000121,0000120000,089708,083321,074923,015758,036175,083791
0000000122,0000121000,087564,086051,074337,025506,026895,083323
0000000123,0000122000,084936,088369,074648,036343,019892,079488
0000000124,0000123000,082080,090049,075824,047205,015857,072661
0000000125,0000124000,079273,090925,077756,057046,015175,063502
0000000126,0000125000,076789,090911,080253,064898,017913,052912
0000000127,0000126000,074874,090018,083061,069981,023804,041939
0000000128,0000127000,073717,088322,085914,071805,032272,031647
0000000129,0000128000,073431,085983,088539,070194,042496,023034
0000000130,0000129000,074036,083250,090667,065304,053463,016956
0000000131,0000130000,075477,080385,092091,057616,064095,014011
0000000132,0000131000,077626,077650,092677,047873,073372,014478
0000000133,0000132000,080257,075329,092367,037035,080377,018311
0000000134,0000133000,083107,073655,091191,026174,084413,025136
0000000135,0000134000,085917,072777,089259,016338,085094,034292
0000000136,0000135000,088405,072786,086762,008484,082359,044880
0000000137,0000136000,090315,073684,083953,003399,076473,055851
0000000138,0000137000,091472,075381,081100,001578,068004,066142
0000000139,0000138000,091764,077713,078475,003186,057783,074754
0000000140,0000139000,091157,080450,076347,008071,046821,080832
0000000141,0000140000,089712,083319,074922,015758,036188,083778
0000000142,0000141000,087568,086049,074335,025500,026911,083312
0000000143,0000142000,084937,088370,074645,036333,019909,079482
0000000144,0000143000,082082,090050,075821,047192,015871,072659
0000000145,0000144000,079275,090925,077753,057030,015187,063506
0000000146,0000145000,076788,090914,080250,064880,017922,052921
0000000147,0000146000,074873,090022,083059,069965,023807,041952
0000000148,0000147000,073716,088323,085913,071791,032270,031663
0000000149,0000148000,073428,085986,088538,070183,042489,023051
0000000150,0000149000,074031,083254,090667,065300,053450,016973
0000000151,0000150000,075475,080386,092092,057618,064079,014027
0000000152,0000151000,077623,077650,092679,047879,073354,014490
0000000153,0000152000,080253,075330,092370,037046,080359,018318
0000000154,0000153000,083105,073654,091194,026191,084395,025137
0000000155,0000154000,085916,072774,089262,016356,085080,034287
0000000156,0000155000,088404,072784,086765,008504,082350,044870
0000000157,0000156000,090316,073681,083956,003419,076468,055836
0000000158,0000157000,091475,075376,081101,001594,068006,066123
0000000159,0000158000,091767,077710,078476,003197,057792,074734
0000000160,0000159000,091159,080447,076346,008077,046834,080812
0000000161,0000160000,089717,083316,074920,015758,036206,083760
0000000162,0000161000,087572,086048,074333,025492,026933,083298
0000000163,0000162000,084939,088371,074642,036320,019930,079473
0000000164,0000163000,082085,090051,075816,047175,015890,072658
0000000165,0000164000,079277,090927,077749,057008,015204,063511
0000000166,0000165000,076788,090918,080247,064858,017933,052932
0000000167,0000166000,074872,090025,083055,069945,023810,041969
0000000168,0000167000,073715,088327,085911,071773,032267,031684
0000000169,0000168000,073424,085991,088537,070169,042480,023074
0000000170,0000169000,074027,083258,090667,065294,053434,016996
0000000171,0000170000,075472,080387,092094,057618,064058,014047
0000000172,0000171000,077618,077652,092682,047886,073331,014506
0000000173,0000172000,080248,075331,092374,037061,080334,018327
0000000174,0000173000,083103,073651,091199,026212,084373,025139
0000000175,0000174000,085915,072771,089267,016380,085062,034282
0000000176,0000175000,088402,072781,086769,008529,082338,044857
0000000177,0000176000,090317,073676,083959,003444,076463,055817
0000000178,0000177000,091478,075371,081104,001614,068010,066099
0000000179,0000178000,091769,077707,078477,003212,057803,074708
0000000180,0000179000,091164,080444,076345,008086,046852,080786
0000000181,0000180000,089722,083312,074918,015758,036229,083737
0000000182,0000181000,087576,086047,074329,025483,026960,083281
0000000183,0000182000,084943,088372,074637,036304,019956,079463
0000000184,0000183000,082090,090051,075812,047153,015915,072655
0000000185,0000184000,079279,090930,077744,056981,015224,063518
0000000186,0000185000,076787,090923,080242,064830,017946,052947
0000000187,0000186000,074871,090030,083052,069918,023815,041990
0000000188,0000187000,073713,088332,085908,071750,032264,031710
0000000189,0000188000,073419,085997,088536,070153,042468,023103
0000000190,0000189000,074022,083262,090668,065286,053413,017024
0000000191,0000190000,075467,080390,092096,057619,064032,014072
0000000192,0000191000,077612,077654,092686,047896,073302,014525
0000000193,0000192000,080243,075331,092378,037080,080304,018339
0000000194,0000193000,083100,073649,091204,026237,084345,025142
0000000195,0000194000,085912,072768,089273,016409,085040,034274
0000000196,0000195000,088401,072777,086774,008561,082322,044840
0000000197,0000196000,090320,073669,083964,003473,076457,055793
0000000198,0000197000,091481,075365,081107,001639,068014,066070
0000000199,0000198000,091773,077702,078478,003231,057816,074676
0000000200,0000199000,091170,080438,076345,008095,046873,080755
0000000201,0000200000,089729,083308,074916,015756,036258,083709
0000000202,0000201000,087582,086046,074325,025472,026992,083259
0000000203,0000202000,084949,088372,074632,036285,019989,079450
0000000204,0000203000,082094,090053,075805,047125,015945,072653
0000000205,0000204000,079281,090934,077738,056948,015249,063525
0000000206,0000205000,076788,090929,080236,064796,017962,052964
0000000207,0000206000,074871,090035,083047,069886,023821,042016
0000000208,0000207000,073709,088338,085905,071722,032260,031743
0000000209,0000208000,073414,086004,088535,070134,042452,023138
0000000210,0000209000,074017,083267,090669,065276,053389,017059
0000000211,0000210000,075460,080394,092099,057619,064001,014103
0000000212,0000211000,077605,077657,092691,047908,073266,014549
0000000213,0000212000,080238,075331,092384,037103,080267,018353
0000000214,0000213000,083095,073646,091211,026267,084312,025145
0000000215,0000214000,085908,072764,089280,016445,085013,034266
0000000216,0000215000,088401,072771,086780,008599,082304,044821
0000000217,0000216000,090322,073662,083969,003509,076450,055764
0000000218,0000217000,091484,075358,081110,001669,068020,066035
0000000219,0000218000,091778,077695,078479,003253,057833,074637
0000000220,0000219000,091177,080432,076344,008106,046900,080717
0000000221,0000220000,089736,083304,074913,015755,036293,083676
0000000222,0000221000,087588,086044,074320,025459,027031,083233
0000000223,0000222000,084956,088371,074625,036260,020028,079435
0000000224,0000223000,082099,090055,075798,047091,015982,072650
0000000225,0000224000,079284,090939,077730,056909,015278,063535
0000000226,0000225000,076789,090935,080229,064756,017981,052986
0000000227,0000226000,074869,090042,083041,069847,023829,042048
0000000228,0000227000,073705,088347,085901,071688,032254,031781
0000000229,0000228000,073408,086011,088533,070110,042433,023180
0000000230,0000229000,074010,083273,090670,065264,053359,017100
0000000231,0000230000,075452,080399,092102,057620,063963,014139
0000000232,0000231000,077597,077660,092696,047923,073223,014577
0000000233,0000232000,080231,075330,092392,037130,080224,018370
0000000234,0000233000,083090,073643,091220,026303,084273,025148
0000000235,0000234000,085904,072760,089288,016488,084981,034255
0000000236,0000235000,088401,072764,086788,008644,082283,044797
0000000237,0000236000,090324,073654,083975,003551,076442,055730
0000000238,0000237000,091488,075350,081115,001705,068026,065992
0000000239,0000238000,091785,077687,078481,003279,057852,074592
0000000240,0000239000,091186,080424,076343,008119,046932,080672
0000000241,0000240000,089744,083299,074909,015753,036334,083636
0000000242,0000241000,087597,086041,074314,025444,027077,083203
0000000243,0000242000,084964,088371,074617,036231,020075,079417
0000000244,0000243000,082105,090058,075789,047052,016025,072646
0000000245,0000244000,079287,090945,077721,056863,015313,063547
0000000246,0000245000,076790,090942,080221,064707,018004,053012
0000000247,0000246000,074867,090051,083034,069800,023838,042085
0000000248,0000247000,073699,088357,085896,071650,032247,031827
0000000249,0000248000,073401,086020,088531,070083,042411,023230
0000000250,0000249000,074002,083280,090671,065250,053325,017149
0000000251,0000250000,075441,080405,092106,057622,063919,014182
0000000252,0000251000,077588,077663,092702,047941,073173,014609
0000000253,0000252000,080223,075330,092400,037161,080173,018389
0000000254,0000253000,083083,073641,091229,026345,084227,025151
0000000255,0000254000,085900,072754,089298,016538,084944,034242
0000000256,0000255000,088400,072755,086797,008696,082258,044770
0000000257,0000256000,090326,073644,083983,003600,076434,055689
0000000258,0000257000,091493,075340,081120,001747,068033,065943
0000000259,0000258000,091793,077677,078483,003309,057876,074538
0000000260,0000259000,091195,080416,076342,008133,046970,080620
0000000261,0000260000,089754,083293,074905,015752,036382,083590
0000000262,0000261000,087608,086038,074307,025425,027130,083168
0000000263,0000262000,084973,088371,074608,036197,020130,079396
0000000264,0000263000,082112,090062,075779,047006,016075,072642
0000000265,0000264000,079292,090951,077710,056810,015353,063560
0000000266,0000265000,076792,090950,080211,064651,018031,053041
0000000267,0000266000,074865,090062,083026,069747,023848,042129
0000000268,0000267000,073694,088368,085891,071605,032239,031880
0000000269,0000268000,073393,086030,088529,070051,042386,023287
0000000270,0000269000,073991,083289,090672,065234,053285,017205
0000000271,0000270000,075430,080412,092111,057625,063867,014231
0000000272,0000271000,077577,077666,092710,047961,073115,014647
0000000273,0000272000,080213,075330,092410,037197,080115,018411
0000000274,0000273000,083075,073638,091240,026395,084174,025155
0000000275,0000274000,085896,072747,089309,016595,084901,034228
0000000276,0000275000,088399,072746,086808,008756,082230,044738
0000000277,0000276000,090328,073633,083992,003657,076423,055643
0000000278,0000277000,091499,075328,081126,001795,068041,065886
0000000279,0000278000,091802,077665,078486,003343,057903,074477
0000000280,0000279000,091206,080406,076341,008150,047013,080560
0000000281,0000280000,089766,083286,074900,015749,036437,083537
0000000282,0000281000,087620,086033,074299,025403,027192,083128
0000000283,0000282000,084984,088371,074598,036158,020193,079373
0000000284,0000283000,082120,090066,075767,046953,016132,072638
0000000285,0000284000,079297,090958,077698,056749,015398,063576
0000000286,0000285000,076793,090960,080199,064586,018061,053076
0000000287,0000286000,074862,090074,083017,069687,023858,042178
0000000288,0000287000,073688,088380,085884,071554,032229,031940
0000000289,0000288000,073384,086042,088526,070014,042357,023353
0000000290,0000289000,073979,083300,090673,065216,053239,017269
0000000291,0000290000,075417,080420,092116,057628,063808,014287
0000000292,0000291000,077564,077670,092718,047984,073049,014690
0000000293,0000292000,080202,075330,092421,037239,080049,018436
0000000294,0000293000,083066,073634,091253,026451,084113,025159
0000000295,0000294000,085891,072740,089322,016661,084852,034211
0000000296,0000295000,088397,072735,086820,008824,082199,044701
0000000297,0000296000,090330,073621,084002,003722,076412,055590
0000000298,0000297000,091506,075314,081133,001849,068052,065822
0000000299,0000298000,091812,077652,078489,003382,057934,074407
0000000300,0000299000,091218,080396,076339,008169,047062,080492
0000000301,0000300000,089780,083278,074895,015746,036500,083478
