DIgSILENT PowerFactory,21000900,2000
6,06A,00D
1,TTPP_200000_100:Secondary Voltage A,,,V,0.10000000,-8196.992188,0.000000,61636,99998,1,1,P
2,TTPP_200000_100:Secondary Voltage B,,,V,0.10000000,-7696.980957,0.000000,57001,99998,1,1,P
3,TTPP_200000_100:Secondary Voltage C,,,V,0.10000000,-7978.864258,0.000000,60008,99998,1,1,P
4,TTCC_300_1:Secondary Current A,,,A,0.00010000000,-3.897175,0.000000,-2693,99998,1,1,P
5,TTCC_300_1:Secondary Current B,,,A,0.00010000000,-5.007920,0.000000,591,99998,1,1,P
6,TTCC_300_1:Secondary Current C,,,A,0.00010000000,-4.874232,0.000000,-2686,99998,1,1,P
50
1
1000.000000,1101
30/06/2023,06:07:10.000000
30/06/2023,06:07:10.000000
ASCII
1.000000
0000000001,0000000000,089076,078445,071207,018042,036089,083662
0000000002,0000001000,086942,081162,070622,027795,026811,083188
0000000003,0000002000,084301,083493,070934,038633,019814,079346
0000000004,0000003000,081445,085171,072111,049514,015769,072509
0000000005,0000004000,078652,086033,074044,059355,015097,063341
0000000006,0000005000,076164,086024,076541,067206,017847,052741
0000000007,0000006000,074242,085139,079347,072289,023744,041760
0000000008,0000007000,073099,083430,082200,074115,032217,031463
0000000009,0000008000,072812,081093,084822,072488,042460,022846
0000000010,0000009000,073411,078369,086947,067592,053433,016769
0000000011,0000010000,074858,075500,088370,059897,064068,013828
0000000012,0000011000,077012,072761,088955,050138,073353,014301
0000000013,0000012000,079633,070453,088643,039290,080360,018143
0000000014,0000013000,082485,068777,087466,028423,084390,024980
0000000015,0000014000,085299,067896,085534,018581,085065,034148
0000000016,0000015000,087778,067913,083037,010722,082325,044748
0000000017,0000016000,089686,068813,080229,005644,076421,055728
0000000018,0000017000,090848,070503,077378,003824,067942,066027
0000000019,0000018000,091132,072840,074756,005441,057709,074643
0000000020,0000019000,090520,075580,072629,010340,046734,080720
0000000021,0000020000,089083,078439,071207,018042,036091,083662
0000000022,0000021000,086936,081169,070623,027792,026814,083187
0000000023,0000022000,084299,083495,070934,038642,019807,079345
0000000024,0000023000,081453,085164,072110,049514,015771,072509
0000000025,0000024000,078650,086035,074044,059353,015098,063341
0000000026,0000025000,076157,086031,076541,067208,017844,052741
0000000027,0000026000,074249,085133,079347,072296,023737,041760
0000000028,0000027000,073101,083428,082199,074110,032222,031462
0000000029,0000028000,072806,081100,084822,072490,042457,022846
0000000030,0000029000,073411,078369,086948,067597,053428,016768
0000000031,0000030000,074865,075493,088370,059898,064068,013827
0000000032,0000031000,077007,072767,088955,050137,073355,014301
0000000033,0000032000,079630,070455,088643,039295,080355,018143
0000000034,0000033000,082490,068772,087466,028428,084387,024979
0000000035,0000034000,085299,067896,085534,018579,085068,034147
0000000036,0000035000,087774,067917,083037,010725,082322,044746
0000000037,0000036000,089689,068810,080230,005647,076419,055727
0000000038,0000037000,090849,070501,077378,003825,067943,066025
0000000039,0000038000,091129,072844,074755,005441,057711,074641
0000000040,0000039000,090521,075578,072629,010343,046731,080719
0000000041,0000040000,089085,078436,071207,018042,036092,083660
0000000042,0000041000,086934,081172,070623,027793,026815,083186
0000000043,0000042000,084300,083495,070934,038643,019806,079344
0000000044,0000043000,081455,085162,072111,049514,015771,072509
0000000045,0000044000,078648,086037,074043,059353,015099,063341
0000000046,0000045000,076157,086032,076540,067209,017843,052741
0000000047,0000046000,074251,085131,079347,072295,023738,041761
0000000048,0000047000,073099,083430,082200,074110,032221,031463
0000000049,0000048000,072805,081101,084822,072492,042455,022847
0000000050,0000049000,073414,078367,086948,067598,053425,016770
0000000051,0000050000,074863,075494,088371,059897,064067,013828
0000000052,0000051000,077004,072769,088955,050141,073351,014301
0000000053,0000052000,079633,070452,088643,039298,080352,018143
0000000054,0000053000,082490,068771,087467,028428,084387,024978
0000000055,0000054000,085294,067899,085535,018583,085066,034146
0000000056,0000055000,087775,067915,083037,010731,082318,044744
0000000057,0000056000,089692,068806,080230,005648,076420,055725
0000000058,0000057000,090846,070504,077378,003827,067943,066022
0000000059,0000058000,091129,072845,074755,005446,057709,074638
0000000060,0000059000,090526,075574,072629,010344,046733,080716
0000000061,0000060000,089083,078438,071207,018040,036096,083657
0000000062,0000061000,086931,081175,070622,027794,026815,083184
0000000063,0000062000,084304,083491,070933,038643,019807,079343
0000000064,0000063000,081457,085162,072110,049510,015775,072508
0000000065,0000064000,078644,086042,074043,059351,015101,063341
0000000066,0000065000,076158,086031,076539,067209,017841,052743
0000000067,0000066000,074254,085128,079347,072291,023739,041763
0000000068,0000067000,073096,083433,082199,074107,032221,031466
0000000069,0000068000,072804,081103,084822,072493,042451,022850
0000000070,0000069000,073417,078364,086948,067598,053422,016773
0000000071,0000070000,074861,075496,088371,059897,064065,013831
0000000072,0000071000,077002,072772,088955,050144,073345,014303
0000000073,0000072000,079635,070450,088644,039302,080347,018144
0000000074,0000073000,082490,068771,087468,028431,084384,024978
0000000075,0000074000,085291,067902,085535,018588,085062,034144
0000000076,0000075000,087777,067913,083038,010737,082315,044742
0000000077,0000076000,089693,068804,080231,005652,076420,055721
0000000078,0000077000,090844,070506,077379,003831,067944,066018
0000000079,0000078000,091130,072843,074755,005450,057709,074633
0000000080,0000079000,090528,075571,072629,010346,046737,080711
0000000081,0000080000,089082,078439,071207,018040,036101,083653
0000000082,0000081000,086932,081174,070621,027794,026819,083181
0000000083,0000082000,084306,083489,070933,038640,019812,079341
0000000084,0000083000,081456,085163,072109,049505,015781,072508
0000000085,0000084000,078644,086043,074042,059347,015103,063342
0000000086,0000085000,076161,086029,076538,067204,017843,052746
0000000087,0000086000,074253,085130,079346,072285,023741,041767
0000000088,0000087000,073093,083437,082198,074104,032219,031471
0000000089,0000088000,072805,081102,084821,072491,042447,022856
0000000090,0000089000,073416,078364,086948,067596,053419,016778
0000000091,0000090000,074857,075500,088371,059898,064059,013836
0000000092,0000091000,077002,072771,088956,050148,073337,014307
0000000093,0000092000,079636,070448,088645,039305,080341,018146
0000000094,0000093000,082487,068773,087469,028437,084378,024979
0000000095,0000094000,085291,067901,085536,018597,085055,034142
0000000096,0000095000,087780,067910,083039,010744,082311,044738
0000000097,0000096000,089692,068804,080232,005658,076419,055716
0000000098,0000097000,090843,070506,077379,003839,067944,066011
0000000099,0000098000,091134,072839,074756,005456,057712,074626
0000000100,0000099000,090529,075570,072629,010347,046743,080703
0000000101,0000100000,089081,078441,071206,018041,036107,083646
0000000102,0000101000,086935,081172,070620,027793,026825,083175
0000000103,0000102000,084309,083488,070932,038635,019821,079338
0000000104,0000103000,081454,085166,072108,049498,015788,072507
0000000105,0000104000,078645,086044,074040,059341,015108,063344
0000000106,0000105000,076163,086028,076537,067195,017848,052750
0000000107,0000106000,074251,085133,079345,072276,023743,041774
0000000108,0000107000,073092,083439,082197,074098,032216,031479
0000000109,0000108000,072806,081101,084821,072486,042443,022865
0000000110,0000109000,073414,078366,086948,067592,053414,016787
0000000111,0000110000,074854,075502,088372,059899,064050,013844
0000000112,0000111000,077002,072770,088957,050153,073327,014314
0000000113,0000112000,079635,070447,088647,039311,080332,018150
0000000114,0000113000,082484,068774,087471,028446,084369,024979
0000000115,0000114000,085291,067899,085538,018608,085046,034140
0000000116,0000115000,087780,067907,083041,010754,082307,044732
0000000117,0000116000,089691,068804,080234,005669,076417,055707
0000000118,0000117000,090844,070504,077380,003849,067944,066000
0000000119,0000118000,091136,072836,074756,005462,057717,074614
0000000120,0000119000,090530,075569,072629,010350,046751,080692
0000000121,0000120000,089083,078440,071205,018042,036116,083636
0000000122,0000121000,086939,081170,070619,027790,026837,083168
0000000123,0000122000,084310,083488,070930,038627,019834,079333
0000000124,0000123000,081455,085168,072106,049489,015799,072505
0000000125,0000124000,078647,086044,074038,059330,015116,063347
0000000126,0000125000,076163,086030,076535,067182,017855,052757
0000000127,0000126000,074249,085137,079343,072265,023745,041783
0000000128,0000127000,073091,083441,082196,074089,032214,031491
0000000129,0000128000,072805,081102,084821,072478,042438,022878
0000000130,0000129000,073410,078369,086949,067588,053405,016800
0000000131,0000130000,074852,075504,088373,059901,064037,013856
0000000132,0000131000,077001,072769,088959,050157,073313,014323
0000000133,0000132000,079631,070448,088649,039319,080319,018156
0000000134,0000133000,082481,068774,087473,028458,084355,024980
0000000135,0000134000,085291,067896,085541,018622,085035,034136
0000000136,0000135000,087780,067905,083044,010768,082301,044725
0000000137,0000136000,089690,068803,080235,005683,076414,055696
0000000138,0000137000,090847,070500,077382,003862,067945,065986
0000000139,0000138000,091139,072833,074757,005470,057724,074599
0000000140,0000139000,090531,075569,072629,010355,046762,080676
0000000141,0000140000,089086,078438,071204,018042,036129,083622
0000000142,0000141000,086943,081168,070617,027784,026853,083157
0000000143,0000142000,084311,083489,070927,038617,019851,079326
0000000144,0000143000,081456,085169,072103,049477,015813,072504
0000000145,0000144000,078650,086044,074035,059314,015129,063351
0000000146,0000145000,076163,086033,076532,067164,017864,052765
0000000147,0000146000,074247,085141,079341,072249,023748,041796
0000000148,0000147000,073091,083443,082195,074075,032211,031507
0000000149,0000148000,072803,081105,084820,072467,042431,022896
0000000150,0000149000,073406,078373,086949,067583,053392,016818
0000000151,0000150000,074850,075505,088374,059902,064020,013871
0000000152,0000151000,076998,072770,088961,050163,073295,014335
0000000153,0000152000,079627,070450,088652,039330,080300,018163
0000000154,0000153000,082479,068773,087476,028475,084337,024982
0000000155,0000154000,085291,067893,085544,018640,085021,034132
0000000156,0000155000,087778,067903,083047,010788,082291,044714
0000000157,0000156000,089690,068800,080238,005703,076409,055681
0000000158,0000157000,090850,070495,077383,003878,067947,065968
0000000159,0000158000,091141,072830,074758,005481,057733,074578
0000000160,0000159000,090534,075567,072628,010361,046776,080656
0000000161,0000160000,089091,078435,071202,018042,036147,083604
0000000162,0000161000,086947,081167,070615,027776,026874,083143
0000000163,0000162000,084314,083491,070924,038604,019872,079318
0000000164,0000163000,081460,085170,072099,049459,015832,072502
0000000165,0000164000,078652,086046,074031,059292,015145,063356
0000000166,0000165000,076162,086038,076529,067142,017875,052777
0000000167,0000166000,074246,085145,079338,072229,023751,041813
0000000168,0000167000,073090,083446,082193,074057,032209,031528
0000000169,0000168000,072798,081110,084819,072453,042421,022919
0000000170,0000169000,073402,078377,086949,067578,053375,016841
0000000171,0000170000,074846,075506,088376,059902,063999,013891
0000000172,0000171000,076993,072771,088964,050170,073272,014350
0000000173,0000172000,079622,070450,088656,039345,080276,018172
0000000174,0000173000,082477,068770,087481,028495,084314,024984
0000000175,0000174000,085289,067890,085549,018664,085004,034126
0000000176,0000175000,087777,067900,083051,010813,082279,044701
0000000177,0000176000,089692,068795,080241,005728,076404,055661
0000000178,0000177000,090853,070490,077386,003898,067951,065944
0000000179,0000178000,091144,072826,074759,005496,057744,074552
0000000180,0000179000,090538,075563,072627,010370,046793,080631
0000000181,0000180000,089097,078431,071200,018042,036170,083582
0000000182,0000181000,086951,081166,070611,027767,026901,083125
0000000183,0000182000,084318,083491,070919,038588,019898,079307
0000000184,0000183000,081464,085171,072094,049437,015856,072500
0000000185,0000184000,078654,086049,074026,059265,015166,063362
0000000186,0000185000,076162,086043,076524,067114,017888,052791
0000000187,0000186000,074246,085149,079334,072202,023756,041835
0000000188,0000187000,073087,083451,082190,074034,032205,031555
0000000189,0000188000,072794,081116,084818,072437,042409,022948
0000000190,0000189000,073397,078381,086950,067570,053355,016869
0000000191,0000190000,074841,075509,088378,059903,063974,013917
0000000192,0000191000,076987,072774,088968,050180,073243,014370
0000000193,0000192000,079618,070450,088660,039364,080245,018184
0000000194,0000193000,082474,068768,087486,028520,084287,024986
0000000195,0000194000,085286,067887,085555,018693,084982,034119
0000000196,0000195000,087776,067896,083056,010845,082264,044685
0000000197,0000196000,089694,068788,080246,005757,076398,055638
0000000198,0000197000,090856,070484,077389,003923,067956,065915
0000000199,0000198000,091148,072821,074760,005515,057758,074520
0000000200,0000199000,090545,075557,072627,010379,046815,080599
0000000201,0000200000,089103,078427,071198,018040,036200,083554
0000000202,0000201000,086956,081165,070607,027756,026933,083104
0000000203,0000202000,084323,083491,070914,038569,019930,079294
0000000204,0000203000,081469,085172,072087,049409,015887,072497
0000000205,0000204000,078656,086053,074020,059232,015191,063370
0000000206,0000205000,076162,086048,076518,067080,017904,052809
0000000207,0000206000,074245,085154,079329,072170,023763,041861
0000000208,0000207000,073084,083458,082187,074006,032201,031587
0000000209,0000208000,072788,081123,084817,072418,042393,022983
0000000210,0000209000,073392,078386,086951,067560,053330,016904
0000000211,0000210000,074835,075513,088381,059903,063942,013947
0000000212,0000211000,076980,072776,088973,050192,073207,014393
0000000213,0000212000,079612,070450,088666,039387,080209,018198
0000000214,0000213000,082470,068765,087493,028551,084254,024989
0000000215,0000214000,085283,067884,085562,018729,084955,034110
0000000216,0000215000,087775,067890,083062,010883,082245,044665
0000000217,0000216000,089696,068781,080251,005793,076392,055609
0000000218,0000217000,090859,070477,077393,003953,067961,065879
0000000219,0000218000,091153,072814,074761,005537,057774,074482
0000000220,0000219000,090552,075551,072626,010390,046842,080561
0000000221,0000220000,089111,078423,071195,018039,036234,083520
0000000222,0000221000,086963,081163,070602,027743,026972,083078
0000000223,0000222000,084330,083491,070907,038544,019970,079279
0000000224,0000223000,081474,085174,072080,049375,015924,072494
0000000225,0000224000,078658,086059,074012,059193,015220,063380
0000000226,0000225000,076164,086054,076511,067040,017923,052831
0000000227,0000226000,074244,085161,079323,072131,023770,041893
0000000228,0000227000,073079,083466,082183,073972,032195,031626
0000000229,0000228000,072782,081131,084815,072394,042375,023025
0000000230,0000229000,073385,078392,086952,067548,053301,016945
0000000231,0000230000,074826,075518,088385,059904,063905,013984
0000000232,0000231000,076971,072779,088978,050207,073164,014421
0000000233,0000232000,079606,070449,088674,039414,080165,018214
0000000234,0000233000,082464,068763,087502,028587,084215,024992
0000000235,0000234000,085279,067879,085570,018772,084923,034100
0000000236,0000235000,087775,067883,083070,010928,082224,044642
0000000237,0000236000,089698,068773,080257,005835,076384,055574
0000000238,0000237000,090863,070469,077397,003989,067967,065837
0000000239,0000238000,091160,072806,074763,005563,057794,074436
0000000240,0000239000,090560,075543,072625,010403,046874,080517
0000000241,0000240000,089119,078418,071191,018037,036276,083481
0000000242,0000241000,086972,081160,070596,027728,027018,083048
0000000243,0000242000,084339,083490,070899,038515,020017,079261
0000000244,0000243000,081480,085177,072071,049336,015967,072491
0000000245,0000244000,078662,086064,074003,059147,015254,063391
0000000246,0000245000,076165,086061,076503,066991,017946,052856
0000000247,0000246000,074242,085170,079316,072084,023779,041930
0000000248,0000247000,073074,083476,082178,073934,032189,031671
0000000249,0000248000,072776,081139,084813,072367,042353,023074
0000000250,0000249000,073376,078399,086953,067534,053266,016993
0000000251,0000250000,074816,075524,088388,059906,063861,014026
0000000252,0000251000,076962,072782,088984,050225,073114,014454
0000000253,0000252000,079598,070449,088682,039445,080115,018233
0000000254,0000253000,082457,068760,087511,028629,084168,024996
0000000255,0000254000,085275,067874,085580,018822,084885,034087
0000000256,0000255000,087775,067874,083079,010980,082200,044614
0000000257,0000256000,089700,068763,080265,005884,076375,055534
0000000258,0000257000,090867,070459,077402,004031,067974,065788
0000000259,0000258000,091168,072796,074765,005593,057817,074383
0000000260,0000259000,090570,075535,072624,010417,046911,080464
0000000261,0000260000,089129,078413,071187,018036,036323,083435
0000000262,0000261000,086982,081157,070589,027709,027072,083013
0000000263,0000262000,084348,083490,070890,038481,020071,079241
0000000264,0000263000,081486,085181,072061,049290,016016,072487
0000000265,0000264000,078666,086070,073992,059094,015294,063405
0000000266,0000265000,076167,086069,076493,066935,017972,052886
0000000267,0000266000,074239,085181,079308,072031,023789,041973
0000000268,0000267000,073069,083487,082173,073889,032180,031724
0000000269,0000268000,072768,081149,084811,072334,042328,023132
0000000270,0000269000,073366,078408,086954,067518,053226,017049
0000000271,0000270000,074805,075531,088393,059909,063809,014075
0000000272,0000271000,076952,072785,088992,050245,073056,014491
0000000273,0000272000,079588,070449,088692,039481,080057,018255
0000000274,0000273000,082449,068757,087522,028679,084115,025000
0000000275,0000274000,085270,067867,085591,018879,084842,034072
0000000276,0000275000,087773,067865,083090,011040,082172,044582
0000000277,0000276000,089702,068753,080274,005941,076365,055487
0000000278,0000277000,090873,070447,077408,004079,067983,065731
0000000279,0000278000,091177,072784,074768,005627,057844,074321
0000000280,0000279000,090580,075526,072623,010434,046955,080404
0000000281,0000280000,089141,078406,071182,018033,036378,083382
0000000282,0000281000,086994,081152,070581,027688,027134,082973
0000000283,0000282000,084358,083490,070880,038442,020134,079217
0000000284,0000283000,081494,085185,072049,049237,016073,072483
0000000285,0000284000,078672,086077,073980,059033,015340,063421
0000000286,0000285000,076168,086079,076482,066871,018002,052920
0000000287,0000286000,074236,085193,079299,071971,023800,042023
0000000288,0000287000,073063,083500,082166,073838,032171,031785
0000000289,0000288000,072759,081161,084808,072298,042299,023197
0000000290,0000289000,073354,078419,086955,067500,053180,017113
0000000291,0000290000,074792,075539,088398,059912,063750,014132
0000000292,0000291000,076939,072789,089000,050268,072990,014534
0000000293,0000292000,079576,070449,088703,039523,079990,018280
0000000294,0000293000,082440,068753,087535,028735,084054,025004
0000000295,0000294000,085265,067859,085604,018945,084793,034055
0000000296,0000295000,087772,067854,083102,011108,082140,044545
0000000297,0000296000,089705,068740,080284,006006,076353,055434
0000000298,0000297000,090880,070434,077415,004133,067993,065666
0000000299,0000298000,091187,072771,074771,005666,057876,074252
0000000300,0000299000,090592,075515,072621,010453,047004,080336
0000000301,0000300000,089155,078397,071177,018030,036441,083322
