DIgSILENT PowerFactory,21000900,2000
6,06A,00D
1,TTPP_200000_100:Secondary Voltage A,,,V,0.10000000,-8345.366211,0.000000,64258,99998,1,1,P
2,TTPP_200000_100:Secondary Voltage B,,,V,0.10000000,-8168.630371,0.000000,65665,99998,1,1,P
3,TTPP_200000_100:Secondary Voltage C,,,V,0.10000000,-8352.203125,0.000000,62536,99998,1,1,P
4,TTCC_300_1:Secondary Current A,,,A,0.00010000000,-3.443901,0.000000,-10883,99998,1,1,P
5,TTCC_300_1:Secondary Current B,,,A,0.00010000000,-5.020414,0.000000,394,99998,1,1,P
6,TTCC_300_1:Secondary Current C,,,A,0.00010000000,-4.889490,0.000000,-1992,99998,1,1,P
50
1
1000.000000,1101
30/06/2023,06:05:45.000000
30/06/2023,06:05:45.000000
ASCII
1.000000
0000000001,0000000000,090560,083161,074941,013509,036215,083814
0000000002,0000001000,088426,085878,074356,023262,026938,083341
0000000003,0000002000,085785,088209,074668,034102,019939,079499
0000000004,0000003000,082929,089889,075844,044980,015895,072663
0000000005,0000004000,080136,090749,077777,054823,015220,063493
0000000006,0000005000,077648,090741,080274,062671,017974,052894
0000000007,0000006000,075727,089855,083080,067758,023867,041914
0000000008,0000007000,074582,088148,085933,069580,032343,031615
0000000009,0000008000,074297,085809,088555,067956,042584,022998
0000000010,0000009000,074894,083087,090681,063059,053558,016922
0000000011,0000010000,076342,080216,092103,055365,064192,013981
0000000012,0000011000,078495,077479,092688,045606,073478,014453
0000000013,0000012000,081117,075169,092376,034757,080485,018295
0000000014,0000013000,083968,073494,091199,023892,084515,025133
0000000015,0000014000,086783,072612,089268,014048,085190,034301
0000000016,0000015000,089262,072629,086770,006189,082450,044899
0000000017,0000016000,091169,073529,083963,001110,076547,055881
0000000018,0000017000,092331,075220,081111,-00708,068067,066179
0000000019,0000018000,092616,077557,078489,000908,057835,074795
0000000020,0000019000,092004,080296,076363,005807,046859,080872
0000000021,0000020000,090566,083156,074940,013508,036216,083814
0000000022,0000021000,088420,085885,074356,023259,026939,083340
0000000023,0000022000,085783,088211,074668,034109,019932,079498
0000000024,0000023000,082937,089881,075844,044980,015896,072662
0000000025,0000024000,080134,090752,077777,054820,015223,063494
0000000026,0000025000,077641,090748,080274,062675,017969,052894
0000000027,0000026000,075733,089849,083080,067763,023863,041913
0000000028,0000027000,074585,088145,085933,069577,032346,031615
0000000029,0000028000,074290,085816,088555,067957,042582,022999
0000000030,0000029000,074895,083086,090681,063065,053552,016921
0000000031,0000030000,076348,080210,092103,055365,064193,013980
0000000032,0000031000,078491,077483,092688,045605,073479,014453
0000000033,0000032000,081114,075172,092377,034762,080480,018295
0000000034,0000033000,083974,073489,091200,023896,084512,025131
0000000035,0000034000,086782,072613,089268,014047,085193,034299
0000000036,0000035000,089257,072634,086771,006193,082447,044898
0000000037,0000036000,091172,073526,083963,001115,076544,055879
0000000038,0000037000,092333,075217,081112,-00707,068068,066177
0000000039,0000038000,092613,077560,078489,000908,057836,074793
0000000040,0000039000,092005,080295,076363,005810,046857,080871
0000000041,0000040000,090569,083153,074940,013509,036217,083812
0000000042,0000041000,088418,085888,074356,023259,026940,083339
0000000043,0000042000,085783,088211,074667,034110,019931,079497
0000000044,0000043000,082939,089879,075844,044981,015896,072662
0000000045,0000044000,080132,090754,077777,054820,015224,063494
0000000046,0000045000,077640,090748,080273,062676,017967,052894
0000000047,0000046000,075735,089847,083080,067762,023862,041914
0000000048,0000047000,074583,088146,085933,069577,032345,031616
0000000049,0000048000,074289,085818,088555,067959,042580,023000
0000000050,0000049000,074898,083083,090681,063066,053550,016922
0000000051,0000050000,076347,080211,092104,055365,064192,013981
0000000052,0000051000,078488,077486,092689,045609,073475,014454
0000000053,0000052000,081117,075169,092376,034765,080477,018295
0000000054,0000053000,083974,073488,091200,023896,084511,025131
0000000055,0000054000,086778,072616,089268,014050,085190,034298
0000000056,0000055000,089259,072632,086771,006198,082444,044896
0000000057,0000056000,091176,073523,083964,001116,076545,055877
0000000058,0000057000,092330,075220,081112,-00706,068069,066175
0000000059,0000058000,092612,077561,078489,000913,057834,074790
0000000060,0000059000,092010,080290,076362,005811,046859,080868
0000000061,0000060000,090567,083154,074940,013507,036221,083810
0000000062,0000061000,088415,085891,074356,023261,026940,083337
0000000063,0000062000,085787,088208,074667,034110,019932,079496
0000000064,0000063000,082940,089878,075844,044976,015900,072661
0000000065,0000064000,080128,090758,077776,054818,015225,063494
0000000066,0000065000,077642,090747,080273,062676,017966,052896
0000000067,0000066000,075737,089845,083080,067758,023864,041916
0000000068,0000067000,074579,088150,085932,069574,032345,031619
0000000069,0000068000,074288,085819,088555,067960,042575,023003
0000000070,0000069000,074900,083080,090681,063066,053547,016925
0000000071,0000070000,076345,080213,092104,055364,064190,013983
0000000072,0000071000,078485,077488,092689,045612,073470,014456
0000000073,0000072000,081119,075166,092377,034769,080472,018296
0000000074,0000073000,083974,073487,091201,023899,084509,025131
0000000075,0000074000,086775,072618,089269,014055,085187,034296
0000000076,0000075000,089261,072630,086771,006204,082440,044894
0000000077,0000076000,091177,073521,083965,001120,076545,055874
0000000078,0000077000,092328,075222,081112,-00702,068069,066170
0000000079,0000078000,092614,077560,078489,000918,057835,074786
0000000080,0000079000,092012,080287,076363,005813,046862,080863
0000000081,0000080000,090566,083156,074940,013507,036226,083805
0000000082,0000081000,088416,085891,074355,023261,026944,083333
0000000083,0000082000,085790,088205,074666,034107,019937,079494
0000000084,0000083000,082940,089880,075843,044972,015906,072660
0000000085,0000084000,080128,090760,077775,054814,015228,063495
0000000086,0000085000,077645,090746,080272,062671,017968,052899
0000000087,0000086000,075737,089846,083079,067753,023866,041920
0000000088,0000087000,074577,088153,085932,069571,032344,031624
0000000089,0000088000,074289,085818,088555,067958,042572,023009
0000000090,0000089000,074900,083080,090682,063063,053544,016931
0000000091,0000090000,076341,080216,092105,055365,064184,013988
0000000092,0000091000,078485,077488,092689,045616,073462,014460
0000000093,0000092000,081120,075164,092378,034773,080466,018299
0000000094,0000093000,083970,073489,091202,023904,084503,025131
0000000095,0000094000,086774,072618,089270,014064,085180,034294
0000000096,0000095000,089263,072626,086773,006212,082437,044890
0000000097,0000096000,091176,073521,083966,001126,076544,055868
0000000098,0000097000,092327,075222,081113,-00694,068069,066163
0000000099,0000098000,092617,077556,078489,000923,057837,074778
0000000100,0000099000,092013,080286,076363,005814,046869,080856
0000000101,0000100000,090565,083157,074939,013508,036232,083798
0000000102,0000101000,088419,085889,074354,023260,026950,083328
0000000103,0000102000,085793,088204,074665,034102,019946,079490
0000000104,0000103000,082938,089882,075841,044965,015913,072660
0000000105,0000104000,080129,090760,077773,054808,015233,063497
0000000106,0000105000,077647,090745,080270,062662,017973,052903
0000000107,0000106000,075735,089849,083078,067744,023868,041927
0000000108,0000107000,074575,088156,085931,069565,032341,031632
0000000109,0000108000,074290,085818,088554,067953,042567,023018
0000000110,0000109000,074898,083082,090682,063060,053538,016940
0000000111,0000110000,076338,080219,092105,055367,064175,013997
0000000112,0000111000,078485,077487,092691,045620,073451,014466
0000000113,0000112000,081118,075164,092380,034778,080457,018303
0000000114,0000113000,083967,073490,091204,023913,084494,025131
0000000115,0000114000,086774,072616,089271,014075,085171,034292
0000000116,0000115000,089264,072623,086775,006222,082432,044885
0000000117,0000116000,091174,073520,083967,001136,076543,055859
0000000118,0000117000,092328,075220,081114,-00684,068069,066153
0000000119,0000118000,092620,077552,078490,000929,057842,074767
0000000120,0000119000,092014,080286,076362,005817,046877,080844
0000000121,0000120000,090567,083157,074938,013509,036241,083788
0000000122,0000121000,088423,085887,074352,023257,026962,083320
0000000123,0000122000,085794,088204,074663,034094,019959,079485
0000000124,0000123000,082939,089884,075839,044956,015924,072658
0000000125,0000124000,080131,090760,077771,054797,015241,063500
0000000126,0000125000,077647,090746,080268,062649,017980,052910
0000000127,0000126000,075732,089853,083076,067732,023870,041936
0000000128,0000127000,074575,088157,085929,069556,032338,031644
0000000129,0000128000,074289,085819,088554,067945,042562,023031
0000000130,0000129000,074894,083086,090682,063056,053529,016953
0000000131,0000130000,076336,080220,092106,055368,064162,014008
0000000132,0000131000,078484,077486,092692,045625,073438,014475
0000000133,0000132000,081115,075165,092382,034786,080443,018308
0000000134,0000133000,083965,073491,091207,023926,084480,025133
0000000135,0000134000,086775,072613,089274,014090,085160,034289
0000000136,0000135000,089263,072621,086777,006236,082426,044877
0000000137,0000136000,091174,073519,083969,001151,076539,055848
0000000138,0000137000,092331,075216,081115,-00671,068070,066138
0000000139,0000138000,092623,077549,078490,000937,057849,074751
0000000140,0000139000,092015,080285,076362,005822,046887,080829
0000000141,0000140000,090570,083155,074937,013509,036254,083775
0000000142,0000141000,088427,085884,074351,023251,026978,083310
0000000143,0000142000,085795,088206,074661,034084,019976,079479
0000000144,0000143000,082940,089886,075836,044943,015938,072657
0000000145,0000144000,080134,090761,077768,054780,015253,063504
0000000146,0000145000,077647,090750,080266,062631,017988,052918
0000000147,0000146000,075731,089857,083074,067716,023873,041949
0000000148,0000147000,074575,088159,085928,069542,032336,031660
0000000149,0000148000,074286,085822,088553,067934,042555,023049
0000000150,0000149000,074890,083090,090682,063051,053516,016971
0000000151,0000150000,076333,080222,092107,055369,064145,014024
0000000152,0000151000,078481,077486,092695,045630,073420,014487
0000000153,0000152000,081111,075166,092385,034798,080425,018315
0000000154,0000153000,083963,073489,091210,023943,084462,025134
0000000155,0000154000,086775,072609,089278,014108,085146,034284
0000000156,0000155000,089262,072619,086780,006255,082416,044867
0000000157,0000156000,091174,073516,083972,001170,076535,055833
0000000158,0000157000,092334,075212,081117,-00655,068073,066120
0000000159,0000158000,092625,077546,078491,000949,057858,074731
0000000160,0000159000,092018,080283,076362,005828,046901,080809
0000000161,0000160000,090575,083151,074936,013509,036272,083757
0000000162,0000161000,088431,085883,074348,023243,026999,083296
0000000163,0000162000,085798,088207,074657,034071,019997,079470
0000000164,0000163000,082944,089886,075832,044926,015957,072655
0000000165,0000164000,080136,090762,077764,054759,015270,063509
0000000166,0000165000,077646,090754,080262,062609,017999,052930
0000000167,0000166000,075730,089861,083071,067696,023876,041966
0000000168,0000167000,074574,088162,085926,069524,032333,031681
0000000169,0000168000,074282,085827,088553,067921,042546,023072
0000000170,0000169000,074885,083094,090683,063045,053500,016993
0000000171,0000170000,076330,080223,092109,055370,064124,014044
0000000172,0000171000,078477,077488,092698,045638,073397,014503
0000000173,0000172000,081106,075167,092389,034813,080400,018324
0000000174,0000173000,083961,073487,091214,023963,084439,025136
0000000175,0000174000,086773,072607,089282,014131,085129,034278
0000000176,0000175000,089261,072617,086785,006281,082404,044853
0000000177,0000176000,091176,073511,083975,001195,076529,055814
0000000178,0000177000,092337,075206,081119,-00635,068076,066096
0000000179,0000178000,092628,077542,078492,000963,057870,074705
0000000180,0000179000,092022,080279,076361,005837,046918,080783
0000000181,0000180000,090581,083147,074934,013509,036296,083734
0000000182,0000181000,088435,085882,074345,023234,027026,083278
0000000183,0000182000,085802,088208,074653,034055,020023,079460
0000000184,0000183000,082948,089887,075827,044904,015981,072653
0000000185,0000184000,080138,090765,077759,054732,015291,063515
0000000186,0000185000,077646,090759,080257,062581,018012,052944
0000000187,0000186000,075730,089865,083067,067670,023881,041988
0000000188,0000187000,074571,088167,085923,069501,032330,031708
0000000189,0000188000,074277,085833,088552,067904,042534,023100
0000000190,0000189000,074881,083098,090683,063037,053479,017022
0000000191,0000190000,076325,080226,092112,055370,064098,014069
0000000192,0000191000,078471,077490,092702,045648,073368,014522
0000000193,0000192000,081101,075167,092394,034832,080370,018336
0000000194,0000193000,083958,073484,091220,023988,084412,025139
0000000195,0000194000,086770,072604,089288,014160,085107,034271
0000000196,0000195000,089260,072613,086790,006312,082389,044837
0000000197,0000196000,091178,073505,083979,001225,076523,055790
0000000198,0000197000,092340,075200,081122,-00610,068081,066067
0000000199,0000198000,092631,077537,078493,000982,057883,074673
0000000200,0000199000,092028,080274,076360,005846,046940,080752
0000000201,0000200000,090587,083144,074931,013507,036325,083706
0000000202,0000201000,088440,085881,074341,023223,027059,083256
0000000203,0000202000,085807,088208,074647,034036,020056,079447
0000000204,0000203000,082953,089888,075821,044876,016012,072650
0000000205,0000204000,080139,090770,077753,054699,015315,063523
0000000206,0000205000,077646,090765,080251,062547,018028,052962
0000000207,0000206000,075729,089871,083062,067637,023887,042014
0000000208,0000207000,074567,088174,085920,069473,032326,031740
0000000209,0000208000,074272,085840,088550,067885,042518,023136
0000000210,0000209000,074875,083102,090684,063027,053454,017056
0000000211,0000210000,076318,080229,092114,055371,064067,014100
0000000212,0000211000,078463,077493,092706,045660,073332,014546
0000000213,0000212000,081096,075166,092400,034855,080333,018350
0000000214,0000213000,083954,073482,091227,024018,084379,025141
0000000215,0000214000,086767,072600,089295,014196,085080,034262
0000000216,0000215000,089259,072607,086796,006350,082371,044817
0000000217,0000216000,091180,073498,083984,001260,076517,055761
0000000218,0000217000,092343,075193,081126,-00580,068086,066031
0000000219,0000218000,092637,077531,078495,001004,057900,074634
0000000220,0000219000,092036,080267,076359,005857,046967,080714
0000000221,0000220000,090594,083139,074928,013506,036360,083673
0000000222,0000221000,088447,085879,074336,023210,027098,083231
0000000223,0000222000,085814,088207,074641,034011,020095,079432
0000000224,0000223000,082958,089891,075813,044842,016049,072647
0000000225,0000224000,080142,090775,077745,054660,015345,063533
0000000226,0000225000,077647,090771,080244,062507,018048,052984
0000000227,0000226000,075728,089878,083056,067598,023895,042045
0000000228,0000227000,074563,088183,085916,069440,032320,031779
0000000229,0000228000,074266,085847,088548,067861,042499,023178
0000000230,0000229000,074868,083108,090685,063015,053425,017098
0000000231,0000230000,076310,080234,092118,055372,064030,014136
0000000232,0000231000,078455,077496,092711,045675,073289,014574
0000000233,0000232000,081089,075166,092407,034881,080290,018367
0000000234,0000233000,083948,073479,091235,024054,084339,025145
0000000235,0000234000,086763,072596,089303,014239,085048,034252
0000000236,0000235000,089259,072599,086804,006395,082349,044794
0000000237,0000236000,091182,073489,083991,001302,076509,055727
0000000238,0000237000,092346,075185,081130,-00544,068092,065989
0000000239,0000238000,092643,077522,078496,001030,057919,074588
0000000240,0000239000,092044,080260,076358,005870,046999,080669
0000000241,0000240000,090603,083135,074925,013504,036401,083633
0000000242,0000241000,088456,085877,074330,023195,027143,083200
0000000243,0000242000,085822,088207,074633,033982,020142,079414
0000000244,0000243000,082964,089894,075805,044803,016092,072644
0000000245,0000244000,080145,090781,077736,054614,015379,063544
0000000246,0000245000,077649,090778,080236,062458,018070,053009
0000000247,0000246000,075726,089887,083050,067552,023904,042083
0000000248,0000247000,074558,088193,085912,069401,032313,031824
0000000249,0000248000,074260,085856,088546,067834,042477,023227
0000000250,0000249000,074860,083116,090686,063001,053391,017146
0000000251,0000250000,076300,080241,092122,055374,063985,014179
0000000252,0000251000,078446,077499,092718,045692,073239,014606
0000000253,0000252000,081081,075165,092415,034912,080240,018386
0000000254,0000253000,083941,073476,091245,024097,084293,025148
0000000255,0000254000,086759,072590,089313,014289,085010,034239
0000000256,0000255000,089258,072591,086813,006447,082325,044766
0000000257,0000256000,091184,073480,083998,001352,076500,055686
0000000258,0000257000,092351,075176,081135,-00502,068100,065940
0000000259,0000258000,092651,077512,078499,001060,057942,074535
0000000260,0000259000,092053,080251,076357,005884,047037,080617
0000000261,0000260000,090613,083129,074920,013502,036449,083587
0000000262,0000261000,088466,085873,074323,023176,027197,083165
0000000263,0000262000,085832,088206,074624,033948,020197,079394
0000000264,0000263000,082970,089898,075794,044757,016141,072640
0000000265,0000264000,080150,090787,077725,054561,015419,063558
0000000266,0000265000,077650,090786,080226,062402,018097,053039
0000000267,0000266000,075723,089897,083042,067498,023914,042126
0000000268,0000267000,074552,088204,085906,069356,032305,031877
0000000269,0000268000,074252,085866,088544,067802,042452,023284
0000000270,0000269000,074850,083125,090688,062985,053351,017202
0000000271,0000270000,076288,080248,092126,055376,063934,014228
0000000272,0000271000,078435,077502,092725,045713,073181,014644
0000000273,0000272000,081072,075165,092425,034949,080181,018408
0000000274,0000273000,083933,073473,091256,024146,084240,025152
0000000275,0000274000,086754,072583,089325,014347,084967,034225
0000000276,0000275000,089257,072581,086823,006507,082297,044734
0000000277,0000276000,091186,073469,084007,001408,076490,055640
0000000278,0000277000,092357,075164,081141,-00454,068108,065883
0000000279,0000278000,092660,077501,078501,001094,057970,074474
0000000280,0000279000,092064,080242,076356,005901,047080,080557
0000000281,0000280000,090624,083122,074915,013500,036504,083535
0000000282,0000281000,088478,085869,074315,023154,027259,083125
0000000283,0000282000,085842,088206,074613,033909,020259,079370
0000000284,0000283000,082978,089902,075782,044704,016198,072636
0000000285,0000284000,080155,090794,077713,054499,015465,063574
0000000286,0000285000,077652,090796,080215,062338,018127,053073
0000000287,0000286000,075720,089910,083032,067438,023925,042176
0000000288,0000287000,074546,088216,085899,069306,032295,031938
0000000289,0000288000,074243,085878,088541,067765,042423,023350
0000000290,0000289000,074838,083136,090689,062967,053305,017266
0000000291,0000290000,076275,080255,092131,055379,063874,014284
0000000292,0000291000,078423,077506,092734,045736,073115,014687
0000000293,0000292000,081060,075166,092437,034990,080115,018433
0000000294,0000293000,083924,073469,091269,024203,084179,025156
0000000295,0000294000,086749,072575,089338,014413,084918,034208
0000000296,0000295000,089255,072571,086836,006576,082265,044698
0000000297,0000296000,091188,073457,084017,001473,076478,055586
0000000298,0000297000,092364,075150,081148,-00399,068118,065819
0000000299,0000298000,092670,077488,078504,001133,058001,074404
0000000300,0000299000,092076,080231,076355,005920,047129,080489
0000000301,0000300000,090638,083114,074910,013497,036566,083475
