DIgSILENT PowerFactory,21000900,2000
6,06A,00D
1,TTPP_200000_100:Secondary Voltage A,,,V,0.10000000,-8230.240234,0.000000,63450,99998,1,1,P
2,TTPP_200000_100:Secondary Voltage B,,,V,0.10000000,-8182.937988,0.000000,66053,99998,1,1,P
3,TTPP_200000_100:Secondary Voltage C,,,V,0.10000000,-8350.556641,0.000000,61340,99998,1,1,P
4,TTCC_300_1:Secondary Current A,,,A,0.00010000000,-3.290120,0.000000,-13405,99998,1,1,P
5,TTCC_300_1:Secondary Current B,,,A,0.00010000000,-5.010890,0.000000,178,99998,1,1,P
6,TTCC_300_1:Secondary Current C,,,A,0.00010000000,-4.891769,0.000000,-2128,99998,1,1,P
50
1
1000.000000,1101
30/06/2023,06:07:57.000000
30/06/2023,06:07:57.000000
ASCII
1.000000
0000000001,0000000000,089409,083304,074924,011972,036119,083837
0000000002,0000001000,087275,086022,074340,021725,026841,083363
0000000003,0000002000,084634,088352,074651,032564,019843,079521
0000000004,0000003000,081778,090031,075828,043443,015800,072685
0000000005,0000004000,078984,090893,077761,053286,015125,063516
0000000006,0000005000,076497,090884,080258,061134,017878,052916
0000000007,0000006000,074575,089998,083064,066220,023773,041935
0000000008,0000007000,073431,088290,085917,068042,032248,031638
0000000009,0000008000,073145,085952,088539,066419,042489,023021
0000000010,0000009000,073743,083230,090665,061520,053463,016944
0000000011,0000010000,075191,080359,092087,053827,064098,014004
0000000012,0000011000,077344,077622,092672,044067,073383,014476
0000000013,0000012000,079966,075312,092360,033219,080390,018319
0000000014,0000013000,082817,073637,091183,022353,084420,025155
0000000015,0000014000,085631,072755,089251,012510,085095,034324
0000000016,0000015000,088110,072772,086754,004651,082354,044923
0000000017,0000016000,090018,073672,083946,-00427,076451,055904
0000000018,0000017000,091180,075363,081095,-02246,067971,066203
0000000019,0000018000,091465,077700,078473,-00630,057739,074818
0000000020,0000019000,090853,080439,076346,004269,046763,080895
0000000021,0000020000,089415,083298,074924,011971,036120,083837
0000000022,0000021000,087268,086029,074340,021722,026844,083363
0000000023,0000022000,084631,088354,074651,032572,019836,079520
0000000024,0000023000,081786,090024,075827,043443,015800,072684
0000000025,0000024000,078982,090895,077761,053283,015128,063516
0000000026,0000025000,076489,090891,080258,061137,017874,052916
0000000027,0000026000,074581,089992,083064,066225,023767,041935
0000000028,0000027000,073434,088287,085916,068040,032251,031638
0000000029,0000028000,073138,085959,088539,066419,042488,023021
0000000030,0000029000,073743,083229,090665,061527,053457,016944
0000000031,0000030000,075197,080353,092087,053827,064098,014003
0000000032,0000031000,077340,077626,092672,044067,073384,014476
0000000033,0000032000,079963,075315,092360,033224,080386,018318
0000000034,0000033000,082822,073632,091183,022357,084416,025154
0000000035,0000034000,085631,072755,089251,012508,085098,034322
0000000036,0000035000,088106,072777,086754,004655,082352,044922
0000000037,0000036000,090021,073669,083947,-00424,076448,055903
0000000038,0000037000,091182,075361,081095,-02245,067972,066200
0000000039,0000038000,091462,077704,078472,-00630,057740,074816
0000000040,0000039000,090854,080438,076346,004273,046761,080894
0000000041,0000040000,089417,083296,074924,011971,036122,083835
0000000042,0000041000,087267,086031,074340,021722,026844,083361
0000000043,0000042000,084632,088354,074651,032572,019836,079520
0000000044,0000043000,081788,090022,075828,043443,015800,072684
0000000045,0000044000,078980,090897,077760,053282,015129,063516
0000000046,0000045000,076489,090891,080257,061138,017872,052917
0000000047,0000046000,074583,089990,083064,066224,023768,041936
0000000048,0000047000,073431,088289,085916,068039,032250,031638
0000000049,0000048000,073137,085961,088539,066421,042485,023022
0000000050,0000049000,073747,083226,090665,061528,053455,016945
0000000051,0000050000,075196,080354,092087,053827,064097,014004
0000000052,0000051000,077337,077629,092672,044071,073380,014477
0000000053,0000052000,079966,075312,092360,033227,080382,018318
0000000054,0000053000,082823,073631,091184,022358,084416,025154
0000000055,0000054000,085627,072759,089251,012512,085095,034321
0000000056,0000055000,088108,072775,086754,004660,082348,044920
0000000057,0000056000,090025,073666,083947,-00422,076449,055901
0000000058,0000057000,091178,075364,081095,-02244,067973,066198
0000000059,0000058000,091461,077704,078472,-00624,057738,074814
0000000060,0000059000,090858,080433,076346,004274,046763,080891
0000000061,0000060000,089416,083297,074924,011969,036126,083833
0000000062,0000061000,087264,086034,074339,021724,026845,083360
0000000063,0000062000,084636,088351,074650,032573,019837,079518
0000000064,0000063000,081789,090021,075827,043439,015805,072684
0000000065,0000064000,078977,090901,077760,053280,015130,063517
0000000066,0000065000,076491,090890,080256,061138,017871,052918
0000000067,0000066000,074586,089988,083064,066221,023769,041938
0000000068,0000067000,073428,088293,085916,068036,032251,031641
0000000069,0000068000,073136,085962,088539,066422,042481,023025
0000000070,0000069000,073749,083223,090665,061528,053452,016948
0000000071,0000070000,075194,080356,092088,053826,064095,014006
0000000072,0000071000,077334,077631,092672,044074,073375,014479
0000000073,0000072000,079968,075309,092361,033231,080377,018320
0000000074,0000073000,082822,073630,091185,022360,084414,025154
0000000075,0000074000,085624,072761,089252,012517,085091,034320
0000000076,0000075000,088110,072773,086755,004666,082345,044917
0000000077,0000076000,090026,073664,083948,-00418,076449,055897
0000000078,0000077000,091177,075365,081096,-02239,067974,066193
0000000079,0000078000,091463,077703,078472,-00620,057739,074809
0000000080,0000079000,090861,080431,076346,004275,046766,080886
0000000081,0000080000,089415,083299,074924,011970,036130,083828
0000000082,0000081000,087265,086034,074338,021724,026848,083356
0000000083,0000082000,084639,088349,074650,032570,019842,079516
0000000084,0000083000,081788,090023,075826,043435,015810,072683
0000000085,0000084000,078976,090903,077759,053277,015133,063518
0000000086,0000085000,076493,090889,080255,061133,017873,052921
0000000087,0000086000,074585,089989,083063,066215,023771,041942
0000000088,0000087000,073426,088296,085915,068033,032249,031646
0000000089,0000088000,073138,085961,088538,066420,042477,023031
0000000090,0000089000,073749,083223,090665,061525,053449,016954
0000000091,0000090000,075190,080359,092088,053827,064089,014011
0000000092,0000091000,077334,077631,092673,044078,073367,014483
0000000093,0000092000,079969,075307,092362,033234,080371,018322
0000000094,0000093000,082819,073632,091186,022366,084408,025154
0000000095,0000094000,085623,072761,089253,012526,085085,034318
0000000096,0000095000,088112,072769,086756,004673,082341,044914
0000000097,0000096000,090024,073664,083949,-00412,076449,055891
0000000098,0000097000,091176,075366,081096,-02232,067973,066186
0000000099,0000098000,091466,077699,078473,-00615,057741,074801
0000000100,0000099000,090862,080429,076346,004276,046773,080879
0000000101,0000100000,089414,083301,074923,011970,036137,083821
0000000102,0000101000,087268,086032,074337,021723,026855,083351
0000000103,0000102000,084641,088347,074649,032564,019851,079513
0000000104,0000103000,081787,090026,075825,043428,015818,072682
0000000105,0000104000,078977,090904,077757,053270,015138,063519
0000000106,0000105000,076495,090888,080254,061124,017878,052925
0000000107,0000106000,074583,089992,083062,066206,023773,041949
0000000108,0000107000,073424,088299,085914,068027,032246,031654
0000000109,0000108000,073138,085961,088538,066415,042473,023040
0000000110,0000109000,073746,083225,090665,061522,053443,016963
0000000111,0000110000,075187,080362,092089,053828,064080,014019
0000000112,0000111000,077334,077630,092674,044082,073356,014489
0000000113,0000112000,079967,075307,092364,033240,080362,018326
0000000114,0000113000,082816,073634,091188,022375,084399,025155
0000000115,0000114000,085623,072759,089255,012537,085076,034315
0000000116,0000115000,088113,072766,086758,004684,082337,044908
0000000117,0000116000,090023,073664,083950,-00402,076447,055883
0000000118,0000117000,091177,075364,081097,-02222,067973,066176
0000000119,0000118000,091469,077696,078473,-00609,057746,074790
0000000120,0000119000,090862,080429,076346,004279,046781,080867
0000000121,0000120000,089415,083300,074922,011971,036146,083811
0000000122,0000121000,087271,086030,074336,021719,026866,083343
0000000123,0000122000,084643,088348,074647,032556,019864,079508
0000000124,0000123000,081787,090028,075823,043419,015828,072681
0000000125,0000124000,078980,090903,077755,053259,015146,063522
0000000126,0000125000,076496,090889,080252,061111,017885,052932
0000000127,0000126000,074581,089996,083060,066194,023775,041958
0000000128,0000127000,073424,088300,085913,068018,032244,031666
0000000129,0000128000,073138,085962,088538,066407,042468,023053
0000000130,0000129000,073743,083229,090666,061518,053435,016976
0000000131,0000130000,075184,080363,092090,053830,064067,014031
0000000132,0000131000,077333,077629,092676,044086,073343,014498
0000000133,0000132000,079964,075308,092366,033248,080349,018331
0000000134,0000133000,082814,073634,091190,022388,084385,025156
0000000135,0000134000,085624,072756,089257,012551,085065,034312
0000000136,0000135000,088112,072764,086760,004698,082330,044900
0000000137,0000136000,090022,073663,083952,-00387,076444,055871
0000000138,0000137000,091179,075360,081098,-02209,067974,066162
0000000139,0000138000,091472,077692,078474,-00600,057753,074774
0000000140,0000139000,090864,080428,076346,004284,046792,080852
0000000141,0000140000,089419,083298,074921,011972,036159,083797
0000000142,0000141000,087275,086028,074334,021714,026882,083332
0000000143,0000142000,084644,088349,074644,032546,019880,079501
0000000144,0000143000,081789,090029,075819,043406,015842,072679
0000000145,0000144000,078982,090904,077752,053243,015158,063526
0000000146,0000145000,076495,090893,080249,061094,017894,052940
0000000147,0000146000,074580,090000,083058,066179,023778,041971
0000000148,0000147000,073423,088302,085912,068004,032241,031683
0000000149,0000148000,073135,085965,088537,066396,042461,023071
0000000150,0000149000,073738,083233,090666,061513,053422,016993
0000000151,0000150000,075182,080364,092091,053831,064050,014047
0000000152,0000151000,077330,077629,092678,044092,073325,014510
0000000153,0000152000,079960,075309,092369,033260,080330,018338
0000000154,0000153000,082812,073632,091193,022404,084366,025157
0000000155,0000154000,085623,072753,089261,012570,085051,034308
0000000156,0000155000,088111,072763,086764,004717,082321,044890
0000000157,0000156000,090023,073659,083955,-00368,076439,055856
0000000158,0000157000,091183,075355,081100,-02193,067977,066143
0000000159,0000158000,091474,077689,078475,-00589,057763,074754
0000000160,0000159000,090866,080426,076345,004291,046805,080832
0000000161,0000160000,089424,083294,074919,011972,036177,083780
0000000162,0000161000,087279,086026,074332,021706,026904,083318
0000000163,0000162000,084646,088350,074641,032534,019901,079493
0000000164,0000163000,081792,090030,075815,043389,015861,072677
0000000165,0000164000,078984,090905,077748,053222,015175,063531
0000000166,0000165000,076495,090897,080246,061071,017904,052952
0000000167,0000166000,074579,090004,083054,066158,023781,041988
0000000168,0000167000,073422,088305,085910,067986,032238,031704
0000000169,0000168000,073131,085970,088536,066383,042451,023094
0000000170,0000169000,073734,083237,090666,061507,053405,017016
0000000171,0000170000,075179,080366,092093,053831,064029,014067
0000000172,0000171000,077326,077631,092681,044099,073302,014526
0000000173,0000172000,079955,075310,092373,033275,080305,018347
0000000174,0000173000,082810,073630,091198,022425,084344,025159
0000000175,0000174000,085622,072750,089266,012593,085034,034302
0000000176,0000175000,088109,072760,086768,004742,082309,044877
0000000177,0000176000,090025,073655,083958,-00343,076434,055837
0000000178,0000177000,091186,075349,081103,-02173,067981,066120
0000000179,0000178000,091476,077686,078476,-00574,057774,074728
0000000180,0000179000,090871,080422,076344,004299,046823,080806
0000000181,0000180000,089430,083291,074917,011971,036200,083757
0000000182,0000181000,087283,086025,074328,021697,026931,083301
0000000183,0000182000,084650,088351,074636,032518,019927,079482
0000000184,0000183000,081797,090030,075810,043366,015886,072675
0000000185,0000184000,078986,090909,077743,053195,015195,063537
0000000186,0000185000,076494,090902,080241,061044,017917,052966
0000000187,0000186000,074578,090008,083051,066132,023786,042010
0000000188,0000187000,073420,088310,085907,067963,032235,031730
0000000189,0000188000,073126,085976,088535,066367,042439,023123
0000000190,0000189000,073730,083241,090667,061499,053385,017044
0000000191,0000190000,075174,080368,092095,053832,064004,014092
0000000192,0000191000,077319,077633,092685,044109,073273,014545
0000000193,0000192000,079950,075310,092377,033294,080275,018359
0000000194,0000193000,082807,073627,091203,022450,084317,025162
0000000195,0000194000,085619,072747,089272,012622,085012,034295
0000000196,0000195000,088108,072756,086773,004774,082293,044861
0000000197,0000196000,090027,073648,083962,-00313,076428,055813
0000000198,0000197000,091188,075343,081106,-02148,067985,066090
0000000199,0000198000,091480,077681,078477,-00556,057787,074696
0000000200,0000199000,090877,080417,076343,004309,046844,080775
0000000201,0000200000,089436,083287,074915,011970,036229,083729
0000000202,0000201000,087289,086024,074324,021686,026963,083279
0000000203,0000202000,084656,088351,074631,032498,019960,079470
0000000204,0000203000,081801,090032,075804,043339,015917,072673
0000000205,0000204000,078988,090913,077737,053162,015220,063545
0000000206,0000205000,076495,090908,080235,061010,017933,052984
0000000207,0000206000,074578,090014,083046,066099,023792,042036
0000000208,0000207000,073416,088317,085904,067935,032231,031762
0000000209,0000208000,073121,085983,088534,066347,042423,023158
0000000210,0000209000,073724,083245,090668,061489,053360,017079
0000000211,0000210000,075167,080372,092098,053833,063972,014123
0000000212,0000211000,077312,077636,092690,044122,073237,014569
0000000213,0000212000,079945,075309,092383,033316,080238,018373
0000000214,0000213000,082803,073625,091210,022480,084284,025165
0000000215,0000214000,085615,072743,089278,012658,084985,034286
0000000216,0000215000,088108,072750,086779,004812,082275,044841
0000000217,0000216000,090029,073641,083968,-00278,076421,055784
0000000218,0000217000,091191,075337,081109,-02118,067990,066055
0000000219,0000218000,091485,077674,078478,-00534,057804,074657
0000000220,0000219000,090884,080410,076343,004320,046871,080737
0000000221,0000220000,089443,083283,074912,011969,036264,083696
0000000222,0000221000,087295,086023,074319,021673,027002,083253
0000000223,0000222000,084663,088350,074624,032474,019999,079454
0000000224,0000223000,081806,090034,075797,043305,015953,072669
0000000225,0000224000,078991,090918,077729,053123,015250,063555
0000000226,0000225000,076496,090914,080228,060969,017953,053006
0000000227,0000226000,074576,090021,083040,066060,023800,042068
0000000228,0000227000,073412,088326,085900,067902,032225,031801
0000000229,0000228000,073115,085990,088532,066324,042405,023200
0000000230,0000229000,073717,083251,090669,061477,053331,017120
0000000231,0000230000,075159,080377,092101,053834,063935,014159
0000000232,0000231000,077304,077639,092695,044137,073194,014597
0000000233,0000232000,079938,075309,092390,033343,080195,018390
0000000234,0000233000,082797,073622,091218,022516,084244,025168
0000000235,0000234000,085612,072739,089287,012701,084952,034275
0000000236,0000235000,088108,072742,086787,004857,082254,044817
0000000237,0000236000,090031,073632,083974,-00236,076413,055750
0000000238,0000237000,091195,075329,081114,-02082,067997,066013
0000000239,0000238000,091492,077666,078480,-00508,057823,074612
0000000240,0000239000,090893,080403,076342,004332,046903,080692
0000000241,0000240000,089451,083278,074908,011967,036305,083656
0000000242,0000241000,087304,086020,074313,021657,027048,083223
0000000243,0000242000,084671,088350,074616,032445,020046,079437
0000000244,0000243000,081812,090037,075788,043265,015996,072666
0000000245,0000244000,078994,090924,077720,053077,015284,063566
0000000246,0000245000,076497,090921,080220,060921,017975,053031
0000000247,0000246000,074574,090030,083033,066014,023809,042105
0000000248,0000247000,073406,088335,085895,067863,032218,031847
0000000249,0000248000,073108,085999,088530,066296,042383,023249
0000000250,0000249000,073709,083259,090670,061463,053296,017169
0000000251,0000250000,075149,080384,092105,053836,063890,014202
0000000252,0000251000,077295,077642,092701,044154,073144,014629
0000000253,0000252000,079930,075308,092399,033374,080145,018409
0000000254,0000253000,082790,073619,091228,022559,084198,025171
0000000255,0000254000,085607,072733,089297,012751,084915,034263
0000000256,0000255000,088107,072734,086796,004909,082229,044790
0000000257,0000256000,090033,073623,083982,-00186,076405,055710
0000000258,0000257000,091200,075319,081119,-02040,068004,065963
0000000259,0000258000,091500,077656,078482,-00478,057847,074558
0000000260,0000259000,090902,080395,076341,004347,046941,080640
0000000261,0000260000,089461,083272,074904,011965,036353,083610
0000000262,0000261000,087315,086016,074306,021639,027101,083188
0000000263,0000262000,084680,088350,074607,032411,020101,079416
0000000264,0000263000,081819,090041,075778,043219,016046,072662
0000000265,0000264000,078999,090930,077709,053024,015324,063580
0000000266,0000265000,076499,090929,080210,060865,018002,053061
0000000267,0000266000,074572,090040,083025,065961,023819,042148
0000000268,0000267000,073401,088347,085890,067819,032210,031899
0000000269,0000268000,073101,086009,088528,066264,042358,023307
0000000270,0000269000,073698,083268,090671,061447,053256,017225
0000000271,0000270000,075137,080391,092110,053838,063839,014251
0000000272,0000271000,077284,077645,092709,044174,073086,014667
0000000273,0000272000,079920,075308,092409,033410,080087,018431
0000000274,0000273000,082782,073616,091239,022608,084145,025175
0000000275,0000274000,085603,072726,089308,012809,084872,034248
0000000276,0000275000,088106,072724,086807,004969,082201,044758
0000000277,0000276000,090035,073612,083990,-00130,076394,055663
0000000278,0000277000,091206,075307,081125,-01992,068012,065907
0000000279,0000278000,091509,077644,078485,-00443,057874,074497
0000000280,0000279000,090913,080385,076339,004364,046984,080580
0000000281,0000280000,089473,083265,074899,011963,036408,083557
0000000282,0000281000,087327,086012,074298,021617,027163,083148
0000000283,0000282000,084691,088350,074597,032372,020164,079393
0000000284,0000283000,081827,090045,075766,043167,016103,072658
0000000285,0000284000,079004,090937,077697,052962,015369,063596
0000000286,0000285000,076500,090939,080198,060800,018032,053096
0000000287,0000286000,074569,090053,083016,065900,023830,042198
0000000288,0000287000,073395,088359,085883,067768,032200,031960
0000000289,0000288000,073091,086021,088525,066227,042329,023372
0000000290,0000289000,073686,083278,090672,061429,053210,017289
0000000291,0000290000,075124,080398,092115,053841,063780,014307
0000000292,0000291000,077272,077649,092717,044198,073020,014709
0000000293,0000292000,079909,075309,092420,033452,080020,018456
0000000294,0000293000,082773,073613,091252,022665,084084,025179
0000000295,0000294000,085598,072718,089321,012874,084823,034231
0000000296,0000295000,088104,072714,086819,005038,082170,044721
0000000297,0000296000,090037,073600,084000,-00065,076383,055610
0000000298,0000297000,091213,075293,081132,-01937,068023,065842
0000000299,0000298000,091519,077631,078488,-00405,057905,074427
0000000300,0000299000,090925,080374,076338,004383,047033,080512
0000000301,0000300000,089487,083257,074893,011960,036470,083498
