DIgSILENT PowerFactory,21000900,2000
6,06A,00D
1,TTPP_200000_100:Secondary Voltage A,,,V,0.010000000,-67.888420,0.000000,-86352,99998,1,1,P
2,TTPP_200000_100:Secondary Voltage B,,,V,0.010000000,-15.341634,0.000000,-94567,99998,1,1,P
3,TTPP_200000_100:Secondary Voltage C,,,V,0.10000000,-8992.561523,0.000000,79854,99998,1,1,P
4,TTCC_500_5:Secondary Current A,,,A,0.0010000000,-83.261307,0.000000,57868,99998,1,1,P
5,TTCC_500_5:Secondary Current B,,,A,0.0010000000,-84.794769,0.000000,69580,99998,1,1,P
6,TTCC_500_5:Secondary Current C,,,A,0.0010000000,-84.643265,0.000000,69266,99998,1,1,P
50
1
1000.000000,1101
30/06/2023,06:01:58.000000
30/06/2023,06:01:58.000000
ASCII
1.000000
0000000001,0000000000,061936,037910,080773,089179,089472,074048
0000000002,0000001000,036470,062238,080886,086164,092189,074346
0000000003,0000002000,007924,080822,081883,082865,094183,075651
0000000004,0000003000,-20573,091484,083666,079609,095255,077836
0000000005,0000004000,-46308,093220,086067,076707,095303,080690
0000000006,0000005000,-67063,086188,088844,074443,094327,083929
0000000007,0000006000,-80549,070922,091720,073047,092416,087236
0000000008,0000007000,-85352,048662,094426,072653,089755,090291
0000000009,0000008000,-81216,021823,096696,073294,086611,092795
0000000010,0000009000,-68549,-06847,098298,074910,083291,094498
0000000011,0000010000,-48374,-34821,099077,077348,080115,095236
0000000012,0000011000,-22749,-59313,098964,080362,077399,094939
0000000013,0000012000,005558,-77667,097968,083658,075407,093634
0000000014,0000013000,034022,-88295,096185,086918,074332,091449
0000000015,0000014000,060017,-90287,093784,089822,074282,088596
0000000016,0000015000,080675,-83165,091007,092081,075262,085356
0000000017,0000016000,094032,-67754,088130,093477,077172,082050
0000000018,0000017000,098986,-45647,085424,093874,079831,078995
0000000019,0000018000,094825,-18794,083155,093230,082978,076491
0000000020,0000019000,082009,010025,081554,091615,086297,074787
0000000021,0000020000,061975,037868,080774,089181,089469,074049
0000000022,0000021000,036451,062259,080887,086163,092190,074346
0000000023,0000022000,007960,080795,081883,082865,094184,075651
0000000024,0000023000,-20515,091443,083665,079609,095255,077836
0000000025,0000024000,-46359,093273,086067,076705,095305,080690
0000000026,0000025000,-67113,086245,088845,074443,094327,083929
0000000027,0000026000,-80527,070898,091721,073049,092414,087236
0000000028,0000027000,-85309,048625,094426,072653,089756,090291
0000000029,0000028000,-81214,021830,096696,073292,086612,092794
0000000030,0000029000,-68556,-06833,098297,074910,083291,094498
0000000031,0000030000,-48374,-34819,099077,077346,080116,095237
0000000032,0000031000,-22791,-59277,098965,080361,077399,094939
0000000033,0000032000,005551,-77661,097969,083659,075406,093634
0000000034,0000033000,034086,-88360,096185,086918,074332,091449
0000000035,0000034000,060021,-90288,093784,089819,074284,088596
0000000036,0000035000,080631,-83123,091007,092080,075263,085357
0000000037,0000036000,094037,-67761,088130,093477,077172,082050
0000000038,0000037000,098983,-45652,085425,093873,079831,078995
0000000039,0000038000,094815,-18789,083156,093230,082978,076491
0000000040,0000039000,082048,009991,081554,091615,086297,074788
0000000041,0000040000,061993,037850,080773,089180,089470,074049
0000000042,0000041000,036414,062296,080887,086162,092190,074347
0000000043,0000042000,007941,080813,081882,082866,094182,075651
0000000044,0000043000,-20490,091416,083665,079609,095254,077836
0000000045,0000044000,-46351,093264,086067,076704,095305,080690
0000000046,0000045000,-67117,086255,088844,074443,094327,083929
0000000047,0000046000,-80513,070887,091720,073049,092415,087235
0000000048,0000047000,-85327,048641,094426,072652,089757,090291
0000000049,0000048000,-81251,021865,096696,073293,086612,092794
0000000050,0000049000,-68536,-06855,098297,074910,083291,094498
0000000051,0000050000,-48349,-34844,099078,077345,080118,095236
0000000052,0000051000,-22816,-59255,098965,080360,077400,094939
0000000053,0000052000,005543,-77654,097969,083659,075406,093635
0000000054,0000053000,034088,-88369,096186,086917,074333,091450
0000000055,0000054000,059999,-90273,093785,089819,074284,088596
0000000056,0000055000,080635,-83131,091007,092080,075262,085357
0000000057,0000056000,094071,-67796,088131,093476,077172,082051
0000000058,0000057000,098979,-45649,085425,093872,079832,078996
0000000059,0000058000,094792,-18767,083156,093230,082977,076492
0000000060,0000059000,082063,009977,081554,091615,086296,074788
0000000061,0000060000,062008,037835,080773,089179,089470,074050
0000000062,0000061000,036411,062306,080886,086163,092189,074347
0000000063,0000062000,007962,080800,081882,082866,094182,075652
0000000064,0000063000,-20473,091408,083665,079609,095254,077836
0000000065,0000064000,-46377,093297,086066,076705,095305,080690
0000000066,0000065000,-67122,086266,088844,074445,094326,083928
0000000067,0000066000,-80487,070868,091720,073049,092415,087235
0000000068,0000067000,-85336,048653,094426,072652,089757,090290
0000000069,0000068000,-81267,021886,096696,073293,086613,092793
0000000070,0000069000,-68530,-06861,098297,074910,083292,094497
0000000071,0000070000,-48367,-34832,099078,077345,080119,095236
0000000072,0000071000,-22844,-59234,098966,080360,077401,094938
0000000073,0000072000,005555,-77672,097970,083658,075407,093634
0000000074,0000073000,034096,-88387,096187,086915,074334,091450
0000000075,0000074000,059974,-90258,093786,089817,074285,088597
0000000076,0000075000,080630,-83135,091008,092079,075263,085358
0000000077,0000076000,094085,-67821,088132,093475,077173,082052
0000000078,0000077000,098973,-45650,085426,093870,079832,078997
0000000079,0000078000,094798,-18776,083156,093229,082977,076493
0000000080,0000079000,082095,009947,081554,091614,086295,074790
0000000081,0000080000,062010,037836,080773,089179,089469,074051
0000000082,0000081000,036402,062321,080885,086163,092188,074348
0000000083,0000082000,007987,080786,081881,082867,094180,075652
0000000084,0000083000,-20456,091402,083664,079610,095253,077836
0000000085,0000084000,-46384,093318,086065,076706,095304,080689
0000000086,0000085000,-67112,086271,088842,074446,094326,083928
0000000087,0000086000,-80481,070872,091719,073050,092415,087234
0000000088,0000087000,-85361,048685,094425,072653,089758,090288
0000000089,0000088000,-81278,021902,096695,073295,086613,092792
0000000090,0000089000,-68524,-06869,098297,074911,083293,094495
0000000091,0000090000,-48388,-34817,099079,077344,080121,095234
0000000092,0000091000,-22871,-59216,098967,080359,077403,094937
0000000093,0000092000,005552,-77683,097971,083657,075409,093634
0000000094,0000093000,034083,-88391,096188,086913,074336,091450
0000000095,0000094000,059953,-90255,093788,089815,074287,088597
0000000096,0000095000,080641,-83160,091010,092077,075264,085359
0000000097,0000096000,094097,-67847,088133,093472,077173,082054
0000000098,0000097000,098964,-45651,085427,093868,079832,078999
0000000099,0000098000,094811,-18792,083156,093228,082976,076496
0000000100,0000099000,082125,009918,081554,091613,086294,074792
0000000101,0000100000,062021,037832,080772,089179,089467,074053
0000000102,0000101000,036418,062319,080884,086164,092185,074350
0000000103,0000102000,008019,080772,081879,082868,094178,075653
0000000104,0000103000,-20448,091413,083662,079611,095251,077837
0000000105,0000104000,-46388,093343,086063,076709,095302,080689
0000000106,0000105000,-67097,086276,088840,074449,094324,083926
0000000107,0000106000,-80479,070886,091717,073053,092415,087232
0000000108,0000107000,-85384,048719,094424,072655,089758,090286
0000000109,0000108000,-81290,021921,096695,073296,086614,092789
0000000110,0000109000,-68537,-06858,098297,074911,083295,094493
0000000111,0000110000,-48424,-34791,099080,077344,080124,095232
0000000112,0000111000,-22895,-59206,098968,080358,077406,094935
0000000113,0000112000,005545,-77697,097973,083655,075412,093633
0000000114,0000113000,034059,-88392,096191,086910,074339,091450
0000000115,0000114000,059933,-90259,093790,089812,074289,088598
0000000116,0000115000,080648,-83191,091012,092073,075265,085361
0000000117,0000116000,094102,-67873,088135,093469,077174,082056
0000000118,0000117000,098966,-45667,085428,093866,079832,079002
0000000119,0000118000,094839,-18825,083157,093226,082974,076499
0000000120,0000119000,082156,009888,081553,091612,086292,074795
0000000121,0000120000,062036,037827,080771,089179,089465,074056
0000000122,0000121000,036447,062310,080882,086165,092182,074352
0000000123,0000122000,008056,080760,081876,082870,094175,075655
0000000124,0000123000,-20435,091428,083659,079614,095249,077837
0000000125,0000124000,-46380,093366,086060,076712,095299,080688
0000000126,0000125000,-67083,086290,088837,074452,094323,083925
0000000127,0000126000,-80488,070918,091715,073056,092415,087229
0000000128,0000127000,-85409,048761,094422,072658,089759,090282
0000000129,0000128000,-81304,021943,096694,073298,086616,092785
0000000130,0000129000,-68562,-06836,098298,074912,083298,094489
0000000131,0000130000,-48468,-34760,099081,077344,080127,095229
0000000132,0000131000,-22925,-59197,098970,080357,077410,094933
0000000133,0000132000,005522,-77704,097976,083652,075416,093631
0000000134,0000133000,034026,-88394,096194,086907,074343,091449
0000000135,0000134000,059916,-90277,093794,089808,074292,088599
0000000136,0000135000,080654,-83230,091015,092069,075267,085363
0000000137,0000136000,094104,-67904,088138,093465,077175,082059
0000000138,0000137000,098976,-45696,085430,093862,079831,079006
0000000139,0000138000,094876,-18870,083157,093224,082972,076504
0000000140,0000139000,082192,009855,081553,091611,086289,074800
0000000141,0000140000,062066,037813,080770,089179,089461,074060
0000000142,0000141000,036491,062292,080879,086167,092177,074355
0000000143,0000142000,008096,080753,081873,082873,094170,075656
0000000144,0000143000,-20417,091449,083655,079618,095244,077837
0000000145,0000144000,-46361,093389,086055,076717,095296,080687
0000000146,0000145000,-67069,086315,088833,074457,094320,083922
0000000147,0000146000,-80502,070963,091712,073060,092414,087225
0000000148,0000147000,-85434,048810,094420,072662,089759,090278
0000000149,0000148000,-81328,021976,096693,073301,086618,092780
0000000150,0000149000,-68605,-06799,098298,074913,083302,094484
0000000151,0000150000,-48520,-34725,099083,077344,080132,095224
0000000152,0000151000,-22963,-59189,098973,080355,077415,094929
0000000153,0000152000,005485,-77708,097980,083649,075422,093629
0000000154,0000153000,033986,-88399,096199,086902,074348,091449
0000000155,0000154000,059898,-90305,093798,089803,074296,088600
0000000156,0000155000,080655,-83275,091020,092063,075270,085366
0000000157,0000156000,094107,-67944,088142,093459,077176,082064
0000000158,0000157000,098999,-45744,085433,093858,079830,079011
0000000159,0000158000,094920,-18926,083159,093220,082970,076509
0000000160,0000159000,082235,009817,081553,091609,086285,074806
0000000161,0000160000,062111,037788,080768,089179,089455,074065
0000000162,0000161000,036550,062268,080876,086169,092171,074359
0000000163,0000162000,008143,080751,081869,082876,094164,075659
0000000164,0000163000,-20388,091472,083650,079623,095239,077838
0000000165,0000164000,-46334,093417,086050,076723,095291,080685
0000000166,0000165000,-67058,086354,088828,074463,094317,083919
0000000167,0000166000,-80521,071023,091708,073066,092413,087220
0000000168,0000167000,-85461,048866,094417,072668,089760,090272
0000000169,0000168000,-81363,022023,096692,073305,086621,092774
0000000170,0000169000,-68662,-06748,098299,074915,083307,094477
0000000171,0000170000,-48582,-34686,099085,077343,080138,095218
0000000172,0000171000,-23014,-59176,098977,080353,077422,094925
0000000173,0000172000,005432,-77707,097985,083644,075429,093626
0000000174,0000173000,033939,-88411,096205,086896,074355,091448
0000000175,0000174000,059878,-90345,093804,089796,074301,088602
0000000176,0000175000,080651,-83328,091026,092056,075274,085370
0000000177,0000176000,094113,-67997,088146,093452,077178,082069
0000000178,0000177000,099032,-45808,085436,093852,079829,079018
0000000179,0000178000,094973,-18992,083160,093216,082966,076517
0000000180,0000179000,082289,009769,081552,091606,086280,074813
0000000181,0000180000,062175,037751,080765,089179,089448,074072
0000000182,0000181000,036621,062241,080872,086171,092164,074364
0000000183,0000182000,008198,080753,081863,082881,094156,075662
0000000184,0000183000,-20346,091498,083643,079629,095231,077838
0000000185,0000184000,-46300,093452,086043,076731,095285,080683
0000000186,0000185000,-67050,086408,088822,074471,094314,083914
0000000187,0000186000,-80541,071096,091702,073074,092411,087214
0000000188,0000187000,-85493,048935,094413,072674,089761,090264
0000000189,0000188000,-81412,022087,096690,073309,086625,092765
0000000190,0000189000,-68734,-06684,098300,074917,083313,094469
0000000191,0000190000,-48655,-34641,099088,077343,080145,095211
0000000192,0000191000,-23081,-59159,098982,080350,077430,094919
0000000193,0000192000,005363,-77704,097992,083639,075438,093623
0000000194,0000193000,033885,-88431,096212,086889,074362,091448
0000000195,0000194000,059852,-90395,093812,089788,074307,088604
0000000196,0000195000,080641,-83390,091033,092047,075278,085374
0000000197,0000196000,094124,-68066,088152,093444,077179,082076
0000000198,0000197000,099075,-45890,085440,093845,079828,079027
0000000199,0000198000,095033,-19071,083162,093211,082963,076526
0000000200,0000199000,082357,009709,081551,091604,086274,074822
0000000201,0000200000,062258,037702,080762,089180,089440,074080
0000000202,0000201000,036706,062210,080866,086175,092154,074370
0000000203,0000202000,008266,080756,081856,082887,094147,075665
0000000204,0000203000,-20291,091525,083635,079638,095223,077839
0000000205,0000204000,-46260,093496,086035,076740,095278,080681
0000000206,0000205000,-67042,086478,088814,074481,094309,083909
0000000207,0000206000,-80562,071182,091696,073083,092409,087206
0000000208,0000207000,-85531,049018,094409,072682,089762,090255
0000000209,0000208000,-81476,022170,096688,073315,086629,092755
0000000210,0000209000,-68819,-06607,098301,074920,083320,094459
0000000211,0000210000,-48742,-34589,099091,077343,080154,095202
0000000212,0000211000,-23166,-59133,098988,080346,077440,094913
0000000213,0000212000,005280,-77699,098000,083632,075448,093619
0000000214,0000213000,033822,-88458,096221,086880,074372,091447
0000000215,0000214000,059817,-90453,093821,089777,074315,088607
0000000216,0000215000,080628,-83464,091041,092036,075283,085380
0000000217,0000216000,094141,-68153,088159,093434,077181,082084
0000000218,0000217000,099126,-45991,085445,093836,079826,079037
0000000219,0000218000,095104,-19163,083164,093204,082958,076537
0000000220,0000219000,082442,009633,081550,091601,086266,074833
0000000221,0000220000,062359,037640,080758,089180,089430,074089
0000000222,0000221000,036805,062176,080860,086178,092143,074378
0000000223,0000222000,008349,080760,081847,082894,094136,075670
0000000224,0000223000,-20221,091556,083625,079647,095212,077840
0000000225,0000224000,-46214,093551,086024,076751,095270,080678
0000000226,0000225000,-67034,086563,088805,074493,094304,083903
0000000227,0000226000,-80584,071283,091688,073095,092407,087197
0000000228,0000227000,-85579,049119,094404,072692,089764,090244
0000000229,0000228000,-81555,022271,096686,073322,086635,092743
0000000230,0000229000,-68920,-06517,098302,074923,083328,094447
0000000231,0000230000,-48846,-34528,099096,077343,080165,095192
0000000232,0000231000,-23272,-59100,098995,080342,077453,094905
0000000233,0000232000,005181,-77695,098009,083624,075461,093614
0000000234,0000233000,033749,-88493,096232,086870,074383,091446
0000000235,0000234000,059773,-90521,093832,089765,074324,088610
0000000236,0000235000,080612,-83551,091052,092023,075289,085387
0000000237,0000236000,094163,-68260,088168,093422,077183,082094
0000000238,0000237000,099185,-46109,085451,093826,079824,079049
0000000239,0000238000,095187,-19271,083167,093197,082952,076550
0000000240,0000239000,082546,009541,081549,091597,086256,074846
0000000241,0000240000,062479,037567,080753,089181,089418,074101
0000000242,0000241000,036921,062138,080852,086183,092130,074386
0000000243,0000242000,008449,080762,081837,082902,094122,075675
0000000244,0000243000,-20137,091590,083613,079659,095200,077841
0000000245,0000244000,-46161,093619,086012,076765,095260,080675
0000000246,0000245000,-67024,086665,088794,074507,094297,083896
0000000247,0000246000,-80608,071400,091679,073108,092405,087186
0000000248,0000247000,-85637,049241,094397,072703,089766,090230
0000000249,0000248000,-81650,022393,096683,073330,086641,092729
0000000250,0000249000,-69036,-06412,098303,074927,083338,094433
0000000251,0000250000,-48970,-34455,099101,077342,080178,095180
0000000252,0000251000,-23399,-59058,099004,080337,077467,094895
0000000253,0000252000,005066,-77691,098020,083615,075475,093609
0000000254,0000253000,033663,-88534,096245,086858,074397,091445
0000000255,0000254000,059718,-90597,093846,089751,074335,088614
0000000256,0000255000,080594,-83654,091064,092008,075296,085395
0000000257,0000256000,094191,-68388,088178,093407,077186,082106
0000000258,0000257000,099253,-46246,085457,093814,079822,079063
0000000259,0000258000,095284,-19398,083170,093189,082945,076566
0000000260,0000259000,082670,009431,081548,091593,086246,074861
0000000261,0000260000,062619,037481,080748,089181,089404,074114
0000000262,0000261000,037055,062094,080843,086188,092114,074396
0000000263,0000262000,008569,080763,081825,082912,094106,075681
0000000264,0000263000,-20039,091630,083599,079672,095185,077842
0000000265,0000264000,-46101,093700,085998,076780,095249,080671
0000000266,0000265000,-67010,086782,088781,074523,094290,083887
0000000267,0000266000,-80635,071535,091668,073123,092402,087174
0000000268,0000267000,-85706,049384,094390,072715,089769,090215
0000000269,0000268000,-81759,022534,096680,073339,086648,092712
0000000270,0000269000,-69169,-06292,098304,074932,083350,094417
0000000271,0000270000,-49115,-34368,099106,077341,080193,095165
0000000272,0000271000,-23547,-59008,099014,080331,077484,094885
0000000273,0000272000,004934,-77688,098033,083605,075492,093603
0000000274,0000273000,033562,-88581,096260,086843,074412,091444
0000000275,0000274000,059653,-90684,093861,089734,074347,088618
0000000276,0000275000,080574,-83775,091078,091991,075304,085404
0000000277,0000276000,094224,-68537,088189,093391,077189,082120
0000000278,0000277000,099329,-46403,085466,093800,079819,079080
0000000279,0000278000,095396,-19545,083173,093179,082937,076583
0000000280,0000279000,082815,009301,081546,091588,086233,074878
0000000281,0000280000,062779,037383,080741,089182,089388,074129
0000000282,0000281000,037210,062044,080832,086195,092097,074408
0000000283,0000282000,008710,080762,081811,082924,094088,075687
0000000284,0000283000,-19926,091675,083583,079687,095169,077843
0000000285,0000284000,-46033,093794,085982,076798,095236,080666
0000000286,0000285000,-66991,086915,088766,074541,094281,083877
0000000287,0000286000,-80665,071691,091655,073141,092399,087159
0000000288,0000287000,-85786,049551,094381,072730,089772,090198
0000000289,0000288000,-81883,022697,096676,073349,086657,092693
0000000290,0000289000,-69322,-06155,098306,074937,083363,094399
0000000291,0000290000,-49284,-34266,099113,077340,080210,095149
0000000292,0000291000,-23717,-58949,099025,080324,077503,094872
0000000293,0000292000,004784,-77685,098048,083593,075511,093596
0000000294,0000293000,033445,-88634,096277,086827,074429,091443
0000000295,0000294000,059577,-90783,093878,089715,074361,088623
0000000296,0000295000,080552,-83914,091094,091971,075313,085415
0000000297,0000296000,094260,-68707,088203,093372,077192,082135
0000000298,0000297000,099414,-46581,085475,093785,079816,079099
0000000299,0000298000,095525,-19715,083177,093168,082928,076603
0000000300,0000299000,082981,009152,081545,091583,086219,074898
0000000301,0000300000,062961,037272,080734,089183,089370,074146
