DIgSILENT PowerFactory,21000900,2000
6,06A,00D
1,TTPP_200000_100:Secondary Voltage A,,,V,0.10000000,-8583.091797,0.000000,70493,99998,1,1,P
2,TTPP_200000_100:Secondary Voltage B,,,V,0.10000000,-8403.690430,0.000000,67640,99998,1,1,P
3,TTPP_200000_100:Secondary Voltage C,,,V,0.10000000,-8457.357422,0.000000,69161,99998,1,1,P
4,TTCC_500_5:Secondary Current A,,,A,0.0010000000,-86.881744,0.000000,67893,99998,1,1,P
5,TTCC_500_5:Secondary Current B,,,A,0.0010000000,-85.110420,0.000000,70215,99998,1,1,P
6,TTCC_500_5:Secondary Current C,,,A,0.0010000000,-84.738365,0.000000,69412,99998,1,1,P
50
1
1000.000000,1101
30/06/2023,06:06:44.000000
30/06/2023,06:06:44.000000
ASCII
1.000000
0000000001,0000000000,091343,087677,075421,092798,089790,074143
0000000002,0000001000,088795,090111,075535,089782,092506,074442
0000000003,0000002000,085944,091966,076533,086483,094501,075747
0000000004,0000003000,083098,093027,078316,083228,095570,077933
0000000005,0000004000,080514,093210,080718,080323,095620,080787
0000000006,0000005000,078442,092503,083496,078063,094641,084027
0000000007,0000006000,077095,090973,086371,076669,092728,087333
0000000008,0000007000,076623,088742,089077,076273,090069,090388
0000000009,0000008000,077030,086065,091346,076915,086925,092891
0000000010,0000009000,078298,083197,092947,078532,083604,094594
0000000011,0000010000,080318,080399,093726,080970,080429,095332
0000000012,0000011000,082879,077950,093612,083984,077713,095033
0000000013,0000012000,085708,076119,092615,087283,075720,093728
0000000014,0000013000,088561,075048,090831,090541,074647,091542
0000000015,0000014000,091159,074853,088429,093443,074598,088688
0000000016,0000015000,093218,075572,085652,095702,075580,085449
0000000017,0000016000,094554,077112,082776,097100,077488,082142
0000000018,0000017000,095053,079319,080070,097494,080149,079087
0000000019,0000018000,094633,082007,077801,096850,083296,076584
0000000020,0000019000,093351,084889,076201,095234,086616,074881
0000000021,0000020000,091349,087671,075421,092800,089787,074144
0000000022,0000021000,088794,090112,075535,089780,092508,074442
0000000023,0000022000,085942,091967,076532,086483,094500,075747
0000000024,0000023000,083098,093028,078316,083227,095571,077933
0000000025,0000024000,080517,093208,080718,080323,095620,080787
0000000026,0000025000,078438,092508,083495,078062,094642,084027
0000000027,0000026000,077099,090971,086371,076669,092729,087333
0000000028,0000027000,076621,088743,089077,076273,090070,090388
0000000029,0000028000,077030,086065,091346,076914,086925,092891
0000000030,0000029000,078299,083197,092946,078532,083604,094594
0000000031,0000030000,080319,080397,093726,080969,080430,095332
0000000032,0000031000,082875,077955,093613,083984,077713,095034
0000000033,0000032000,085710,076117,092615,087282,075720,093728
0000000034,0000033000,088563,075047,090831,090541,074647,091543
0000000035,0000034000,091155,074856,088430,093442,074600,088689
0000000036,0000035000,093217,075573,085652,095703,075579,085449
0000000037,0000036000,094559,077107,082775,097098,077490,082143
0000000038,0000037000,095050,079321,080071,097493,080150,079088
0000000039,0000038000,094630,082010,077801,096850,083296,076585
0000000040,0000039000,093356,084885,076201,095234,086615,074882
0000000041,0000040000,091350,087670,075421,092798,089789,074144
0000000042,0000041000,088789,090117,075535,089781,092507,074442
0000000043,0000042000,085944,091965,076532,086484,094499,075748
0000000044,0000043000,083103,093023,078316,083226,095571,077933
0000000045,0000044000,080511,093213,080718,080322,095621,080787
0000000046,0000045000,078437,092509,083495,078063,094641,084026
0000000047,0000046000,077104,090967,086371,076668,092729,087333
0000000048,0000047000,076619,088745,089077,076272,090071,090388
0000000049,0000048000,077025,086070,091346,076914,086925,092891
0000000050,0000049000,078303,083193,092946,078532,083604,094594
0000000051,0000050000,080320,080396,093726,080967,080432,095332
0000000052,0000051000,082870,077959,093613,083983,077714,095033
0000000053,0000052000,085711,076115,092615,087282,075720,093728
0000000054,0000053000,088567,075043,090832,090539,074648,091543
0000000055,0000054000,091152,074859,088430,093441,074601,088689
0000000056,0000055000,093216,075573,085652,095702,075579,085450
0000000057,0000056000,094562,077103,082776,097097,077490,082143
0000000058,0000057000,095049,079322,080071,097492,080150,079089
0000000059,0000058000,094628,082012,077801,096850,083295,076586
0000000060,0000059000,093360,084881,076201,095234,086614,074882
0000000061,0000060000,091350,087670,075421,092797,089789,074145
0000000062,0000061000,088787,090120,075534,089781,092507,074443
0000000063,0000062000,085947,091963,076531,086484,094498,075748
0000000064,0000063000,083104,093023,078315,083226,095571,077933
0000000065,0000064000,080509,093216,080717,080323,095621,080787
0000000066,0000065000,078439,092508,083494,078064,094641,084026
0000000067,0000066000,077105,090966,086371,076669,092729,087332
0000000068,0000067000,076616,088749,089076,076272,090071,090387
0000000069,0000068000,077025,086070,091345,076915,086925,092890
0000000070,0000069000,078304,083191,092946,078532,083605,094593
0000000071,0000070000,080317,080398,093726,080967,080433,095331
0000000072,0000071000,082868,077960,093613,083983,077715,095033
0000000073,0000072000,085713,076113,092616,087281,075721,093728
0000000074,0000073000,088564,075044,090833,090538,074650,091543
0000000075,0000074000,091149,074861,088431,093440,074601,088689
0000000076,0000075000,093219,075570,085653,095701,075579,085451
0000000077,0000076000,094563,077102,082777,097096,077491,082145
0000000078,0000077000,095046,079324,080071,097491,080150,079090
0000000079,0000078000,094631,082009,077802,096849,083294,076587
0000000080,0000079000,093363,084878,076201,095233,086614,074884
0000000081,0000080000,091349,087672,075421,092797,089788,074146
0000000082,0000081000,088788,090119,075534,089782,092505,074444
0000000083,0000082000,085951,091960,076530,086485,094497,075749
0000000084,0000083000,083103,093025,078314,083227,095570,077933
0000000085,0000084000,080508,093218,080715,080325,095619,080787
0000000086,0000085000,078442,092507,083493,078065,094640,084025
0000000087,0000086000,077104,090967,086370,076670,092730,087331
0000000088,0000087000,076613,088753,089076,076274,090071,090386
0000000089,0000088000,077026,086070,091345,076916,086926,092888
0000000090,0000089000,078304,083191,092946,078532,083607,094592
0000000091,0000090000,080313,080402,093727,080966,080435,095330
0000000092,0000091000,082867,077960,093614,083983,077716,095032
0000000093,0000092000,085714,076110,092618,087280,075724,093727
0000000094,0000093000,088562,075045,090834,090535,074652,091543
0000000095,0000094000,091148,074861,088433,093438,074602,088690
0000000096,0000095000,093221,075566,085655,095699,075580,085452
0000000097,0000096000,094562,077101,082779,097093,077491,082146
0000000098,0000097000,095045,079324,080072,097489,080150,079092
0000000099,0000098000,094634,082005,077802,096848,083293,076589
0000000100,0000099000,093364,084876,076201,095232,086613,074886
0000000101,0000100000,091349,087672,075420,092797,089786,074148
0000000102,0000101000,088791,090118,075532,089782,092502,074446
0000000103,0000102000,085954,091959,076529,086486,094495,075750
0000000104,0000103000,083102,093027,078312,083229,095568,077934
0000000105,0000104000,080510,093219,080713,080328,095617,080786
0000000106,0000105000,078444,092507,083491,078068,094639,084024
0000000107,0000106000,077103,090971,086368,076672,092729,087329
0000000108,0000107000,076611,088756,089074,076276,090071,090383
0000000109,0000108000,077027,086070,091345,076918,086927,092886
0000000110,0000109000,078301,083194,092947,078532,083609,094589
0000000111,0000110000,080309,080405,093728,080966,080437,095327
0000000112,0000111000,082867,077959,093615,083982,077719,095030
0000000113,0000112000,085711,076110,092620,087277,075727,093726
0000000114,0000113000,088558,075046,090837,090533,074655,091543
0000000115,0000114000,091148,074858,088435,093435,074604,088691
0000000116,0000115000,093221,075563,085657,095695,075582,085453
0000000117,0000116000,094561,077100,082781,097090,077492,082149
0000000118,0000117000,095047,079321,080073,097487,080149,079095
0000000119,0000118000,094638,082001,077803,096846,083292,076592
0000000120,0000119000,093365,084875,076201,095231,086611,074889
0000000121,0000120000,091351,087672,075419,092797,089782,074151
0000000122,0000121000,088796,090115,075530,089784,092499,074448
0000000123,0000122000,085956,091959,076526,086488,094492,075751
0000000124,0000123000,083103,093030,078309,083232,095565,077934
0000000125,0000124000,080512,093219,080710,080331,095614,080785
0000000126,0000125000,078445,092509,083488,078071,094637,084022
0000000127,0000126000,077100,090975,086366,076675,092729,087326
0000000128,0000127000,076611,088758,089073,076279,090072,090380
0000000129,0000128000,077025,086072,091344,076919,086929,092882
0000000130,0000129000,078296,083198,092947,078533,083612,094585
0000000131,0000130000,080306,080407,093729,080967,080440,095324
0000000132,0000131000,082865,077959,093618,083980,077723,095027
0000000133,0000132000,085707,076111,092623,087275,075731,093725
0000000134,0000133000,088555,075046,090840,090530,074658,091542
0000000135,0000134000,091148,074855,088439,093431,074607,088692
0000000136,0000135000,093221,075560,085661,095691,075584,085456
0000000137,0000136000,094560,077098,082783,097086,077493,082152
0000000138,0000137000,095050,079316,080075,097483,080148,079099
0000000139,0000138000,094641,081997,077804,096843,083290,076597
0000000140,0000139000,093368,084874,076200,095229,086608,074894
0000000141,0000140000,091355,087669,075417,092798,089778,074155
0000000142,0000141000,088801,090112,075528,089785,092495,074451
0000000143,0000142000,085958,091961,076523,086490,094487,075753
0000000144,0000143000,083105,093031,078305,083236,095560,077934
0000000145,0000144000,080516,093220,080706,080336,095611,080784
0000000146,0000145000,078444,092513,083485,078076,094635,084020
0000000147,0000146000,077099,090980,086362,076680,092728,087323
0000000148,0000147000,076610,088761,089070,076283,090072,090375
0000000149,0000148000,077022,086076,091343,076922,086931,092877
0000000150,0000149000,078291,083203,092947,078535,083616,094580
0000000151,0000150000,080302,080409,093731,080966,080445,095319
0000000152,0000151000,082861,077960,093621,083978,077729,095024
0000000153,0000152000,085702,076112,092627,087271,075737,093723
0000000154,0000153000,088552,075045,090844,090525,074663,091542
0000000155,0000154000,091147,074851,088444,093426,074612,088693
0000000156,0000155000,093219,075557,085665,095685,075587,085459
0000000157,0000156000,094561,077094,082787,097081,077494,082156
0000000158,0000157000,095054,079310,080078,097479,080148,079104
0000000159,0000158000,094644,081992,077805,096840,083288,076603
0000000160,0000159000,093371,084870,076200,095228,086603,074900
0000000161,0000160000,091361,087665,075415,092798,089773,074160
0000000162,0000161000,088806,090110,075525,089787,092489,074455
0000000163,0000162000,085961,091962,076518,086494,094481,075755
0000000164,0000163000,083110,093032,078300,083241,095554,077935
0000000165,0000164000,080518,093223,080701,080342,095606,080783
0000000166,0000165000,078444,092518,083480,078082,094632,084016
0000000167,0000166000,077098,090986,086358,076686,092726,087318
0000000168,0000167000,076608,088766,089067,076288,090073,090369
0000000169,0000168000,077017,086082,091342,076926,086934,092870
0000000170,0000169000,078285,083208,092948,078537,083620,094574
0000000171,0000170000,080297,080411,093733,080966,080451,095314
0000000172,0000171000,082855,077962,093625,083976,077736,095019
0000000173,0000172000,085696,076113,092632,087267,075744,093720
0000000174,0000173000,088549,075042,090850,090520,074669,091541
0000000175,0000174000,091144,074847,088450,093419,074617,088695
0000000176,0000175000,093217,075553,085671,095678,075591,085462
0000000177,0000176000,094563,077087,082791,097074,077495,082162
0000000178,0000177000,095057,079303,080081,097473,080147,079111
0000000179,0000178000,094648,081987,077806,096835,083285,076610
0000000180,0000179000,093377,084865,076199,095226,086598,074907
0000000181,0000180000,091369,087660,075413,092798,089766,074166
0000000182,0000181000,088812,090109,075520,089789,092481,074460
0000000183,0000182000,085967,091962,076512,086499,094473,075758
0000000184,0000183000,083115,093033,078293,083248,095547,077935
0000000185,0000184000,080521,093227,080694,080349,095601,080781
0000000186,0000185000,078444,092524,083473,078090,094629,084012
0000000187,0000186000,077097,090992,086353,076694,092725,087312
0000000188,0000187000,076605,088772,089064,076294,090075,090361
0000000189,0000188000,077011,086090,091340,076930,086938,092862
0000000190,0000189000,078279,083214,092948,078539,083626,094565
0000000191,0000190000,080291,080415,093736,080966,080458,095306
0000000192,0000191000,082847,077965,093630,083973,077744,095014
0000000193,0000192000,085690,076114,092638,087262,075752,093717
0000000194,0000193000,088544,075039,090858,090512,074677,091541
0000000195,0000194000,091141,074843,088457,093410,074623,088697
0000000196,0000195000,093216,075548,085678,095669,075595,085467
0000000197,0000196000,094565,077079,082797,097065,077496,082169
0000000198,0000197000,095061,079295,080085,097465,080146,079120
0000000199,0000198000,094653,081980,077808,096830,083281,076619
0000000200,0000199000,093385,084858,076198,095223,086591,074916
0000000201,0000200000,091377,087655,075409,092798,089758,074174
0000000202,0000201000,088819,090107,075515,089792,092472,074466
0000000203,0000202000,085974,091962,076505,086505,094464,075762
0000000204,0000203000,083122,093035,078285,083256,095539,077936
0000000205,0000204000,080524,093232,080686,080358,095594,080778
0000000206,0000205000,078445,092532,083465,078100,094624,084007
0000000207,0000206000,077096,090999,086346,076703,092723,087304
0000000208,0000207000,076600,088781,089060,076302,090076,090352
0000000209,0000208000,077004,086099,091338,076936,086942,092852
0000000210,0000209000,078272,083220,092949,078542,083633,094555
0000000211,0000210000,080282,080420,093740,080965,080468,095298
0000000212,0000211000,082837,077969,093636,083969,077754,095007
0000000213,0000212000,085682,076113,092646,087255,075762,093713
0000000214,0000213000,088538,075036,090867,090503,074687,091540
0000000215,0000214000,091136,074838,088467,093400,074631,088700
0000000216,0000215000,093215,075540,085686,095658,075600,085473
0000000217,0000216000,094568,077069,082804,097055,077498,082177
0000000218,0000217000,095065,079286,080090,097457,080144,079130
0000000219,0000218000,094660,081971,077810,096824,083276,076631
0000000220,0000219000,093395,084849,076197,095220,086584,074927
0000000221,0000220000,091387,087649,075406,092798,089748,074184
0000000222,0000221000,088829,090104,075508,089796,092461,074473
0000000223,0000222000,085984,091961,076496,086512,094452,075766
0000000224,0000223000,083129,093038,078275,083265,095528,077937
0000000225,0000224000,080528,093239,080675,080370,095585,080776
0000000226,0000225000,078446,092540,083456,078112,094618,084001
0000000227,0000226000,077094,091008,086339,076714,092721,087295
0000000228,0000227000,076594,088793,089054,076312,090078,090341
0000000229,0000228000,076996,086109,091336,076943,086948,092840
0000000230,0000229000,078263,083228,092950,078546,083641,094544
0000000231,0000230000,080270,080427,093744,080965,080479,095287
0000000232,0000231000,082826,077972,093643,083965,077767,094999
0000000233,0000232000,085673,076113,092655,087248,075775,093708
0000000234,0000233000,088531,075032,090878,090493,074698,091539
0000000235,0000234000,091131,074832,088478,093387,074640,088703
0000000236,0000235000,093214,075530,085696,095645,075606,085480
0000000237,0000236000,094570,077058,082813,097043,077501,082187
0000000238,0000237000,095070,079275,080096,097446,080142,079142
0000000239,0000238000,094669,081960,077812,096817,083270,076644
0000000240,0000239000,093406,084840,076196,095216,086574,074940
0000000241,0000240000,091398,087642,075401,092799,089736,074195
0000000242,0000241000,088840,090101,075500,089801,092447,074482
0000000243,0000242000,085994,091961,076486,086520,094439,075771
0000000244,0000243000,083136,093042,078263,083277,095516,077938
0000000245,0000244000,080532,093246,080663,080383,095575,080772
0000000246,0000245000,078448,092549,083445,078126,094612,083993
0000000247,0000246000,077092,091020,086329,076728,092719,087284
0000000248,0000247000,076588,088805,089048,076323,090080,090328
0000000249,0000248000,076987,086121,091333,076951,086954,092826
0000000250,0000249000,078251,083238,092952,078549,083651,094530
0000000251,0000250000,080257,080435,093749,080964,080491,095275
0000000252,0000251000,082814,077976,093651,083960,077781,094990
0000000253,0000252000,085662,076112,092667,087238,075789,093703
0000000254,0000253000,088522,075029,090891,090480,074712,091538
0000000255,0000254000,091125,074825,088491,093373,074651,088706
0000000256,0000255000,093213,075519,085709,095630,075613,085488
0000000257,0000256000,094573,077046,082823,097029,077503,082199
0000000258,0000257000,095077,079262,080103,097434,080140,079156
0000000259,0000258000,094679,081947,077815,096808,083263,076659
0000000260,0000259000,093418,084828,076195,095212,086564,074955
0000000261,0000260000,091411,087634,075395,092799,089722,074209
0000000262,0000261000,088854,090096,075491,089807,092432,074492
0000000263,0000262000,086007,091960,076474,086530,094423,075777
0000000264,0000263000,083146,093047,078249,083290,095502,077939
0000000265,0000264000,080539,093254,080649,080399,095564,080768
0000000266,0000265000,078450,092560,083432,078142,094604,083984
0000000267,0000266000,077088,091034,086319,076743,092716,087271
0000000268,0000267000,076581,088820,089040,076336,090082,090312
0000000269,0000268000,076977,086134,091330,076960,086961,092809
0000000270,0000269000,078238,083251,092953,078554,083663,094514
0000000271,0000270000,080242,080445,093755,080963,080506,095261
0000000272,0000271000,082800,077981,093661,083954,077798,094979
0000000273,0000272000,085649,076112,092680,087228,075806,093697
0000000274,0000273000,088511,075025,090905,090466,074727,091537
0000000275,0000274000,091119,074816,088506,093356,074663,088711
0000000276,0000275000,093212,075507,085723,095613,075621,085497
0000000277,0000276000,094575,077032,082835,097012,077506,082212
0000000278,0000277000,095084,079246,080111,097421,080137,079173
0000000279,0000278000,094691,081932,077819,096799,083255,076677
0000000280,0000279000,093432,084816,076193,095207,086551,074972
0000000281,0000280000,091427,087625,075389,092800,089706,074224
0000000282,0000281000,088870,090090,075481,089813,092414,074503
0000000283,0000282000,086021,091960,076460,086542,094405,075784
0000000284,0000283000,083156,093052,078234,083305,095485,077940
0000000285,0000284000,080546,093263,080633,080416,095551,080763
0000000286,0000285000,078452,092573,083417,078160,094596,083974
0000000287,0000286000,077085,091050,086306,076760,092713,087257
0000000288,0000287000,076573,088837,089032,076350,090085,090295
0000000289,0000288000,076965,086150,091326,076970,086970,092790
0000000290,0000289000,078222,083265,092955,078559,083677,094495
0000000291,0000290000,080225,080455,093761,080963,080523,095245
0000000292,0000291000,082783,077986,093672,083947,077817,094967
0000000293,0000292000,085634,076113,092695,087216,075825,093690
0000000294,0000293000,088499,075020,090922,090450,074744,091536
0000000295,0000294000,091112,074806,088523,093337,074677,088716
0000000296,0000295000,093209,075493,085739,095593,075630,085508
0000000297,0000296000,094578,077015,082848,096994,077509,082228
0000000298,0000297000,095093,079228,080120,097405,080134,079191
0000000299,0000298000,094704,081914,077823,096788,083246,076697
0000000300,0000299000,093448,084801,076192,095202,086537,074992
0000000301,0000300000,091445,087614,075382,092801,089688,074241
