DIgSILENT PowerFactory,21000900,2000
6,06A,00D
1,TTPP_200000_100:Secondary Voltage A,,,V,0.10000000,-8390.958008,0.000000,67097,99998,1,1,P
2,TTPP_200000_100:Secondary Voltage B,,,V,0.10000000,-8160.636719,0.000000,65163,99998,1,1,P
3,TTPP_200000_100:Secondary Voltage C,,,V,0.10000000,-8388.400391,0.000000,67131,99998,1,1,P
4,TTCC_500_5:Secondary Current A,,,A,0.0010000000,-87.311485,0.000000,69059,99998,1,1,P
5,TTCC_500_5:Secondary Current B,,,A,0.0010000000,-85.140877,0.000000,70249,99998,1,1,P
6,TTCC_500_5:Secondary Current C,,,A,0.0010000000,-84.809174,0.000000,69458,99998,1,1,P
50
1
1000.000000,1101
30/06/2023,06:08:39.000000
30/06/2023,06:08:39.000000
ASCII
1.000000
0000000001,0000000000,089422,085247,074732,093227,089820,074214
0000000002,0000001000,086873,087680,074846,090212,092536,074513
0000000003,0000002000,084022,089536,075844,086912,094531,075818
0000000004,0000003000,081177,090597,077626,083657,095601,078004
0000000005,0000004000,078592,090780,080028,080753,095651,080858
0000000006,0000005000,076520,090073,082806,078492,094672,084098
0000000007,0000006000,075174,088543,085682,077099,092759,087404
0000000008,0000007000,074701,086312,088387,076703,090099,090459
0000000009,0000008000,075109,083634,090656,077344,086955,092962
0000000010,0000009000,076377,080767,092257,078962,083634,094665
0000000011,0000010000,078396,077968,093036,081400,080459,095403
0000000012,0000011000,080958,075520,092922,084413,077744,095104
0000000013,0000012000,083786,073689,091926,087713,075750,093799
0000000014,0000013000,086640,072618,090141,090971,074677,091613
0000000015,0000014000,089237,072423,087740,093873,074629,088759
0000000016,0000015000,091297,073141,084962,096131,075610,085520
0000000017,0000016000,092633,074682,082086,097530,077519,082213
0000000018,0000017000,093131,076889,079381,097924,080180,079158
0000000019,0000018000,092712,079576,077112,097280,083326,076655
0000000020,0000019000,091430,082459,075511,095663,086646,074952
0000000021,0000020000,089427,085240,074732,093229,089818,074214
0000000022,0000021000,086872,087682,074845,090210,092539,074513
0000000023,0000022000,084021,089537,075843,086913,094530,075818
0000000024,0000023000,081176,090597,077627,083656,095601,078004
0000000025,0000024000,078595,090777,080029,080753,095651,080858
0000000026,0000025000,076517,090077,082806,078491,094673,084097
0000000027,0000026000,075177,088541,085682,077098,092759,087404
0000000028,0000027000,074699,086313,088388,076702,090100,090459
0000000029,0000028000,075109,083634,090656,077344,086956,092962
0000000030,0000029000,076377,080767,092256,078962,083634,094665
0000000031,0000030000,078398,077966,093036,081398,080460,095403
0000000032,0000031000,080953,075524,092923,084414,077744,095104
0000000033,0000032000,083789,073686,091925,087712,075751,093799
0000000034,0000033000,086642,072616,090141,090970,074678,091614
0000000035,0000034000,089234,072425,087740,093872,074630,088760
0000000036,0000035000,091295,073142,084962,096132,075609,085520
0000000037,0000036000,092638,074676,082086,097528,077520,082214
0000000038,0000037000,093128,076891,079381,097923,080180,079159
0000000039,0000038000,092709,079579,077112,097280,083326,076655
0000000040,0000039000,091435,082454,075511,095664,086645,074952
0000000041,0000040000,089429,085239,074732,093227,089819,074215
0000000042,0000041000,086867,087687,074845,090210,092538,074513
0000000043,0000042000,084023,089535,075842,086913,094530,075818
0000000044,0000043000,081181,090593,077626,083656,095602,078004
0000000045,0000044000,078590,090782,080028,080752,095652,080858
0000000046,0000045000,076516,090078,082806,078493,094672,084097
0000000047,0000046000,075182,088536,085681,077098,092760,087404
0000000048,0000047000,074698,086315,088387,076702,090101,090459
0000000049,0000048000,075104,083639,090656,077344,086956,092962
0000000050,0000049000,076381,080762,092256,078962,083634,094665
0000000051,0000050000,078398,077965,093036,081397,080462,095403
0000000052,0000051000,080949,075528,092923,084413,077744,095104
0000000053,0000052000,083790,073685,091926,087712,075751,093799
0000000054,0000053000,086645,072612,090142,090969,074679,091614
0000000055,0000054000,089230,072429,087741,093870,074631,088760
0000000056,0000055000,091295,073142,084963,096132,075609,085521
0000000057,0000056000,092641,074672,082086,097527,077520,082214
0000000058,0000057000,093127,076892,079381,097921,080181,079159
0000000059,0000058000,092707,079581,077112,097280,083326,076656
0000000060,0000059000,091438,082450,075511,095664,086645,074953
0000000061,0000060000,089429,085239,074732,093227,089819,074215
0000000062,0000061000,086866,087689,074845,090210,092537,074514
0000000063,0000062000,084026,089533,075842,086914,094529,075819
0000000064,0000063000,081182,090592,077626,083656,095601,078004
0000000065,0000064000,078588,090785,080027,080753,095651,080858
0000000066,0000065000,076517,090078,082805,078494,094671,084097
0000000067,0000066000,075184,088535,085681,077098,092760,087403
0000000068,0000067000,074695,086318,088387,076702,090102,090458
0000000069,0000068000,075104,083640,090656,077345,086956,092961
0000000070,0000069000,076383,080761,092257,078962,083636,094664
0000000071,0000070000,078395,077968,093037,081396,080463,095402
0000000072,0000071000,080947,075530,092924,084413,077745,095104
0000000073,0000072000,083792,073682,091926,087711,075752,093799
0000000074,0000073000,086643,072613,090143,090967,074680,091614
0000000075,0000074000,089228,072430,087742,093869,074632,088760
0000000076,0000075000,091297,073139,084963,096131,075610,085521
0000000077,0000076000,092642,074671,082087,097525,077521,082215
0000000078,0000077000,093125,076894,079382,097920,080181,079161
0000000079,0000078000,092710,079578,077112,097279,083325,076658
0000000080,0000079000,091441,082448,075511,095663,086644,074955
0000000081,0000080000,089427,085241,074731,093227,089818,074217
0000000082,0000081000,086867,087689,074844,090211,092535,074515
0000000083,0000082000,084030,089530,075841,086915,094527,075819
0000000084,0000083000,081181,090594,077624,083657,095601,078004
0000000085,0000084000,078587,090788,080026,080755,095650,080857
0000000086,0000085000,076521,090076,082803,078495,094670,084096
0000000087,0000086000,075183,088537,085680,077099,092760,087402
0000000088,0000087000,074691,086322,088386,076703,090102,090456
0000000089,0000088000,075105,083639,090655,077346,086956,092959
0000000090,0000089000,076383,080761,092257,078962,083637,094662
0000000091,0000090000,078391,077971,093037,081396,080465,095400
0000000092,0000091000,080946,075530,092924,084412,077747,095102
0000000093,0000092000,083792,073680,091928,087709,075754,093798
0000000094,0000093000,086640,072615,090145,090965,074683,091614
0000000095,0000094000,089226,072430,087743,093868,074633,088761
0000000096,0000095000,091299,073135,084965,096128,075611,085522
0000000097,0000096000,092641,074670,082089,097523,077522,082217
0000000098,0000097000,093124,076894,079383,097919,080180,079163
0000000099,0000098000,092713,079575,077112,097278,083324,076660
0000000100,0000099000,091443,082446,075511,095662,086643,074957
0000000101,0000100000,089427,085242,074730,093227,089816,074219
0000000102,0000101000,086870,087687,074843,090212,092533,074516
0000000103,0000102000,084032,089529,075839,086916,094525,075820
0000000104,0000103000,081181,090597,077622,083659,095599,078004
0000000105,0000104000,078588,090788,080023,080757,095648,080857
0000000106,0000105000,076522,090076,082802,078497,094669,084095
0000000107,0000106000,075181,088540,085679,077101,092760,087400
0000000108,0000107000,074690,086325,088385,076706,090102,090454
0000000109,0000108000,075105,083640,090655,077347,086957,092957
0000000110,0000109000,076380,080763,092257,078962,083640,094660
0000000111,0000110000,078388,077974,093038,081396,080467,095398
0000000112,0000111000,080945,075529,092926,084411,077749,095101
0000000113,0000112000,083790,073680,091930,087707,075757,093797
0000000114,0000113000,086637,072616,090147,090963,074685,091613
0000000115,0000114000,089226,072428,087746,093865,074635,088762
0000000116,0000115000,091300,073132,084968,096125,075612,085524
0000000117,0000116000,092640,074669,082091,097520,077523,082219
0000000118,0000117000,093126,076891,079384,097917,080179,079166
0000000119,0000118000,092717,079570,077113,097276,083323,076663
0000000120,0000119000,091444,082445,075511,095660,086641,074960
0000000121,0000120000,089429,085241,074729,093227,089813,074222
0000000122,0000121000,086875,087684,074841,090213,092529,074519
0000000123,0000122000,084034,089529,075837,086917,094522,075822
0000000124,0000123000,081181,090599,077619,083662,095595,078005
0000000125,0000124000,078591,090789,080020,080761,095645,080856
0000000126,0000125000,076523,090078,082799,078501,094668,084093
0000000127,0000126000,075179,088545,085676,077105,092759,087397
0000000128,0000127000,074689,086328,088383,076709,090102,090451
0000000129,0000128000,075104,083641,090654,077349,086959,092953
0000000130,0000129000,076375,080768,092257,078963,083642,094656
0000000131,0000130000,078384,077977,093039,081396,080471,095395
0000000132,0000131000,080944,075528,092928,084410,077754,095098
0000000133,0000132000,083786,073681,091933,087704,075762,093796
0000000134,0000133000,086633,072616,090150,090960,074689,091613
0000000135,0000134000,089226,072424,087749,093861,074638,088763
0000000136,0000135000,091299,073129,084971,096120,075615,085526
0000000137,0000136000,092639,074667,082094,097516,077523,082223
0000000138,0000137000,093129,076886,079386,097913,080179,079170
0000000139,0000138000,092720,079566,077114,097273,083321,076668
0000000140,0000139000,091446,082443,075511,095659,086638,074965
0000000141,0000140000,089434,085238,074728,093227,089809,074226
0000000142,0000141000,086880,087682,074838,090215,092525,074522
0000000143,0000142000,084037,089530,075833,086920,094518,075824
0000000144,0000143000,081184,090601,077615,083666,095591,078005
0000000145,0000144000,078594,090790,080016,080765,095641,080855
0000000146,0000145000,076523,090082,082795,078505,094666,084090
0000000147,0000146000,075177,088550,085673,077110,092758,087393
0000000148,0000147000,074688,086331,088381,076713,090103,090446
0000000149,0000148000,075101,083646,090654,077352,086962,092948
0000000150,0000149000,076370,080772,092258,078965,083646,094651
0000000151,0000150000,078381,077978,093041,081396,080475,095390
0000000152,0000151000,080940,075529,092931,084408,077759,095095
0000000153,0000152000,083781,073682,091937,087701,075767,093794
0000000154,0000153000,086631,072614,090155,090955,074693,091613
0000000155,0000154000,089225,072420,087754,093855,074642,088764
0000000156,0000155000,091298,073127,084976,096114,075618,085529
0000000157,0000156000,092640,074663,082097,097510,077524,082227
0000000158,0000157000,093132,076880,079388,097908,080178,079175
0000000159,0000158000,092723,079562,077115,097269,083319,076674
0000000160,0000159000,091450,082440,075510,095657,086634,074970
0000000161,0000160000,089440,085234,074726,093227,089803,074231
0000000162,0000161000,086885,087680,074835,090216,092519,074526
0000000163,0000162000,084040,089531,075829,086924,094512,075826
0000000164,0000163000,081188,090602,077610,083671,095585,078006
0000000165,0000164000,078597,090792,080011,080771,095637,080853
0000000166,0000165000,076522,090088,082790,078512,094663,084087
0000000167,0000166000,075176,088555,085668,077116,092757,087389
0000000168,0000167000,074687,086335,088378,076718,090104,090440
0000000169,0000168000,075096,083652,090652,077355,086965,092941
0000000170,0000169000,076364,080778,092258,078967,083650,094644
0000000171,0000170000,078376,077981,093043,081396,080481,095384
0000000172,0000171000,080933,075531,092935,084405,077766,095090
0000000173,0000172000,083775,073683,091942,087697,075774,093791
0000000174,0000173000,086627,072612,090161,090949,074700,091612
0000000175,0000174000,089223,072416,087760,093848,074647,088766
0000000176,0000175000,091296,073123,084981,096107,075621,085533
0000000177,0000176000,092642,074657,082102,097504,077525,082233
0000000178,0000177000,093136,076873,079392,097902,080177,079182
0000000179,0000178000,092727,079557,077117,097265,083315,076681
0000000180,0000179000,091456,082435,075509,095655,086628,074978
0000000181,0000180000,089447,085229,074723,093228,089797,074237
0000000182,0000181000,086891,087678,074831,090219,092512,074531
0000000183,0000182000,084046,089532,075823,086929,094504,075829
0000000184,0000183000,081194,090603,077603,083678,095578,078006
0000000185,0000184000,078600,090796,080004,080779,095631,080852
0000000186,0000185000,076522,090094,082784,078520,094659,084083
0000000187,0000186000,075176,088561,085663,077124,092755,087382
0000000188,0000187000,074683,086342,088374,076724,090105,090432
0000000189,0000188000,075090,083660,090651,077360,086969,092933
0000000190,0000189000,076358,080783,092259,078969,083656,094636
0000000191,0000190000,078369,077984,093046,081396,080489,095377
0000000192,0000191000,080925,075535,092940,084402,077775,095085
0000000193,0000192000,083768,073683,091949,087692,075782,093788
0000000194,0000193000,086623,072608,090168,090942,074708,091612
0000000195,0000194000,089219,072413,087768,093840,074654,088768
0000000196,0000195000,091295,073117,084988,096098,075625,085538
0000000197,0000196000,092644,074649,082108,097495,077527,082240
0000000198,0000197000,093140,076865,079396,097895,080176,079191
0000000199,0000198000,092732,079550,077118,097260,083311,076690
0000000200,0000199000,091464,082428,075508,095653,086622,074987
0000000201,0000200000,089456,085224,074720,093228,089788,074245
0000000202,0000201000,086898,087677,074825,090222,092503,074537
0000000203,0000202000,084053,089531,075815,086935,094494,075833
0000000204,0000203000,081200,090605,077595,083685,095569,078007
0000000205,0000204000,078603,090802,079996,080788,095624,080849
0000000206,0000205000,076523,090101,082776,078530,094654,084078
0000000207,0000206000,075175,088568,085657,077133,092754,087375
0000000208,0000207000,074679,086351,088370,076732,090107,090423
0000000209,0000208000,075083,083668,090649,077366,086973,092923
0000000210,0000209000,076351,080790,092260,078972,083663,094626
0000000211,0000210000,078360,077990,093050,081395,080498,095368
0000000212,0000211000,080916,075538,092946,084399,077785,095078
0000000213,0000212000,083761,073683,091956,087685,075793,093784
0000000214,0000213000,086617,072605,090177,090933,074717,091611
0000000215,0000214000,089215,072408,087777,093829,074662,088770
0000000216,0000215000,091294,073109,084997,096088,075630,085544
0000000217,0000216000,092646,074639,082115,097485,077529,082248
0000000218,0000217000,093144,076856,079401,097886,080175,079201
0000000219,0000218000,092739,079541,077120,097254,083306,076701
0000000220,0000219000,091473,082419,075508,095650,086614,074998
0000000221,0000220000,089465,085218,074716,093228,089778,074255
0000000222,0000221000,086907,087674,074819,090226,092491,074544
0000000223,0000222000,084062,089531,075807,086942,094483,075837
0000000224,0000223000,081207,090608,077585,083695,095559,078008
0000000225,0000224000,078606,090808,079986,080799,095616,080846
0000000226,0000225000,076525,090109,082766,078542,094649,084071
0000000227,0000226000,075173,088578,085649,077144,092752,087366
0000000228,0000227000,074673,086362,088365,076741,090108,090412
0000000229,0000228000,075075,083679,090646,077373,086978,092911
0000000230,0000229000,076341,080798,092261,078975,083672,094614
0000000231,0000230000,078349,077997,093054,081395,080509,095358
0000000232,0000231000,080905,075542,092953,084395,077797,095070
0000000233,0000232000,083752,073682,091966,087677,075805,093779
0000000234,0000233000,086609,072602,090188,090922,074729,091610
0000000235,0000234000,089210,072402,087788,093817,074671,088774
0000000236,0000235000,091293,073100,085007,096075,075636,085550
0000000237,0000236000,092649,074628,082123,097473,077531,082258
0000000238,0000237000,093149,076845,079407,097876,080173,079213
0000000239,0000238000,092747,079530,077123,097247,083300,076715
0000000240,0000239000,091484,082409,075506,095646,086605,075011
0000000241,0000240000,089477,085212,074711,093229,089767,074266
0000000242,0000241000,086919,087670,074811,090231,092478,074553
0000000243,0000242000,084073,089530,075797,086950,094469,075842
0000000244,0000243000,081215,090611,077574,083706,095547,078009
0000000245,0000244000,078611,090816,079974,080813,095606,080843
0000000246,0000245000,076527,090118,082755,078556,094642,084064
0000000247,0000246000,075170,088590,085640,077157,092749,087355
0000000248,0000247000,074666,086375,088358,076753,090110,090398
0000000249,0000248000,075066,083690,090644,077381,086984,092896
0000000250,0000249000,076330,080808,092262,078979,083682,094601
0000000251,0000250000,078336,078005,093059,081394,080522,095346
0000000252,0000251000,080893,075546,092962,084390,077811,095061
0000000253,0000252000,083741,073682,091977,087668,075820,093774
0000000254,0000253000,086600,072598,090201,090910,074742,091609
0000000255,0000254000,089204,072394,087801,093803,074681,088777
0000000256,0000255000,091292,073089,085019,096060,075643,085559
0000000257,0000256000,092651,074615,082133,097458,077534,082270
0000000258,0000257000,093155,076832,079413,097864,080170,079227
0000000259,0000258000,092758,079516,077126,097238,083294,076730
0000000260,0000259000,091497,082398,075505,095642,086594,075026
0000000261,0000260000,089490,085204,074706,093229,089753,074279
0000000262,0000261000,086933,087665,074802,090236,092462,074563
0000000263,0000262000,084085,089530,075785,086960,094454,075848
0000000264,0000263000,081224,090616,077560,083720,095532,078010
0000000265,0000264000,078617,090824,079959,080828,095594,080839
0000000266,0000265000,076529,090129,082742,078572,094635,084055
0000000267,0000266000,075167,088604,085629,077172,092747,087342
0000000268,0000267000,074659,086390,088351,076766,090113,090383
0000000269,0000268000,075056,083704,090640,077390,086992,092880
0000000270,0000269000,076316,080820,092264,078983,083694,094584
0000000271,0000270000,078321,078014,093065,081393,080537,095332
0000000272,0000271000,080878,075550,092971,084384,077828,095050
0000000273,0000272000,083728,073682,091990,087658,075837,093767
0000000274,0000273000,086590,072594,090216,090896,074758,091608
0000000275,0000274000,089198,072386,087816,093786,074694,088782
0000000276,0000275000,091290,073076,085033,096042,075651,085568
0000000277,0000276000,092654,074601,082145,097442,077537,082283
0000000278,0000277000,093163,076816,079421,097850,080168,079244
0000000279,0000278000,092770,079501,077129,097228,083286,076748
0000000280,0000279000,091511,082385,075504,095637,086582,075043
0000000281,0000280000,089506,085195,074700,093230,089737,074294
0000000282,0000281000,086949,087660,074791,090243,092444,074574
0000000283,0000282000,084099,089530,075771,086971,094436,075854
0000000284,0000283000,081235,090621,077544,083735,095516,078011
0000000285,0000284000,078624,090833,079943,080846,095581,080834
0000000286,0000285000,076531,090142,082727,078590,094626,084045
0000000287,0000286000,075163,088620,085617,077190,092744,087328
0000000288,0000287000,074651,086406,088342,076780,090115,090366
0000000289,0000288000,075044,083719,090637,077400,087000,092861
0000000290,0000289000,076301,080834,092265,078988,083707,094566
0000000291,0000290000,078304,078024,093072,081392,080554,095316
0000000292,0000291000,080862,075556,092983,084377,077847,095038
0000000293,0000292000,083713,073682,092005,087645,075856,093760
0000000294,0000293000,086577,072589,090233,090879,074775,091607
0000000295,0000294000,089191,072375,087834,093767,074707,088787
0000000296,0000295000,091288,073062,085049,096023,075660,085579
0000000297,0000296000,092657,074584,082158,097423,077540,082299
0000000298,0000297000,093172,076798,079431,097835,080165,079262
0000000299,0000298000,092783,079484,077133,097217,083277,076768
0000000300,0000299000,091527,082371,075502,095632,086567,075062
0000000301,0000300000,089524,085183,074692,093231,089719,074312
