DIgSILENT PowerFactory,21000900,2000
6,06A,00D
1,TTPP_200000_100:Secondary Voltage A,,,V,0.10000000,-8517.673828,0.000000,72167,99998,1,1,P
2,TTPP_200000_100:Secondary Voltage B,,,V,0.10000000,-8619.401367,0.000000,73354,99998,1,1,P
3,TTPP_200000_100:Secondary Voltage C,,,V,0.10000000,-8433.967773,0.000000,66704,99998,1,1,P
4,TTCC_300_1:Secondary Current A,,,A,0.00010000000,-5.363504,0.000000,-13347,99998,1,1,P
5,TTCC_300_1:Secondary Current B,,,A,0.00010000000,-4.860143,0.000000,-3042,99998,1,1,P
6,TTCC_300_1:Secondary Current C,,,A,0.00010000000,-4.987000,0.000000,-382,99998,1,1,P
50
1
1000.000000,1101
30/06/2023,06:09:26.000000
30/06/2023,06:09:26.000000
ASCII
1.000000
0000000001,0000000000,092283,087669,075758,032705,034612,084789
0000000002,0000001000,090149,090386,075174,042457,025334,084316
0000000003,0000002000,087508,092718,075485,053297,018336,080473
0000000004,0000003000,084652,094396,076662,064176,014293,073638
0000000005,0000004000,081859,095257,078595,074019,013617,064469
0000000006,0000005000,079371,095249,081092,081867,016370,053870
0000000007,0000006000,077449,094363,083898,086953,022264,042888
0000000008,0000007000,076305,092654,086751,088777,030740,032591
0000000009,0000008000,076020,090316,089373,087152,040981,023974
0000000010,0000009000,076617,087594,091499,082255,051955,017896
0000000011,0000010000,078065,084724,092921,074561,062590,014956
0000000012,0000011000,080219,081985,093506,064802,071875,015428
0000000013,0000012000,082841,079677,093194,053953,078882,019271
0000000014,0000013000,085691,078002,092017,043088,082912,026107
0000000015,0000014000,088506,077120,090085,033244,083587,035275
0000000016,0000015000,090985,077137,087588,025386,080847,045874
0000000017,0000016000,092892,078037,084780,020306,074944,056856
0000000018,0000017000,094055,079727,081929,018488,066464,067154
0000000019,0000018000,094339,082064,079307,020104,056233,075770
0000000020,0000019000,093727,084804,077180,025003,045257,081847
0000000021,0000020000,092289,087664,075758,032704,034614,084789
0000000022,0000021000,090143,090393,075174,042455,025336,084315
0000000023,0000022000,087506,092719,075486,053305,018329,080473
0000000024,0000023000,084660,094389,076661,064176,014293,073637
0000000025,0000024000,081856,095259,078595,074016,013620,064469
0000000026,0000025000,079364,095255,081092,081871,016366,053869
0000000027,0000026000,077456,094357,083898,086959,022260,042888
0000000028,0000027000,076308,092652,086751,088773,030743,032591
0000000029,0000028000,076013,090324,089373,087153,040980,023974
0000000030,0000029000,076618,087593,091499,082261,051949,017896
0000000031,0000030000,078072,084717,092921,074561,062590,014955
0000000032,0000031000,080214,081991,093506,064801,071876,015428
0000000033,0000032000,082837,079679,093194,053959,078878,019270
0000000034,0000033000,085697,077996,092017,043092,082909,026106
0000000035,0000034000,088505,077120,090085,033243,083590,035274
0000000036,0000035000,090981,077142,087588,025389,080844,045873
0000000037,0000036000,092896,078034,084781,020311,074941,056854
0000000038,0000037000,094056,079725,081929,018489,066465,067152
0000000039,0000038000,094336,082068,079306,020104,056234,075768
0000000040,0000039000,093728,084803,077180,025006,045254,081846
0000000041,0000040000,092292,087661,075758,032704,034615,084788
0000000042,0000041000,090141,090396,075174,042455,025338,084314
0000000043,0000042000,087506,092719,075485,053306,018329,080472
0000000044,0000043000,084662,094386,076662,064176,014293,073637
0000000045,0000044000,081855,095261,078595,074015,013622,064469
0000000046,0000045000,079363,095256,081091,081872,016365,053870
0000000047,0000046000,077458,094355,083898,086958,022259,042889
0000000048,0000047000,076306,092653,086751,088773,030742,032591
0000000049,0000048000,076011,090326,089373,087155,040977,023975
0000000050,0000049000,076621,087591,091499,082262,051947,017897
0000000051,0000050000,078071,084718,092922,074561,062589,014956
0000000052,0000051000,080211,081993,093506,064805,071873,015429
0000000053,0000052000,082840,079677,093194,053962,078874,019270
0000000054,0000053000,085697,077995,092018,043092,082908,026106
0000000055,0000054000,088501,077123,090086,033246,083588,035273
0000000056,0000055000,090982,077140,087588,025394,080841,045871
0000000057,0000056000,092899,078031,084781,020312,074942,056852
0000000058,0000057000,094053,079728,081929,018490,066466,067149
0000000059,0000058000,094336,082069,079306,020109,056232,075765
0000000060,0000059000,093732,084798,077180,025007,045256,081843
0000000061,0000060000,092290,087662,075758,032703,034619,084785
0000000062,0000061000,090138,090399,075173,042457,025338,084312
0000000063,0000062000,087510,092716,075484,053306,018330,080471
0000000064,0000063000,084663,094386,076661,064172,014298,073636
0000000065,0000064000,081851,095266,078594,074014,013623,064469
0000000066,0000065000,079365,095255,081091,081872,016363,053871
0000000067,0000066000,077460,094353,083898,086954,022261,042891
0000000068,0000067000,076302,092658,086750,088770,030742,032594
0000000069,0000068000,076011,090327,089373,087156,040973,023978
0000000070,0000069000,076624,087588,091499,082262,051944,017901
0000000071,0000070000,078068,084721,092922,074560,062587,014959
0000000072,0000071000,080209,081996,093507,064808,071867,015431
0000000073,0000072000,082842,079674,093195,053966,078869,019271
0000000074,0000073000,085697,077995,092019,043095,082906,026106
0000000075,0000074000,088498,077126,090086,033252,083584,035271
0000000076,0000075000,090984,077137,087589,025401,080837,045869
0000000077,0000076000,092900,078028,084782,020315,074942,056849
0000000078,0000077000,094051,079730,081930,018494,066467,067145
0000000079,0000078000,094337,082068,079306,020114,056232,075761
0000000080,0000079000,093735,084795,077180,025009,045259,081838
0000000081,0000080000,092289,087664,075758,032703,034624,084780
0000000082,0000081000,090139,090399,075172,042457,025341,084308
0000000083,0000082000,087513,092713,075484,053303,018335,080469
0000000084,0000083000,084662,094387,076661,064168,014303,073636
0000000085,0000084000,081850,095268,078593,074010,013625,064470
0000000086,0000085000,079367,095254,081090,081867,016365,053874
0000000087,0000086000,077460,094354,083897,086948,022263,042895
0000000088,0000087000,076300,092661,086750,088767,030741,032599
0000000089,0000088000,076012,090326,089372,087154,040969,023984
0000000090,0000089000,076623,087588,091499,082259,051941,017906
0000000091,0000090000,078065,084724,092922,074561,062581,014964
0000000092,0000091000,080208,081995,093507,064812,071859,015435
0000000093,0000092000,082843,079672,093196,053969,078863,019274
0000000094,0000093000,085694,077997,092020,043100,082900,026106
0000000095,0000094000,088498,077125,090087,033260,083577,035269
0000000096,0000095000,090986,077134,087590,025408,080834,045865
0000000097,0000096000,092899,078029,084783,020322,074942,056843
0000000098,0000097000,094050,079730,081930,018502,066466,067138
0000000099,0000098000,094340,082064,079307,020119,056234,075753
0000000100,0000099000,093736,084794,077180,025010,045266,081831
0000000101,0000100000,092288,087665,075757,032704,034630,084773
0000000102,0000101000,090142,090397,075171,042456,025348,084303
0000000103,0000102000,087516,092712,075483,053297,018344,080466
0000000104,0000103000,084661,094390,076659,064161,014311,073635
0000000105,0000104000,081851,095268,078591,074004,013630,064472
0000000106,0000105000,079370,095253,081088,081858,016370,053878
0000000107,0000106000,077457,094357,083896,086940,022265,042902
0000000108,0000107000,076298,092663,086749,088761,030738,032607
0000000109,0000108000,076013,090325,089372,087149,040965,023993
0000000110,0000109000,076621,087590,091500,082256,051935,017915
0000000111,0000110000,078061,084726,092923,074563,062572,014972
0000000112,0000111000,080208,081994,093508,064816,071848,015441
0000000113,0000112000,082842,079671,093198,053974,078854,019278
0000000114,0000113000,085691,077998,092022,043109,082891,026106
0000000115,0000114000,088498,077123,090089,033271,083568,035267
0000000116,0000115000,090987,077131,087592,025418,080829,045860
0000000117,0000116000,092898,078028,084784,020332,074940,056834
0000000118,0000117000,094051,079728,081931,018512,066467,067128
0000000119,0000118000,094343,082060,079307,020125,056239,075742
0000000120,0000119000,093737,084794,077180,025013,045274,081819
0000000121,0000120000,092290,087665,075756,032705,034639,084763
0000000122,0000121000,090146,090395,075170,042452,025359,084295
0000000123,0000122000,087517,092712,075481,053290,018356,080461
0000000124,0000123000,084661,094392,076657,064152,014321,073634
0000000125,0000124000,081854,095268,078589,073993,013638,064475
0000000126,0000125000,079370,095254,081086,081845,016377,053885
0000000127,0000126000,077455,094361,083894,086928,022267,042911
0000000128,0000127000,076298,092665,086747,088752,030736,032619
0000000129,0000128000,076012,090326,089372,087141,040959,024006
0000000130,0000129000,076617,087593,091500,082252,051926,017928
0000000131,0000130000,078059,084728,092924,074564,062559,014983
0000000132,0000131000,080207,081993,093510,064821,071835,015450
0000000133,0000132000,082838,079672,093200,053983,078841,019283
0000000134,0000133000,085688,077998,092024,043122,082877,026107
0000000135,0000134000,088498,077120,090091,033286,083557,035264
0000000136,0000135000,090987,077129,087594,025432,080823,045852
0000000137,0000136000,092897,078027,084786,020347,074937,056823
0000000138,0000137000,094054,079724,081932,018525,066468,067113
0000000139,0000138000,094346,082057,079308,020133,056247,075726
0000000140,0000139000,093738,084793,077180,025018,045285,081804
0000000141,0000140000,092293,087663,075755,032705,034652,084750
0000000142,0000141000,090150,090392,075168,042447,025376,084285
0000000143,0000142000,087518,092714,075478,053280,018373,080454
0000000144,0000143000,084663,094394,076654,064139,014335,073632
0000000145,0000144000,081856,095268,078586,073976,013651,064479
0000000146,0000145000,079370,095257,081084,081827,016386,053894
0000000147,0000146000,077454,094365,083892,086912,022270,042924
0000000148,0000147000,076298,092667,086746,088738,030733,032636
0000000149,0000148000,076009,090329,089371,087130,040953,024024
0000000150,0000149000,076613,087597,091500,082247,051914,017946
0000000151,0000150000,078056,084729,092925,074565,062542,014999
0000000152,0000151000,080205,081994,093512,064827,071817,015462
0000000153,0000152000,082834,079674,093203,053994,078822,019290
0000000154,0000153000,085686,077997,092027,043139,082859,026109
0000000155,0000154000,088498,077117,090095,033304,083544,035259
0000000156,0000155000,090985,077127,087598,025451,080814,045841
0000000157,0000156000,092897,078024,084789,020366,074932,056808
0000000158,0000157000,094057,079720,081934,018541,066470,067095
0000000159,0000158000,094348,082054,079309,020145,056256,075706
0000000160,0000159000,093741,084791,077179,025024,045299,081784
0000000161,0000160000,092298,087659,075753,032705,034670,084732
0000000162,0000161000,090153,090391,075166,042439,025397,084271
0000000163,0000162000,087520,092715,075475,053267,018394,080446
0000000164,0000163000,084666,094394,076650,064122,014354,073630
0000000165,0000164000,081859,095270,078582,073955,013667,064484
0000000166,0000165000,079369,095262,081080,081805,016397,053905
0000000167,0000166000,077453,094369,083889,086892,022273,042941
0000000168,0000167000,076297,092670,086744,088720,030730,032657
0000000169,0000168000,076005,090334,089371,087117,040943,024047
0000000170,0000169000,076608,087601,091501,082241,051897,017968
0000000171,0000170000,078053,084730,092927,074566,062521,015019
0000000172,0000171000,080200,081995,093515,064834,071794,015478
0000000173,0000172000,082830,079674,093207,054009,078798,019299
0000000174,0000173000,085684,077994,092032,043159,082836,026111
0000000175,0000174000,088496,077114,090100,033327,083526,035254
0000000176,0000175000,090984,077124,087602,025477,080802,045828
0000000177,0000176000,092899,078019,084792,020391,074927,056789
0000000178,0000177000,094060,079714,081937,018561,066474,067071
0000000179,0000178000,094351,082050,079310,020159,056267,075680
0000000180,0000179000,093745,084787,077178,025032,045316,081758
0000000181,0000180000,092304,087656,075751,032705,034693,084709
0000000182,0000181000,090158,090390,075162,042430,025424,084253
0000000183,0000182000,087524,092716,075470,053251,018420,080435
0000000184,0000183000,084671,094395,076645,064100,014379,073628
0000000185,0000184000,081860,095273,078577,073928,013688,064490
0000000186,0000185000,079369,095267,081075,081777,016410,053919
0000000187,0000186000,077453,094373,083885,086866,022278,042963
0000000188,0000187000,076294,092675,086741,088697,030727,032683
0000000189,0000188000,076000,090340,089369,087101,040931,024076
0000000190,0000189000,076604,087605,091501,082233,051876,017997
0000000191,0000190000,078048,084733,092929,074566,062495,015044
0000000192,0000191000,080194,081998,093519,064844,071765,015497
0000000193,0000192000,082825,079674,093212,054028,078767,019311
0000000194,0000193000,085681,077992,092037,043184,082809,026114
0000000195,0000194000,088493,077111,090106,033357,083504,035246
0000000196,0000195000,090983,077120,087607,025508,080786,045812
0000000197,0000196000,092901,078013,084796,020421,074921,056765
0000000198,0000197000,094063,079708,081940,018586,066478,067042
0000000199,0000198000,094354,082045,079311,020178,056281,075648
0000000200,0000199000,093751,084782,077177,025042,045338,081727
0000000201,0000200000,092310,087652,075749,032703,034722,084681
0000000202,0000201000,090163,090389,075158,042419,025456,084232
0000000203,0000202000,087530,092716,075465,053231,018453,080422
0000000204,0000203000,084676,094396,076639,064072,014409,073625
0000000205,0000204000,081862,095278,078571,073895,013713,064498
0000000206,0000205000,079369,095272,081069,081743,016426,053937
0000000207,0000206000,077452,094378,083880,086833,022284,042989
0000000208,0000207000,076290,092682,086738,088669,030723,032715
0000000209,0000208000,075995,090347,089368,087081,040915,024111
0000000210,0000209000,076598,087610,091502,082223,051852,018032
0000000211,0000210000,078042,084737,092932,074567,062464,015075
0000000212,0000211000,080187,082000,093524,064856,071729,015521
0000000213,0000212000,082819,079674,093217,054051,078731,019325
0000000214,0000213000,085677,077989,092044,043214,082776,026116
0000000215,0000214000,088490,077108,090113,033392,083477,035237
0000000216,0000215000,090982,077114,087613,025546,080768,045792
0000000217,0000216000,092903,078005,084802,020456,074914,056736
0000000218,0000217000,094066,079701,081943,018616,066484,067006
0000000219,0000218000,094360,082039,079312,020200,056297,075609
0000000220,0000219000,093759,084775,077177,025053,045364,081689
0000000221,0000220000,092317,087647,075746,032702,034757,084648
0000000222,0000221000,090170,090387,075153,042406,025495,084206
0000000223,0000222000,087537,092715,075458,053207,018492,080407
0000000224,0000223000,084681,094399,076631,064038,014446,073622
0000000225,0000224000,081865,095283,078563,073856,013742,064508
0000000226,0000225000,079370,095278,081062,081703,016445,053959
0000000227,0000226000,077451,094385,083874,086794,022292,043021
0000000228,0000227000,076286,092690,086734,088636,030717,032754
0000000229,0000228000,075989,090355,089366,087058,040897,024153
0000000230,0000229000,076592,087616,091503,082211,051822,018073
0000000231,0000230000,078033,084742,092936,074568,062427,015111
0000000232,0000231000,080178,082003,093529,064871,071686,015549
0000000233,0000232000,082813,079673,093225,054077,078687,019342
0000000234,0000233000,085671,077987,092053,043251,082737,026120
0000000235,0000234000,088486,077103,090121,033435,083445,035227
0000000236,0000235000,090982,077107,087621,025591,080747,045769
0000000237,0000236000,092905,077997,084808,020498,074906,056702
0000000238,0000237000,094070,079693,081948,018652,066490,066964
0000000239,0000238000,094366,082030,079314,020226,056317,075563
0000000240,0000239000,093767,084768,077176,025066,045397,081644
0000000241,0000240000,092326,087643,075742,032700,034798,084608
0000000242,0000241000,090178,090385,075147,042391,025541,084176
0000000243,0000242000,087545,092715,075450,053178,018539,080389
0000000244,0000243000,084686,094402,076622,063998,014489,073619
0000000245,0000244000,081868,095289,078554,073810,013776,064519
0000000246,0000245000,079372,095285,081054,081654,016468,053984
0000000247,0000246000,077448,094394,083868,086748,022301,043058
0000000248,0000247000,076281,092700,086729,088597,030710,032799
0000000249,0000248000,075983,090363,089364,087030,040875,024202
0000000250,0000249000,076583,087623,091504,082197,051788,018121
0000000251,0000250000,078023,084748,092940,074570,062382,015154
0000000252,0000251000,080169,082006,093536,064889,071636,015581
0000000253,0000252000,082805,079673,093233,054109,078637,019361
0000000254,0000253000,085664,077984,092062,043293,082691,026123
0000000255,0000254000,088482,077098,090131,033485,083407,035214
0000000256,0000255000,090982,077099,087630,025643,080722,045741
0000000257,0000256000,092907,077988,084816,020548,074897,056661
0000000258,0000257000,094074,079684,081953,018694,066497,066915
0000000259,0000258000,094374,082020,079316,020256,056340,075510
0000000260,0000259000,093776,084759,077175,025080,045434,081592
0000000261,0000260000,092335,087637,075738,032698,034846,084562
0000000262,0000261000,090189,090381,075140,042372,025594,084141
0000000263,0000262000,087554,092714,075441,053144,018594,080369
0000000264,0000263000,084693,094405,076612,063952,014539,073615
0000000265,0000264000,081873,095295,078543,073757,013816,064533
0000000266,0000265000,079373,095294,081044,081598,016494,054014
0000000267,0000266000,077446,094405,083860,086694,022311,043101
0000000268,0000267000,076275,092711,086724,088553,030702,032852
0000000269,0000268000,075975,090373,089362,086998,040849,024260
0000000270,0000269000,076573,087632,091505,082181,051748,018177
0000000271,0000270000,078012,084755,092944,074572,062331,015203
0000000272,0000271000,080158,082009,093543,064909,071578,015619
0000000273,0000272000,082795,079673,093243,054145,078579,019383
0000000274,0000273000,085656,077981,092073,043343,082637,026127
0000000275,0000274000,088477,077091,090142,033543,083364,035200
0000000276,0000275000,090980,077089,087641,025703,080694,045709
0000000277,0000276000,092909,077977,084824,020604,074887,056615
0000000278,0000277000,094080,079672,081959,018742,066506,066858
0000000279,0000278000,094383,082009,079319,020290,056367,075449
0000000280,0000279000,093787,084750,077173,025097,045477,081532
0000000281,0000280000,092347,087630,075733,032696,034901,084510
0000000282,0000281000,090201,090377,075132,042350,025656,084100
0000000283,0000282000,087565,092714,075431,053105,018657,080345
0000000284,0000283000,084701,094409,076600,063900,014596,073611
0000000285,0000284000,081878,095302,078531,073695,013862,064549
0000000286,0000285000,079375,095303,081033,081533,016524,054049
0000000287,0000286000,077443,094417,083850,086634,022322,043151
0000000288,0000287000,076269,092724,086717,088502,030692,032913
0000000289,0000288000,075966,090385,089359,086961,040820,024325
0000000290,0000289000,076561,087643,091507,082163,051702,018241
0000000291,0000290000,077999,084763,092949,074575,062272,015259
0000000292,0000291000,080146,082013,093552,064932,071512,015662
0000000293,0000292000,082783,079673,093254,054187,078512,019408
0000000294,0000293000,085647,077977,092086,043399,082576,026131
0000000295,0000294000,088472,077083,090155,033609,083315,035183
0000000296,0000295000,090979,077078,087653,025772,080662,045673
0000000297,0000296000,092912,077964,084834,020669,074876,056561
0000000298,0000297000,094087,079658,081966,018797,066516,066794
0000000299,0000298000,094393,081996,079322,020329,056398,075379
0000000300,0000299000,093799,084739,077172,025116,045527,081464
0000000301,0000300000,092361,087622,075727,032693,034964,084450
