DIgSILENT PowerFactory,21000900,2000
6,06A,00D
1,TTPP_200000_100:Secondary Voltage A,,,V,0.10000000,-8691.368164,0.000000,72927,99998,1,1,P
2,TTPP_200000_100:Secondary Voltage B,,,V,0.10000000,-8536.543945,0.000000,72206,99998,1,1,P
3,TTPP_200000_100:Secondary Voltage C,,,V,0.10000000,-8703.248047,0.000000,71258,99998,1,1,P
4,TTCC_300_1:Secondary Current A,,,A,0.00010000000,-5.202573,0.000000,-17392,99998,1,1,P
5,TTCC_300_1:Secondary Current B,,,A,0.00010000000,-4.871871,0.000000,-2669,99998,1,1,P
6,TTCC_300_1:Secondary Current C,,,A,0.00010000000,-4.951849,0.000000,-1067,99998,1,1,P
50
1
1000.000000,1101
30/06/2023,06:12:26.000000
30/06/2023,06:12:26.000000
ASCII
1.000000
0000000001,0000000000,094020,086841,078451,031096,034729,084438
0000000002,0000001000,091886,089558,077866,040849,025450,083964
0000000003,0000002000,089245,091888,078178,051688,018453,080121
0000000004,0000003000,086389,093567,079355,062568,014409,073286
0000000005,0000004000,083595,094429,081288,072410,013735,064117
0000000006,0000005000,081108,094419,083785,080259,016487,053517
0000000007,0000006000,079186,093535,086591,085344,022383,042536
0000000008,0000007000,078043,091825,089444,087167,030858,032238
0000000009,0000008000,077756,089489,092066,085543,041098,023622
0000000010,0000009000,078355,086765,094192,080645,052074,017544
0000000011,0000010000,079803,083895,095614,072951,062707,014604
0000000012,0000011000,081955,081157,096199,063192,071993,015077
0000000013,0000012000,084578,078848,095887,052344,079000,018920
0000000014,0000013000,087429,077173,094709,041478,083029,025756
0000000015,0000014000,090243,076291,092778,031634,083705,034925
0000000016,0000015000,092722,076308,090281,023776,080964,045524
0000000017,0000016000,094629,077209,087473,018697,075060,056505
0000000018,0000017000,095792,078899,084622,016878,066581,066803
0000000019,0000018000,096076,081237,081999,018495,056349,075419
0000000020,0000019000,095464,083975,079873,023394,045373,081496
0000000021,0000020000,094026,086835,078451,031096,034730,084438
0000000022,0000021000,091880,089565,077867,040846,025454,083964
0000000023,0000022000,089243,091890,078178,051697,018446,080121
0000000024,0000023000,086397,093560,079354,062568,014410,073285
0000000025,0000024000,083594,094431,081288,072407,013738,064117
0000000026,0000025000,081100,094427,083785,080262,016484,053517
0000000027,0000026000,079193,093528,086591,085350,022377,042536
0000000028,0000027000,078045,091823,089443,087164,030861,032238
0000000029,0000028000,077750,089495,092066,085544,041098,023622
0000000030,0000029000,078355,086765,094192,080652,052067,017544
0000000031,0000030000,079809,083889,095614,072952,062708,014603
0000000032,0000031000,081951,081162,096199,063191,071994,015077
0000000033,0000032000,084574,078851,095887,052348,078995,018919
0000000034,0000033000,087434,077168,094710,041482,083026,025755
0000000035,0000034000,090243,076291,092778,031633,083707,034923
0000000036,0000035000,092718,076313,090281,023779,080961,045523
0000000037,0000036000,094633,077205,087474,018701,075058,056504
0000000038,0000037000,095793,078897,084622,016880,066582,066801
0000000039,0000038000,096073,081240,081999,018495,056350,075417
0000000040,0000039000,095465,083974,079873,023397,045371,081495
0000000041,0000040000,094028,086832,078451,031096,034731,084436
0000000042,0000041000,091878,089567,077866,040847,025454,083962
0000000043,0000042000,089243,091890,078178,051697,018446,080120
0000000044,0000043000,086399,093558,079355,062568,014410,073285
0000000045,0000044000,083592,094433,081287,072407,013739,064117
0000000046,0000045000,081100,094427,083784,080263,016482,053517
0000000047,0000046000,079195,093526,086591,085349,022378,042537
0000000048,0000047000,078043,091825,089444,087164,030860,032239
0000000049,0000048000,077749,089497,092066,085546,041095,023623
0000000050,0000049000,078358,086762,094192,080652,052065,017546
0000000051,0000050000,079807,083890,095614,072951,062707,014604
0000000052,0000051000,081948,081165,096199,063195,071990,015077
0000000053,0000052000,084577,078848,095887,052352,078992,018919
0000000054,0000053000,087435,077167,094711,041482,083026,025755
0000000055,0000054000,090238,076295,092778,031636,083705,034922
0000000056,0000055000,092719,076311,090281,023785,080958,045521
0000000057,0000056000,094636,077202,087474,018702,075059,056502
0000000058,0000057000,095790,078900,084622,016881,066583,066799
0000000059,0000058000,096072,081240,081999,018500,056348,075414
0000000060,0000059000,095470,083969,079873,023399,045372,081492
0000000061,0000060000,094027,086834,078451,031094,034736,084434
0000000062,0000061000,091875,089570,077866,040848,025455,083960
0000000063,0000062000,089247,091887,078177,051698,018446,080119
0000000064,0000063000,086400,093557,079354,062564,014415,073284
0000000065,0000064000,083588,094437,081287,072405,013740,064117
0000000066,0000065000,081102,094426,083783,080263,016481,053519
0000000067,0000066000,079197,093524,086591,085346,022379,042539
0000000068,0000067000,078039,091829,089443,087161,030861,032242
0000000069,0000068000,077747,089498,092066,085547,041091,023626
0000000070,0000069000,078360,086759,094192,080652,052062,017549
0000000071,0000070000,079805,083892,095615,072950,062705,014607
0000000072,0000071000,081946,081167,096199,063198,071985,015079
0000000073,0000072000,084579,078845,095888,052355,078987,018920
0000000074,0000073000,087434,077166,094711,041485,083024,025755
0000000075,0000074000,090235,076297,092779,031642,083701,034921
0000000076,0000075000,092721,076309,090282,023791,080954,045518
0000000077,0000076000,094637,077200,087475,018706,075059,056498
0000000078,0000077000,095788,078901,084622,016885,066583,066794
0000000079,0000078000,096074,081239,081999,018504,056349,075410
0000000080,0000079000,095472,083967,079873,023400,045376,081487
0000000081,0000080000,094026,086835,078450,031094,034740,084429
0000000082,0000081000,091876,089570,077865,040849,025458,083957
0000000083,0000082000,089250,091885,078177,051695,018452,080117
0000000084,0000083000,086399,093559,079353,062559,014420,073284
0000000085,0000084000,083587,094439,081286,072402,013743,064118
0000000086,0000085000,081105,094425,083782,080258,016483,053522
0000000087,0000086000,079196,093525,086590,085339,022381,042543
0000000088,0000087000,078037,091832,089443,087158,030859,032247
0000000089,0000088000,077749,089497,092065,085545,041087,023632
0000000090,0000089000,078360,086759,094192,080649,052059,017555
0000000091,0000090000,079801,083895,095615,072951,062699,014612
0000000092,0000091000,081946,081166,096200,063202,071977,015083
0000000093,0000092000,084580,078843,095889,052359,078981,018923
0000000094,0000093000,087431,077168,094713,041490,083018,025755
0000000095,0000094000,090235,076297,092780,031650,083694,034919
0000000096,0000095000,092724,076305,090283,023798,080951,045514
0000000097,0000096000,094636,077200,087476,018712,075059,056492
0000000098,0000097000,095787,078902,084623,016893,066583,066787
0000000099,0000098000,096077,081235,081999,018510,056351,075402
0000000100,0000099000,095473,083966,079873,023401,045382,081479
0000000101,0000100000,094025,086837,078450,031095,034746,084422
0000000102,0000101000,091879,089568,077864,040847,025464,083951
0000000103,0000102000,089253,091883,078175,051689,018461,080114
0000000104,0000103000,086398,093562,079352,062552,014428,073283
0000000105,0000104000,083588,094440,081284,072395,013747,064120
0000000106,0000105000,081107,094424,083781,080249,016488,053526
0000000107,0000106000,079194,093528,086589,085331,022383,042549
0000000108,0000107000,078035,091835,089442,087152,030856,032255
0000000109,0000108000,077750,089497,092065,085540,041083,023641
0000000110,0000109000,078358,086761,094192,080646,052053,017564
0000000111,0000110000,079798,083898,095616,072953,062690,014620
0000000112,0000111000,081945,081165,096201,063206,071966,015090
0000000113,0000112000,084579,078843,095890,052364,078972,018926
0000000114,0000113000,087428,077170,094714,041499,083008,025755
0000000115,0000114000,090235,076295,092782,031661,083686,034916
0000000116,0000115000,092724,076303,090285,023808,080946,045509
0000000117,0000116000,094634,077200,087477,018722,075057,056484
0000000118,0000117000,095788,078900,084624,016903,066583,066777
0000000119,0000118000,096080,081232,082000,018516,056356,075391
0000000120,0000119000,095474,083965,079873,023404,045391,081468
0000000121,0000120000,094027,086836,078449,031096,034755,084412
0000000122,0000121000,091883,089566,077863,040844,025476,083944
0000000123,0000122000,089254,091884,078174,051681,018473,080109
0000000124,0000123000,086398,093564,079350,062543,014438,073281
0000000125,0000124000,083591,094439,081282,072384,013756,064123
0000000126,0000125000,081107,094426,083779,080236,016494,053533
0000000127,0000126000,079192,093532,086587,085319,022385,042559
0000000128,0000127000,078035,091836,089440,087143,030853,032267
0000000129,0000128000,077749,089498,092065,085531,041078,023654
0000000130,0000129000,078354,086765,094193,080642,052044,017576
0000000131,0000130000,079796,083899,095617,072954,062677,014632
0000000132,0000131000,081945,081165,096203,063211,071953,015099
0000000133,0000132000,084575,078844,095893,052372,078959,018932
0000000134,0000133000,087425,077170,094717,041512,082994,025757
0000000135,0000134000,090235,076292,092784,031676,083675,034913
0000000136,0000135000,092724,076300,090287,023822,080940,045501
0000000137,0000136000,094634,077199,087479,018737,075053,056472
0000000138,0000137000,095791,078896,084625,016916,066584,066763
0000000139,0000138000,096083,081228,082001,018524,056363,075375
0000000140,0000139000,095475,083965,079872,023409,045401,081453
0000000141,0000140000,094030,086834,078448,031097,034768,084398
0000000142,0000141000,091887,089564,077861,040838,025492,083933
0000000143,0000142000,089255,091885,078171,051671,018490,080102
0000000144,0000143000,086400,093565,079346,062531,014452,073280
0000000145,0000144000,083593,094440,081279,072368,013768,064127
0000000146,0000145000,081107,094429,083776,080218,016503,053541
0000000147,0000146000,079191,093536,086585,085303,022388,042572
0000000148,0000147000,078035,091838,089439,087129,030851,032283
0000000149,0000148000,077746,089501,092064,085521,041071,023672
0000000150,0000149000,078350,086769,094193,080637,052032,017594
0000000151,0000150000,079793,083900,095618,072955,062660,014647
0000000152,0000151000,081942,081165,096205,063216,071935,015111
0000000153,0000152000,084571,078845,095896,052384,078940,018939
0000000154,0000153000,087423,077168,094720,041529,082976,025758
0000000155,0000154000,090235,076289,092788,031694,083661,034908
0000000156,0000155000,092722,076299,090291,023842,080931,045491
0000000157,0000156000,094634,077196,087482,018757,075049,056457
0000000158,0000157000,095794,078891,084627,016932,066587,066744
0000000159,0000158000,096085,081225,082002,018535,056372,075355
0000000160,0000159000,095478,083962,079872,023415,045415,081432
0000000161,0000160000,094035,086831,078446,031097,034786,084380
0000000162,0000161000,091890,089563,077858,040831,025514,083919
0000000163,0000162000,089257,091886,078168,051659,018511,080094
0000000164,0000163000,086403,093566,079342,062513,014471,073278
0000000165,0000164000,083596,094441,081275,072346,013785,064132
0000000166,0000165000,081106,094433,083773,080196,016514,053553
0000000167,0000166000,079190,093540,086582,085283,022391,042589
0000000168,0000167000,078034,091841,089437,087111,030848,032304
0000000169,0000168000,077742,089506,092063,085507,041061,023695
0000000170,0000169000,078345,086773,094193,080631,052015,017617
0000000171,0000170000,079790,083902,095620,072956,062639,014668
0000000172,0000171000,081937,081167,096208,063224,071912,015127
0000000173,0000172000,084566,078846,095899,052399,078915,018948
0000000174,0000173000,087421,077166,094725,041549,082954,025760
0000000175,0000174000,090233,076286,092793,031717,083643,034903
0000000176,0000175000,092721,076296,090295,023867,080919,045478
0000000177,0000176000,094636,077191,087485,018781,075043,056438
0000000178,0000177000,095797,078885,084630,016952,066590,066720
0000000179,0000178000,096088,081222,082002,018550,056384,075329
0000000180,0000179000,095482,083959,079871,023424,045432,081407
0000000181,0000180000,094041,086827,078444,031096,034810,084358
0000000182,0000181000,091894,089562,077855,040822,025540,083901
0000000183,0000182000,089261,091887,078163,051643,018537,080083
0000000184,0000183000,086408,093566,079337,062491,014496,073276
0000000185,0000184000,083597,094445,081270,072319,013805,064138
0000000186,0000185000,081106,094438,083768,080168,016527,053567
0000000187,0000186000,079190,093544,086578,085257,022396,042610
0000000188,0000187000,078031,091846,089434,087088,030845,032331
0000000189,0000188000,077737,089512,092062,085491,041049,023724
0000000190,0000189000,078341,086777,094194,080624,051994,017645
0000000191,0000190000,079785,083904,095622,072956,062614,014693
0000000192,0000191000,081931,081169,096212,063234,071883,015146
0000000193,0000192000,084562,078846,095904,052418,078885,018960
0000000194,0000193000,087418,077163,094730,041574,082926,025763
0000000195,0000194000,090230,076283,092798,031747,083621,034895
0000000196,0000195000,092720,076292,090300,023899,080903,045461
0000000197,0000196000,094638,077184,087489,018811,075038,056414
0000000198,0000197000,095800,078880,084633,016977,066595,066691
0000000199,0000198000,096091,081217,082004,018569,056397,075297
0000000200,0000199000,095488,083953,079870,023433,045454,081376
0000000201,0000200000,094047,086823,078441,031095,034839,084330
0000000202,0000201000,091900,089561,077851,040811,025573,083880
0000000203,0000202000,089267,091887,078158,051623,018570,080070
0000000204,0000203000,086413,093568,079331,062463,014526,073273
0000000205,0000204000,083599,094449,081264,072287,013830,064146
0000000206,0000205000,081106,094444,083762,080135,016543,053585
0000000207,0000206000,079189,093550,086573,085224,022402,042637
0000000208,0000207000,078027,091853,089431,087060,030841,032363
0000000209,0000208000,077732,089519,092061,085471,041033,023759
0000000210,0000209000,078335,086781,094195,080614,051970,017680
0000000211,0000210000,079779,083908,095625,072957,062582,014723
0000000212,0000211000,081923,081172,096217,063246,071847,015169
0000000213,0000212000,084556,078845,095910,052441,078848,018974
0000000214,0000213000,087414,077161,094737,041604,082893,025765
0000000215,0000214000,090227,076279,092805,031782,083594,034887
0000000216,0000215000,092719,076286,090306,023937,080885,045442
0000000217,0000216000,094640,077177,087495,018847,075031,056385
0000000218,0000217000,095803,078873,084636,017007,066600,066656
0000000219,0000218000,096097,081210,082005,018591,056413,075258
0000000220,0000219000,095496,083947,079869,023444,045481,081338
0000000221,0000220000,094054,086819,078439,031093,034874,084296
0000000222,0000221000,091907,089559,077846,040798,025612,083854
0000000223,0000222000,089274,091886,078151,051599,018609,080055
0000000224,0000223000,086418,093570,079324,062429,014563,073270
0000000225,0000224000,083602,094454,081256,072248,013859,064155
0000000226,0000225000,081107,094450,083755,080094,016562,053607
0000000227,0000226000,079188,093557,086567,085185,022410,042668
0000000228,0000227000,078023,091862,089427,087026,030835,032402
0000000229,0000228000,077726,089526,092059,085448,041015,023801
0000000230,0000229000,078329,086787,094196,080602,051941,017721
0000000231,0000230000,079770,083913,095628,072958,062545,014760
0000000232,0000231000,081915,081175,096222,063261,071804,015197
0000000233,0000232000,084550,078845,095917,052467,078805,018990
0000000234,0000233000,087408,077158,094745,041640,082854,025769
0000000235,0000234000,090223,076275,092814,031825,083562,034876
0000000236,0000235000,092719,076279,090314,023981,080864,045418
0000000237,0000236000,094642,077168,087501,018889,075023,056351
0000000238,0000237000,095807,078865,084640,017043,066606,066613
0000000239,0000238000,096103,081202,082007,018617,056433,075212
0000000240,0000239000,095504,083939,079869,023457,045513,081293
0000000241,0000240000,094062,086814,078435,031092,034915,084257
0000000242,0000241000,091915,089556,077840,040782,025657,083824
0000000243,0000242000,089282,091886,078143,051570,018656,080037
0000000244,0000243000,086423,093573,079315,062390,014606,073267
0000000245,0000244000,083605,094460,081247,072202,013894,064167
0000000246,0000245000,081109,094457,083747,080045,016585,053632
0000000247,0000246000,079185,093566,086560,085139,022419,042706
0000000248,0000247000,078018,091871,089422,086988,030828,032447
0000000249,0000248000,077720,089535,092057,085420,040993,023850
0000000250,0000249000,078320,086795,094197,080587,051906,017769
0000000251,0000250000,079760,083920,095632,072960,062500,014802
0000000252,0000251000,081906,081178,096228,063279,071754,015230
0000000253,0000252000,084542,078844,095926,052499,078755,019010
0000000254,0000253000,087401,077155,094755,041683,082808,025772
0000000255,0000254000,090219,076269,092823,031875,083525,034863
0000000256,0000255000,092718,076270,090323,024034,080839,045391
0000000257,0000256000,094644,077159,087508,018938,075014,056311
0000000258,0000257000,095811,078855,084645,017085,066614,066564
0000000259,0000258000,096111,081192,082009,018647,056456,075159
0000000260,0000259000,095513,083931,079867,023472,045551,081241
0000000261,0000260000,094072,086808,078431,031090,034963,084211
0000000262,0000261000,091926,089553,077833,040763,025711,083789
0000000263,0000262000,089291,091886,078134,051536,018711,080017
0000000264,0000263000,086430,093577,079305,062344,014656,073263
0000000265,0000264000,083610,094466,081236,072148,013934,064181
0000000266,0000265000,081110,094465,083737,079989,016612,053662
0000000267,0000266000,079183,093576,086552,085085,022429,042749
0000000268,0000267000,078012,091883,089417,086943,030820,032500
0000000269,0000268000,077712,089545,092055,085388,040967,023907
0000000270,0000269000,078310,086804,094198,080571,051866,017825
0000000271,0000270000,079749,083926,095637,072962,062449,014852
0000000272,0000271000,081895,081181,096236,063299,071696,015268
0000000273,0000272000,084532,078844,095936,052535,078696,019032
0000000274,0000273000,087393,077152,094766,041732,082755,025776
0000000275,0000274000,090214,076262,092835,031933,083481,034849
0000000276,0000275000,092717,076260,090334,024094,080811,045359
0000000277,0000276000,094646,077148,087517,018995,075004,056264
0000000278,0000277000,095817,078843,084651,017133,066622,066507
0000000279,0000278000,096120,081180,082011,018681,056484,075098
0000000280,0000279000,095524,083921,079866,023488,045594,081181
0000000281,0000280000,094084,086801,078426,031088,035018,084158
0000000282,0000281000,091938,089548,077825,040742,025773,083749
0000000283,0000282000,089302,091886,078124,051496,018773,079993
0000000284,0000283000,086438,093581,079293,062291,014713,073259
0000000285,0000284000,083615,094473,081224,072087,013979,064196
0000000286,0000285000,081112,094475,083726,079925,016642,053696
0000000287,0000286000,079180,093589,086543,085025,022440,042799
0000000288,0000287000,078006,091895,089410,086892,030810,032561
0000000289,0000288000,077703,089557,092052,085352,040938,023973
0000000290,0000289000,078298,086814,094199,080554,051820,017889
0000000291,0000290000,079736,083934,095642,072965,062390,014908
0000000292,0000291000,081883,081185,096244,063322,071630,015310
0000000293,0000292000,084520,078844,095947,052576,078630,019056
0000000294,0000293000,087384,077149,094779,041789,082694,025780
0000000295,0000294000,090209,076254,092848,031999,083433,034832
0000000296,0000295000,092716,076250,090346,024162,080779,045322
0000000297,0000296000,094648,077136,087527,019060,074992,056211
0000000298,0000297000,095824,078829,084658,017187,066632,066443
0000000299,0000298000,096130,081167,082014,018720,056515,075028
0000000300,0000299000,095536,083911,079865,023507,045643,081113
0000000301,0000300000,094098,086793,078420,031085,035080,084099
