DIgSILENT PowerFactory,21000900,2000
6,06A,00D
1,TTPP_200000_100:Secondary Voltage A,,,V,0.10000000,-8385.474609,0.000000,67178,99998,1,1,P
2,TTPP_200000_100:Secondary Voltage B,,,V,0.10000000,-8107.024414,0.000000,64443,99998,1,1,P
3,TTPP_200000_100:Secondary Voltage C,,,V,0.10000000,-8370.867188,0.000000,66949,99998,1,1,P
4,TTCC_500_5:Secondary Current A,,,A,0.0010000000,-87.391441,0.000000,68950,99998,1,1,P
5,TTCC_500_5:Secondary Current B,,,A,0.0010000000,-85.152550,0.000000,70253,99998,1,1,P
6,TTCC_500_5:Secondary Current C,,,A,0.0010000000,-84.826775,0.000000,69477,99998,1,1,P
50
1
1000.000000,1101
30/06/2023,06:06:08.000000
30/06/2023,06:06:08.000000
ASCII
1.000000
0000000001,0000000000,089367,084710,074556,093307,089832,074232
0000000002,0000001000,086819,087144,074670,090292,092548,074530
0000000003,0000002000,083967,088999,075669,086992,094543,075836
0000000004,0000003000,081122,090061,077451,083737,095612,078021
0000000005,0000004000,078538,090244,079853,080833,095662,080875
0000000006,0000005000,076465,089537,082631,078572,094683,084115
0000000007,0000006000,075119,088007,085506,077178,092771,087422
0000000008,0000007000,074646,085776,088212,076783,090111,090477
0000000009,0000008000,075054,083098,090481,077424,086967,092980
0000000010,0000009000,076322,080231,092082,079042,083646,094683
0000000011,0000010000,078342,077432,092861,081480,080471,095420
0000000012,0000011000,080903,074984,092747,084494,077755,095122
0000000013,0000012000,083731,073152,091750,087792,075762,093817
0000000014,0000013000,086585,072082,089966,091051,074689,091631
0000000015,0000014000,089183,071887,087564,093953,074641,088777
0000000016,0000015000,091242,072605,084787,096211,075622,085537
0000000017,0000016000,092578,074146,081911,097610,077531,082231
0000000018,0000017000,093076,076353,079206,098004,080192,079176
0000000019,0000018000,092657,079040,076936,097360,083338,076673
0000000020,0000019000,091375,081923,075336,095743,086658,074970
0000000021,0000020000,089372,084704,074556,093309,089829,074232
0000000022,0000021000,086818,087145,074670,090290,092550,074530
0000000023,0000022000,083966,089001,075667,086993,094542,075836
0000000024,0000023000,081122,090061,077451,083736,095613,078022
0000000025,0000024000,078540,090241,079853,080833,095662,080875
0000000026,0000025000,076462,089541,082630,078571,094684,084115
0000000027,0000026000,075123,088004,085506,077178,092771,087422
0000000028,0000027000,074644,085777,088212,076782,090112,090477
0000000029,0000028000,075054,083098,090481,077424,086967,092980
0000000030,0000029000,076323,080230,092081,079042,083646,094683
0000000031,0000030000,078343,077430,092861,081478,080472,095421
0000000032,0000031000,080898,074988,092748,084494,077755,095122
0000000033,0000032000,083734,073150,091750,087792,075762,093817
0000000034,0000033000,086587,072080,089966,091050,074689,091631
0000000035,0000034000,089179,071889,087565,093952,074642,088777
0000000036,0000035000,091240,072606,084787,096212,075621,085538
0000000037,0000036000,092583,074140,081910,097608,077532,082231
0000000038,0000037000,093074,076355,079206,098003,080192,079176
0000000039,0000038000,092654,079043,076937,097360,083338,076673
0000000040,0000039000,091380,081918,075336,095744,086657,074970
0000000041,0000040000,089374,084703,074556,093307,089831,074232
0000000042,0000041000,086812,087151,074670,090290,092549,074531
0000000043,0000042000,083968,088998,075667,086993,094541,075836
0000000044,0000043000,081126,090057,077451,083736,095613,078022
0000000045,0000044000,078535,090246,079853,080832,095663,080876
0000000046,0000045000,076461,089542,082630,078573,094683,084115
0000000047,0000046000,075128,088000,085506,077178,092771,087421
0000000048,0000047000,074643,085779,088212,076782,090113,090476
0000000049,0000048000,075049,083103,090481,077424,086967,092979
0000000050,0000049000,076327,080226,092081,079042,083646,094682
0000000051,0000050000,078344,077429,092861,081477,080474,095420
0000000052,0000051000,080894,074992,092748,084493,077756,095122
0000000053,0000052000,083735,073149,091750,087792,075762,093817
0000000054,0000053000,086590,072076,089967,091049,074690,091631
0000000055,0000054000,089175,071893,087565,093950,074643,088777
0000000056,0000055000,091240,072606,084787,096212,075621,085538
0000000057,0000056000,092586,074136,081911,097607,077532,082232
0000000058,0000057000,093073,076356,079206,098001,080192,079177
0000000059,0000058000,092652,079045,076936,097360,083337,076674
0000000060,0000059000,091383,081914,075336,095744,086656,074971
0000000061,0000060000,089374,084703,074556,093307,089831,074233
0000000062,0000061000,086811,087153,074669,090290,092549,074531
0000000063,0000062000,083971,088997,075666,086994,094540,075836
0000000064,0000063000,081127,090056,077450,083736,095613,078022
0000000065,0000064000,078533,090249,079852,080833,095663,080875
0000000066,0000065000,076463,089542,082629,078574,094683,084115
0000000067,0000066000,075129,087999,085506,077178,092771,087421
0000000068,0000067000,074640,085782,088212,076782,090113,090476
0000000069,0000068000,075049,083104,090481,077425,086967,092979
0000000070,0000069000,076328,080225,092081,079042,083647,094682
0000000071,0000070000,078341,077432,092862,081476,080475,095420
0000000072,0000071000,080892,074994,092748,084493,077757,095121
0000000073,0000072000,083737,073146,091751,087791,075764,093816
0000000074,0000073000,086588,072077,089968,091047,074692,091631
0000000075,0000074000,089173,071894,087566,093949,074643,088778
0000000076,0000075000,091243,072603,084788,096211,075621,085539
0000000077,0000076000,092587,074135,081912,097605,077533,082233
0000000078,0000077000,093070,076358,079206,098000,080192,079178
0000000079,0000078000,092655,079042,076937,097359,083336,076675
0000000080,0000079000,091386,081911,075336,095743,086656,074972
0000000081,0000080000,089372,084705,074556,093307,089830,074234
0000000082,0000081000,086812,087153,074669,090291,092547,074532
0000000083,0000082000,083975,088994,075665,086994,094539,075837
0000000084,0000083000,081126,090058,077449,083737,095612,078022
0000000085,0000084000,078532,090251,079850,080835,095661,080875
0000000086,0000085000,076466,089540,082628,078575,094682,084114
0000000087,0000086000,075128,088000,085505,077179,092772,087420
0000000088,0000087000,074637,085786,088211,076783,090113,090474
0000000089,0000088000,075050,083103,090480,077426,086968,092977
0000000090,0000089000,076328,080225,092082,079042,083649,094680
0000000091,0000090000,078336,077435,092862,081476,080477,095418
0000000092,0000091000,080891,074994,092749,084492,077758,095120
0000000093,0000092000,083737,073144,091753,087789,075766,093816
0000000094,0000093000,086585,072079,089969,091045,074694,091631
0000000095,0000094000,089171,071894,087568,093948,074644,088778
0000000096,0000095000,091245,072599,084790,096208,075622,085540
0000000097,0000096000,092586,074134,081914,097603,077534,082235
0000000098,0000097000,093069,076357,079207,097999,080192,079180
0000000099,0000098000,092658,079039,076937,097358,083335,076678
0000000100,0000099000,091388,081910,075336,095741,086655,074975
0000000101,0000100000,089372,084706,074555,093307,089828,074236
0000000102,0000101000,086815,087151,074667,090292,092544,074534
0000000103,0000102000,083978,088992,075664,086996,094537,075838
0000000104,0000103000,081126,090061,077447,083739,095610,078022
0000000105,0000104000,078533,090252,079848,080837,095659,080874
0000000106,0000105000,076467,089540,082626,078577,094681,084113
0000000107,0000106000,075126,088004,085503,077181,092772,087418
0000000108,0000107000,074635,085789,088209,076786,090113,090472
0000000109,0000108000,075050,083103,090480,077427,086969,092974
0000000110,0000109000,076325,080227,092082,079042,083651,094677
0000000111,0000110000,078333,077438,092863,081476,080479,095416
0000000112,0000111000,080891,074993,092751,084491,077761,095118
0000000113,0000112000,083735,073144,091755,087787,075769,093815
0000000114,0000113000,086582,072080,089972,091043,074697,091631
0000000115,0000114000,089172,071892,087570,093945,074646,088779
0000000116,0000115000,091245,072596,084792,096205,075624,085542
0000000117,0000116000,092585,074133,081916,097600,077534,082237
0000000118,0000117000,093071,076355,079209,097996,080191,079183
0000000119,0000118000,092662,079034,076938,097356,083334,076681
0000000120,0000119000,091389,081909,075336,095740,086653,074978
0000000121,0000120000,089374,084705,074554,093307,089825,074239
0000000122,0000121000,086820,087148,074665,090293,092541,074536
0000000123,0000122000,083980,088993,075661,086997,094534,075839
0000000124,0000123000,081127,090063,077444,083742,095607,078022
0000000125,0000124000,078536,090253,079845,080841,095656,080874
0000000126,0000125000,076468,089542,082624,078581,094680,084111
0000000127,0000126000,075124,088009,085501,077185,092771,087415
0000000128,0000127000,074634,085791,088208,076789,090114,090468
0000000129,0000128000,075049,083105,090479,077429,086971,092970
0000000130,0000129000,076320,080231,092082,079043,083654,094674
0000000131,0000130000,078329,077440,092864,081476,080482,095412
0000000132,0000131000,080889,074992,092753,084490,077765,095116
0000000133,0000132000,083731,073144,091758,087784,075773,093813
0000000134,0000133000,086579,072080,089975,091040,074700,091631
0000000135,0000134000,089172,071888,087574,093941,074649,088780
0000000136,0000135000,091245,072593,084796,096200,075626,085544
0000000137,0000136000,092584,074131,081918,097596,077535,082240
0000000138,0000137000,093074,076350,079210,097993,080190,079187
0000000139,0000138000,092665,079030,076939,097353,083333,076685
0000000140,0000139000,091391,081907,075335,095739,086650,074982
0000000141,0000140000,089379,084702,074552,093307,089820,074243
0000000142,0000141000,086825,087146,074663,090295,092537,074539
0000000143,0000142000,083982,088994,075658,087000,094530,075841
0000000144,0000143000,081129,090065,077440,083746,095602,078023
0000000145,0000144000,078539,090254,079841,080845,095653,080873
0000000146,0000145000,076468,089546,082620,078585,094677,084108
0000000147,0000146000,075122,088014,085497,077190,092770,087411
0000000148,0000147000,074634,085794,088205,076793,090114,090464
0000000149,0000148000,075046,083109,090478,077432,086973,092965
0000000150,0000149000,076315,080236,092082,079045,083658,094669
0000000151,0000150000,078326,077442,092866,081476,080487,095408
0000000152,0000151000,080885,074993,092756,084488,077771,095112
0000000153,0000152000,083726,073146,091762,087781,075779,093811
0000000154,0000153000,086576,072078,089980,091035,074705,091630
0000000155,0000154000,089171,071884,087579,093935,074654,088782
0000000156,0000155000,091243,072591,084800,096194,075629,085547
0000000157,0000156000,092585,074127,081922,097590,077536,082245
0000000158,0000157000,093077,076344,079213,097988,080190,079193
0000000159,0000158000,092668,079026,076940,097349,083330,076691
0000000160,0000159000,091395,081904,075335,095737,086646,074988
0000000161,0000160000,089385,084698,074550,093307,089815,074248
0000000162,0000161000,086830,087144,074660,090296,092531,074543
0000000163,0000162000,083985,088995,075653,087004,094523,075844
0000000164,0000163000,081134,090066,077435,083751,095597,078023
0000000165,0000164000,078542,090256,079836,080851,095649,080871
0000000166,0000165000,076468,089551,082615,078592,094674,084105
0000000167,0000166000,075121,088019,085493,077196,092769,087406
0000000168,0000167000,074632,085799,088203,076798,090115,090457
0000000169,0000168000,075041,083116,090477,077435,086977,092959
0000000170,0000169000,076309,080242,092083,079047,083662,094662
0000000171,0000170000,078321,077445,092868,081476,080493,095402
0000000172,0000171000,080879,074995,092760,084485,077778,095108
0000000173,0000172000,083720,073147,091767,087777,075786,093808
0000000174,0000173000,086573,072075,089985,091029,074711,091630
0000000175,0000174000,089168,071880,087585,093928,074659,088783
0000000176,0000175000,091241,072587,084806,096187,075633,085551
0000000177,0000176000,092587,074121,081926,097584,077537,082250
0000000178,0000177000,093081,076336,079216,097982,080189,079200
0000000179,0000178000,092672,079021,076941,097345,083327,076699
0000000180,0000179000,091401,081899,075334,095735,086640,074995
0000000181,0000180000,089393,084693,074548,093308,089808,074255
0000000182,0000181000,086836,087142,074655,090299,092524,074548
0000000183,0000182000,083991,088996,075647,087009,094516,075847
0000000184,0000183000,081139,090067,077428,083757,095589,078024
0000000185,0000184000,078545,090260,079829,080859,095643,080869
0000000186,0000185000,076468,089558,082608,078600,094671,084100
0000000187,0000186000,075121,088025,085488,077204,092767,087400
0000000188,0000187000,074629,085806,088199,076804,090117,090450
0000000189,0000188000,075035,083123,090475,077440,086980,092950
0000000190,0000189000,076303,080247,092084,079049,083668,094654
0000000191,0000190000,078314,077448,092871,081476,080500,095395
0000000192,0000191000,080871,074998,092765,084482,077786,095102
0000000193,0000192000,083713,073147,091773,087772,075794,093805
0000000194,0000193000,086568,072072,089993,091022,074719,091629
0000000195,0000194000,089164,071876,087593,093920,074666,088785
0000000196,0000195000,091240,072581,084813,096178,075637,085555
0000000197,0000196000,092589,074112,081932,097575,077539,082257
0000000198,0000197000,093085,076329,079220,097975,080188,079208
0000000199,0000198000,092677,079014,076943,097340,083323,076708
0000000200,0000199000,091409,081891,075333,095733,086634,075004
0000000201,0000200000,089401,084688,074545,093308,089800,074263
0000000202,0000201000,086843,087140,074650,090302,092514,074554
0000000203,0000202000,083998,088995,075640,087015,094506,075850
0000000204,0000203000,081145,090069,077420,083765,095581,078025
0000000205,0000204000,078548,090266,079821,080868,095636,080867
0000000206,0000205000,076468,089565,082600,078610,094666,084095
0000000207,0000206000,075120,088032,085481,077213,092765,087392
0000000208,0000207000,074624,085815,088195,076812,090118,090440
0000000209,0000208000,075028,083132,090473,077446,086985,092940
0000000210,0000209000,076296,080254,092084,079052,083675,094644
0000000211,0000210000,078306,077454,092875,081475,080510,095386
0000000212,0000211000,080861,075002,092771,084479,077796,095096
0000000213,0000212000,083706,073147,091781,087765,075804,093801
0000000214,0000213000,086562,072069,090002,091013,074729,091629
0000000215,0000214000,089160,071872,087602,093909,074673,088788
0000000216,0000215000,091239,072573,084821,096168,075642,085561
0000000217,0000216000,092592,074103,081939,097565,077540,082266
0000000218,0000217000,093089,076320,079225,097966,080186,079218
0000000219,0000218000,092684,079005,076945,097334,083318,076719
0000000220,0000219000,091419,081883,075332,095730,086626,075015
0000000221,0000220000,089411,084682,074541,093308,089790,074272
0000000222,0000221000,086852,087138,074643,090306,092503,074562
0000000223,0000222000,084007,088995,075631,087022,094494,075855
0000000224,0000223000,081152,090071,077410,083775,095570,078025
0000000225,0000224000,078551,090272,079810,080879,095628,080864
0000000226,0000225000,076470,089573,082591,078622,094660,084089
0000000227,0000226000,075118,088042,085474,077224,092763,087383
0000000228,0000227000,074618,085826,088189,076821,090120,090429
0000000229,0000228000,075020,083142,090471,077453,086990,092928
0000000230,0000229000,076286,080262,092086,079055,083683,094632
0000000231,0000230000,078294,077460,092879,081475,080521,095376
0000000232,0000231000,080850,075006,092778,084475,077809,095088
0000000233,0000232000,083697,073146,091791,087757,075817,093797
0000000234,0000233000,086555,072066,090013,091002,074741,091628
0000000235,0000234000,089155,071866,087613,093897,074682,088791
0000000236,0000235000,091238,072564,084832,096155,075648,085568
0000000237,0000236000,092594,074092,081948,097552,077543,082276
0000000238,0000237000,093094,076309,079231,097956,080184,079231
0000000239,0000238000,092693,078994,076947,097327,083312,076732
0000000240,0000239000,091430,081873,075331,095726,086617,075028
0000000241,0000240000,089422,084676,074536,093308,089778,074284
0000000242,0000241000,086864,087134,074635,090311,092489,074570
0000000243,0000242000,084018,088994,075621,087030,094481,075860
0000000244,0000243000,081160,090075,077398,083786,095558,078026
0000000245,0000244000,078556,090279,079798,080893,095618,080861
0000000246,0000245000,076472,089582,082580,078636,094654,084082
0000000247,0000246000,075115,088054,085465,077237,092761,087372
0000000248,0000247000,074612,085839,088183,076833,090122,090416
0000000249,0000248000,075011,083154,090468,077461,086996,092914
0000000250,0000249000,076275,080272,092087,079059,083694,094618
0000000251,0000250000,078281,077469,092884,081474,080534,095363
0000000252,0000251000,080838,075010,092786,084470,077823,095078
0000000253,0000252000,083686,073146,091802,087748,075831,093791
0000000254,0000253000,086545,072062,090026,090990,074754,091627
0000000255,0000254000,089149,071858,087626,093883,074693,088795
0000000256,0000255000,091237,072553,084844,096140,075655,085576
0000000257,0000256000,092596,074079,081958,097538,077545,082287
0000000258,0000257000,093100,076295,079238,097944,080182,079245
0000000259,0000258000,092703,078980,076950,097318,083305,076747
0000000260,0000259000,091442,081862,075330,095722,086606,075043
0000000261,0000260000,089435,084668,074531,093309,089765,074297
0000000262,0000261000,086878,087129,074626,090316,092474,074580
0000000263,0000262000,084031,088994,075609,087040,094465,075865
0000000264,0000263000,081169,090080,077385,083800,095544,078027
0000000265,0000264000,078562,090287,079784,080908,095606,080857
0000000266,0000265000,076474,089593,082567,078652,094646,084073
0000000267,0000266000,075112,088068,085454,077252,092758,087360
0000000268,0000267000,074605,085853,088175,076845,090124,090401
0000000269,0000268000,075001,083167,090465,077470,087003,092898
0000000270,0000269000,076262,080284,092088,079063,083705,094602
0000000271,0000270000,078266,077478,092890,081473,080548,095349
0000000272,0000271000,080824,075014,092796,084464,077840,095068
0000000273,0000272000,083673,073146,091815,087738,075848,093785
0000000274,0000273000,086535,072058,090041,090976,074769,091626
0000000275,0000274000,089143,071849,087641,093866,074705,088799
0000000276,0000275000,091236,072540,084858,096122,075663,085585
0000000277,0000276000,092599,074065,081970,097522,077548,082301
0000000278,0000277000,093108,076280,079246,097930,080179,079261
0000000279,0000278000,092715,078965,076954,097308,083297,076765
0000000280,0000279000,091456,081849,075328,095717,086593,075060
0000000281,0000280000,089451,084658,074524,093310,089749,074312
0000000282,0000281000,086894,087124,074616,090323,092456,074592
0000000283,0000282000,084045,088994,075595,087051,094448,075872
0000000284,0000283000,081180,090085,077369,083815,095528,078028
0000000285,0000284000,078570,090297,079768,080926,095593,080852
0000000286,0000285000,076476,089606,082552,078670,094638,084063
0000000287,0000286000,075109,088084,085441,077270,092755,087345
0000000288,0000287000,074597,085870,088167,076860,090127,090383
0000000289,0000288000,074989,083183,090461,077480,087012,092879
0000000290,0000289000,076246,080298,092090,079068,083719,094584
0000000291,0000290000,078249,077488,092897,081472,080565,095333
0000000292,0000291000,080807,075020,092807,084457,077859,095055
0000000293,0000292000,083658,073146,091830,087725,075867,093778
0000000294,0000293000,086523,072053,090057,090959,074787,091625
0000000295,0000294000,089136,071839,087658,093847,074719,088804
0000000296,0000295000,091233,072526,084874,096103,075672,085596
0000000297,0000296000,092602,074048,081983,097503,077551,082316
0000000298,0000297000,093117,076262,079255,097915,080176,079280
0000000299,0000298000,092728,078948,076958,097297,083288,076785
0000000300,0000299000,091472,081835,075327,095712,086579,075080
0000000301,0000300000,089469,084647,074517,093311,089730,074329
