DIgSILENT PowerFactory,21000900,2000
6,06A,00D
1,TTPP_200000_100:Secondary Voltage A,,,V,0.010000000,-71.422935,0.000000,-85629,99998,1,1,P
2,TTPP_200000_100:Secondary Voltage B,,,V,0.010000000,-62.953217,0.000000,-89710,99998,1,1,P
3,TTPP_200000_100:Secondary Voltage C,,,V,0.10000000,-8968.248047,0.000000,79716,99998,1,1,P
4,TTCC_300_1:Secondary Current A,,,A,0.00010000000,-4.777776,0.000000,-28666,99998,1,1,P
5,TTCC_300_1:Secondary Current B,,,A,0.00010000000,-4.902956,0.000000,-1977,99998,1,1,P
6,TTCC_300_1:Secondary Current C,,,A,0.00010000000,-4.902854,0.000000,-1978,99998,1,1,P
50
1
1000.000000,1101
30/06/2023,06:02:45.000000
30/06/2023,06:02:45.000000
ASCII
1.000000
0000000001,0000000000,078207,021048,081101,026842,035047,083947
0000000002,0000001000,056859,048231,080516,036596,025765,083475
0000000003,0000002000,030480,071507,080828,047432,018769,079635
0000000004,0000003000,001900,088311,082004,058309,014726,072801
0000000005,0000004000,-26071,096959,083938,068155,014045,063635
0000000006,0000005000,-50949,096856,086434,076007,016794,053035
0000000007,0000006000,-70102,087949,089241,081097,022685,042053
0000000008,0000007000,-81557,070884,092093,082916,031166,031756
0000000009,0000008000,-84456,047549,094716,081294,041404,023138
0000000010,0000009000,-78478,020316,096843,076405,052373,017059
0000000011,0000010000,-63955,-08428,098264,068710,063011,014115
0000000012,0000011000,-42416,-35801,098849,058951,072297,014586
0000000013,0000012000,-16228,-58876,098537,048101,079308,018426
0000000014,0000013000,012276,-75610,097360,037237,083338,025261
0000000015,0000014000,040438,-84452,095428,027395,084014,034428
0000000016,0000015000,065236,-84285,092931,019533,081278,045026
0000000017,0000016000,084309,-75275,090123,014452,075377,056007
0000000018,0000017000,095925,-58373,087271,012631,066898,066306
0000000019,0000018000,098772,-34996,084649,014242,056670,074924
0000000020,0000019000,092628,-07596,082523,019144,045690,081002
0000000021,0000020000,078268,020989,081100,026842,035048,083946
0000000022,0000021000,056833,048263,080516,036591,025771,083475
0000000023,0000022000,030427,071553,080828,047437,018764,079635
0000000024,0000023000,001939,088278,082004,058313,014722,072801
0000000025,0000024000,-26054,096939,083937,068156,014046,063634
0000000026,0000025000,-50961,096882,086434,076008,016793,053035
0000000027,0000026000,-70091,087942,089241,081097,022685,042054
0000000028,0000027000,-81564,070892,092093,082917,031164,031756
0000000029,0000028000,-84482,047577,094717,081298,041401,023138
0000000030,0000029000,-78451,020290,096842,076408,052370,017058
0000000031,0000030000,-63919,-08458,098264,068710,063011,014115
0000000032,0000031000,-42466,-35758,098849,058951,072299,014586
0000000033,0000032000,-16251,-58856,098537,048107,079303,018426
0000000034,0000033000,012317,-75659,097360,037242,083335,025259
0000000035,0000034000,040440,-84457,095428,027394,084017,034426
0000000036,0000035000,065211,-84260,092931,019536,081276,045025
0000000037,0000036000,084318,-75289,090123,014454,075376,056006
0000000038,0000037000,095925,-58378,087272,012633,066898,066305
0000000039,0000038000,098755,-34983,084649,014246,056668,074922
0000000040,0000039000,092659,-07621,082523,019144,045690,081001
0000000041,0000040000,078282,020976,081100,026842,035050,083945
0000000042,0000041000,056793,048305,080516,036591,025771,083474
0000000043,0000042000,030432,071551,080828,047441,018761,079634
0000000044,0000043000,001981,088239,082004,058313,014722,072800
0000000045,0000044000,-26064,096956,083937,068153,014049,063634
0000000046,0000045000,-50986,096911,086434,076009,016791,053035
0000000047,0000046000,-70072,087927,089241,081098,022684,042055
0000000048,0000047000,-81566,070892,092094,082917,031163,031756
0000000049,0000048000,-84498,047595,094716,081299,041398,023139
0000000050,0000049000,-78432,020273,096842,076408,052369,017059
0000000051,0000050000,-63924,-08457,098265,068710,063010,014116
0000000052,0000051000,-42502,-35727,098849,058954,072295,014586
0000000053,0000052000,-16240,-58871,098538,048111,079299,018426
0000000054,0000053000,012345,-75689,097361,037243,083334,025259
0000000055,0000054000,040412,-84435,095428,027395,084016,034425
0000000056,0000055000,065195,-84247,092931,019540,081273,045023
0000000057,0000056000,084343,-75320,090124,014458,075374,056004
0000000058,0000057000,095924,-58379,087272,012635,066899,066302
0000000059,0000058000,098745,-34972,084649,014249,056668,074919
0000000060,0000059000,092681,-07641,082522,019146,045692,080998
0000000061,0000060000,078282,020977,081100,026841,035052,083943
0000000062,0000061000,056775,048324,080516,036592,025772,083472
0000000063,0000062000,030458,071533,080827,047441,018762,079633
0000000064,0000063000,002001,088225,082004,058310,014726,072800
0000000065,0000064000,-26090,096988,083937,068150,014051,063635
0000000066,0000065000,-50988,096918,086433,076008,016791,053037
0000000067,0000066000,-70048,087906,089241,081096,022683,042057
0000000068,0000067000,-81579,070907,092093,082914,031164,031759
0000000069,0000068000,-84514,047614,094716,081299,041396,023142
0000000070,0000069000,-78421,020261,096842,076408,052365,017062
0000000071,0000070000,-63938,-08449,098265,068710,063007,014118
0000000072,0000071000,-42523,-35709,098850,058957,072290,014588
0000000073,0000072000,-16225,-58891,098538,048115,079294,018427
0000000074,0000073000,012344,-75696,097361,037246,083331,025259
0000000075,0000074000,040383,-84413,095429,027400,084013,034424
0000000076,0000075000,065202,-84260,092932,019547,081269,045020
0000000077,0000076000,084365,-75348,090124,014462,075374,056000
0000000078,0000077000,095912,-58372,087272,012638,066900,066297
0000000079,0000078000,098745,-34971,084649,014253,056669,074914
0000000080,0000079000,092706,-07666,082522,019148,045694,080994
0000000081,0000080000,078283,020978,081100,026841,035057,083938
0000000082,0000081000,056775,048332,080515,036592,025776,083468
0000000083,0000082000,030485,071515,080826,047439,018767,079630
0000000084,0000083000,002005,088229,082003,058305,014732,072799
0000000085,0000084000,-26107,097014,083936,068146,014054,063636
0000000086,0000085000,-50973,096913,086432,076004,016792,053039
0000000087,0000086000,-70037,087902,089240,081090,022685,042061
0000000088,0000087000,-81603,070937,092093,082909,031163,031764
0000000089,0000088000,-84523,047626,094716,081297,041391,023148
0000000090,0000089000,-78415,020253,096842,076407,052361,017068
0000000091,0000090000,-63959,-08432,098266,068710,063002,014123
0000000092,0000091000,-42541,-35698,098850,058960,072283,014592
0000000093,0000092000,-16219,-58906,098539,048119,079287,018429
0000000094,0000093000,012329,-75695,097363,037251,083326,025259
0000000095,0000094000,040363,-84406,095430,027408,084007,034422
0000000096,0000095000,065217,-84286,092933,019555,081265,045016
0000000097,0000096000,084374,-75367,090125,014468,075373,055994
0000000098,0000097000,095899,-58366,087273,012644,066901,066290
0000000099,0000098000,098760,-34988,084649,014259,056671,074906
0000000100,0000099000,092732,-07692,082522,019150,045700,080986
0000000101,0000100000,078285,020982,081100,026841,035064,083931
0000000102,0000101000,056787,048332,080514,036591,025783,083463
0000000103,0000102000,030512,071500,080825,047434,018775,079627
0000000104,0000103000,002006,088241,082002,058297,014740,072799
0000000105,0000104000,-26109,097032,083934,068139,014059,063637
0000000106,0000105000,-50955,096911,086431,075996,016796,053044
0000000107,0000106000,-70041,087917,089239,081081,022688,042068
0000000108,0000107000,-81628,070970,092092,082902,031161,031772
0000000109,0000108000,-84526,047634,094715,081293,041386,023157
0000000110,0000109000,-78421,020257,096843,076404,052355,017077
0000000111,0000110000,-63991,-08408,098266,068711,062994,014131
0000000112,0000111000,-42557,-35692,098851,058965,072272,014599
0000000113,0000112000,-16223,-58919,098541,048126,079277,018433
0000000114,0000113000,012307,-75691,097365,037259,083317,025260
0000000115,0000114000,040352,-84412,095432,027419,083998,034419
0000000116,0000115000,065229,-84315,092935,019566,081259,045011
0000000117,0000116000,084372,-75381,090127,014478,075372,055986
0000000118,0000117000,095897,-58374,087274,012654,066902,066280
0000000119,0000118000,098787,-35019,084650,014266,056675,074895
0000000120,0000119000,092755,-07713,082522,019153,045708,080975
0000000121,0000120000,078292,020983,081099,026841,035075,083921
0000000122,0000121000,056812,048321,080513,036588,025794,083455
0000000123,0000122000,030540,071490,080823,047426,018787,079622
0000000124,0000123000,002010,088258,081999,058287,014751,072797
0000000125,0000124000,-26100,097047,083932,068128,014067,063640
0000000126,0000125000,-50941,096917,086429,075984,016802,053050
0000000127,0000126000,-70054,087946,089237,081068,022690,042077
0000000128,0000127000,-81647,071002,092091,082893,031159,031784
0000000129,0000128000,-84531,047644,094715,081286,041380,023170
0000000130,0000129000,-78444,020276,096843,076399,052346,017090
0000000131,0000130000,-64027,-08381,098267,068711,062981,014143
0000000132,0000131000,-42574,-35691,098853,058970,072258,014608
0000000133,0000132000,-16239,-58926,098543,048134,079264,018438
0000000134,0000133000,012278,-75689,097367,037271,083304,025261
0000000135,0000134000,040343,-84428,095435,027434,083987,034416
0000000136,0000135000,065236,-84347,092937,019581,081252,045003
0000000137,0000136000,084369,-75399,090129,014492,075369,055975
0000000138,0000137000,095908,-58397,087275,012667,066903,066265
0000000139,0000138000,098819,-35057,084650,014275,056681,074879
0000000140,0000139000,092778,-07733,082522,019157,045719,080959
0000000141,0000140000,078312,020976,081097,026841,035088,083907
0000000142,0000141000,056850,048303,080511,036583,025809,083444
0000000143,0000142000,030568,071487,080821,047416,018804,079616
0000000144,0000143000,002020,088278,081996,058274,014766,072796
0000000145,0000144000,-26083,097061,083929,068113,014079,063644
0000000146,0000145000,-50931,096935,086426,075966,016810,053059
0000000147,0000146000,-70070,087985,089235,081052,022694,042090
0000000148,0000147000,-81663,071035,092089,082880,031156,031800
0000000149,0000148000,-84545,047665,094714,081276,041373,023188
0000000150,0000149000,-78481,020308,096843,076394,052334,017108
0000000151,0000150000,-64067,-08355,098269,068712,062965,014159
0000000152,0000151000,-42597,-35690,098855,058976,072239,014620
0000000153,0000152000,-16269,-58927,098546,048145,079245,018446
0000000154,0000153000,012246,-75691,097371,037287,083286,025263
0000000155,0000154000,040335,-84455,095438,027453,083972,034411
0000000156,0000155000,065236,-84381,092940,019600,081243,044993
0000000157,0000156000,084368,-75425,090132,014511,075365,055959
0000000158,0000157000,095929,-58435,087277,012684,066905,066247
0000000159,0000158000,098855,-35101,084651,014287,056690,074859
0000000160,0000159000,092805,-07757,082522,019163,045734,080939
0000000161,0000160000,078347,020957,081096,026841,035106,083889
0000000162,0000161000,056897,048283,080508,036576,025830,083430
0000000163,0000162000,030599,071490,080817,047403,018826,079608
0000000164,0000163000,002040,088298,081992,058257,014785,072794
0000000165,0000164000,-26059,097078,083925,068092,014095,063649
0000000166,0000165000,-50926,096966,086422,075944,016821,053071
0000000167,0000166000,-70088,088033,089232,081031,022698,042107
0000000168,0000167000,-81680,071074,092087,082862,031153,031822
0000000169,0000168000,-84572,047699,094713,081262,041363,023211
0000000170,0000169000,-78528,020349,096844,076387,052318,017130
0000000171,0000170000,-64110,-08329,098270,068713,062943,014179
0000000172,0000171000,-42633,-35685,098858,058984,072216,014635
0000000173,0000172000,-16312,-58923,098550,048159,079222,018455
0000000174,0000173000,012212,-75700,097375,037308,083264,025264
0000000175,0000174000,040324,-84489,095442,027477,083954,034406
0000000176,0000175000,065231,-84418,092945,019625,081231,044980
0000000177,0000176000,084372,-75463,090135,014535,075360,055940
0000000178,0000177000,095958,-58487,087279,012704,066908,066223
0000000179,0000178000,098893,-35149,084652,014301,056701,074833
0000000180,0000179000,092842,-07788,082521,019171,045752,080913
0000000181,0000180000,078399,020927,081094,026841,035129,083866
0000000182,0000181000,056951,048261,080505,036567,025856,083413
0000000183,0000182000,030635,071496,080813,047386,018853,079597
0000000184,0000183000,002072,088317,081987,058235,014810,072792
0000000185,0000184000,-26032,097102,083919,068065,014115,063655
0000000186,0000185000,-50924,097010,086418,075915,016835,053085
0000000187,0000186000,-70104,088088,089228,081005,022703,042128
0000000188,0000187000,-81701,071121,092084,082840,031149,031848
0000000189,0000188000,-84611,047749,094712,081246,041351,023239
0000000190,0000189000,-78584,020399,096845,076379,052298,017159
0000000191,0000190000,-64161,-08300,098272,068715,062917,014204
0000000192,0000191000,-42683,-35673,098862,058994,072187,014655
0000000193,0000192000,-16366,-58918,098555,048177,079192,018466
0000000194,0000193000,012175,-75718,097381,037333,083236,025267
0000000195,0000194000,040307,-84529,095448,027506,083932,034398
0000000196,0000195000,065222,-84462,092950,019656,081217,044964
0000000197,0000196000,084382,-75515,090139,014565,075354,055916
0000000198,0000197000,095994,-58552,087282,012730,066912,066194
0000000199,0000198000,098937,-35206,084653,014319,056715,074801
0000000200,0000199000,092893,-07831,082520,019180,045774,080882
0000000201,0000200000,078464,020887,081091,026841,035157,083839
0000000202,0000201000,057013,048240,080501,036556,025889,083391
0000000203,0000202000,030683,071503,080807,047366,018886,079584
0000000204,0000203000,002115,088336,081981,058207,014839,072789
0000000205,0000204000,-26002,097134,083913,068033,014140,063663
0000000206,0000205000,-50923,097067,086412,075881,016852,053103
0000000207,0000206000,-70120,088152,089223,080972,022709,042155
0000000208,0000207000,-81728,071181,092081,082812,031144,031880
0000000209,0000208000,-84663,047813,094711,081225,041336,023275
0000000210,0000209000,-78649,020457,096845,076369,052273,017193
0000000211,0000210000,-64223,-08265,098275,068716,062885,014235
0000000212,0000211000,-42749,-35653,098867,059006,072151,014678
0000000213,0000212000,-16430,-58914,098561,048200,079155,018480
0000000214,0000213000,012132,-75742,097387,037364,083202,025270
0000000215,0000214000,040282,-84574,095455,027542,083905,034390
0000000216,0000215000,065210,-84515,092956,019693,081199,044944
0000000217,0000216000,084398,-75583,090145,014601,075347,055887
0000000218,0000217000,096035,-58629,087286,012760,066917,066158
0000000219,0000218000,098988,-35272,084655,014341,056732,074763
0000000220,0000219000,092958,-07887,082519,019191,045800,080844
0000000221,0000220000,078542,020840,081088,026840,035191,083805
0000000222,0000221000,057085,048218,080496,036542,025928,083365
0000000223,0000222000,030744,071508,080801,047342,018925,079569
0000000224,0000223000,002169,088357,081974,058174,014876,072786
0000000225,0000224000,-25969,097178,083906,067993,014169,063673
0000000226,0000225000,-50920,097134,086405,075840,016871,053124
0000000227,0000226000,-70135,088226,089217,080934,022716,042186
0000000228,0000227000,-81765,071256,092077,082779,031139,031919
0000000229,0000228000,-84726,047892,094709,081202,041318,023317
0000000230,0000229000,-78724,020523,096846,076357,052244,017235
0000000231,0000230000,-64300,-08222,098279,068717,062847,014271
0000000232,0000231000,-42831,-35626,098872,059020,072109,014706
0000000233,0000232000,-16504,-58911,098568,048227,079112,018497
0000000234,0000233000,012081,-75772,097395,037401,083162,025273
0000000235,0000234000,040248,-84624,095464,027584,083873,034379
0000000236,0000235000,065198,-84579,092964,019738,081178,044920
0000000237,0000236000,084420,-75667,090151,014644,075339,055853
0000000238,0000237000,096080,-58718,087290,012796,066923,066116
0000000239,0000238000,099048,-35350,084657,014367,056752,074717
0000000240,0000239000,093039,-07957,082518,019205,045832,080799
0000000241,0000240000,078634,020784,081084,026838,035233,083766
0000000242,0000241000,057169,048192,080490,036526,025975,083335
0000000243,0000242000,030820,071511,080793,047313,018972,079551
0000000244,0000243000,002234,088382,081965,058135,014918,072782
0000000245,0000244000,-25933,097231,083897,067947,014204,063684
0000000246,0000245000,-50914,097212,086397,075792,016894,053150
0000000247,0000246000,-70152,088312,089210,080888,022724,042224
0000000248,0000247000,-81810,071349,092072,082740,031132,031965
0000000249,0000248000,-84800,047985,094707,081174,041296,023366
0000000250,0000249000,-78809,020598,096847,076344,052209,017283
0000000251,0000250000,-64393,-08169,098282,068719,062803,014314
0000000252,0000251000,-42928,-35593,098879,059038,072059,014739
0000000253,0000252000,-16588,-58911,098576,048258,079061,018516
0000000254,0000253000,012018,-75807,097405,037443,083116,025277
0000000255,0000254000,040205,-84680,095474,027634,083836,034366
0000000256,0000255000,065186,-84657,092973,019790,081153,044893
0000000257,0000256000,084444,-75765,090158,014693,075330,055813
0000000258,0000257000,096130,-58820,087295,012837,066931,066067
0000000259,0000258000,099121,-35444,084659,014397,056775,074663
0000000260,0000259000,093135,-08042,082517,019220,045869,080747
0000000261,0000260000,078739,020720,081080,026836,035281,083720
0000000262,0000261000,057268,048163,080483,036508,026029,083300
0000000263,0000262000,030911,071511,080784,047280,019026,079530
0000000264,0000263000,002308,088412,081954,058089,014968,072779
0000000265,0000264000,-25891,097296,083886,067893,014244,063698
0000000266,0000265000,-50904,097300,086387,075736,016920,053180
0000000267,0000266000,-70172,088413,089202,080835,022734,042267
0000000268,0000267000,-81865,071459,092067,082695,031124,032017
0000000269,0000268000,-84884,048092,094705,081142,041271,023423
0000000270,0000269000,-78908,020686,096848,076328,052169,017339
0000000271,0000270000,-64504,-08103,098287,068721,062752,014363
0000000272,0000271000,-43041,-35555,098886,059058,072001,014777
0000000273,0000272000,-16685,-58912,098586,048295,079003,018538
0000000274,0000273000,011943,-75844,097416,037493,083063,025281
0000000275,0000274000,040155,-84745,095485,027692,083793,034352
0000000276,0000275000,065173,-84750,092984,019851,081125,044861
0000000277,0000276000,084471,-75879,090167,014750,075319,055766
0000000278,0000277000,096187,-58937,087301,012885,066940,066010
0000000279,0000278000,099206,-35555,084661,014431,056802,074602
0000000280,0000279000,093247,-08141,082516,019236,045912,080687
0000000281,0000280000,078859,020648,081075,026833,035336,083667
0000000282,0000281000,057384,048126,080475,036486,026090,083260
0000000283,0000282000,031018,071509,080773,047241,019088,079507
0000000284,0000283000,002392,088448,081942,058036,015025,072775
0000000285,0000284000,-25842,097369,083874,067832,014290,063714
0000000286,0000285000,-50889,097400,086375,075672,016950,053214
0000000287,0000286000,-70195,088530,089193,080774,022745,042317
0000000288,0000287000,-81929,071587,092060,082643,031115,032078
0000000289,0000288000,-84977,048214,094702,081106,041242,023489
0000000290,0000289000,-79023,020787,096850,076310,052123,017403
0000000291,0000290000,-64633,-08025,098292,068723,062693,014419
0000000292,0000291000,-43170,-35511,098895,059081,071935,014819
0000000293,0000292000,-16796,-58912,098597,048337,078936,018563
0000000294,0000293000,011854,-75884,097429,037549,083002,025285
0000000295,0000294000,040096,-84818,095498,027757,083744,034335
0000000296,0000295000,065159,-84857,092996,019919,081093,044824
0000000297,0000296000,084499,-76009,090177,014815,075308,055713
0000000298,0000297000,096250,-59070,087308,012940,066950,065946
0000000299,0000298000,099306,-35684,084664,014470,056833,074532
0000000300,0000299000,093373,-08255,082515,019255,045962,080619
0000000301,0000300000,078995,020566,081070,026830,035399,083607
