DIgSILENT PowerFactory,21000900,2000
6,06A,00D
1,TTPP_200000_100:Secondary Voltage A,,,V,0.010000000,-71.423233,0.000000,-85630,99998,1,1,P
2,TTPP_200000_100:Secondary Voltage B,,,V,0.010000000,-61.375507,0.000000,-87705,99998,1,1,P
3,TTPP_200000_100:Secondary Voltage C,,,V,0.10000000,-8887.960938,0.000000,78903,99998,1,1,P
4,TTCC_300_1:Secondary Current A,,,A,0.00010000000,-4.708827,0.000000,-30554,99998,1,1,P
5,TTCC_300_1:Secondary Current B,,,A,0.00010000000,-4.905558,0.000000,-1885,99998,1,1,P
6,TTCC_300_1:Secondary Current C,,,A,0.00010000000,-4.897722,0.000000,-2063,99998,1,1,P
50
1
1000.000000,1101
30/06/2023,06:04:53.000000
30/06/2023,06:04:53.000000
ASCII
1.000000
0000000001,0000000000,078208,020890,080298,026152,035074,083895
0000000002,0000001000,056859,048074,079714,035906,025791,083424
0000000003,0000002000,030483,071347,080025,046742,018795,079584
0000000004,0000003000,001907,088148,081201,057618,014753,072751
0000000005,0000004000,-26070,096802,083135,067465,014071,063584
0000000006,0000005000,-50953,096704,085632,075316,016820,052985
0000000007,0000006000,-70106,087793,088439,080407,022711,042003
0000000008,0000007000,-81552,070720,091290,082228,031189,031705
0000000009,0000008000,-84448,047384,093913,080603,041431,023087
0000000010,0000009000,-78484,020161,096039,075715,052399,017008
0000000011,0000010000,-63969,-08576,097461,068022,063035,014064
0000000012,0000011000,-42423,-35959,098046,058262,072323,014535
0000000013,0000012000,-16218,-59049,097734,047415,079332,018375
0000000014,0000013000,012283,-75777,096557,036547,083365,025209
0000000015,0000014000,040431,-84606,094625,026704,084042,034376
0000000016,0000015000,065223,-84432,092128,018846,081302,044974
0000000017,0000016000,084307,-75434,089321,013763,075404,055955
0000000018,0000017000,095940,-58544,086468,011943,066924,066254
0000000019,0000018000,098781,-35160,083846,013552,056697,074872
0000000020,0000019000,092621,-07742,081720,018451,045719,080951
0000000021,0000020000,078254,020848,080298,026155,035072,083895
0000000022,0000021000,056838,048103,079713,035902,025797,083423
0000000023,0000022000,030447,071382,080025,046747,018790,079583
0000000024,0000023000,001944,088121,081201,057622,014749,072750
0000000025,0000024000,-26064,096795,083135,067464,014073,063584
0000000026,0000025000,-50972,096735,085632,075320,016817,052984
0000000027,0000026000,-70086,087778,088438,080409,022710,042003
0000000028,0000027000,-81550,070722,091290,082227,031190,031705
0000000029,0000028000,-84480,047417,093913,080608,041427,023087
0000000030,0000029000,-78466,020146,096039,075717,052396,017007
0000000031,0000030000,-63933,-08608,097462,068022,063035,014063
0000000032,0000031000,-42456,-35928,098046,058264,072322,014534
0000000033,0000032000,-16238,-59028,097734,047417,079330,018374
0000000034,0000033000,012314,-75814,096557,036552,083362,025208
0000000035,0000034000,040425,-84602,094625,026705,084043,034374
0000000036,0000035000,065205,-84416,092128,018847,081302,044973
0000000037,0000036000,084328,-75457,089321,013766,075401,055954
0000000038,0000037000,095936,-58545,086468,011943,066926,066252
0000000039,0000038000,098753,-35137,083846,013555,056696,074870
0000000040,0000039000,092645,-07765,081720,018455,045717,080949
0000000041,0000040000,078279,020821,080297,026153,035075,083893
0000000042,0000041000,056807,048135,079713,035902,025797,083422
0000000043,0000042000,030441,071387,080024,046750,018789,079583
0000000044,0000043000,001974,088092,081201,057621,014750,072750
0000000045,0000044000,-26075,096808,083135,067463,014074,063584
0000000046,0000045000,-50984,096750,085631,075320,016816,052985
0000000047,0000046000,-70064,087761,088438,080408,022709,042004
0000000048,0000047000,-81560,070731,091290,082226,031189,031706
0000000049,0000048000,-84504,047444,093913,080609,041424,023088
0000000050,0000049000,-78443,020124,096039,075720,052393,017008
0000000051,0000050000,-63923,-08617,097462,068022,063034,014064
0000000052,0000051000,-42491,-35896,098046,058265,072321,014535
0000000053,0000052000,-16237,-59030,097735,047422,079325,018374
0000000054,0000053000,012335,-75837,096558,036554,083360,025207
0000000055,0000054000,040408,-84589,094626,026707,084042,034373
0000000056,0000055000,065200,-84411,092128,018852,081299,044971
0000000057,0000056000,084349,-75482,089321,013769,075401,055951
0000000058,0000057000,095926,-58537,086469,011944,066926,066250
0000000059,0000058000,098740,-35125,083846,013559,056695,074867
0000000060,0000059000,092676,-07794,081720,018457,045718,080947
0000000061,0000060000,078287,020814,080297,026152,035079,083891
0000000062,0000061000,056784,048159,079713,035902,025799,083420
0000000063,0000062000,030456,071378,080024,046750,018790,079582
0000000064,0000063000,001993,088075,081201,057619,014752,072749
0000000065,0000064000,-26091,096829,083134,067460,014076,063584
0000000066,0000065000,-50984,096756,085631,075318,016816,052986
0000000067,0000066000,-70047,087748,088438,080406,022709,042006
0000000068,0000067000,-81580,070751,091290,082224,031189,031709
0000000069,0000068000,-84518,047460,093913,080610,041421,023091
0000000070,0000069000,-78424,020106,096039,075720,052390,017011
0000000071,0000070000,-63933,-08611,097462,068022,063032,014067
0000000072,0000071000,-42518,-35871,098047,058268,072316,014537
0000000073,0000072000,-16229,-59044,097735,047426,079320,018375
0000000074,0000073000,012340,-75850,096559,036557,083357,025207
0000000075,0000074000,040386,-84575,094626,026711,084039,034372
0000000076,0000075000,065205,-84421,092129,018858,081295,044968
0000000077,0000076000,084365,-75505,089321,013773,075400,055948
0000000078,0000077000,095912,-58529,086470,011948,066927,066245
0000000079,0000078000,098743,-35128,083846,013563,056695,074862
0000000080,0000079000,092705,-07823,081719,018458,045721,080942
0000000081,0000080000,078287,020817,080297,026151,035084,083887
0000000082,0000081000,056777,048173,079712,035901,025803,083417
0000000083,0000082000,030481,071362,080023,046748,018794,079580
0000000084,0000083000,002003,088073,081200,057615,014758,072749
0000000085,0000084000,-26103,096852,083133,067456,014080,063585
0000000086,0000085000,-50972,096755,085630,075314,016818,052989
0000000087,0000086000,-70039,087747,088437,080400,022711,042010
0000000088,0000087000,-81603,070779,091290,082219,031188,031714
0000000089,0000088000,-84524,047469,093913,080608,041417,023097
0000000090,0000089000,-78417,020097,096039,075718,052386,017017
0000000091,0000090000,-63957,-08593,097463,068021,063027,014072
0000000092,0000091000,-42540,-35857,098048,058271,072308,014541
0000000093,0000092000,-16222,-59061,097736,047431,079313,018377
0000000094,0000093000,012329,-75853,096560,036563,083351,025207
0000000095,0000094000,040367,-84567,094627,026719,084033,034370
0000000096,0000095000,065216,-84442,092130,018866,081291,044964
0000000097,0000096000,084373,-75523,089323,013779,075399,055942
0000000098,0000097000,095901,-58526,086470,011955,066928,066238
0000000099,0000098000,098759,-35146,083847,013569,056697,074854
0000000100,0000099000,092731,-07848,081719,018460,045727,080934
0000000101,0000100000,078287,020822,080297,026151,035091,083880
0000000102,0000101000,056787,048174,079711,035900,025810,083411
0000000103,0000102000,030509,071346,080022,046744,018801,079576
0000000104,0000103000,002007,088083,081199,057607,014766,072748
0000000105,0000104000,-26107,096872,083131,067449,014085,063587
0000000106,0000105000,-50957,096755,085628,075306,016821,052993
0000000107,0000106000,-70042,087760,088436,080391,022713,042017
0000000108,0000107000,-81625,070810,091289,082213,031187,031722
0000000109,0000108000,-84527,047477,093912,080604,041412,023106
0000000110,0000109000,-78423,020101,096040,075715,052380,017026
0000000111,0000110000,-63989,-08568,097463,068022,063019,014080
0000000112,0000111000,-42557,-35850,098049,058276,072298,014547
0000000113,0000112000,-16225,-59075,097738,047437,079303,018381
0000000114,0000113000,012308,-75851,096562,036571,083342,025208
0000000115,0000114000,040353,-84571,094629,026730,084024,034367
0000000116,0000115000,065227,-84471,092132,018877,081286,044959
0000000117,0000116000,084373,-75540,089324,013789,075398,055934
0000000118,0000117000,095900,-58534,086471,011964,066929,066228
0000000119,0000118000,098785,-35175,083847,013576,056701,074843
0000000120,0000119000,092755,-07870,081719,018463,045735,080923
0000000121,0000120000,078295,020823,080296,026151,035101,083869
0000000122,0000121000,056812,048164,079710,035897,025821,083403
0000000123,0000122000,030538,071335,080020,046736,018814,079571
0000000124,0000123000,002012,088099,081197,057597,014777,072747
0000000125,0000124000,-26100,096889,083129,067438,014094,063589
0000000126,0000125000,-50943,096762,085626,075294,016827,053000
0000000127,0000126000,-70053,087787,088434,080379,022716,042027
0000000128,0000127000,-81645,070842,091288,082203,031184,031734
0000000129,0000128000,-84534,047489,093912,080597,041406,023119
0000000130,0000129000,-78445,020119,096040,075711,052371,017039
0000000131,0000130000,-64025,-08542,097464,068022,063006,014092
0000000132,0000131000,-42575,-35848,098050,058281,072283,014556
0000000133,0000132000,-16240,-59082,097740,047445,079289,018387
0000000134,0000133000,012280,-75849,096564,036583,083330,025209
0000000135,0000134000,040343,-84586,094632,026745,084013,034364
0000000136,0000135000,065234,-84503,092134,018892,081279,044951
0000000137,0000136000,084371,-75559,089326,013803,075395,055922
0000000138,0000137000,095909,-58556,086472,011977,066930,066213
0000000139,0000138000,098817,-35213,083847,013586,056708,074827
0000000140,0000139000,092779,-07892,081719,018467,045746,080908
0000000141,0000140000,078314,020815,080295,026151,035115,083856
0000000142,0000141000,056849,048147,079708,035893,025836,083393
0000000143,0000142000,030567,071331,080018,046726,018830,079565
0000000144,0000143000,002022,088119,081194,057584,014792,072745
0000000145,0000144000,-26084,096904,083126,067422,014105,063593
0000000146,0000145000,-50933,096779,085623,075276,016836,053009
0000000147,0000146000,-70069,087826,088432,080362,022719,042040
0000000148,0000147000,-81663,070877,091286,082190,031182,031750
0000000149,0000148000,-84548,047510,093911,080586,041398,023137
0000000150,0000149000,-78480,020149,096041,075705,052359,017057
0000000151,0000150000,-64065,-08515,097466,068023,062990,014107
0000000152,0000151000,-42600,-35846,098052,058288,072265,014568
0000000153,0000152000,-16269,-59084,097743,047456,079271,018394
0000000154,0000153000,012248,-75851,096568,036599,083312,025211
0000000155,0000154000,040334,-84612,094635,026764,083998,034359
0000000156,0000155000,065236,-84537,092138,018911,081269,044941
0000000157,0000156000,084371,-75585,089329,013822,075392,055907
0000000158,0000157000,095929,-58593,086474,011994,066932,066195
0000000159,0000158000,098853,-35256,083848,013597,056716,074807
0000000160,0000159000,092807,-07916,081719,018473,045760,080887
0000000161,0000160000,078349,020798,080293,026151,035133,083838
0000000162,0000161000,056895,048127,079705,035886,025857,083379
0000000163,0000162000,030599,071332,080014,046713,018852,079557
0000000164,0000163000,002042,088139,081190,057566,014811,072743
0000000165,0000164000,-26061,096922,083122,067402,014121,063598
0000000166,0000165000,-50927,096809,085620,075254,016847,053020
0000000167,0000166000,-70086,087873,088429,080341,022723,042056
0000000168,0000167000,-81681,070917,091284,082172,031178,031771
0000000169,0000168000,-84574,047543,093910,080573,041388,023160
0000000170,0000169000,-78526,020190,096041,075698,052343,017080
0000000171,0000170000,-64110,-08487,097467,068024,062969,014128
0000000172,0000171000,-42635,-35840,098055,058296,072241,014584
0000000173,0000172000,-16311,-59082,097747,047471,079247,018403
0000000174,0000173000,012214,-75860,096572,036619,083290,025213
0000000175,0000174000,040323,-84645,094640,026788,083980,034354
0000000176,0000175000,065231,-84576,092142,018936,081258,044928
0000000177,0000176000,084374,-75623,089332,013846,075387,055888
0000000178,0000177000,095957,-58644,086476,012015,066935,066171
0000000179,0000178000,098893,-35306,083849,013612,056728,074781
0000000180,0000179000,092845,-07948,081718,018481,045779,080862
0000000181,0000180000,078399,020769,080291,026151,035155,083815
0000000182,0000181000,056950,048106,079702,035877,025883,083361
0000000183,0000182000,030637,071337,080010,046696,018879,079546
0000000184,0000183000,002072,088159,081184,057544,014836,072741
0000000185,0000184000,-26034,096946,083117,067375,014141,063605
0000000186,0000185000,-50924,096852,085615,075226,016861,053035
0000000187,0000186000,-70103,087929,088425,080315,022728,042078
0000000188,0000187000,-81703,070965,091281,082150,031174,031797
0000000189,0000188000,-84612,047592,093909,080556,041376,023189
0000000190,0000189000,-78583,020240,096042,075690,052323,017108
0000000191,0000190000,-64162,-08457,097470,068026,062942,014153
0000000192,0000191000,-42684,-35829,098059,058305,072212,014603
0000000193,0000192000,-16365,-59078,097752,047489,079217,018415
0000000194,0000193000,012175,-75877,096578,036645,083262,025215
0000000195,0000194000,040305,-84685,094645,026817,083958,034346
0000000196,0000195000,065223,-84621,092147,018967,081243,044912
0000000197,0000196000,084384,-75674,089337,013876,075381,055864
0000000198,0000197000,095993,-58709,086479,012040,066939,066142
0000000199,0000198000,098937,-35363,083850,013630,056742,074749
0000000200,0000199000,092895,-07991,081717,018490,045801,080830
0000000201,0000200000,078463,020731,080288,026151,035184,083787
0000000202,0000201000,057012,048084,079698,035866,025916,083340
0000000203,0000202000,030685,071344,080005,046676,018912,079533
0000000204,0000203000,002115,088179,081178,057517,014866,072738
0000000205,0000204000,-26004,096978,083110,067343,014166,063612
0000000206,0000205000,-50922,096908,085609,075191,016877,053052
0000000207,0000206000,-70119,087994,088420,080283,022734,042104
0000000208,0000207000,-81730,071025,091278,082122,031170,031830
0000000209,0000208000,-84663,047655,093908,080536,041361,023224
0000000210,0000209000,-78648,020298,096043,075680,052299,017142
0000000211,0000210000,-64225,-08422,097472,068027,062911,014183
0000000212,0000211000,-42749,-35810,098064,058317,072176,014627
0000000213,0000212000,-16429,-59074,097758,047511,079181,018429
0000000214,0000213000,012132,-75900,096584,036675,083228,025218
0000000215,0000214000,040281,-84731,094652,026853,083931,034338
0000000216,0000215000,065212,-84674,092154,019004,081225,044892
0000000217,0000216000,084399,-75741,089342,013912,075374,055835
0000000218,0000217000,096034,-58786,086483,012071,066944,066106
0000000219,0000218000,098989,-35430,083852,013651,056759,074711
0000000220,0000219000,092960,-08046,081716,018501,045827,080792
0000000221,0000220000,078541,020683,080285,026150,035218,083754
0000000222,0000221000,057085,048060,079693,035852,025955,083314
0000000223,0000222000,030745,071349,079998,046652,018952,079518
0000000224,0000223000,002168,088201,081171,057484,014902,072735
0000000225,0000224000,-25970,097021,083103,067303,014195,063622
0000000226,0000225000,-50919,096975,085602,075150,016897,053074
0000000227,0000226000,-70136,088069,088414,080244,022742,042136
0000000228,0000227000,-81766,071100,091274,082089,031164,031868
0000000229,0000228000,-84725,047733,093907,080512,041343,023266
0000000230,0000229000,-78723,020364,096043,075668,052269,017184
0000000231,0000230000,-64302,-08378,097476,068028,062873,014220
0000000232,0000231000,-42830,-35785,098069,058332,072134,014655
0000000233,0000232000,-16503,-59071,097765,047538,079138,018445
0000000234,0000233000,012080,-75930,096593,036712,083188,025221
0000000235,0000234000,040247,-84781,094661,026895,083899,034327
0000000236,0000235000,065200,-84739,092161,019049,081204,044868
0000000237,0000236000,084419,-75824,089348,013955,075365,055801
0000000238,0000237000,096080,-58875,086487,012106,066950,066064
0000000239,0000238000,099050,-35509,083854,013677,056779,074665
0000000240,0000239000,093040,-08116,081715,018515,045859,080747
0000000241,0000240000,078633,020628,080281,026148,035259,083714
0000000242,0000241000,057170,048034,079687,035836,026001,083284
0000000243,0000242000,030820,071352,079990,046623,018998,079500
0000000244,0000243000,002232,088226,081162,057445,014945,072732
0000000245,0000244000,-25933,097074,083094,067257,014230,063634
0000000246,0000245000,-50913,097053,085594,075102,016920,053099
0000000247,0000246000,-70153,088155,088407,080198,022750,042173
0000000248,0000247000,-81811,071192,091269,082050,031157,031914
0000000249,0000248000,-84799,047826,093905,080484,041322,023315
0000000250,0000249000,-78810,020441,096044,075655,052234,017232
0000000251,0000250000,-64394,-08325,097480,068030,062828,014263
0000000252,0000251000,-42927,-35752,098076,058349,072084,014688
0000000253,0000252000,-16588,-59070,097774,047570,079087,018464
0000000254,0000253000,012017,-75963,096602,036755,083142,025225
0000000255,0000254000,040206,-84839,094671,026945,083862,034314
0000000256,0000255000,065187,-84816,092170,019101,081179,044841
0000000257,0000256000,084443,-75923,089355,014004,075356,055761
0000000258,0000257000,096131,-58978,086492,012148,066957,066015
0000000259,0000258000,099122,-35603,083856,013707,056802,074612
0000000260,0000259000,093135,-08199,081714,018530,045896,080695
0000000261,0000260000,078739,020564,080277,026146,035307,083668
0000000262,0000261000,057270,048004,079680,035817,026055,083249
0000000263,0000262000,030911,071353,079981,046589,019053,079479
0000000264,0000263000,002306,088256,081151,057399,014994,072728
0000000265,0000264000,-25891,097137,083083,067203,014270,063647
0000000266,0000265000,-50903,097142,085584,075046,016946,053129
0000000267,0000266000,-70173,088256,088399,080145,022760,042216
0000000268,0000267000,-81865,071301,091264,082005,031149,031967
0000000269,0000268000,-84883,047933,093902,080453,041296,023373
0000000270,0000269000,-78910,020529,096046,075639,052194,017288
0000000271,0000270000,-64505,-08260,097484,068032,062777,014312
0000000272,0000271000,-43040,-35714,098083,058369,072026,014725
0000000273,0000272000,-16685,-59070,097783,047606,079028,018486
0000000274,0000273000,011942,-76001,096613,036804,083089,025229
0000000275,0000274000,040156,-84904,094682,027003,083819,034300
0000000276,0000275000,065173,-84908,092181,019162,081151,044809
0000000277,0000276000,084470,-76036,089364,014061,075346,055714
0000000278,0000277000,096187,-59095,086499,012196,066966,065958
0000000279,0000278000,099207,-35713,083858,013741,056829,074550
0000000280,0000279000,093246,-08298,081713,018547,045939,080635
0000000281,0000280000,078859,020491,080272,026143,035363,083616
0000000282,0000281000,057386,047968,079672,035796,026117,083209
0000000283,0000282000,031018,071352,079970,046550,019115,079456
0000000284,0000283000,002391,088291,081139,057346,015051,072724
0000000285,0000284000,-25841,097211,083071,067142,014316,063663
0000000286,0000285000,-50889,097242,085573,074982,016976,053163
0000000287,0000286000,-70196,088373,088390,080084,022771,042266
0000000288,0000287000,-81929,071429,091257,081954,031140,032027
0000000289,0000288000,-84977,048056,093899,080416,041267,023438
0000000290,0000289000,-79024,020631,096047,075621,052148,017352
0000000291,0000290000,-64633,-08183,097489,068035,062718,014368
0000000292,0000291000,-43170,-35670,098092,058392,071960,014768
0000000293,0000292000,-16797,-59070,097795,047648,078962,018511
0000000294,0000293000,011854,-76042,096626,036860,083028,025233
0000000295,0000294000,040097,-84977,094695,027068,083770,034283
0000000296,0000295000,065158,-85015,092193,019230,081119,044772
0000000297,0000296000,084499,-76166,089374,014126,075334,055661
0000000298,0000297000,096251,-59229,086506,012250,066977,065894
0000000299,0000298000,099306,-35842,083861,013780,056860,074480
0000000300,0000299000,093373,-08412,081712,018565,045988,080567
0000000301,0000300000,078995,020408,080267,026140,035425,083556
