DIgSILENT PowerFactory,21000900,2000
6,06A,00D
1,TTPP_200000_100:Secondary Voltage A,,,V,0.10000000,-8245.330078,0.000000,67134,99998,1,1,P
2,TTPP_200000_100:Secondary Voltage B,,,V,0.10000000,-8327.433594,0.000000,68082,99998,1,1,P
3,TTPP_200000_100:Secondary Voltage C,,,V,0.10000000,-8314.865234,0.000000,65437,99998,1,1,P
4,TTCC_500_5:Secondary Current A,,,A,0.0010000000,-79.450493,0.000000,65521,99998,1,1,P
5,TTCC_500_5:Secondary Current B,,,A,0.0010000000,-84.443832,0.000000,69002,99998,1,1,P
6,TTCC_500_5:Secondary Current C,,,A,0.0010000000,-84.947212,0.000000,69921,99998,1,1,P
50
1
1000.000000,1101
30/06/2023,06:12:02.000000
30/06/2023,06:12:02.000000
ASCII
1.000000
0000000001,0000000000,087965,086915,073996,085366,089123,074352
0000000002,0000001000,085417,089349,074110,082349,091841,074651
0000000003,0000002000,082569,091201,075108,079053,093832,075956
0000000004,0000003000,079717,092268,076891,075798,094902,078142
0000000005,0000004000,077136,092447,079293,072891,094955,080996
0000000006,0000005000,075064,091741,082071,070630,093976,084236
0000000007,0000006000,073720,090209,084947,069239,092060,087542
0000000008,0000007000,073242,087982,087652,068842,089402,090597
0000000009,0000008000,073654,085301,089921,069482,086259,093100
0000000010,0000009000,074921,082434,091522,071101,082937,094803
0000000011,0000010000,076942,079635,092301,073539,079762,095541
0000000012,0000011000,079500,077189,092187,076553,077046,095242
0000000013,0000012000,082331,075355,091190,079850,075055,093937
0000000014,0000013000,085185,074285,089405,083111,073980,091751
0000000015,0000014000,087782,074090,087004,086013,073931,088897
0000000016,0000015000,089839,074811,084226,088271,074913,085658
0000000017,0000016000,091177,076349,081350,089667,076823,082351
0000000018,0000017000,091676,078557,078645,090063,079482,079296
0000000019,0000018000,091256,081245,076376,089419,082629,076793
0000000020,0000019000,089973,084128,074776,087803,085949,075090
0000000021,0000020000,087971,086908,073996,085367,089122,074352
0000000022,0000021000,085416,089349,074110,082350,091841,074651
0000000023,0000022000,082564,091206,075107,079052,093833,075956
0000000024,0000023000,079720,092265,076891,075795,094904,078142
0000000025,0000024000,077138,092445,079293,072892,094954,080996
0000000026,0000025000,075061,091745,082071,070631,093975,084236
0000000027,0000026000,073720,090209,084947,069237,092062,087542
0000000028,0000027000,073243,087980,087653,068841,089403,090597
0000000029,0000028000,073652,085302,089921,069483,086259,093100
0000000030,0000029000,074922,082434,091521,071101,082937,094803
0000000031,0000030000,076941,079634,092301,073537,079763,095541
0000000032,0000031000,079498,077191,092188,076552,077047,095242
0000000033,0000032000,082333,075354,091190,079851,075054,093937
0000000034,0000033000,085186,074284,089406,083109,073980,091752
0000000035,0000034000,087778,074094,087005,086011,073933,088898
0000000036,0000035000,089839,074810,084226,088271,074912,085658
0000000037,0000036000,091182,076345,081350,089667,076823,082352
0000000038,0000037000,091673,078559,078645,090062,079483,079297
0000000039,0000038000,091252,081248,076376,089419,082629,076793
0000000040,0000039000,089979,084122,074775,087803,085948,075090
0000000041,0000040000,087972,086907,073996,085367,089122,074353
0000000042,0000041000,085411,089355,074110,082349,091841,074651
0000000043,0000042000,082566,091203,075107,079052,093833,075956
0000000044,0000043000,079725,092261,076891,075795,094905,078142
0000000045,0000044000,077134,092450,079293,072891,094954,080996
0000000046,0000045000,075059,091746,082071,070632,093974,084235
0000000047,0000046000,073726,090204,084946,069237,092062,087542
0000000048,0000047000,073241,087983,087652,068840,089404,090597
0000000049,0000048000,073648,085307,089921,069483,086258,093100
0000000050,0000049000,074925,082430,091521,071101,082937,094803
0000000051,0000050000,076942,079633,092301,073536,079765,095541
0000000052,0000051000,079493,077196,092188,076552,077047,095242
0000000053,0000052000,082334,075352,091190,079851,075054,093937
0000000054,0000053000,085189,074280,089406,083108,073982,091752
0000000055,0000054000,087774,074097,087005,086009,073934,088898
0000000056,0000055000,089839,074810,084227,088271,074912,085659
0000000057,0000056000,091185,076340,081351,089666,076823,082352
0000000058,0000057000,091671,078560,078645,090060,079484,079297
0000000059,0000058000,091251,081249,076376,089419,082629,076794
0000000060,0000059000,089982,084119,074776,087803,085948,075091
0000000061,0000060000,087973,086907,073996,085366,089122,074354
0000000062,0000061000,085409,089358,074109,082349,091840,074652
0000000063,0000062000,082569,091201,075106,079053,093832,075957
0000000064,0000063000,079726,092260,076890,075795,094904,078142
0000000065,0000064000,077131,092453,079292,072892,094954,080996
0000000066,0000065000,075061,091746,082070,070633,093974,084235
0000000067,0000066000,073727,090203,084946,069237,092063,087541
0000000068,0000067000,073238,087986,087652,068841,089404,090596
0000000069,0000068000,073648,085308,089921,069484,086259,093099
0000000070,0000069000,074926,082428,091522,071101,082938,094802
0000000071,0000070000,076939,079635,092302,073535,079766,095540
0000000072,0000071000,079491,077197,092188,076552,077048,095242
0000000073,0000072000,082336,075350,091191,079850,075055,093937
0000000074,0000073000,085187,074281,089408,083106,073983,091752
0000000075,0000074000,087772,074098,087006,086008,073935,088898
0000000076,0000075000,089841,074807,084228,088270,074913,085659
0000000077,0000076000,091186,076339,081352,089664,076824,082353
0000000078,0000077000,091669,078562,078646,090059,079484,079299
0000000079,0000078000,091253,081247,076376,089418,082628,076796
0000000080,0000079000,089985,084116,074776,087802,085947,075093
0000000081,0000080000,087971,086909,073996,085366,089121,074355
0000000082,0000081000,085410,089357,074109,082350,091838,074653
0000000083,0000082000,082573,091198,075105,079054,093830,075958
0000000084,0000083000,079725,092262,076889,075796,094904,078142
0000000085,0000084000,077130,092456,079291,072894,094952,080995
0000000086,0000085000,075064,091744,082068,070634,093973,084234
0000000087,0000086000,073727,090204,084945,069238,092063,087540
0000000088,0000087000,073235,087990,087651,068842,089405,090594
0000000089,0000088000,073649,085307,089920,069485,086259,093097
0000000090,0000089000,074926,082428,091522,071101,082940,094800
0000000091,0000090000,076935,079639,092302,073535,079768,095538
0000000092,0000091000,079490,077197,092189,076551,077050,095240
0000000093,0000092000,082336,075347,091193,079848,075057,093936
0000000094,0000093000,085184,074283,089409,083104,073985,091752
0000000095,0000094000,087770,074098,087008,086007,073936,088899
0000000096,0000095000,089843,074803,084229,088267,074914,085661
0000000097,0000096000,091185,076338,081353,089662,076825,082355
0000000098,0000097000,091668,078562,078647,090058,079483,079301
0000000099,0000098000,091257,081243,076377,089417,082627,076798
0000000100,0000099000,089987,084114,074776,087800,085946,075095
0000000101,0000100000,087971,086910,073995,085366,089119,074357
0000000102,0000101000,085414,089355,074107,082351,091836,074654
0000000103,0000102000,082576,091197,075104,079055,093828,075958
0000000104,0000103000,079724,092265,076887,075798,094901,078143
0000000105,0000104000,077132,092456,079288,072896,094950,080995
0000000106,0000105000,075066,091744,082067,070636,093972,084233
0000000107,0000106000,073725,090208,084944,069240,092063,087538
0000000108,0000107000,073234,087993,087650,068845,089405,090592
0000000109,0000108000,073649,085307,089920,069486,086260,093095
0000000110,0000109000,074923,082431,091522,071101,082942,094798
0000000111,0000110000,076932,079642,092303,073535,079770,095536
0000000112,0000111000,079489,077197,092191,076550,077052,095239
0000000113,0000112000,082334,075347,091195,079846,075060,093935
0000000114,0000113000,085181,074284,089412,083102,073988,091751
0000000115,0000114000,087770,074096,087010,086004,073938,088900
0000000116,0000115000,089844,074800,084232,088264,074915,085662
0000000117,0000116000,091184,076338,081355,089659,076825,082357
0000000118,0000117000,091669,078559,078648,090056,079482,079304
0000000119,0000118000,091260,081239,076377,089415,082625,076801
0000000120,0000119000,089988,084113,074775,087799,085944,075098
0000000121,0000120000,087973,086909,073994,085366,089116,074360
0000000122,0000121000,085418,089353,074105,082352,091832,074657
0000000123,0000122000,082578,091197,075101,079056,093825,075960
0000000124,0000123000,079725,092267,076884,075801,094898,078143
0000000125,0000124000,077134,092457,079285,072900,094948,080994
0000000126,0000125000,075067,091746,082064,070640,093971,084231
0000000127,0000126000,073722,090213,084941,069244,092062,087535
0000000128,0000127000,073233,087995,087648,068848,089405,090589
0000000129,0000128000,073648,085309,089919,069488,086262,093091
0000000130,0000129000,074919,082435,091522,071102,082945,094794
0000000131,0000130000,076928,079644,092304,073535,079774,095533
0000000132,0000131000,079488,077196,092193,076549,077056,095236
0000000133,0000132000,082330,075348,091198,079843,075065,093934
0000000134,0000133000,085177,074284,089415,083099,073992,091751
0000000135,0000134000,087770,074092,087013,086000,073941,088901
0000000136,0000135000,089843,074797,084235,088259,074918,085664
0000000137,0000136000,091183,076336,081358,089655,076826,082361
0000000138,0000137000,091672,078554,078650,090052,079482,079308
0000000139,0000138000,091264,081234,076378,089412,082624,076806
0000000140,0000139000,089990,084111,074775,087798,085941,075103
0000000141,0000140000,087977,086907,073992,085366,089112,074364
0000000142,0000141000,085423,089350,074103,082354,091828,074660
0000000143,0000142000,082580,091198,075098,079059,093821,075962
0000000144,0000143000,079727,092269,076880,075805,094894,078143
0000000145,0000144000,077138,092458,079281,072904,094944,080993
0000000146,0000145000,075066,091750,082060,070644,093969,084229
0000000147,0000146000,073721,090218,084938,069249,092061,087532
0000000148,0000147000,073232,087998,087646,068852,089406,090584
0000000149,0000148000,073644,085313,089918,069491,086265,093086
0000000150,0000149000,074914,082440,091523,071104,082949,094789
0000000151,0000150000,076925,079646,092306,073535,079778,095528
0000000152,0000151000,079484,077197,092196,076547,077062,095233
0000000153,0000152000,082325,075350,091202,079840,075070,093932
0000000154,0000153000,085175,074282,089419,083094,073996,091751
0000000155,0000154000,087769,074088,087018,085994,073945,088902
0000000156,0000155000,089842,074795,084240,088253,074921,085667
0000000157,0000156000,091184,076331,081361,089649,076827,082365
0000000158,0000157000,091676,078548,078653,090047,079481,079313
0000000159,0000158000,091267,081230,076380,089408,082622,076812
0000000160,0000159000,089994,084108,074774,087796,085937,075108
0000000161,0000160000,087984,086902,073990,085366,089106,074369
0000000162,0000161000,085428,089348,074100,082355,091822,074664
0000000163,0000162000,082583,091199,075093,079063,093815,075964
0000000164,0000163000,079732,092270,076875,075810,094888,078144
0000000165,0000164000,077140,092460,079276,072910,094940,080992
0000000166,0000165000,075066,091755,082055,070651,093966,084225
0000000167,0000166000,073720,090223,084933,069255,092060,087527
0000000168,0000167000,073230,088003,087643,068857,089407,090578
0000000169,0000168000,073639,085319,089917,069494,086268,093079
0000000170,0000169000,074908,082445,091523,071106,082953,094782
0000000171,0000170000,076920,079648,092308,073535,079784,095522
0000000172,0000171000,079478,077199,092200,076544,077069,095228
0000000173,0000172000,082319,075351,091207,079836,075077,093929
0000000174,0000173000,085171,074279,089425,083088,074003,091750
0000000175,0000174000,087767,074084,087025,085987,073950,088904
0000000176,0000175000,089840,074791,084245,088246,074924,085671
0000000177,0000176000,091185,076325,081366,089643,076828,082371
0000000178,0000177000,091680,078541,078656,090041,079480,079320
0000000179,0000178000,091270,081225,076381,089404,082618,076819
0000000180,0000179000,089999,084103,074774,087794,085931,075116
0000000181,0000180000,087991,086898,073988,085367,089100,074375
0000000182,0000181000,085434,089347,074095,082358,091815,074669
0000000183,0000182000,082589,091200,075087,079068,093807,075967
0000000184,0000183000,079737,092271,076868,075817,094881,078144
0000000185,0000184000,077143,092464,079269,072918,094934,080990
0000000186,0000185000,075066,091762,082049,070659,093962,084221
0000000187,0000186000,073719,090229,084928,069263,092058,087520
0000000188,0000187000,073227,088010,087639,068863,089408,090570
0000000189,0000188000,073633,085327,089916,069499,086271,093071
0000000190,0000189000,074902,082451,091524,071108,082959,094774
0000000191,0000190000,076913,079652,092311,073535,079792,095515
0000000192,0000191000,079469,077202,092205,076541,077078,095223
0000000193,0000192000,082312,075351,091213,079831,075085,093926
0000000194,0000193000,085167,074276,089433,083081,074011,091750
0000000195,0000194000,087763,074080,087032,085979,073957,088906
0000000196,0000195000,089839,074785,084252,088237,074928,085676
0000000197,0000196000,091188,076317,081372,089634,076830,082378
0000000198,0000197000,091684,078533,078660,090034,079479,079329
0000000199,0000198000,091276,081218,076383,089399,082614,076828
0000000200,0000199000,090007,084096,074773,087792,085925,075125
0000000201,0000200000,087999,086892,073984,085367,089091,074383
0000000202,0000201000,085441,089345,074090,082361,091805,074675
0000000203,0000202000,082596,091200,075080,079074,093797,075971
0000000204,0000203000,079744,092273,076860,075824,094872,078145
0000000205,0000204000,077146,092470,079261,072927,094927,080987
0000000206,0000205000,075067,091769,082041,070669,093957,084216
0000000207,0000206000,073718,090236,084922,069272,092057,087513
0000000208,0000207000,073222,088019,087635,068871,089409,090561
0000000209,0000208000,073626,085336,089914,069505,086276,093061
0000000210,0000209000,074894,082457,091525,071111,082966,094764
0000000211,0000210000,076904,079657,092315,073534,079801,095506
0000000212,0000211000,079460,077206,092211,076538,077088,095216
0000000213,0000212000,082305,075350,091221,079824,075096,093922
0000000214,0000213000,085161,074273,089442,083072,074020,091749
0000000215,0000214000,087759,074076,087042,085968,073965,088908
0000000216,0000215000,089838,074777,084261,088227,074933,085682
0000000217,0000216000,091190,076307,081379,089624,076832,082386
0000000218,0000217000,091688,078524,078665,090025,079478,079339
0000000219,0000218000,091282,081209,076385,089393,082609,076839
0000000220,0000219000,090017,084087,074772,087789,085917,075136
0000000221,0000220000,088009,086887,073981,085367,089081,074393
0000000222,0000221000,085451,089342,074083,082365,091794,074682
0000000223,0000222000,082606,091199,075071,079081,093786,075975
0000000224,0000223000,079750,092276,076850,075834,094862,078146
0000000225,0000224000,077150,092476,079251,072938,094919,080984
0000000226,0000225000,075068,091777,082031,070681,093951,084209
0000000227,0000226000,073716,090246,084914,069283,092055,087504
0000000228,0000227000,073217,088030,087630,068880,089411,090550
0000000229,0000228000,073619,085346,089911,069512,086281,093049
0000000230,0000229000,074885,082465,091526,071114,082975,094752
0000000231,0000230000,076893,079664,092319,073534,079812,095496
0000000232,0000231000,079449,077210,092218,076534,077100,095208
0000000233,0000232000,082296,075350,091230,079816,075108,093917
0000000234,0000233000,085154,074270,089453,083061,074032,091748
0000000235,0000234000,087754,074070,087053,085956,073974,088912
0000000236,0000235000,089837,074768,084271,088214,074939,085688
0000000237,0000236000,091193,076296,081388,089612,076834,082396
0000000238,0000237000,091693,078513,078671,090015,079476,079351
0000000239,0000238000,091291,081198,076387,089386,082603,076853
0000000240,0000239000,090028,084077,074771,087785,085908,075149
0000000241,0000240000,088020,086880,073976,085368,089070,074404
0000000242,0000241000,085462,089339,074075,082370,091781,074691
0000000243,0000242000,082616,091199,075061,079089,093772,075980
0000000244,0000243000,079758,092280,076839,075845,094850,078147
0000000245,0000244000,077154,092484,079239,072952,094909,080981
0000000246,0000245000,075070,091786,082020,070695,093945,084202
0000000247,0000246000,073714,090257,084905,069296,092052,087493
0000000248,0000247000,073210,088043,087623,068892,089413,090537
0000000249,0000248000,073610,085358,089909,069520,086287,093034
0000000250,0000249000,074874,082476,091527,071118,082985,094739
0000000251,0000250000,076880,079672,092324,073533,079825,095484
0000000252,0000251000,079437,077214,092226,076529,077114,095199
0000000253,0000252000,082285,075350,091242,079807,075123,093912
0000000254,0000253000,085144,074266,089466,083049,074045,091747
0000000255,0000254000,087748,074062,087066,085942,073984,088915
0000000256,0000255000,089836,074757,084283,088199,074946,085697
0000000257,0000256000,091195,076283,081398,089597,076837,082408
0000000258,0000257000,091699,078500,078678,090003,079473,079365
0000000259,0000258000,091302,081185,076390,089377,082597,076868
0000000260,0000259000,090040,084066,074770,087781,085897,075164
0000000261,0000260000,088033,086872,073970,085368,089056,074417
0000000262,0000261000,085476,089334,074066,082375,091765,074701
0000000263,0000262000,082629,091198,075049,079099,093757,075986
0000000264,0000263000,079767,092284,076825,075859,094835,078148
0000000265,0000264000,077161,092492,079224,072967,094897,080977
0000000266,0000265000,075072,091797,082007,070711,093938,084193
0000000267,0000266000,073711,090271,084894,069312,092050,087480
0000000268,0000267000,073203,088057,087616,068905,089416,090521
0000000269,0000268000,073599,085371,089905,069529,086295,093018
0000000270,0000269000,074860,082488,091529,071123,082997,094722
0000000271,0000270000,076865,079682,092330,073532,079840,095470
0000000272,0000271000,079422,077218,092236,076523,077131,095188
0000000273,0000272000,082272,075350,091255,079797,075140,093905
0000000274,0000273000,085134,074262,089480,083035,074060,091746
0000000275,0000274000,087742,074053,087081,085925,073997,088920
0000000276,0000275000,089834,074744,084298,088181,074954,085706
0000000277,0000276000,091198,076269,081409,089581,076840,082421
0000000278,0000277000,091707,078484,078686,089989,079471,079382
0000000279,0000278000,091313,081169,076394,089367,082589,076886
0000000280,0000279000,090055,084054,074768,087776,085885,075181
0000000281,0000280000,088049,086863,073964,085369,089040,074433
0000000282,0000281000,085492,089328,074056,082382,091747,074712
0000000283,0000282000,082643,091198,075035,079110,093739,075992
0000000284,0000283000,079778,092289,076809,075874,094819,078149
0000000285,0000284000,077168,092501,079208,072985,094884,080972
0000000286,0000285000,075074,091810,081992,070729,093929,084183
0000000287,0000286000,073707,090288,084882,069329,092047,087466
0000000288,0000287000,073195,088074,087607,068919,089418,090504
0000000289,0000288000,073587,085387,089902,069539,086303,092999
0000000290,0000289000,074844,082502,091530,071127,083010,094704
0000000291,0000290000,076848,079692,092337,073531,079857,095454
0000000292,0000291000,079406,077223,092247,076516,077150,095176
0000000293,0000292000,082257,075350,091270,079784,075159,093898
0000000294,0000293000,085122,074257,089497,083019,074078,091745
0000000295,0000294000,087735,074043,087098,085906,074010,088925
0000000296,0000295000,089832,074730,084314,088162,074963,085717
0000000297,0000296000,091201,076253,081423,089562,076843,082437
0000000298,0000297000,091715,078466,078695,089974,079468,079400
0000000299,0000298000,091327,081152,076398,089356,082580,076906
0000000300,0000299000,090071,084039,074767,087771,085870,075200
0000000301,0000300000,088067,086852,073957,085370,089022,074450
