DIgSILENT PowerFactory,21000900,2000
6,06A,00D
1,TTPP_200000_100:Secondary Voltage A,,,V,0.10000000,-8403.875000,0.000000,68033,99998,1,1,P
2,TTPP_200000_100:Secondary Voltage B,,,V,0.10000000,-8411.621094,0.000000,69063,99998,1,1,P
3,TTPP_200000_100:Secondary Voltage C,,,V,0.10000000,-8438.105469,0.000000,65988,99998,1,1,P
4,TTCC_500_5:Secondary Current A,,,A,0.0010000000,-86.072899,0.000000,65801,99998,1,1,P
5,TTCC_500_5:Secondary Current B,,,A,0.0010000000,-85.014267,0.000000,70049,99998,1,1,P
6,TTCC_500_5:Secondary Current C,,,A,0.0010000000,-84.655487,0.000000,69312,99998,1,1,P
50
1
1000.000000,1101
30/06/2023,06:06:53.000000
30/06/2023,06:06:53.000000
ASCII
1.000000
0000000001,0000000000,089551,087757,075229,091988,089694,074060
0000000002,0000001000,087002,090190,075343,088973,092410,074359
0000000003,0000002000,084151,092046,076341,085673,094405,075664
0000000004,0000003000,081306,093107,078124,082419,095474,077850
0000000005,0000004000,078722,093289,080525,079514,095524,080704
0000000006,0000005000,076649,092583,083304,077254,094545,083944
0000000007,0000006000,075303,091053,086179,075860,092632,087251
0000000008,0000007000,074830,088821,088885,075465,089972,090306
0000000009,0000008000,075239,086143,091154,076106,086828,092809
0000000010,0000009000,076506,083277,092754,077724,083507,094512
0000000011,0000010000,078526,080477,093533,080161,080332,095249
0000000012,0000011000,081087,078029,093419,083176,077617,094950
0000000013,0000012000,083916,076198,092422,086474,075624,093645
0000000014,0000013000,086769,075128,090638,089733,074550,091459
0000000015,0000014000,089367,074932,088237,092634,074503,088605
0000000016,0000015000,091426,075651,085459,094893,075484,085366
0000000017,0000016000,092762,077192,082583,096290,077393,082059
0000000018,0000017000,093260,079399,079878,096686,080053,079004
0000000019,0000018000,092841,082086,077608,096041,083201,076501
0000000020,0000019000,091559,084969,076008,094425,086520,074798
0000000021,0000020000,089555,087751,075229,091990,089692,074061
0000000022,0000021000,087002,090191,075343,088971,092412,074359
0000000023,0000022000,084150,092047,076340,085674,094404,075665
0000000024,0000023000,081306,093107,078124,082418,095475,077850
0000000025,0000024000,078723,093288,080526,079514,095524,080705
0000000026,0000025000,076647,092586,083303,077253,094546,083944
0000000027,0000026000,075306,091051,086179,075860,092632,087251
0000000028,0000027000,074828,088822,088885,075464,089973,090306
0000000029,0000028000,075237,086145,091154,076106,086828,092809
0000000030,0000029000,076508,083275,092754,077723,083508,094512
0000000031,0000030000,078527,080476,093533,080160,080333,095249
0000000032,0000031000,081083,078034,093420,083175,077617,094951
0000000033,0000032000,083918,076196,092422,086474,075624,093645
0000000034,0000033000,086772,075125,090638,089732,074551,091460
0000000035,0000034000,089363,074936,088237,092634,074503,088606
0000000036,0000035000,091424,075652,085459,094894,075483,085366
0000000037,0000036000,092768,077186,082583,096290,077393,082059
0000000038,0000037000,093258,079401,079878,096684,080054,079005
0000000039,0000038000,092837,082090,077609,096041,083200,076502
0000000040,0000039000,091564,084964,076008,094425,086519,074799
0000000041,0000040000,089558,087749,075229,091989,089693,074061
0000000042,0000041000,086996,090198,075343,088971,092412,074360
0000000043,0000042000,084152,092045,076339,085675,094403,075665
0000000044,0000043000,081311,093102,078123,082417,095475,077851
0000000045,0000044000,078719,093292,080525,079513,095525,080705
0000000046,0000045000,076644,092589,083303,077254,094545,083944
0000000047,0000046000,075312,091045,086179,075860,092632,087251
0000000048,0000047000,074827,088824,088885,075463,089974,090305
0000000049,0000048000,075233,086149,091154,076106,086829,092808
0000000050,0000049000,076510,083272,092754,077724,083507,094511
0000000051,0000050000,078528,080474,093534,080159,080335,095249
0000000052,0000051000,081078,078038,093420,083175,077618,094950
0000000053,0000052000,083919,076195,092423,086474,075624,093645
0000000054,0000053000,086775,075122,090639,089731,074552,091460
0000000055,0000054000,089360,074938,088237,092632,074504,088606
0000000056,0000055000,091424,075653,085459,094893,075483,085366
0000000057,0000056000,092770,077183,082583,096289,077394,082060
0000000058,0000057000,093256,079402,079878,096683,080054,079005
0000000059,0000058000,092837,082091,077609,096041,083199,076502
0000000060,0000059000,091567,084961,076008,094425,086518,074799
0000000061,0000060000,089558,087749,075229,091988,089693,074062
0000000062,0000061000,086995,090199,075342,088972,092411,074360
0000000063,0000062000,084155,092043,076339,085675,094402,075665
0000000064,0000063000,081311,093103,078123,082417,095475,077851
0000000065,0000064000,078717,093295,080525,079514,095524,080704
0000000066,0000065000,076647,092587,083302,077255,094544,083944
0000000067,0000066000,075313,091045,086178,075860,092633,087250
0000000068,0000067000,074823,088828,088884,075463,089975,090305
0000000069,0000068000,075234,086149,091153,076106,086829,092807
0000000070,0000069000,076512,083270,092754,077724,083509,094510
0000000071,0000070000,078524,080478,093534,080158,080336,095248
0000000072,0000071000,081076,078039,093421,083175,077618,094950
0000000073,0000072000,083922,076191,092423,086473,075625,093645
0000000074,0000073000,086773,075123,090640,089729,074554,091460
0000000075,0000074000,089357,074941,088238,092631,074505,088606
0000000076,0000075000,091427,075649,085460,094892,075483,085367
0000000077,0000076000,092771,077181,082584,096287,077395,082061
0000000078,0000077000,093254,079404,079879,096682,080054,079007
0000000079,0000078000,092839,082089,077609,096040,083198,076504
0000000080,0000079000,091570,084957,076008,094424,086518,074801
0000000081,0000080000,089556,087751,075228,091988,089692,074063
0000000082,0000081000,086996,090199,075341,088972,092409,074361
0000000083,0000082000,084159,092040,076338,085676,094401,075666
0000000084,0000083000,081310,093104,078122,082418,095474,077851
0000000085,0000084000,078716,093298,080523,079516,095523,080704
0000000086,0000085000,076649,092586,083301,077256,094543,083943
0000000087,0000086000,075312,091046,086178,075861,092633,087249
0000000088,0000087000,074821,088832,088883,075465,089975,090303
0000000089,0000088000,075234,086149,091153,076107,086829,092806
0000000090,0000089000,076512,083270,092754,077724,083510,094509
0000000091,0000090000,078521,080481,093535,080158,080338,095247
0000000092,0000091000,081075,078039,093421,083174,077620,094949
0000000093,0000092000,083922,076190,092425,086471,075627,093644
0000000094,0000093000,086770,075125,090642,089727,074556,091460
0000000095,0000094000,089356,074940,088240,092629,074506,088607
0000000096,0000095000,091429,075645,085462,094890,075484,085368
0000000097,0000096000,092770,077180,082586,096284,077395,082063
0000000098,0000097000,093253,079404,079879,096680,080054,079009
0000000099,0000098000,092842,082085,077609,096039,083197,076506
0000000100,0000099000,091572,084956,076008,094423,086517,074803
0000000101,0000100000,089556,087752,075227,091988,089690,074065
0000000102,0000101000,086999,090197,075340,088973,092406,074363
0000000103,0000102000,084161,092039,076336,085677,094399,075667
0000000104,0000103000,081309,093107,078120,082420,095472,077851
0000000105,0000104000,078717,093298,080521,079518,095521,080703
0000000106,0000105000,076651,092586,083299,077259,094543,083942
0000000107,0000106000,075310,091050,086176,075863,092633,087247
0000000108,0000107000,074819,088835,088882,075467,089975,090301
0000000109,0000108000,075235,086149,091152,076109,086831,092803
0000000110,0000109000,076509,083273,092754,077724,083513,094506
0000000111,0000110000,078517,080484,093535,080158,080340,095244
0000000112,0000111000,081075,078038,093423,083173,077623,094947
0000000113,0000112000,083920,076189,092427,086469,075631,093643
0000000114,0000113000,086766,075126,090644,089725,074558,091460
0000000115,0000114000,089356,074938,088242,092627,074508,088608
0000000116,0000115000,091430,075642,085464,094887,075486,085370
0000000117,0000116000,092769,077180,082588,096281,077396,082065
0000000118,0000117000,093255,079401,079881,096678,080053,079012
0000000119,0000118000,092846,082080,077610,096037,083196,076509
0000000120,0000119000,091573,084955,076008,094421,086515,074806
0000000121,0000120000,089558,087751,075226,091988,089687,074068
0000000122,0000121000,087004,090194,075338,088974,092403,074365
0000000123,0000122000,084163,092039,076334,085678,094396,075668
0000000124,0000123000,081310,093109,078117,082423,095469,077851
0000000125,0000124000,078720,093298,080518,079522,095518,080703
0000000126,0000125000,076652,092588,083296,077262,094541,083940
0000000127,0000126000,075308,091054,086174,075866,092632,087244
0000000128,0000127000,074818,088837,088880,075470,089975,090297
0000000129,0000128000,075233,086151,091152,076111,086832,092799
0000000130,0000129000,076504,083277,092755,077725,083515,094502
0000000131,0000130000,078514,080486,093536,080158,080344,095241
0000000132,0000131000,081073,078038,093425,083172,077627,094944
0000000133,0000132000,083916,076190,092430,086466,075635,093642
0000000134,0000133000,086763,075126,090647,089721,074562,091459
0000000135,0000134000,089356,074934,088246,092623,074511,088609
0000000136,0000135000,091429,075640,085468,094882,075488,085372
0000000137,0000136000,092768,077178,082590,096277,077397,082069
0000000138,0000137000,093258,079396,079883,096675,080052,079016
0000000139,0000138000,092849,082076,077611,096034,083195,076514
0000000140,0000139000,091575,084953,076008,094420,086512,074811
0000000141,0000140000,089563,087748,075225,091988,089682,074072
0000000142,0000141000,087009,090192,075335,088976,092399,074368
0000000143,0000142000,084165,092040,076331,085681,094391,075670
0000000144,0000143000,081313,093111,078113,082427,095464,077852
0000000145,0000144000,078723,093299,080514,079526,095515,080702
0000000146,0000145000,076652,092592,083293,077267,094539,083937
0000000147,0000146000,075306,091059,086170,075871,092631,087240
0000000148,0000147000,074818,088840,088878,075474,089976,090293
0000000149,0000148000,075230,086155,091151,076113,086835,092794
0000000150,0000149000,076499,083282,092755,077726,083519,094497
0000000151,0000150000,078510,080488,093538,080158,080348,095237
0000000152,0000151000,081069,078039,093428,083170,077632,094941
0000000153,0000152000,083910,076192,092434,086463,075640,093640
0000000154,0000153000,086760,075124,090652,089717,074567,091459
0000000155,0000154000,089355,074930,088251,092617,074515,088610
0000000156,0000155000,091427,075637,085472,094876,075491,085375
0000000157,0000156000,092769,077173,082594,096272,077398,082073
0000000158,0000157000,093261,079390,079885,096670,080052,079021
0000000159,0000158000,092852,082072,077612,096031,083192,076520
0000000160,0000159000,091579,084950,076007,094419,086508,074817
0000000161,0000160000,089569,087744,075223,091989,089677,074077
0000000162,0000161000,087014,090190,075332,088977,092393,074372
0000000163,0000162000,084169,092041,076326,085685,094385,075672
0000000164,0000163000,081317,093112,078107,082432,095458,077852
0000000165,0000164000,078726,093302,080509,079532,095510,080700
0000000166,0000165000,076651,092597,083288,077273,094536,083934
0000000167,0000166000,075305,091065,086166,075877,092630,087235
0000000168,0000167000,074816,088845,088875,075479,089977,090286
0000000169,0000168000,075225,086161,091150,076117,086838,092788
0000000170,0000169000,076494,083287,092755,077728,083523,094491
0000000171,0000170000,078506,080490,093540,080158,080354,095231
0000000172,0000171000,081063,078041,093432,083167,077639,094936
0000000173,0000172000,083904,076193,092439,086459,075647,093637
0000000174,0000173000,086757,075121,090658,089711,074573,091458
0000000175,0000174000,089352,074926,088257,092610,074521,088612
0000000176,0000175000,091425,075633,085478,094869,075495,085379
0000000177,0000176000,092771,077167,082598,096265,077399,082079
0000000178,0000177000,093265,079383,079888,096664,080051,079028
0000000179,0000178000,092856,082067,077614,096026,083189,076527
0000000180,0000179000,091585,084945,076006,094417,086502,074824
0000000181,0000180000,089576,087739,075220,091989,089670,074084
0000000182,0000181000,087019,090189,075328,088980,092386,074377
0000000183,0000182000,084174,092042,076320,085690,094377,075675
0000000184,0000183000,081323,093113,078101,082439,095451,077853
0000000185,0000184000,078729,093306,080502,079540,095505,080698
0000000186,0000185000,076651,092604,083281,077281,094532,083930
0000000187,0000186000,075305,091070,086161,075885,092628,087229
0000000188,0000187000,074813,088851,088872,075486,089978,090279
0000000189,0000188000,075219,086169,091148,076122,086842,092779
0000000190,0000189000,076487,083293,092756,077731,083529,094483
0000000191,0000190000,078499,080494,093543,080157,080362,095224
0000000192,0000191000,081055,078044,093437,083164,077648,094931
0000000193,0000192000,083898,076193,092445,086453,075656,093634
0000000194,0000193000,086753,075118,090665,089704,074581,091458
0000000195,0000194000,089349,074922,088265,092601,074527,088614
0000000196,0000195000,091424,075627,085485,094860,075499,085384
0000000197,0000196000,092773,077159,082604,096257,077400,082086
0000000198,0000197000,093269,079375,079893,096656,080050,079037
0000000199,0000198000,092861,082060,077615,096021,083185,076536
0000000200,0000199000,091593,084938,076005,094414,086496,074833
0000000201,0000200000,089585,087734,075217,091989,089662,074092
0000000202,0000201000,087027,090187,075322,088983,092376,074383
0000000203,0000202000,084182,092041,076313,085696,094368,075679
0000000204,0000203000,081329,093115,078093,082447,095443,077854
0000000205,0000204000,078731,093312,080493,079549,095498,080696
0000000206,0000205000,076652,092611,083273,077291,094527,083924
0000000207,0000206000,075304,091078,086154,075894,092627,087221
0000000208,0000207000,074808,088861,088867,075493,089980,090270
0000000209,0000208000,075212,086178,091146,076127,086846,092769
0000000210,0000209000,076480,083299,092757,077734,083536,094473
0000000211,0000210000,078490,080499,093547,080157,080371,095215
0000000212,0000211000,081045,078048,093443,083161,077658,094924
0000000213,0000212000,083890,076192,092453,086447,075666,093630
0000000214,0000213000,086747,075115,090674,089695,074591,091457
0000000215,0000214000,089344,074918,088274,092591,074535,088616
0000000216,0000215000,091423,075619,085493,094849,075504,085390
0000000217,0000216000,092776,077149,082611,096246,077402,082094
0000000218,0000217000,093273,079366,079898,096648,080048,079047
0000000219,0000218000,092868,082051,077617,096015,083180,076547
0000000220,0000219000,091602,084929,076004,094411,086488,074844
0000000221,0000220000,089594,087729,075213,091989,089652,074101
0000000222,0000221000,087036,090184,075316,088987,092365,074391
0000000223,0000222000,084191,092041,076304,085703,094356,075683
0000000224,0000223000,081336,093117,078083,082456,095432,077854
0000000225,0000224000,078735,093318,080483,079560,095489,080693
0000000226,0000225000,076654,092619,083264,077303,094522,083918
0000000227,0000226000,075302,091087,086146,075906,092625,087212
0000000228,0000227000,074802,088872,088862,075503,089981,090258
0000000229,0000228000,075204,086188,091144,076134,086851,092757
0000000230,0000229000,076471,083307,092758,077737,083545,094461
0000000231,0000230000,078479,080506,093552,080156,080382,095204
0000000232,0000231000,081035,078052,093450,083156,077670,094916
0000000233,0000232000,083881,076192,092463,086439,075678,093625
0000000234,0000233000,086739,075112,090685,089684,074602,091456
0000000235,0000234000,089339,074912,088285,092579,074544,088620
0000000236,0000235000,091423,075610,085504,094837,075510,085396
0000000237,0000236000,092778,077138,082620,096234,077405,082104
0000000238,0000237000,093278,079355,079903,096637,080046,079059
0000000239,0000238000,092877,082040,077620,096008,083174,076561
0000000240,0000239000,091613,084919,076003,094407,086479,074857
0000000241,0000240000,089605,087722,075208,091990,089640,074112
0000000242,0000241000,087048,090180,075308,088992,092351,074399
0000000243,0000242000,084202,092040,076294,085711,094343,075688
0000000244,0000243000,081344,093121,078071,082467,095420,077855
0000000245,0000244000,078740,093325,080471,079574,095479,080690
0000000246,0000245000,076656,092628,083252,077317,094515,083911
0000000247,0000246000,075299,091099,086137,075919,092623,087201
0000000248,0000247000,074796,088885,088856,075514,089983,090245
0000000249,0000248000,075195,086200,091141,076142,086857,092743
0000000250,0000249000,076459,083317,092759,077741,083555,094447
0000000251,0000250000,078465,080514,093557,080156,080395,095192
0000000252,0000251000,081022,078055,093459,083151,077684,094907
0000000253,0000252000,083871,076191,092474,086430,075693,093620
0000000254,0000253000,086730,075108,090698,089672,074616,091455
0000000255,0000254000,089334,074904,088298,092564,074555,088623
0000000256,0000255000,091421,075599,085516,094821,075517,085404
0000000257,0000256000,092781,077126,082630,096220,077407,082116
0000000258,0000257000,093284,079342,079910,096625,080044,079073
0000000259,0000258000,092887,082027,077623,095999,083167,076576
0000000260,0000259000,091626,084908,076002,094403,086468,074872
0000000261,0000260000,089619,087714,075203,091990,089627,074126
0000000262,0000261000,087062,090175,075299,088997,092336,074409
0000000263,0000262000,084214,092040,076282,085721,094327,075694
0000000264,0000263000,081353,093126,078057,082481,095406,077856
0000000265,0000264000,078746,093333,080457,079589,095468,080686
0000000266,0000265000,076658,092639,083239,077333,094508,083902
0000000267,0000266000,075296,091113,086126,075934,092620,087189
0000000268,0000267000,074789,088899,088848,075527,089986,090230
0000000269,0000268000,075185,086213,091138,076151,086865,092726
0000000270,0000269000,076446,083330,092761,077745,083567,094431
0000000271,0000270000,078450,080524,093562,080155,080410,095178
0000000272,0000271000,081008,078060,093468,083145,077701,094896
0000000273,0000272000,083857,076192,092487,086419,075710,093614
0000000274,0000273000,086719,075104,090713,089658,074631,091454
0000000275,0000274000,089327,074895,088313,092548,074567,088628
0000000276,0000275000,091420,075586,085530,094804,075525,085414
0000000277,0000276000,092783,077111,082642,096203,077410,082129
0000000278,0000277000,093292,079326,079918,096612,080041,079090
0000000279,0000278000,092899,082011,077626,095990,083159,076594
0000000280,0000279000,091640,084895,076001,094398,086455,074889
0000000281,0000280000,089634,087705,075197,091991,089611,074141
0000000282,0000281000,087078,090170,075288,089004,092318,074421
0000000283,0000282000,084228,092040,076268,085732,094309,075701
0000000284,0000283000,081364,093131,078041,082496,095389,077857
0000000285,0000284000,078753,093342,080440,079607,095455,080681
0000000286,0000285000,076660,092652,083224,077351,094499,083892
0000000287,0000286000,075292,091129,086114,075951,092617,087174
0000000288,0000287000,074781,088916,088839,075542,089989,090212
0000000289,0000288000,075173,086229,091134,076162,086873,092708
0000000290,0000289000,076430,083344,092762,077750,083580,094412
0000000291,0000290000,078434,080534,093569,080154,080427,095162
0000000292,0000291000,080991,078065,093480,083139,077720,094884
0000000293,0000292000,083842,076192,092502,086407,075729,093606
0000000294,0000293000,086707,075099,090730,089641,074648,091453
0000000295,0000294000,089320,074885,088331,092529,074581,088633
0000000296,0000295000,091418,075572,085546,094784,075534,085425
0000000297,0000296000,092786,077095,082655,096185,077413,082144
0000000298,0000297000,093301,079308,079927,096596,080038,079108
0000000299,0000298000,092912,081994,077630,095979,083150,076614
0000000300,0000299000,091656,084881,075999,094393,086441,074909
0000000301,0000300000,089653,087694,075189,091992,089592,074158
