DIgSILENT PowerFactory,21000900,2000
6,06A,00D
1,TTPP_200000_100:Secondary Voltage A,,,V,0.010000000,-71.436218,0.000000,-85627,99998,1,1,P
2,TTPP_200000_100:Secondary Voltage B,,,V,0.010000000,31.314751,0.000000,-97286,99998,1,1,P
3,TTPP_200000_100:Secondary Voltage C,,,V,0.10000000,-8895.822266,0.000000,77217,99998,1,1,P
4,TTCC_300_1:Secondary Current A,,,A,0.00010000000,-3.162069,0.000000,-67795,99998,1,1,P
5,TTCC_300_1:Secondary Current B,,,A,0.00010000000,-4.982461,0.000000,-436,99998,1,1,P
6,TTCC_300_1:Secondary Current C,,,A,0.00010000000,-4.878962,0.000000,-2396,99998,1,1,P
50
1
1000.000000,1101
30/06/2023,06:01:38.000000
30/06/2023,06:01:38.000000
ASCII
1.000000
0000000001,0000000000,078208,011621,080377,010687,035840,083708
0000000002,0000001000,056864,038805,079792,020440,026559,083236
0000000003,0000002000,030479,062080,080104,031276,019564,079395
0000000004,0000003000,001890,078895,081280,042156,015517,072561
0000000005,0000004000,-26059,087521,083214,051999,014842,063393
0000000006,0000005000,-50935,087421,085710,059852,017588,052794
0000000007,0000006000,-70095,078520,088517,064938,023484,041812
0000000008,0000007000,-81577,061479,091369,066758,031962,031515
0000000009,0000008000,-84458,038125,093992,065140,042198,022898
0000000010,0000009000,-78455,010867,096118,060245,053172,016818
0000000011,0000010000,-63939,-17867,097540,052552,063807,013876
0000000012,0000011000,-42433,-45214,098124,042789,073098,014348
0000000013,0000012000,-16256,-68279,097813,031944,080102,018189
0000000014,0000013000,012291,-85061,096636,021082,084131,025023
0000000015,0000014000,040462,-93901,094703,011234,084812,034190
0000000016,0000015000,065231,-93706,092206,003373,082073,044789
0000000017,0000016000,084281,-84674,089399,-01707,076171,055771
0000000018,0000017000,095921,-67800,086547,-03523,067688,066069
0000000019,0000018000,098798,-44445,083925,-01913,057462,074685
0000000020,0000019000,092642,-17029,081798,002985,046486,080765
0000000021,0000020000,078255,011579,080376,010686,035841,083708
0000000022,0000021000,056811,038860,079792,020437,026563,083236
0000000023,0000022000,030441,062111,080104,031285,019555,079395
0000000024,0000023000,001967,078830,081280,042157,015518,072560
0000000025,0000024000,-26055,087518,083213,051998,014843,063393
0000000026,0000025000,-50985,087481,085710,059852,017588,052794
0000000027,0000026000,-70090,078513,088517,064943,023479,041813
0000000028,0000027000,-81541,061442,091369,066760,031961,031514
0000000029,0000028000,-84476,038150,093992,065139,042199,022897
0000000030,0000029000,-78461,010875,096118,060249,053168,016818
0000000031,0000030000,-63928,-17877,097540,052552,063807,013875
0000000032,0000031000,-42459,-45192,098125,042793,073094,014347
0000000033,0000032000,-16239,-68291,097813,031947,080100,018188
0000000034,0000033000,012319,-85086,096636,021082,084131,025022
0000000035,0000034000,040427,-93873,094704,011235,084812,034189
0000000036,0000035000,065207,-93681,092207,003378,082069,044788
0000000037,0000036000,084331,-84729,089399,-01703,076169,055769
0000000038,0000037000,095930,-67806,086547,-03526,067693,066067
0000000039,0000038000,098745,-44399,083925,-01910,057461,074684
0000000040,0000039000,092659,-17046,081798,002989,046483,080763
0000000041,0000040000,078289,011543,080376,010687,035843,083706
0000000042,0000041000,056792,038880,079792,020436,026565,083234
0000000043,0000042000,030433,062126,080103,031286,019555,079394
0000000044,0000043000,001987,078807,081280,042158,015517,072560
0000000045,0000044000,-26066,087533,083213,051997,014844,063393
0000000046,0000045000,-50988,087486,085710,059853,017587,052794
0000000047,0000046000,-70065,078494,088517,064942,023480,041814
0000000048,0000047000,-81564,061463,091369,066759,031960,031516
0000000049,0000048000,-84499,038172,093992,065142,042196,022898
0000000050,0000049000,-78427,010844,096118,060250,053166,016819
0000000051,0000050000,-63924,-17884,097540,052551,063807,013876
0000000052,0000051000,-42504,-45148,098125,042795,073092,014348
0000000053,0000052000,-16232,-68303,097813,031952,080095,018188
0000000054,0000053000,012350,-85119,096636,021083,084130,025022
0000000055,0000054000,040402,-93851,094704,011236,084811,034188
0000000056,0000055000,065193,-93670,092207,003383,082067,044786
0000000057,0000056000,084355,-84757,089400,-01699,076167,055767
0000000058,0000057000,095926,-67807,086548,-03523,067693,066065
0000000059,0000058000,098738,-44388,083925,-01908,057461,074681
0000000060,0000059000,092682,-17069,081798,002991,046484,080760
0000000061,0000060000,078287,011546,080376,010686,035846,083704
0000000062,0000061000,056776,038898,079792,020437,026566,083232
0000000063,0000062000,030462,062102,080103,031286,019557,079393
0000000064,0000063000,002000,078799,081280,042154,015521,072560
0000000065,0000064000,-26097,087567,083213,051995,014846,063394
0000000066,0000065000,-50980,087485,085709,059853,017586,052796
0000000067,0000066000,-70037,078469,088516,064939,023480,041816
0000000068,0000067000,-81586,061490,091369,066756,031961,031518
0000000069,0000068000,-84519,038194,093992,065142,042192,022901
0000000070,0000069000,-78409,010824,096118,060250,053162,016822
0000000071,0000070000,-63933,-17878,097541,052551,063805,013879
0000000072,0000071000,-42528,-45128,098125,042798,073087,014350
0000000073,0000072000,-16222,-68317,097814,031956,080090,018189
0000000074,0000073000,012346,-85125,096637,021087,084127,025022
0000000075,0000074000,040381,-93836,094705,011241,084808,034186
0000000076,0000075000,065207,-93689,092207,003388,082063,044784
0000000077,0000076000,084368,-84777,089400,-01696,076168,055763
0000000078,0000077000,095904,-67790,086548,-03519,067694,066060
0000000079,0000078000,098745,-44398,083925,-01903,057461,074676
0000000080,0000079000,092716,-17101,081798,002992,046487,080756
0000000081,0000080000,078279,011555,080376,010685,035851,083699
0000000082,0000081000,056770,038912,079791,020437,026569,083229
0000000083,0000082000,030493,062080,080102,031284,019561,079391
0000000084,0000083000,002008,078800,081279,042149,015527,072559
0000000085,0000084000,-26111,087593,083212,051991,014849,063395
0000000086,0000085000,-50967,087482,085708,059849,017587,052798
0000000087,0000086000,-70032,078471,088516,064933,023482,041820
0000000088,0000087000,-81609,061517,091368,066752,031960,031523
0000000089,0000088000,-84519,038198,093991,065140,042188,022907
0000000090,0000089000,-78406,010819,096118,060249,053158,016828
0000000091,0000090000,-63963,-17854,097541,052551,063799,013884
0000000092,0000091000,-42541,-45121,098126,042802,073079,014354
0000000093,0000092000,-16211,-68339,097815,031960,080083,018191
0000000094,0000093000,012327,-85119,096639,021092,084122,025022
0000000095,0000094000,040360,-93827,094706,011249,084801,034185
0000000096,0000095000,065224,-93718,092209,003397,082059,044780
0000000097,0000096000,084375,-84794,089401,-01690,076167,055757
0000000098,0000097000,095892,-67784,086549,-03513,067694,066053
0000000099,0000098000,098764,-44418,083925,-01897,057463,074669
0000000100,0000099000,092739,-17125,081798,002994,046493,080748
0000000101,0000100000,078279,011561,080375,010685,035858,083692
0000000102,0000101000,056786,038907,079790,020436,026576,083223
0000000103,0000102000,030519,062065,080101,031279,019569,079387
0000000104,0000103000,002005,078816,081277,042142,015535,072558
0000000105,0000104000,-26110,087608,083210,051984,014854,063396
0000000106,0000105000,-50947,087477,085707,059840,017591,052803
0000000107,0000106000,-70041,078490,088515,064924,023484,041827
0000000108,0000107000,-81632,061549,091368,066746,031958,031532
0000000109,0000108000,-84517,038200,093991,065136,042183,022916
0000000110,0000109000,-78416,010826,096118,060245,053152,016837
0000000111,0000110000,-63997,-17826,097542,052552,063791,013892
0000000112,0000111000,-42554,-45120,098127,042806,073068,014360
0000000113,0000112000,-16214,-68352,097816,031966,080073,018195
0000000114,0000113000,012302,-85112,096640,021100,084113,025023
0000000115,0000114000,040350,-93834,094708,011260,084793,034182
0000000116,0000115000,065236,-93747,092210,003408,082054,044774
0000000117,0000116000,084370,-84805,089403,-01680,076166,055749
0000000118,0000117000,095894,-67795,086550,-03503,067695,066043
0000000119,0000118000,098793,-44451,083925,-01890,057467,074657
0000000120,0000119000,092756,-17141,081798,002997,046502,080737
0000000121,0000120000,078285,011563,080374,010686,035867,083682
0000000122,0000121000,056818,038890,079788,020433,026587,083215
0000000123,0000122000,030545,062057,080099,031271,019582,079382
0000000124,0000123000,002005,078838,081275,042132,015546,072557
0000000125,0000124000,-26099,087620,083208,051973,014862,063399
0000000126,0000125000,-50932,087482,085705,059828,017598,052809
0000000127,0000126000,-70056,078522,088513,064912,023487,041836
0000000128,0000127000,-81648,061579,091366,066736,031955,031544
0000000129,0000128000,-84522,038210,093990,065128,042177,022930
0000000130,0000129000,-78443,010849,096119,060241,053144,016850
0000000131,0000130000,-64031,-17801,097543,052553,063778,013904
0000000132,0000131000,-42567,-45123,098129,042811,073054,014369
0000000133,0000132000,-16235,-68355,097819,031974,080060,018200
0000000134,0000133000,012272,-85108,096643,021112,084099,025024
0000000135,0000134000,040346,-93856,094710,011275,084781,034179
0000000136,0000135000,065242,-93778,092213,003422,082047,044766
0000000137,0000136000,084364,-84819,089405,-01666,076163,055738
0000000138,0000137000,095908,-67822,086551,-03490,067696,066028
0000000139,0000138000,098826,-44490,083926,-01881,057474,074642
0000000140,0000139000,092775,-17157,081798,003001,046513,080721
0000000141,0000140000,078308,011554,080373,010686,035881,083668
0000000142,0000141000,056858,038870,079786,020428,026602,083205
0000000143,0000142000,030569,062058,080097,031261,019598,079376
0000000144,0000143000,002015,078858,081272,042119,015560,072555
0000000145,0000144000,-26078,087631,083204,051958,014874,063403
0000000146,0000145000,-50925,087503,085702,059810,017606,052818
0000000147,0000146000,-70074,078563,088511,064896,023490,041849
0000000148,0000147000,-81661,061608,091364,066723,031953,031560
0000000149,0000148000,-84537,038232,093990,065118,042170,022947
0000000150,0000149000,-78483,010885,096119,060235,053132,016868
0000000151,0000150000,-64067,-17778,097544,052554,063761,013919
0000000152,0000151000,-42589,-45123,098131,042817,073036,014381
0000000153,0000152000,-16269,-68351,097822,031985,080042,018208
0000000154,0000153000,012242,-85110,096646,021128,084082,025025
0000000155,0000154000,040341,-93886,094714,011294,084767,034174
0000000156,0000155000,065239,-93809,092216,003441,082038,044756
0000000157,0000156000,084362,-84844,089408,-01647,076159,055722
0000000158,0000157000,095932,-67863,086553,-03473,067698,066010
0000000159,0000158000,098859,-44532,083927,-01870,057483,074622
0000000160,0000159000,092800,-17178,081797,003007,046527,080701
0000000161,0000160000,078347,011531,080371,010686,035898,083650
0000000162,0000161000,056904,038849,079784,020421,026623,083191
0000000163,0000162000,030596,062065,080093,031248,019620,079368
0000000164,0000163000,002038,078875,081268,042102,015579,072553
0000000165,0000164000,-26052,087645,083200,051937,014890,063408
0000000166,0000165000,-50924,087538,085698,059788,017617,052830
0000000167,0000166000,-70091,078611,088507,064875,023494,041866
0000000168,0000167000,-81674,061643,091362,066705,031949,031581
0000000169,0000168000,-84567,038268,093989,065104,042161,022970
0000000170,0000169000,-78531,010928,096120,060229,053116,016891
0000000171,0000170000,-64107,-17756,097546,052555,063740,013940
0000000172,0000171000,-42626,-45117,098134,042825,073012,014397
0000000173,0000172000,-16315,-68345,097826,032000,080018,018217
0000000174,0000173000,012211,-85123,096651,021149,084059,025027
0000000175,0000174000,040331,-93921,094718,011318,084749,034169
0000000176,0000175000,065230,-93843,092221,003466,082026,044743
0000000177,0000176000,084368,-84884,089411,-01622,076154,055703
0000000178,0000177000,095964,-67919,086555,-03453,067701,065986
0000000179,0000178000,098895,-44578,083928,-01856,057494,074596
0000000180,0000179000,092837,-17209,081797,003015,046545,080675
0000000181,0000180000,078402,011498,080369,010686,035921,083628
0000000182,0000181000,056956,038830,079781,020412,026650,083173
0000000183,0000182000,030631,062073,080089,031231,019647,079357
0000000184,0000183000,002073,078891,081263,042080,015604,072551
0000000185,0000184000,-26025,087669,083195,051910,014910,063414
0000000186,0000185000,-50925,087585,085694,059759,017631,052844
0000000187,0000186000,-70105,078665,088504,064849,023499,041887
0000000188,0000187000,-81694,061689,091360,066683,031945,031607
0000000189,0000188000,-84610,038321,093988,065088,042149,022999
0000000190,0000189000,-78586,010978,096120,060221,053095,016919
0000000191,0000190000,-64155,-17730,097548,052556,063714,013965
0000000192,0000191000,-42679,-45102,098138,042835,072983,014416
0000000193,0000192000,-16370,-68338,097830,032018,079988,018229
0000000194,0000193000,012177,-85144,096656,021175,084031,025029
0000000195,0000194000,040312,-93960,094724,011347,084727,034161
0000000196,0000195000,065218,-93884,092226,003497,082011,044727
0000000197,0000196000,084381,-84939,089415,-01592,076148,055679
0000000198,0000197000,096000,-67984,086558,-03427,067705,065957
0000000199,0000198000,098935,-44630,083929,-01838,057508,074564
0000000200,0000199000,092889,-17253,081796,003024,046567,080644
0000000201,0000200000,078469,011456,080367,010685,035950,083600
0000000202,0000201000,057015,038811,079777,020401,026683,083152
0000000203,0000202000,030679,062080,080083,031211,019680,079344
0000000204,0000203000,002120,078907,081257,042053,015634,072548
0000000205,0000204000,-25997,087703,083189,051877,014935,063422
0000000206,0000205000,-50926,087643,085688,059725,017648,052862
0000000207,0000206000,-70117,078725,088499,064816,023505,041914
0000000208,0000207000,-81722,061749,091357,066655,031941,031640
0000000209,0000208000,-84664,038388,093987,065068,042134,023034
0000000210,0000209000,-78649,011033,096121,060211,053070,016953
0000000211,0000210000,-64217,-17697,097551,052557,063682,013995
0000000212,0000211000,-42748,-45079,098142,042847,072948,014440
0000000213,0000212000,-16433,-68335,097836,032041,079951,018242
0000000214,0000213000,012137,-85172,096663,021205,083998,025032
0000000215,0000214000,040284,-94003,094731,011383,084700,034153
0000000216,0000215000,065206,-93936,092232,003535,081993,044707
0000000217,0000216000,084400,-85010,089420,-01556,076140,055650
0000000218,0000217000,096040,-68060,086562,-03397,067710,065921
0000000219,0000218000,098984,-44694,083931,-01816,057525,074525
0000000220,0000219000,092957,-17312,081795,003036,046593,080606
0000000221,0000220000,078548,011408,080364,010684,035985,083566
0000000222,0000221000,057084,038792,079772,020387,026722,083126
0000000223,0000222000,030742,062084,080077,031187,019719,079329
0000000224,0000223000,002175,078926,081249,042019,015670,072545
0000000225,0000224000,-25968,087749,083182,051838,014965,063432
0000000226,0000225000,-50922,087711,085681,059684,017667,052883
0000000227,0000226000,-70130,078796,088493,064778,023512,041945
0000000228,0000227000,-81761,061826,091353,066621,031936,031678
0000000229,0000228000,-84728,038468,093985,065044,042115,023076
0000000230,0000229000,-78721,011096,096122,060199,053041,016995
0000000231,0000230000,-64294,-17653,097554,052558,063644,014032
0000000232,0000231000,-42832,-45050,098148,042861,072906,014468
0000000233,0000232000,-16504,-68335,097843,032068,079908,018259
0000000234,0000233000,012086,-85203,096671,021242,083958,025036
0000000235,0000234000,040248,-94050,094739,011425,084668,034142
0000000236,0000235000,065195,-94001,092240,003580,081972,044684
0000000237,0000236000,084423,-85096,089427,-01514,076132,055616
0000000238,0000237000,096082,-68147,086566,-03362,067717,065879
0000000239,0000238000,099044,-44772,083932,-01790,057545,074479
0000000240,0000239000,093041,-17385,081794,003049,046625,080561
0000000241,0000240000,078638,011353,080360,010683,036026,083527
0000000242,0000241000,057166,038769,079766,020371,026768,083096
0000000243,0000242000,030820,062084,080069,031158,019766,079311
0000000244,0000243000,002239,078950,081241,041980,015713,072542
0000000245,0000244000,-25934,087806,083172,051791,015000,063443
0000000246,0000245000,-50914,087787,085672,059636,017690,052909
0000000247,0000246000,-70146,078881,088486,064732,023521,041983
0000000248,0000247000,-81809,061921,091348,066583,031929,031724
0000000249,0000248000,-84801,038561,093983,065016,042093,023126
0000000250,0000249000,-78804,011169,096123,060186,053006,017043
0000000251,0000250000,-64389,-17598,097558,052560,063600,014075
0000000252,0000251000,-42930,-45016,098154,042879,072856,014500
0000000253,0000252000,-16586,-68337,097852,032099,079857,018278
0000000254,0000253000,012022,-85236,096681,021284,083912,025039
0000000255,0000254000,040203,-94104,094749,011475,084631,034129
0000000256,0000255000,065185,-94081,092249,003632,081947,044656
0000000257,0000256000,084448,-85195,089434,-01464,076123,055576
0000000258,0000257000,096130,-68246,086571,-03320,067724,065830
0000000259,0000258000,099118,-44867,083935,-01760,057568,074426
0000000260,0000259000,093139,-17471,081793,003064,046662,080509
0000000261,0000260000,078740,011292,080356,010680,036074,083481
0000000262,0000261000,057266,038739,079759,020353,026822,083061
0000000263,0000262000,030914,062082,080060,031125,019820,079290
0000000264,0000263000,002312,078982,081230,041934,015763,072538
0000000265,0000264000,-25893,087871,083162,051738,015040,063457
0000000266,0000265000,-50902,087873,085663,059580,017716,052939
0000000267,0000266000,-70166,078981,088478,064678,023531,042026
0000000268,0000267000,-81866,062033,091343,066538,031921,031777
0000000269,0000268000,-84883,038667,093981,064984,042068,023183
0000000270,0000269000,-78903,011255,096124,060170,052966,017099
0000000271,0000270000,-64502,-17530,097563,052562,063549,014124
0000000272,0000271000,-43043,-44978,098162,042899,072798,014538
0000000273,0000272000,-16681,-68339,097862,032136,079799,018300
0000000274,0000273000,011945,-85272,096692,021333,083859,025043
0000000275,0000274000,040152,-94168,094761,011533,084588,034115
0000000276,0000275000,065175,-94176,092259,003692,081919,044624
0000000277,0000276000,084474,-85308,089443,-01408,076113,055529
0000000278,0000277000,096185,-68361,086577,-03272,067733,065773
0000000279,0000278000,099206,-44979,083937,-01725,057595,074365
0000000280,0000279000,093250,-17571,081792,003081,046705,080449
0000000281,0000280000,078858,011222,080351,010678,036129,083428
0000000282,0000281000,057383,038702,079751,020331,026884,083021
0000000283,0000282000,031022,062079,080049,031086,019882,079267
0000000284,0000283000,002394,079019,081218,041881,015820,072534
0000000285,0000284000,-25843,087945,083149,051676,015085,063473
0000000286,0000285000,-50885,087971,085651,059516,017746,052973
0000000287,0000286000,-70191,079100,088469,064618,023542,042076
0000000288,0000287000,-81930,062163,091336,066486,031912,031837
0000000289,0000288000,-84975,038787,093978,064948,042039,023248
0000000290,0000289000,-79017,011357,096125,060152,052920,017163
0000000291,0000290000,-64633,-17450,097568,052565,063490,014180
0000000292,0000291000,-43170,-44935,098170,042922,072732,014581
0000000293,0000292000,-16792,-68341,097873,032178,079732,018325
0000000294,0000293000,011855,-85310,096705,021390,083798,025047
0000000295,0000294000,040095,-94242,094774,011599,084539,034098
0000000296,0000295000,065162,-94285,092272,003761,081887,044587
0000000297,0000296000,084500,-85436,089453,-01343,076102,055476
0000000298,0000297000,096248,-68494,086584,-03218,067743,065709
0000000299,0000298000,099307,-45110,083940,-01687,057626,074295
0000000300,0000299000,093376,-17684,081790,003099,046755,080381
0000000301,0000300000,078993,011141,080346,010675,036192,083369
