DIgSILENT PowerFactory,21000900,2000
6,06A,00D
1,TTPP_200000_100:Secondary Voltage A,,,V,0.010000000,-71.438583,0.000000,-85627,99998,1,1,P
2,TTPP_200000_100:Secondary Voltage B,,,V,0.010000000,-66.734581,0.000000,-86823,99998,1,1,P
3,TTPP_200000_100:Secondary Voltage C,,,V,0.10000000,-8951.726563,0.000000,78795,99998,1,1,P
4,TTCC_300_1:Secondary Current A,,,A,0.00010000000,-4.955915,0.000000,-23900,99998,1,1,P
5,TTCC_300_1:Secondary Current B,,,A,0.00010000000,-4.894656,0.000000,-2205,99998,1,1,P
6,TTCC_300_1:Secondary Current C,,,A,0.00010000000,-4.918766,0.000000,-1698,99998,1,1,P
50
1
1000.000000,1101
30/06/2023,06:05:14.000000
30/06/2023,06:05:14.000000
ASCII
1.000000
0000000001,0000000000,078208,021426,080936,028626,034961,084106
0000000002,0000001000,056863,048604,080351,038379,025681,083634
0000000003,0000002000,030474,071890,080662,049216,018685,079793
0000000004,0000003000,001890,088696,081839,060096,014640,072959
0000000005,0000004000,-26057,097324,083773,069938,013963,063791
0000000006,0000005000,-50930,097224,086269,077792,016711,053191
0000000007,0000006000,-70096,088332,089076,082875,022607,042210
0000000008,0000007000,-81576,071290,091928,084698,031084,031912
0000000009,0000008000,-84453,047928,094551,083078,041320,023295
0000000010,0000009000,-78449,020673,096677,078184,052294,017216
0000000011,0000010000,-63937,-08061,098099,070489,062931,014274
0000000012,0000011000,-42440,-35400,098683,060727,072220,014746
0000000013,0000012000,-16255,-58478,098372,049883,079224,018587
0000000014,0000013000,012298,-75261,097195,039018,083254,025421
0000000015,0000014000,040462,-84097,095262,029172,083934,034589
0000000016,0000015000,065224,-83892,092765,021310,081195,045188
0000000017,0000016000,084278,-74867,089959,016233,075292,056169
0000000018,0000017000,095931,-58004,087106,014415,066810,066468
0000000019,0000018000,098799,-34641,084484,016025,056584,075084
0000000020,0000019000,092636,-07217,082357,020924,045607,081163
0000000021,0000020000,078249,021386,080935,028625,034963,084106
0000000022,0000021000,056817,048655,080352,038377,025683,083634
0000000023,0000022000,030446,071911,080662,049223,018678,079792
0000000024,0000023000,001961,088639,081839,060096,014639,072958
0000000025,0000024000,-26061,097328,083772,069937,013965,063791
0000000026,0000025000,-50982,097281,086270,077792,016710,053191
0000000027,0000026000,-70079,088311,089076,082881,022602,042210
0000000028,0000027000,-81544,071253,091928,084698,031084,031912
0000000029,0000028000,-84484,047963,094551,083078,041321,023295
0000000030,0000029000,-78458,020676,096677,078187,052291,017216
0000000031,0000030000,-63918,-08081,098099,070490,062930,014273
0000000032,0000031000,-42461,-35384,098683,060730,072218,014745
0000000033,0000032000,-16249,-58478,098372,049885,079222,018586
0000000034,0000033000,012322,-75283,097195,039020,083253,025421
0000000035,0000034000,040434,-84074,095263,029172,083934,034588
0000000036,0000035000,065209,-83875,092766,021316,081192,045187
0000000037,0000036000,084324,-74916,089958,016235,075291,056168
0000000038,0000037000,095928,-57999,087107,014414,066813,066466
0000000039,0000038000,098752,-34600,084484,016028,056582,075083
0000000040,0000039000,092663,-07244,082357,020927,045604,081161
0000000041,0000040000,078283,021354,080935,028625,034964,084105
0000000042,0000041000,056784,048690,080351,038376,025686,083632
0000000043,0000042000,030440,071923,080663,049226,018676,079792
0000000044,0000043000,001994,088605,081839,060096,014639,072957
0000000045,0000044000,-26071,097344,083772,069936,013966,063791
0000000046,0000045000,-50995,097298,086269,077793,016709,053192
0000000047,0000046000,-70059,088292,089076,082881,022601,042211
0000000048,0000047000,-81556,071262,091928,084697,031084,031913
0000000049,0000048000,-84503,047982,094551,083079,041319,023296
0000000050,0000049000,-78432,020653,096677,078188,052288,017217
0000000051,0000050000,-63923,-08081,098099,070489,062929,014274
0000000052,0000051000,-42498,-35349,098684,060733,072214,014746
0000000053,0000052000,-16231,-58498,098372,049889,079218,018586
0000000054,0000053000,012345,-75309,097195,039021,083252,025420
0000000055,0000054000,040400,-84044,095263,029174,083933,034587
0000000056,0000055000,065199,-83871,092766,021321,081188,045185
0000000057,0000056000,084359,-74954,089959,016238,075290,056166
0000000058,0000057000,095919,-57994,087107,014415,066815,066463
0000000059,0000058000,098734,-34581,084484,016031,056582,075080
0000000060,0000059000,092688,-07271,082357,020930,045605,081159
0000000061,0000060000,078290,021347,080935,028624,034967,084102
0000000062,0000061000,056770,048710,080351,038376,025688,083630
0000000063,0000062000,030460,071909,080662,049225,018678,079790
0000000064,0000063000,002004,088599,081839,060094,014642,072957
0000000065,0000064000,-26094,097370,083772,069934,013968,063791
0000000066,0000065000,-50981,097293,086268,077792,016708,053193
0000000067,0000066000,-70039,088277,089075,082878,022603,042213
0000000068,0000067000,-81585,071293,091928,084695,031083,031916
0000000069,0000068000,-84515,047996,094551,083080,041315,023299
0000000070,0000069000,-78408,020628,096677,078188,052285,017220
0000000071,0000070000,-63938,-08068,098100,070489,062927,014277
0000000072,0000071000,-42529,-35323,098684,060736,072209,014748
0000000073,0000072000,-16216,-58518,098373,049894,079212,018587
0000000074,0000073000,012348,-75320,097196,039024,083250,025420
0000000075,0000074000,040374,-84025,095264,029179,083930,034585
0000000076,0000075000,065208,-83884,092766,021327,081185,045182
0000000077,0000076000,084373,-74977,089959,016242,075289,056162
0000000078,0000077000,095904,-57984,087107,014419,066815,066459
0000000079,0000078000,098743,-34590,084484,016036,056582,075075
0000000080,0000079000,092715,-07297,082357,020931,045608,081154
0000000081,0000080000,078281,021358,080935,028624,034972,084098
0000000082,0000081000,056771,048716,080350,038376,025691,083627
0000000083,0000082000,030493,071885,080661,049223,018682,079788
0000000084,0000083000,002005,088606,081838,060088,014648,072957
0000000085,0000084000,-26111,097398,083771,069930,013971,063792
0000000086,0000085000,-50962,097283,086267,077788,016710,053196
0000000087,0000086000,-70032,088276,089075,082872,022605,042217
0000000088,0000087000,-81613,071326,091928,084691,031082,031921
0000000089,0000088000,-84518,048002,094550,083079,041310,023305
0000000090,0000089000,-78401,020620,096677,078187,052281,017226
0000000091,0000090000,-63964,-08046,098100,070489,062922,014282
0000000092,0000091000,-42544,-35313,098685,060740,072202,014752
0000000093,0000092000,-16209,-58536,098374,049898,079205,018590
0000000094,0000093000,012329,-75315,097198,039029,083244,025420
0000000095,0000094000,040359,-84020,095265,029187,083923,034583
0000000096,0000095000,065225,-83912,092768,021335,081181,045178
0000000097,0000096000,084374,-74988,089960,016248,075289,056156
0000000098,0000097000,095892,-57979,087108,014426,066816,066452
0000000099,0000098000,098767,-34615,084484,016041,056584,075067
0000000100,0000099000,092738,-07319,082357,020933,045614,081146
0000000101,0000100000,078275,021369,080934,028624,034979,084090
0000000102,0000101000,056787,048710,080349,038375,025697,083621
0000000103,0000102000,030523,071867,080660,049218,018691,079785
0000000104,0000103000,002002,088623,081836,060081,014656,072956
0000000105,0000104000,-26112,097415,083769,069923,013976,063794
0000000106,0000105000,-50944,097279,086266,077780,016713,053200
0000000107,0000106000,-70040,088294,089074,082863,022607,042224
0000000108,0000107000,-81633,071356,091927,084684,031081,031929
0000000109,0000108000,-84516,048005,094550,083074,041306,023314
0000000110,0000109000,-78415,020630,096677,078183,052275,017235
0000000111,0000110000,-63998,-08020,098101,070490,062913,014290
0000000112,0000111000,-42552,-35315,098686,060744,072191,014758
0000000113,0000112000,-16214,-58547,098375,049904,079196,018593
0000000114,0000113000,012301,-75305,097199,039038,083235,025421
0000000115,0000114000,040351,-84030,095267,029198,083915,034581
0000000116,0000115000,065239,-83944,092769,021345,081175,045173
0000000117,0000116000,084368,-74998,089962,016258,075287,056148
0000000118,0000117000,095892,-57988,087109,014436,066816,066441
0000000119,0000118000,098796,-34649,084485,016048,056589,075056
0000000120,0000119000,092756,-07336,082357,020935,045623,081135
0000000121,0000120000,078283,021370,080934,028625,034989,084080
0000000122,0000121000,056818,048694,080347,038372,025708,083613
0000000123,0000122000,030547,071860,080658,049210,018703,079780
0000000124,0000123000,002003,088644,081834,060071,014667,072954
0000000125,0000124000,-26098,097425,083767,069912,013984,063797
0000000126,0000125000,-50931,097286,086264,077767,016720,053207
0000000127,0000126000,-70057,088328,089072,082851,022610,042233
0000000128,0000127000,-81647,071383,091925,084675,031078,031941
0000000129,0000128000,-84520,048014,094549,083067,041300,023327
0000000130,0000129000,-78443,020655,096678,078179,052267,017248
0000000131,0000130000,-64032,-07995,098102,070491,062901,014302
0000000132,0000131000,-42564,-35320,098688,060749,072177,014767
0000000133,0000132000,-16235,-58550,098378,049912,079183,018599
0000000134,0000133000,012270,-75300,097202,039050,083222,025422
0000000135,0000134000,040347,-84052,095269,029213,083903,034577
0000000136,0000135000,065244,-83975,092772,021360,081169,045165
0000000137,0000136000,084362,-75013,089964,016272,075285,056136
0000000138,0000137000,095907,-58015,087110,014449,066817,066427
0000000139,0000138000,098828,-34687,084485,016057,056595,075041
0000000140,0000139000,092773,-07351,082357,020940,045634,081120
0000000141,0000140000,078307,021359,080932,028625,035002,084067
0000000142,0000141000,056859,048673,080345,038367,025724,083603
0000000143,0000142000,030569,071863,080656,049200,018720,079774
0000000144,0000143000,002014,088664,081831,060058,014682,072953
0000000145,0000144000,-26075,097434,083763,069897,013996,063800
0000000146,0000145000,-50925,097307,086261,077749,016729,053215
0000000147,0000146000,-70076,088370,089070,082834,022613,042246
0000000148,0000147000,-81659,071412,091924,084662,031075,031957
0000000149,0000148000,-84536,048035,094549,083056,041293,023345
0000000150,0000149000,-78484,020691,096678,078173,052254,017266
0000000151,0000150000,-64067,-07973,098103,070492,062884,014317
0000000152,0000151000,-42587,-35320,098690,060755,072158,014779
0000000153,0000152000,-16270,-58546,098381,049923,079164,018606
0000000154,0000153000,012241,-75304,097205,039066,083204,025424
0000000155,0000154000,040343,-84082,095273,029232,083889,034573
0000000156,0000155000,065239,-84004,092775,021379,081160,045155
0000000157,0000156000,084361,-75038,089967,016292,075281,056121
0000000158,0000157000,095933,-58059,087112,014465,066819,066409
0000000159,0000158000,098860,-34728,084486,016068,056604,075020
0000000160,0000159000,092798,-07371,082356,020946,045648,081099
0000000161,0000160000,078348,021336,080931,028625,035020,084049
0000000162,0000161000,056905,048653,080343,038360,025745,083589
0000000163,0000162000,030595,071871,080652,049187,018741,079765
0000000164,0000163000,002037,088681,081827,060041,014701,072951
0000000165,0000164000,-26049,097448,083759,069876,014012,063805
0000000166,0000165000,-50924,097342,086257,077726,016740,053227
0000000167,0000166000,-70092,088417,089066,082814,022617,042263
0000000168,0000167000,-81672,071446,091921,084644,031072,031978
0000000169,0000168000,-84566,048073,094548,083043,041283,023368
0000000170,0000169000,-78532,020734,096679,078167,052238,017288
0000000171,0000170000,-64106,-07951,098105,070493,062863,014338
0000000172,0000171000,-42624,-35313,098693,060763,072135,014795
0000000173,0000172000,-16317,-58538,098385,049937,079140,018615
0000000174,0000173000,012212,-75318,097210,039087,083181,025426
0000000175,0000174000,040332,-84118,095277,029256,083871,034567
0000000176,0000175000,065229,-84037,092780,021404,081148,045142
0000000177,0000176000,084367,-75077,089970,016316,075275,056102
0000000178,0000177000,095966,-58115,087114,014486,066822,066385
0000000179,0000178000,098895,-34773,084487,016083,056616,074994
0000000180,0000179000,092835,-07402,082356,020954,045666,081074
0000000181,0000180000,078403,021301,080928,028625,035042,084026
0000000182,0000181000,056956,048634,080340,038351,025771,083571
0000000183,0000182000,030630,071880,080648,049170,018768,079755
0000000184,0000183000,002073,088695,081822,060019,014725,072949
0000000185,0000184000,-26023,097472,083754,069849,014032,063812
0000000186,0000185000,-50926,097391,086253,077698,016753,053241
0000000187,0000186000,-70105,088470,089063,082787,022621,042285
0000000188,0000187000,-81692,071492,091919,084621,031068,032005
0000000189,0000188000,-84610,048127,094547,083026,041271,023397
0000000190,0000189000,-78587,020783,096679,078159,052218,017317
0000000191,0000190000,-64153,-07926,098107,070494,062836,014363
0000000192,0000191000,-42678,-35297,098697,060772,072106,014814
0000000193,0000192000,-16371,-58532,098390,049956,079110,018627
0000000194,0000193000,012179,-75340,097215,039112,083153,025428
0000000195,0000194000,040313,-84156,095283,029285,083849,034560
0000000196,0000195000,065217,-84077,092785,021435,081133,045126
0000000197,0000196000,084381,-75133,089974,016346,075269,056078
0000000198,0000197000,096001,-58180,087117,014511,066826,066356
0000000199,0000198000,098934,-34825,084488,016101,056630,074962
0000000200,0000199000,092888,-07447,082355,020963,045688,081042
0000000201,0000200000,078471,021259,080926,028624,035071,083998
0000000202,0000201000,057014,048617,080336,038340,025804,083550
0000000203,0000202000,030678,071886,080642,049151,018801,079742
0000000204,0000203000,002121,088710,081816,059992,014755,072946
0000000205,0000204000,-25996,097507,083748,069816,014057,063820
0000000206,0000205000,-50927,097449,086247,077664,016770,053259
0000000207,0000206000,-70116,088530,089058,082755,022627,042311
0000000208,0000207000,-81721,071552,091916,084593,031064,032037
0000000209,0000208000,-84665,048194,094546,083006,041256,023432
0000000210,0000209000,-78648,020838,096680,078149,052193,017351
0000000211,0000210000,-64215,-07893,098110,070495,062805,014393
0000000212,0000211000,-42748,-35274,098701,060784,072071,014838
0000000213,0000212000,-16433,-58529,098395,049979,079074,018641
0000000214,0000213000,012139,-75367,097222,039143,083120,025431
0000000215,0000214000,040284,-84198,095290,029321,083822,034551
0000000216,0000215000,065205,-84129,092791,021473,081115,045106
0000000217,0000216000,084401,-75205,089979,016382,075262,056049
0000000218,0000217000,096040,-58255,087121,014541,066832,066320
0000000219,0000218000,098983,-34888,084490,016123,056647,074924
0000000220,0000219000,092957,-07507,082354,020975,045714,081004
0000000221,0000220000,078549,021211,080923,028623,035106,083965
0000000222,0000221000,057083,048598,080331,038326,025844,083524
0000000223,0000222000,030742,071889,080636,049126,018840,079727
0000000224,0000223000,002176,088729,081808,059958,014792,072943
0000000225,0000224000,-25968,097554,083741,069777,014087,063829
0000000226,0000225000,-50923,097517,086240,077623,016789,053281
0000000227,0000226000,-70129,088600,089052,082716,022634,042343
0000000228,0000227000,-81760,071630,091912,084560,031058,032076
0000000229,0000228000,-84729,048275,094544,082982,041238,023474
0000000230,0000229000,-78719,020900,096681,078138,052163,017392
0000000231,0000230000,-64293,-07849,098113,070496,062767,014430
0000000232,0000231000,-42833,-35244,098707,060799,072028,014866
0000000233,0000232000,-16504,-58529,098403,050006,079030,018657
0000000234,0000233000,012087,-75398,097230,039179,083080,025434
0000000235,0000234000,040247,-84244,095298,029363,083790,034541
0000000236,0000235000,065195,-84195,092799,021518,081094,045082
0000000237,0000236000,084424,-75291,089986,016424,075254,056015
0000000238,0000237000,096082,-58341,087125,014577,066838,066278
0000000239,0000238000,099044,-34966,084492,016149,056666,074878
0000000240,0000239000,093041,-07580,082353,020988,045746,080960
0000000241,0000240000,078638,021157,080919,028621,035147,083925
0000000242,0000241000,057165,048575,080325,038310,025890,083494
0000000243,0000242000,030821,071889,080628,049098,018887,079709
0000000244,0000243000,002240,088754,081800,059919,014835,072940
0000000245,0000244000,-25934,097611,083732,069731,014122,063841
0000000246,0000245000,-50914,097592,086231,077575,016812,053306
0000000247,0000246000,-70144,088684,089045,082670,022643,042380
0000000248,0000247000,-81809,071726,091907,084521,031052,032121
0000000249,0000248000,-84802,048367,094542,082955,041216,023523
0000000250,0000249000,-78802,020973,096682,078124,052129,017441
0000000251,0000250000,-64389,-07793,098117,070498,062723,014472
0000000252,0000251000,-42931,-35210,098713,060816,071978,014898
0000000253,0000252000,-16585,-58532,098411,050037,078980,018676
0000000254,0000253000,012024,-75432,097240,039222,083034,025438
0000000255,0000254000,040202,-84298,095308,029413,083753,034528
0000000256,0000255000,065186,-84276,092808,021570,081069,045055
0000000257,0000256000,084449,-75391,089993,016474,075245,055975
0000000258,0000257000,096129,-58440,087130,014618,066846,066229
0000000259,0000258000,099118,-35062,084494,016179,056690,074825
0000000260,0000259000,093139,-07667,082352,021003,045783,080907
0000000261,0000260000,078740,021097,080915,028619,035195,083879
0000000262,0000261000,057265,048545,080318,038292,025943,083459
0000000263,0000262000,030915,071886,080619,049064,018941,079688
0000000264,0000263000,002312,088786,081789,059873,014885,072936
0000000265,0000264000,-25893,097677,083721,069677,014162,063854
0000000266,0000265000,-50901,097678,086222,077519,016838,053336
0000000267,0000266000,-70165,088785,089037,082617,022653,042423
0000000268,0000267000,-81866,071838,091902,084476,031044,032174
0000000269,0000268000,-84883,048473,094540,082923,041191,023580
0000000270,0000269000,-78901,021059,096683,078108,052089,017497
0000000271,0000270000,-64502,-07724,098122,070500,062672,014522
0000000272,0000271000,-43043,-35172,098721,060837,071920,014936
0000000273,0000272000,-16680,-58535,098421,050074,078921,018699
0000000274,0000273000,011946,-75466,097251,039271,082981,025442
0000000275,0000274000,040151,-84362,095320,029471,083710,034513
0000000276,0000275000,065176,-84371,092818,021630,081041,045023
0000000277,0000276000,084474,-75504,090002,016531,075235,055928
0000000278,0000277000,096184,-58555,087136,014666,066855,066172
0000000279,0000278000,099207,-35175,084496,016213,056717,074763
0000000280,0000279000,093250,-07766,082351,021019,045826,080848
0000000281,0000280000,078857,021027,080910,028617,035250,083827
0000000282,0000281000,057383,048507,080310,038270,026005,083419
0000000283,0000282000,031024,071882,080608,049025,019004,079665
0000000284,0000283000,002393,088824,081777,059820,014942,072932
0000000285,0000284000,-25843,097751,083708,069615,014207,063870
0000000286,0000285000,-50884,097775,086210,077455,016868,053370
0000000287,0000286000,-70191,088904,089028,082556,022664,042473
0000000288,0000287000,-81930,071968,091895,084425,031034,032235
0000000289,0000288000,-84974,048592,094537,082886,041161,023646
0000000290,0000289000,-79016,021161,096684,078090,052042,017561
0000000291,0000290000,-64633,-07644,098127,070502,062613,014578
0000000292,0000291000,-43169,-35130,098729,060860,071854,014979
0000000293,0000292000,-16791,-58537,098432,050115,078855,018723
0000000294,0000293000,011855,-75504,097264,039327,082920,025446
0000000295,0000294000,040094,-84436,095333,029536,083661,034496
0000000296,0000295000,065163,-84480,092831,021699,081009,044986
0000000297,0000296000,084500,-75631,090012,016595,075223,055875
0000000298,0000297000,096248,-58688,087143,014721,066865,066107
0000000299,0000298000,099308,-35306,084499,016252,056748,074693
0000000300,0000299000,093375,-07879,082349,021038,045876,080779
0000000301,0000300000,078992,020947,080905,028614,035313,083767
