DIgSILENT PowerFactory,21000900,2000
6,06A,00D
1,TTPP_200000_100:Secondary Voltage A,,,V,0.010000000,-67.865211,0.000000,-86352,99998,1,1,P
2,TTPP_200000_100:Secondary Voltage B,,,V,0.010000000,-54.171875,0.000000,-96444,99998,1,1,P
3,TTPP_200000_100:Secondary Voltage C,,,V,0.10000000,-9014.232422,0.000000,79836,99998,1,1,P
4,TTCC_500_5:Secondary Current A,,,A,0.0010000000,-85.692123,0.000000,64470,99998,1,1,P
5,TTCC_500_5:Secondary Current B,,,A,0.0010000000,-84.961899,0.000000,69954,99998,1,1,P
6,TTCC_500_5:Secondary Current C,,,A,0.0010000000,-84.654991,0.000000,69275,99998,1,1,P
50
1
1000.000000,1101
30/06/2023,06:02:01.000000
30/06/2023,06:02:01.000000
ASCII
1.000000
0000000001,0000000000,061916,041812,080990,091608,089641,074060
0000000002,0000001000,036435,066150,081104,088593,092357,074359
0000000003,0000002000,007910,084714,082102,085294,094351,075663
0000000004,0000003000,-20534,095319,083884,082039,095421,077849
0000000005,0000004000,-46360,097139,086286,079135,095472,080703
0000000006,0000005000,-67104,090092,089064,076872,094494,083943
0000000007,0000006000,-80581,074804,091940,075480,092580,087249
0000000008,0000007000,-85303,052478,094645,075084,089921,090304
0000000009,0000008000,-81184,025665,096914,075725,086777,092807
0000000010,0000009000,-68568,-02945,098515,077341,083457,094511
0000000011,0000010000,-48368,-30948,099294,079780,080280,095249
0000000012,0000011000,-22732,-55445,099181,082794,077565,094950
0000000013,0000012000,005586,-73796,098184,086092,075572,093645
0000000014,0000013000,034043,-84422,096400,089351,074499,091460
0000000015,0000014000,060052,-86419,093999,092254,074450,088606
0000000016,0000015000,080668,-79260,091221,094513,075430,085366
0000000017,0000016000,094036,-63852,088345,095909,077341,082060
0000000018,0000017000,098960,-41729,085640,096305,080000,079005
0000000019,0000018000,094818,-14898,083371,095661,083147,076501
0000000020,0000019000,082022,013908,081770,094045,086466,074798
0000000021,0000020000,061967,041758,080990,091609,089639,074060
0000000022,0000021000,036405,066184,081104,088592,092358,074359
0000000023,0000022000,007907,084709,082101,085294,094351,075664
0000000024,0000023000,-20514,095304,083884,082038,095422,077849
0000000025,0000024000,-46367,097139,086286,079134,095473,080703
0000000026,0000025000,-67139,090131,089064,076873,094494,083943
0000000027,0000026000,-80535,074768,091940,075479,092580,087249
0000000028,0000027000,-85300,052474,094645,075083,089922,090304
0000000029,0000028000,-81231,025718,096914,075724,086777,092807
0000000030,0000029000,-68548,-02971,098514,077342,083456,094511
0000000031,0000030000,-48337,-30978,099294,079779,080282,095249
0000000032,0000031000,-22771,-55414,099181,082793,077566,094950
0000000033,0000032000,005561,-73776,098184,086092,075572,093645
0000000034,0000033000,034098,-84476,096400,089350,074499,091460
0000000035,0000034000,060030,-86400,093999,092252,074451,088606
0000000036,0000035000,080645,-79231,091221,094512,075430,085366
0000000037,0000036000,094061,-63881,088345,095909,077341,082060
0000000038,0000037000,098975,-41744,085640,096304,080000,079005
0000000039,0000038000,094786,-14866,083371,095661,083147,076502
0000000040,0000039000,082039,013888,081770,094045,086466,074799
0000000041,0000040000,061986,041739,080990,091609,089639,074061
0000000042,0000041000,036375,066212,081104,088592,092358,074359
0000000043,0000042000,007924,084702,082100,085295,094350,075664
0000000044,0000043000,-20491,095283,083884,082038,095422,077849
0000000045,0000044000,-46390,097165,086286,079133,095473,080703
0000000046,0000045000,-67149,090146,089063,076874,094493,083942
0000000047,0000046000,-80497,074730,091939,075479,092581,087249
0000000048,0000047000,-85321,052497,094645,075082,089923,090304
0000000049,0000048000,-81262,025746,096914,075724,086778,092807
0000000050,0000049000,-68519,-02998,098515,077342,083456,094510
0000000051,0000050000,-48333,-30985,099295,079777,080283,095248
0000000052,0000051000,-22812,-55374,099182,082793,077566,094950
0000000053,0000052000,005571,-73787,098184,086091,075572,093645
0000000054,0000053000,034121,-84506,096401,089349,074500,091460
0000000055,0000054000,059999,-86373,094000,092251,074452,088606
0000000056,0000055000,080640,-79232,091222,094512,075430,085367
0000000057,0000056000,094088,-63914,088345,095908,077341,082061
0000000058,0000057000,098964,-41738,085640,096302,080001,079006
0000000059,0000058000,094774,-14854,083371,095660,083146,076503
0000000060,0000059000,082073,013858,081770,094045,086465,074799
0000000061,0000060000,061986,041739,080990,091608,089639,074061
0000000062,0000061000,036361,066232,081103,088592,092358,074359
0000000063,0000062000,007951,084681,082099,085295,094349,075664
0000000064,0000063000,-20479,095277,083883,082037,095422,077849
0000000065,0000064000,-46416,097197,086285,079134,095472,080703
0000000066,0000065000,-67137,090141,089062,076875,094492,083942
0000000067,0000066000,-80475,074716,091939,075479,092581,087248
0000000068,0000067000,-85352,052531,094644,075083,089923,090303
0000000069,0000068000,-81272,025761,096914,075725,086778,092806
0000000070,0000069000,-68498,-03020,098515,077342,083457,094510
0000000071,0000070000,-48354,-30968,099295,079777,080285,095248
0000000072,0000071000,-22842,-55349,099182,082793,077567,094950
0000000073,0000072000,005587,-73812,098185,086091,075573,093645
0000000074,0000073000,034117,-84512,096402,089347,074501,091460
0000000075,0000074000,059970,-86354,094001,092249,074453,088607
0000000076,0000075000,080652,-79252,091223,094511,075430,085368
0000000077,0000076000,094103,-63938,088346,095906,077341,082062
0000000078,0000077000,098947,-41727,085641,096301,080001,079007
0000000079,0000078000,094786,-14866,083371,095660,083145,076504
0000000080,0000079000,082102,013827,081770,094044,086464,074801
0000000081,0000080000,061980,041748,080990,091608,089638,074063
0000000082,0000081000,036367,066235,081102,088592,092356,074360
0000000083,0000082000,007985,084658,082098,085296,094348,075665
0000000084,0000083000,-20479,095288,083882,082038,095421,077850
0000000085,0000084000,-46428,097223,086283,079136,095471,080703
0000000086,0000085000,-67113,090132,089061,076876,094492,083941
0000000087,0000086000,-80474,074723,091938,075480,092581,087247
0000000088,0000087000,-85382,052570,094644,075084,089923,090302
0000000089,0000088000,-81272,025764,096913,075726,086778,092805
0000000090,0000089000,-68496,-03024,098515,077342,083459,094508
0000000091,0000090000,-48390,-30938,099296,079776,080287,095246
0000000092,0000091000,-22859,-55341,099183,082792,077569,094948
0000000093,0000092000,005594,-73833,098187,086089,075575,093644
0000000094,0000093000,034093,-84506,096404,089345,074503,091460
0000000095,0000094000,059952,-86351,094002,092248,074454,088607
0000000096,0000095000,080669,-79284,091224,094509,075431,085369
0000000097,0000096000,094103,-63954,088348,095903,077342,082063
0000000098,0000097000,098939,-41728,085642,096299,080001,079009
0000000099,0000098000,094813,-14898,083371,095659,083144,076506
0000000100,0000099000,082125,013804,081770,094043,086463,074803
0000000101,0000100000,061980,041756,080989,091608,089636,074065
0000000102,0000101000,036394,066223,081101,088593,092353,074362
0000000103,0000102000,008017,084642,082097,085297,094346,075666
0000000104,0000103000,-20482,095310,083880,082040,095419,077850
0000000105,0000104000,-46421,097239,086281,079138,095469,080702
0000000106,0000105000,-67091,090129,089059,076879,094491,083940
0000000107,0000106000,-80487,074752,091936,075482,092581,087245
0000000108,0000107000,-85406,052605,094642,075086,089924,090299
0000000109,0000108000,-81271,025769,096913,075728,086779,092802
0000000110,0000109000,-68516,-03007,098515,077343,083461,094505
0000000111,0000110000,-48430,-30906,099297,079776,080289,095244
0000000112,0000111000,-22872,-55342,099184,082791,077571,094947
0000000113,0000112000,005581,-73843,098189,086087,075579,093643
0000000114,0000113000,034060,-84497,096406,089343,074506,091460
0000000115,0000114000,059943,-86366,094005,092245,074456,088608
0000000116,0000115000,080679,-79320,091227,094505,075433,085371
0000000117,0000116000,094095,-63967,088350,095900,077343,082066
0000000118,0000117000,098947,-41748,085643,096297,080000,079012
0000000119,0000118000,094849,-14940,083372,095657,083143,076510
0000000120,0000119000,082144,013786,081770,094041,086461,074806
0000000121,0000120000,061996,041751,080988,091608,089633,074067
0000000122,0000121000,036436,066200,081099,088595,092350,074364
0000000123,0000122000,008045,084638,082094,085299,094343,075667
0000000124,0000123000,-20478,095334,083877,082043,095416,077850
0000000125,0000124000,-46400,097249,086278,079142,095466,080701
0000000126,0000125000,-67077,090142,089056,076882,094489,083938
0000000127,0000126000,-80508,074796,091934,075486,092581,087242
0000000128,0000127000,-85421,052639,094641,075089,089924,090296
0000000129,0000128000,-81280,025785,096912,075730,086781,092798
0000000130,0000129000,-68555,-02972,098515,077343,083464,094502
0000000131,0000130000,-48471,-30877,099298,079776,080292,095240
0000000132,0000131000,-22892,-55345,099187,082790,077575,094944
0000000133,0000132000,005549,-73841,098192,086084,075583,093642
0000000134,0000133000,034024,-84494,096410,089339,074510,091460
0000000135,0000134000,059938,-86396,094008,092241,074459,088609
0000000136,0000135000,080679,-79354,091230,094501,075435,085373
0000000137,0000136000,094089,-63989,088353,095896,077344,082069
0000000138,0000137000,098969,-41789,085645,096294,079999,079016
0000000139,0000138000,094887,-14987,083373,095654,083141,076514
0000000140,0000139000,082168,013765,081769,094040,086458,074811
0000000141,0000140000,062033,041731,080986,091608,089629,074071
0000000142,0000141000,036487,066174,081096,088596,092345,074367
0000000143,0000142000,008074,084643,082091,085301,094338,075669
0000000144,0000143000,-20458,095355,083873,082047,095412,077850
0000000145,0000144000,-46371,097261,086274,079147,095462,080700
0000000146,0000145000,-67072,090174,089053,076887,094487,083936
0000000147,0000146000,-80528,074849,091930,075491,092580,087239
0000000148,0000147000,-85434,052675,094638,075093,089924,090291
0000000149,0000148000,-81306,025820,096911,075732,086783,092793
0000000150,0000149000,-68607,-02924,098516,077345,083468,094496
0000000151,0000150000,-48514,-30851,099299,079776,080297,095236
0000000152,0000151000,-22927,-55341,099190,082788,077580,094941
0000000153,0000152000,005500,-73833,098196,086081,075588,093640
0000000154,0000153000,033988,-84503,096414,089335,074515,091459
0000000155,0000154000,059929,-86434,094013,092236,074463,088610
0000000156,0000155000,080670,-79390,091235,094495,075438,085376
0000000157,0000156000,094091,-64026,088356,095891,077345,082074
0000000158,0000157000,099003,-41847,085647,096289,079998,079022
0000000159,0000158000,094925,-15037,083374,095650,083139,076520
0000000160,0000159000,082203,013735,081769,094038,086454,074816
0000000161,0000160000,062089,041695,080984,091609,089624,074077
0000000162,0000161000,036545,066149,081093,088598,092340,074371
0000000163,0000162000,008110,084652,082087,085305,094332,075671
0000000164,0000163000,-20421,095373,083868,082052,095406,077851
0000000165,0000164000,-46338,097282,086269,079153,095458,080699
0000000166,0000165000,-67072,090224,089048,076893,094484,083932
0000000167,0000166000,-80544,074908,091926,075497,092579,087234
0000000168,0000167000,-85452,052722,094635,075099,089925,090285
0000000169,0000168000,-81349,025875,096910,075736,086786,092786
0000000170,0000169000,-68668,-02868,098516,077347,083472,094490
0000000171,0000170000,-48565,-30822,099302,079776,080303,095230
0000000172,0000171000,-22981,-55326,099194,082786,077587,094936
0000000173,0000172000,005439,-73823,098201,086077,075595,093637
0000000174,0000173000,033950,-84524,096420,089329,074521,091459
0000000175,0000174000,059911,-86477,094019,092229,074468,088612
0000000176,0000175000,080655,-79432,091240,094488,075442,085380
0000000177,0000176000,094102,-64083,088361,095884,077346,082079
0000000178,0000177000,099043,-41920,085651,096283,079997,079029
0000000179,0000178000,094967,-15095,083376,095646,083136,076527
0000000180,0000179000,082257,013689,081768,094036,086449,074824
0000000181,0000180000,062163,041648,080981,091609,089617,074083
0000000182,0000181000,036610,066127,081089,088600,092332,074376
0000000183,0000182000,008160,084660,082081,085310,094325,075674
0000000184,0000183000,-20370,095388,083861,082059,095399,077852
0000000185,0000184000,-46306,097317,086262,079160,095452,080697
0000000186,0000185000,-67073,090288,089041,076901,094480,083928
0000000187,0000186000,-80557,074974,091921,075505,092577,087227
0000000188,0000187000,-85480,052785,094632,075105,089926,090277
0000000189,0000188000,-81408,025948,096909,075741,086790,092778
0000000190,0000189000,-68737,-02806,098517,077349,083478,094482
0000000191,0000190000,-48630,-30786,099305,079776,080310,095223
0000000192,0000191000,-23057,-55300,099199,082782,077596,094931
0000000193,0000192000,005368,-73816,098207,086071,075604,093634
0000000194,0000193000,033906,-84553,096427,089322,074529,091458
0000000195,0000194000,059880,-86523,094027,092220,074475,088614
0000000196,0000195000,080639,-79487,091247,094479,075446,085384
0000000197,0000196000,094122,-64160,088367,095876,077348,082086
0000000198,0000197000,099086,-42004,085655,096276,079996,079037
0000000199,0000198000,095019,-15164,083377,095641,083132,076537
0000000200,0000199000,082331,013624,081767,094034,086442,074833
0000000201,0000200000,062251,041592,080978,091609,089609,074091
0000000202,0000201000,036686,066105,081083,088603,092323,074382
0000000203,0000202000,008228,084664,082073,085316,094315,075678
0000000204,0000203000,-20306,095407,083853,082067,095390,077852
0000000205,0000204000,-46272,097366,086254,079169,095445,080694
0000000206,0000205000,-67069,090363,089033,076911,094476,083923
0000000207,0000206000,-80569,075051,091914,075514,092575,087220
0000000208,0000207000,-85520,052870,094628,075113,089928,090268
0000000209,0000208000,-81480,026039,096907,075746,086795,092768
0000000210,0000209000,-68815,-02735,098518,077352,083485,094472
0000000211,0000210000,-48715,-30738,099308,079775,080320,095214
0000000212,0000211000,-23151,-55266,099205,082779,077606,094924
0000000213,0000212000,005288,-73814,098215,086065,075614,093630
0000000214,0000213000,033849,-84587,096436,089313,074538,091457
0000000215,0000214000,059838,-86575,094036,092209,074483,088617
0000000216,0000215000,080625,-79558,091256,094468,075451,085390
0000000217,0000216000,094147,-64256,088374,095865,077349,082094
0000000218,0000217000,099133,-42101,085660,096267,079995,079047
0000000219,0000218000,095085,-15250,083379,095635,083127,076548
0000000220,0000219000,082424,013541,081766,094031,086434,074844
0000000221,0000220000,062352,041530,080974,091609,089599,074101
0000000222,0000221000,036777,066079,081077,088607,092312,074390
0000000223,0000222000,008317,084663,082065,085323,094304,075682
0000000224,0000223000,-20233,095432,083843,082076,095380,077853
0000000225,0000224000,-46233,097429,086243,079181,095437,080692
0000000226,0000225000,-67059,090448,089024,076923,094470,083917
0000000227,0000226000,-80585,075145,091907,075525,092573,087211
0000000228,0000227000,-85574,052976,094622,075122,089930,090257
0000000229,0000228000,-81561,026144,096904,075753,086800,092756
0000000230,0000229000,-68908,-02653,098519,077356,083494,094460
0000000231,0000230000,-48821,-30675,099313,079775,080331,095204
0000000232,0000231000,-23262,-55226,099212,082775,077619,094916
0000000233,0000232000,005195,-73815,098225,086057,075627,093625
0000000234,0000233000,033777,-84624,096447,089303,074550,091456
0000000235,0000234000,059786,-86635,094047,092197,074492,088620
0000000236,0000235000,080613,-79648,091266,094455,075457,085397
0000000237,0000236000,094174,-64369,088382,095853,077352,082104
0000000238,0000237000,099186,-42213,085666,096257,079993,079059
0000000239,0000238000,095167,-15357,083382,095627,083121,076561
0000000240,0000239000,082535,013442,081765,094027,086425,074857
0000000241,0000240000,062468,041460,080970,091610,089587,074112
0000000242,0000241000,036889,066045,081069,088612,092298,074398
0000000243,0000242000,008424,084659,082054,085332,094290,075687
0000000244,0000243000,-20150,095466,083831,082088,095367,077854
0000000245,0000244000,-46187,097504,086231,079194,095427,080688
0000000246,0000245000,-67044,090546,089013,076937,094463,083909
0000000247,0000246000,-80606,075258,091897,075538,092571,087200
0000000248,0000247000,-85638,053104,094616,075133,089932,090244
0000000249,0000248000,-81654,026265,096901,075761,086806,092742
0000000250,0000249000,-69019,-02554,098520,077359,083504,094446
0000000251,0000250000,-48950,-30597,099318,079774,080344,095191
0000000252,0000251000,-23391,-55182,099220,082770,077633,094907
0000000253,0000252000,005087,-73818,098236,086048,075641,093620
0000000254,0000253000,033688,-84664,096460,089290,074563,091456
0000000255,0000254000,059727,-86706,094060,092183,074502,088624
0000000256,0000255000,080600,-79756,091278,094440,075464,085405
0000000257,0000256000,094203,-64499,088392,095839,077354,082116
0000000258,0000257000,099247,-42343,085673,096245,079991,079074
0000000259,0000258000,095268,-15486,083385,095619,083114,076576
0000000260,0000259000,082662,013327,081764,094023,086414,074872
0000000261,0000260000,062602,041380,080964,091610,089573,074125
0000000262,0000261000,037024,066002,081060,088618,092283,074408
0000000263,0000262000,008549,084654,082042,085341,094274,075693
0000000264,0000263000,-20055,095509,083818,082101,095353,077855
0000000265,0000264000,-46130,097588,086217,079209,095416,080684
0000000266,0000265000,-67024,090657,088999,076953,094456,083900
0000000267,0000266000,-80635,075394,091887,075553,092568,087187
0000000268,0000267000,-85712,053253,094608,075146,089934,090228
0000000269,0000268000,-81759,026402,096898,075770,086813,092725
0000000270,0000269000,-69151,-02437,098522,077364,083515,094430
0000000271,0000270000,-49101,-30505,099324,079773,080358,095177
0000000272,0000271000,-23537,-55133,099230,082764,077650,094896
0000000273,0000272000,004960,-73820,098249,086038,075658,093614
0000000274,0000273000,033583,-84707,096475,089276,074579,091455
0000000275,0000274000,059661,-86792,094075,092166,074515,088628
0000000276,0000275000,080586,-79882,091292,094423,075472,085414
0000000277,0000276000,094233,-64645,088404,095822,077357,082130
0000000278,0000277000,099320,-42496,085681,096231,079988,079090
0000000279,0000278000,095385,-15638,083388,095609,083106,076594
0000000280,0000279000,082807,013197,081762,094018,086402,074889
0000000281,0000280000,062757,041287,080958,091611,089557,074140
0000000282,0000281000,037182,065950,081049,088624,092265,074420
0000000283,0000282000,008692,084649,082029,085353,094256,075700
0000000284,0000283000,-19947,095560,083802,082116,095337,077856
0000000285,0000284000,-46061,097683,086201,079227,095402,080679
0000000286,0000285000,-67002,090785,088984,076971,094447,083890
0000000287,0000286000,-80668,075553,091874,075571,092565,087173
0000000288,0000287000,-85795,053422,094600,075161,089937,090211
0000000289,0000288000,-81879,026560,096894,075781,086822,092706
0000000290,0000289000,-69305,-02299,098523,077369,083529,094412
0000000291,0000290000,-49274,-30399,099330,079772,080375,095161
0000000292,0000291000,-23703,-55078,099241,082757,077669,094884
0000000293,0000292000,004810,-73819,098264,086025,075677,093607
0000000294,0000293000,033461,-84755,096492,089259,074596,091453
0000000295,0000294000,059587,-86892,094093,092147,074529,088633
0000000296,0000295000,080566,-80025,091308,094403,075481,085425
0000000297,0000296000,094265,-64812,088418,095804,077360,082145
0000000298,0000297000,099405,-42674,085690,096215,079985,079109
0000000299,0000298000,095518,-15812,083392,095598,083097,076614
0000000300,0000299000,082970,013049,081761,094013,086388,074908
0000000301,0000300000,062936,041179,080951,091612,089539,074158
