DIgSILENT PowerFactory,21000900,2000
6,06A,00D
1,TTPP_200000_100:Secondary Voltage A,,,V,0.10000000,-8276.559570,0.000000,67538,99998,1,1,P
2,TTPP_200000_100:Secondary Voltage B,,,V,0.10000000,-8361.720703,0.000000,68882,99998,1,1,P
3,TTPP_200000_100:Secondary Voltage C,,,V,0.10000000,-8369.616211,0.000000,66156,99998,1,1,P
4,TTCC_500_5:Secondary Current A,,,A,0.0010000000,-79.178192,0.000000,65129,99998,1,1,P
5,TTCC_500_5:Secondary Current B,,,A,0.0010000000,-84.486732,0.000000,69047,99998,1,1,P
6,TTCC_500_5:Secondary Current C,,,A,0.0010000000,-84.920731,0.000000,69865,99998,1,1,P
50
1
1000.000000,1101
30/06/2023,06:09:26.000000
30/06/2023,06:09:26.000000
ASCII
1.000000
0000000001,0000000000,088278,087258,074544,085094,089166,074326
0000000002,0000001000,085729,089692,074658,082076,091885,074624
0000000003,0000002000,082882,091543,075656,078781,093875,075930
0000000004,0000003000,080029,092611,077439,075526,094945,078115
0000000005,0000004000,077448,092791,079841,072619,094998,080969
0000000006,0000005000,075375,092084,082619,070358,094019,084209
0000000007,0000006000,074033,090551,085494,068966,092104,087515
0000000008,0000007000,073555,088324,088200,068572,089443,090571
0000000009,0000008000,073965,085645,090469,069210,086302,093074
0000000010,0000009000,075233,082778,092069,070828,082981,094777
0000000011,0000010000,077255,079977,092848,073266,079805,095514
0000000012,0000011000,079813,077531,092734,076282,077088,095216
0000000013,0000012000,082642,075699,091738,079579,075096,093910
0000000014,0000013000,085496,074629,089953,082837,074024,091725
0000000015,0000014000,088095,074432,087552,085739,073975,088871
0000000016,0000015000,090153,075153,084774,087999,074955,085631
0000000017,0000016000,091488,076693,081898,089396,076865,082325
0000000018,0000017000,091987,078900,079193,089790,079526,079270
0000000019,0000018000,091569,081587,076923,089146,082673,076767
0000000020,0000019000,090286,084470,075323,087531,085991,075064
0000000021,0000020000,088283,087252,074544,085096,089164,074326
0000000022,0000021000,085728,089693,074658,082076,091884,074624
0000000023,0000022000,082877,091548,075655,078779,093877,075930
0000000024,0000023000,080033,092608,077439,075524,094946,078115
0000000025,0000024000,077450,092789,079841,072620,094997,080969
0000000026,0000025000,075373,092088,082618,070358,094019,084209
0000000027,0000026000,074033,090551,085494,068965,092105,087516
0000000028,0000027000,073556,088323,088200,068570,089445,090571
0000000029,0000028000,073964,085646,090469,069211,086301,093074
0000000030,0000029000,075234,082777,092069,070829,082980,094777
0000000031,0000030000,077254,079977,092849,073265,079806,095515
0000000032,0000031000,079810,077534,092735,076280,077089,095216
0000000033,0000032000,082645,075697,091737,079579,075096,093911
0000000034,0000033000,085499,074627,089953,082837,074024,091725
0000000035,0000034000,088090,074436,087552,085738,073976,088871
0000000036,0000035000,090152,075153,084774,087999,074955,085631
0000000037,0000036000,091494,076688,081898,089395,076866,082325
0000000038,0000037000,091985,078902,079193,089789,079526,079270
0000000039,0000038000,091565,081591,076924,089147,082672,076767
0000000040,0000039000,090291,084465,075323,087531,085991,075064
0000000041,0000040000,088284,087250,074544,085094,089165,074326
0000000042,0000041000,085723,089698,074658,082077,091884,074625
0000000043,0000042000,082879,091546,075654,078780,093876,075930
0000000044,0000043000,080037,092604,077438,075523,094947,078116
0000000045,0000044000,077446,092793,079841,072619,094997,080969
0000000046,0000045000,075372,092089,082618,070359,094017,084209
0000000047,0000046000,074038,090547,085494,068965,092105,087515
0000000048,0000047000,073553,088325,088200,068568,089447,090570
0000000049,0000048000,073960,085650,090469,069211,086301,093073
0000000050,0000049000,075237,082773,092069,070829,082980,094776
0000000051,0000050000,077255,079976,092849,073264,079808,095514
0000000052,0000051000,079805,077539,092735,076280,077090,095216
0000000053,0000052000,082646,075695,091738,079579,075096,093911
0000000054,0000053000,085502,074623,089954,082836,074025,091725
0000000055,0000054000,088087,074440,087553,085737,073977,088871
0000000056,0000055000,090151,075153,084774,087999,074955,085632
0000000057,0000056000,091497,076683,081898,089394,076866,082326
0000000058,0000057000,091983,078903,079193,089788,079527,079271
0000000059,0000058000,091563,081592,076924,089146,082672,076768
0000000060,0000059000,090294,084462,075323,087530,085991,075065
0000000061,0000060000,088285,087250,074544,085094,089165,074327
0000000062,0000061000,085722,089700,074657,082077,091883,074625
0000000063,0000062000,082881,091544,075654,078781,093874,075930
0000000064,0000063000,080038,092603,077438,075523,094947,078116
0000000065,0000064000,077444,092796,079840,072620,094997,080969
0000000066,0000065000,075373,092089,082617,070360,094017,084209
0000000067,0000066000,074039,090546,085494,068965,092106,087515
0000000068,0000067000,073551,088329,088199,068569,089447,090569
0000000069,0000068000,073960,085650,090468,069211,086302,093072
0000000070,0000069000,075239,082771,092069,070829,082981,094776
0000000071,0000070000,077252,079978,092849,073263,079809,095513
0000000072,0000071000,079803,077540,092736,076280,077091,095215
0000000073,0000072000,082648,075693,091739,079578,075098,093910
0000000074,0000073000,085500,074624,089955,082834,074026,091725
0000000075,0000074000,088084,074441,087554,085736,073977,088872
0000000076,0000075000,090154,075150,084775,087997,074955,085633
0000000077,0000076000,091498,076682,081899,089392,076867,082327
0000000078,0000077000,091981,078905,079194,089787,079526,079272
0000000079,0000078000,091566,081590,076924,089146,082671,076769
0000000080,0000079000,090297,084459,075323,087529,085990,075066
0000000081,0000080000,088283,087252,074543,085093,089164,074328
0000000082,0000081000,085723,089700,074656,082078,091881,074626
0000000083,0000082000,082885,091541,075653,078781,093873,075931
0000000084,0000083000,080037,092605,077437,075523,094946,078116
0000000085,0000084000,077443,092798,079838,072621,094995,080969
0000000086,0000085000,075376,092087,082616,070362,094016,084208
0000000087,0000086000,074039,090547,085493,068966,092106,087514
0000000088,0000087000,073547,088333,088199,068570,089448,090568
0000000089,0000088000,073961,085650,090468,069213,086302,093071
0000000090,0000089000,075239,082771,092069,070829,082983,094774
0000000091,0000090000,077248,079982,092850,073263,079811,095512
0000000092,0000091000,079802,077540,092737,076279,077093,095214
0000000093,0000092000,082649,075690,091740,079576,075100,093910
0000000094,0000093000,085497,074625,089957,082832,074028,091725
0000000095,0000094000,088083,074441,087555,085734,073979,088872
0000000096,0000095000,090156,075146,084777,087995,074956,085634
0000000097,0000096000,091497,076681,081901,089390,076868,082328
0000000098,0000097000,091980,078905,079194,089785,079526,079274
0000000099,0000098000,091569,081586,076924,089145,082670,076772
0000000100,0000099000,090299,084457,075323,087528,085989,075068
0000000101,0000100000,088283,087253,074543,085093,089162,074330
0000000102,0000101000,085726,089698,074655,082079,091879,074628
0000000103,0000102000,082888,091540,075651,078782,093871,075932
0000000104,0000103000,080037,092608,077435,075525,094944,078116
0000000105,0000104000,077444,092799,079836,072624,094993,080968
0000000106,0000105000,075378,092087,082614,070364,094015,084207
0000000107,0000106000,074037,090551,085491,068968,092106,087512
0000000108,0000107000,073546,088336,088197,068572,089448,090566
0000000109,0000108000,073961,085650,090467,069214,086303,093068
0000000110,0000109000,075236,082774,092070,070829,082985,094771
0000000111,0000110000,077244,079985,092851,073263,079813,095510
0000000112,0000111000,079802,077539,092738,076278,077095,095212
0000000113,0000112000,082646,075690,091742,079574,075103,093909
0000000114,0000113000,085493,074627,089959,082830,074031,091725
0000000115,0000114000,088083,074438,087557,085732,073981,088873
0000000116,0000115000,090156,075143,084779,087992,074958,085636
0000000117,0000116000,091496,076680,081903,089386,076868,082331
0000000118,0000117000,091982,078902,079196,089783,079525,079277
0000000119,0000118000,091573,081582,076925,089143,082668,076775
0000000120,0000119000,090300,084456,075323,087527,085987,075072
0000000121,0000120000,088285,087252,074541,085094,089159,074333
0000000122,0000121000,085731,089695,074653,082080,091875,074630
0000000123,0000122000,082890,091540,075649,078784,093868,075933
0000000124,0000123000,080037,092610,077432,075528,094941,078116
0000000125,0000124000,077447,092800,079833,072628,094991,080968
0000000126,0000125000,075379,092089,082611,070367,094014,084205
0000000127,0000126000,074035,090556,085489,068972,092105,087509
0000000128,0000127000,073545,088338,088195,068575,089448,090562
0000000129,0000128000,073960,085652,090467,069216,086305,093064
0000000130,0000129000,075231,082778,092070,070830,082988,094768
0000000131,0000130000,077240,079987,092852,073263,079816,095506
0000000132,0000131000,079800,077539,092740,076277,077099,095210
0000000133,0000132000,082643,075691,091745,079571,075108,093907
0000000134,0000133000,085490,074627,089962,082826,074035,091725
0000000135,0000134000,088083,074435,087561,085728,073984,088874
0000000136,0000135000,090156,075140,084783,087987,074961,085638
0000000137,0000136000,091495,076678,081905,089382,076869,082334
0000000138,0000137000,091985,078897,079198,089780,079525,079281
0000000139,0000138000,091576,081577,076926,089140,082667,076779
0000000140,0000139000,090302,084454,075323,087526,085984,075076
0000000141,0000140000,088290,087250,074540,085094,089155,074337
0000000142,0000141000,085735,089693,074650,082081,091871,074633
0000000143,0000142000,082892,091541,075645,078787,093864,075935
0000000144,0000143000,080040,092612,077428,075532,094937,078117
0000000145,0000144000,077450,092801,079829,072632,094987,080967
0000000146,0000145000,075379,092093,082608,070372,094012,084202
0000000147,0000146000,074033,090560,085485,068976,092104,087505
0000000148,0000147000,073544,088341,088193,068580,089449,090557
0000000149,0000148000,073957,085656,090466,069219,086308,093059
0000000150,0000149000,075226,082783,092070,070831,082992,094762
0000000151,0000150000,077237,079989,092853,073263,079821,095502
0000000152,0000151000,079796,077540,092744,076275,077105,095206
0000000153,0000152000,082637,075692,091749,079568,075113,093905
0000000154,0000153000,085487,074625,089967,082822,074039,091724
0000000155,0000154000,088082,074431,087566,085722,073988,088876
0000000156,0000155000,090154,075137,084787,087981,074964,085641
0000000157,0000156000,091496,076674,081909,089377,076870,082339
0000000158,0000157000,091988,078891,079200,089775,079524,079287
0000000159,0000158000,091579,081573,076927,089136,082664,076785
0000000160,0000159000,090306,084451,075322,087524,085980,075082
0000000161,0000160000,088296,087245,074538,085094,089149,074342
0000000162,0000161000,085741,089691,074647,082083,091865,074637
0000000163,0000162000,082896,091542,075641,078791,093858,075938
0000000164,0000163000,080044,092613,077422,075538,094931,078117
0000000165,0000164000,077453,092803,079824,072638,094983,080965
0000000166,0000165000,075378,092098,082603,070378,094009,084199
0000000167,0000166000,074032,090566,085481,068983,092103,087500
0000000168,0000167000,073543,088346,088190,068585,089450,090551
0000000169,0000168000,073952,085662,090465,069222,086311,093053
0000000170,0000169000,075220,082788,092071,070833,082996,094756
0000000171,0000170000,077232,079991,092856,073263,079827,095496
0000000172,0000171000,079790,077542,092748,076272,077112,095202
0000000173,0000172000,082631,075693,091754,079563,075120,093902
0000000174,0000173000,085484,074622,089973,082816,074046,091724
0000000175,0000174000,088079,074427,087572,085715,073993,088877
0000000176,0000175000,090152,075134,084793,087974,074967,085645
0000000177,0000176000,091498,076668,081914,089370,076871,082344
0000000178,0000177000,091992,078884,079203,089769,079523,079294
0000000179,0000178000,091583,081568,076929,089132,082661,076793
0000000180,0000179000,090312,084446,075321,087522,085974,075089
0000000181,0000180000,088303,087240,074535,085094,089142,074349
0000000182,0000181000,085746,089689,074643,082086,091858,074642
0000000183,0000182000,082901,091543,075635,078795,093850,075941
0000000184,0000183000,080050,092614,077416,075544,094924,078118
0000000185,0000184000,077455,092807,079817,072645,094977,080963
0000000186,0000185000,075378,092105,082596,070386,094005,084194
0000000187,0000186000,074031,090572,085476,068990,092101,087494
0000000188,0000187000,073539,088352,088187,068591,089451,090544
0000000189,0000188000,073946,085670,090463,069227,086314,093044
0000000190,0000189000,075214,082794,092071,070836,083002,094748
0000000191,0000190000,077226,079995,092859,073262,079835,095489
0000000192,0000191000,079782,077545,092752,076269,077120,095196
0000000193,0000192000,082625,075694,091761,079558,075128,093899
0000000194,0000193000,085479,074619,089980,082809,074054,091723
0000000195,0000194000,088076,074423,087580,085706,074000,088879
0000000196,0000195000,090151,075128,084800,087965,074971,085649
0000000197,0000196000,091500,076660,081919,089362,076873,082351
0000000198,0000197000,091996,078876,079208,089762,079522,079302
0000000199,0000198000,091588,081561,076930,089127,082657,076802
0000000200,0000199000,090320,084439,075320,087519,085968,075098
0000000201,0000200000,088312,087235,074532,085094,089134,074357
0000000202,0000201000,085754,089688,074637,082089,091848,074648
0000000203,0000202000,082909,091543,075628,078801,093840,075944
0000000204,0000203000,080056,092616,077408,075552,094915,078119
0000000205,0000204000,077458,092813,079808,072655,094970,080961
0000000206,0000205000,075379,092112,082588,070396,094000,084189
0000000207,0000206000,074030,090579,085469,069000,092099,087486
0000000208,0000207000,073535,088361,088183,068599,089452,090534
0000000209,0000208000,073939,085679,090461,069233,086319,093034
0000000210,0000209000,075207,082800,092072,070839,083009,094738
0000000211,0000210000,077217,080000,092862,073262,079844,095480
0000000212,0000211000,079772,077549,092758,076266,077131,095189
0000000213,0000212000,082617,075693,091769,079552,075139,093895
0000000214,0000213000,085474,074616,089989,082800,074063,091722
0000000215,0000214000,088071,074419,087589,085696,074008,088882
0000000216,0000215000,090150,075120,084808,087954,074976,085655
0000000217,0000216000,091503,076650,081927,089352,076875,082359
0000000218,0000217000,092000,078867,079213,089753,079520,079312
0000000219,0000218000,091595,081552,076932,089121,082652,076813
0000000220,0000219000,090329,084430,075319,087516,085960,075109
0000000221,0000220000,088321,087229,074528,085095,089124,074366
0000000222,0000221000,085763,089685,074631,082093,091837,074656
0000000223,0000222000,082918,091542,075619,078809,093829,075948
0000000224,0000223000,080063,092619,077398,075562,094905,078119
0000000225,0000224000,077462,092819,079798,072666,094962,080958
0000000226,0000225000,075380,092120,082579,070408,093994,084183
0000000227,0000226000,074029,090589,085462,069011,092097,087477
0000000228,0000227000,073529,088373,088177,068608,089454,090523
0000000229,0000228000,073931,085689,090459,069239,086324,093022
0000000230,0000229000,075197,082808,092073,070842,083018,094726
0000000231,0000230000,077205,080007,092867,073261,079855,095470
0000000232,0000231000,079761,077552,092765,076261,077143,095181
0000000233,0000232000,082608,075693,091778,079544,075151,093891
0000000234,0000233000,085466,074613,090000,082789,074075,091722
0000000235,0000234000,088066,074413,087600,085684,074017,088885
0000000236,0000235000,090149,075111,084819,087942,074982,085662
0000000237,0000236000,091505,076639,081935,089339,076877,082369
0000000238,0000237000,092005,078856,079218,089743,079519,079325
0000000239,0000238000,091604,081541,076935,089113,082646,076826
0000000240,0000239000,090340,084420,075318,087513,085951,075122
0000000241,0000240000,088332,087223,074523,085095,089113,074378
0000000242,0000241000,085775,089681,074623,082097,091824,074664
0000000243,0000242000,082929,091541,075609,078817,093815,075954
0000000244,0000243000,080071,092623,077386,075573,094892,078120
0000000245,0000244000,077467,092826,079786,072679,094952,080955
0000000246,0000245000,075382,092129,082568,070422,093988,084176
0000000247,0000246000,074026,090600,085452,069024,092095,087466
0000000248,0000247000,073522,088386,088171,068619,089456,090510
0000000249,0000248000,073922,085701,090456,069247,086330,093008
0000000250,0000249000,075186,082818,092075,070846,083028,094712
0000000251,0000250000,077192,080015,092872,073261,079868,095457
0000000252,0000251000,079749,077556,092774,076256,077157,095172
0000000253,0000252000,082597,075692,091789,079535,075166,093885
0000000254,0000253000,085457,074609,090013,082777,074088,091721
0000000255,0000254000,088060,074405,087613,085670,074027,088889
0000000256,0000255000,090148,075100,084831,087927,074989,085670
0000000257,0000256000,091508,076626,081945,089325,076880,082381
0000000258,0000257000,092011,078843,079225,089731,079516,079339
0000000259,0000258000,091614,081528,076938,089105,082639,076841
0000000260,0000259000,090353,084409,075317,087508,085940,075137
0000000261,0000260000,088346,087215,074518,085096,089099,074391
0000000262,0000261000,085788,089677,074614,082103,091808,074674
0000000263,0000262000,082941,091541,075597,078827,093800,075959
0000000264,0000263000,080080,092627,077372,075586,094878,078121
0000000265,0000264000,077473,092835,079772,072695,094940,080951
0000000266,0000265000,075384,092140,082555,070438,093980,084167
0000000267,0000266000,074023,090614,085442,069039,092093,087454
0000000268,0000267000,073515,088400,088163,068632,089458,090495
0000000269,0000268000,073912,085714,090453,069256,086338,092991
0000000270,0000269000,075172,082830,092076,070850,083039,094696
0000000271,0000270000,077177,080024,092878,073260,079883,095443
0000000272,0000271000,079735,077561,092784,076251,077174,095161
0000000273,0000272000,082584,075692,091802,079524,075182,093879
0000000274,0000273000,085446,074605,090028,082763,074103,091720
0000000275,0000274000,088054,074396,087628,085653,074039,088893
0000000276,0000275000,090147,075087,084845,087909,074997,085679
0000000277,0000276000,091510,076612,081957,089309,076882,082395
0000000278,0000277000,092019,078827,079233,089717,079514,079355
0000000279,0000278000,091626,081512,076941,089095,082632,076859
0000000280,0000279000,090367,084396,075316,087504,085928,075154
0000000281,0000280000,088361,087206,074512,085097,089083,074406
0000000282,0000281000,085805,089671,074603,082109,091790,074686
0000000283,0000282000,082955,091541,075583,078838,093782,075966
0000000284,0000283000,080091,092632,077356,075602,094862,078122
0000000285,0000284000,077480,092844,079756,072713,094927,080946
0000000286,0000285000,075386,092153,082539,070457,093972,084157
0000000287,0000286000,074019,090630,085429,069057,092090,087439
0000000288,0000287000,073507,088417,088155,068647,089461,090477
0000000289,0000288000,073900,085730,090449,069267,086346,092973
0000000290,0000289000,075157,082845,092078,070855,083053,094678
0000000291,0000290000,077160,080035,092884,073259,079900,095427
0000000292,0000291000,079718,077566,092795,076244,077193,095149
0000000293,0000292000,082569,075693,091817,079512,075202,093872
0000000294,0000293000,085434,074600,090045,082746,074121,091719
0000000295,0000294000,088047,074386,087646,085634,074053,088898
0000000296,0000295000,090145,075073,084861,087889,075006,085690
0000000297,0000296000,091513,076595,081970,089290,076886,082410
0000000298,0000297000,092028,078809,079242,089702,079510,079374
0000000299,0000298000,091639,081495,076945,089084,082623,076879
0000000300,0000299000,090383,084382,075314,087498,085913,075174
0000000301,0000300000,088380,087195,074505,085098,089064,074423
