DIgSILENT PowerFactory,21000900,2000
6,06A,00D
1,TTPP_200000_100:Secondary Voltage A,,,V,0.10000000,-8241.038086,0.000000,61767,99998,1,1,P
2,TTPP_200000_100:Secondary Voltage B,,,V,0.10000000,-7842.916504,0.000000,60155,99998,1,1,P
3,TTPP_200000_100:Secondary Voltage C,,,V,0.10000000,-8227.273438,0.000000,63346,99998,1,1,P
4,TTCC_300_1:Secondary Current A,,,A,0.00010000000,-3.808382,0.000000,-4571,99998,1,1,P
5,TTCC_300_1:Secondary Current B,,,A,0.00010000000,-5.025601,0.000000,679,99998,1,1,P
6,TTCC_300_1:Secondary Current C,,,A,0.00010000000,-4.888323,0.000000,-1619,99998,1,1,P
50
1
1000.000000,1101
30/06/2023,06:08:46.000000
30/06/2023,06:08:46.000000
ASCII
1.000000
0000000001,0000000000,089517,079904,073691,017154,036267,083803
0000000002,0000001000,087383,082621,073107,026906,026988,083328
0000000003,0000002000,084742,084952,073418,037745,019991,079487
0000000004,0000003000,081886,086631,074595,048625,015947,072651
0000000005,0000004000,079093,087493,076528,058468,015272,063482
0000000006,0000005000,076605,087484,079024,066316,018025,052883
0000000007,0000006000,074683,086598,081831,071403,023919,041901
0000000008,0000007000,073539,084890,084684,073225,032395,031604
0000000009,0000008000,073253,082552,087306,071601,042635,022987
0000000010,0000009000,073851,079830,089431,066703,053610,016909
0000000011,0000010000,075299,076959,090854,059010,064244,013969
0000000012,0000011000,077452,074221,091439,049251,073530,014442
0000000013,0000012000,080074,071912,091127,038402,080537,018284
0000000014,0000013000,082925,070237,089950,027536,084567,025121
0000000015,0000014000,085739,069355,088018,017693,085242,034288
0000000016,0000015000,088218,069372,085521,009835,082502,044888
0000000017,0000016000,090126,070272,082713,004755,076598,055869
0000000018,0000017000,091288,071962,079862,002937,068119,066167
0000000019,0000018000,091573,074299,077240,004553,057887,074783
0000000020,0000019000,090961,077039,075113,009451,046911,080860
0000000021,0000020000,089523,079899,073691,017153,036268,083802
0000000022,0000021000,087377,082628,073107,026904,026991,083329
0000000023,0000022000,084740,084954,073419,037754,019984,079486
0000000024,0000023000,081894,086624,074594,048625,015948,072650
0000000025,0000024000,079090,087495,076528,058465,015275,063483
0000000026,0000025000,076598,087490,079024,066320,018021,052882
0000000027,0000026000,074689,086592,081831,071408,023914,041901
0000000028,0000027000,073542,084888,084683,073222,032398,031604
0000000029,0000028000,073247,082559,087306,071602,042634,022987
0000000030,0000029000,073852,079829,089432,066710,053604,016909
0000000031,0000030000,075305,076953,090854,059010,064245,013968
0000000032,0000031000,077447,074226,091439,049250,073531,014442
0000000033,0000032000,080071,071915,091127,038407,080532,018284
0000000034,0000033000,082930,070231,089950,027540,084564,025119
0000000035,0000034000,085739,069355,088018,017691,085245,034287
0000000036,0000035000,088214,069377,085521,009838,082499,044887
0000000037,0000036000,090129,070269,082714,004759,076596,055868
0000000038,0000037000,091290,071960,079862,002937,068120,066165
0000000039,0000038000,091569,074303,077240,004553,057888,074782
0000000040,0000039000,090962,077037,075113,009455,046909,080859
0000000041,0000040000,089525,079896,073691,017153,036270,083801
0000000042,0000041000,087375,082631,073107,026904,026992,083327
0000000043,0000042000,084740,084954,073418,037755,019983,079486
0000000044,0000043000,081896,086621,074595,048625,015947,072650
0000000045,0000044000,079089,087496,076527,058464,015276,063482
0000000046,0000045000,076597,087491,079024,066321,018019,052883
0000000047,0000046000,074691,086590,081831,071407,023914,041902
0000000048,0000047000,073540,084889,084683,073222,032397,031605
0000000049,0000048000,073245,082561,087306,071604,042632,022988
0000000050,0000049000,073854,079826,089432,066711,053601,016911
0000000051,0000050000,075304,076954,090855,059010,064244,013969
0000000052,0000051000,077445,074229,091439,049254,073527,014442
0000000053,0000052000,080073,071912,091127,038410,080529,018284
0000000054,0000053000,082931,070230,089951,027541,084563,025119
0000000055,0000054000,085735,069359,088019,017695,085242,034286
0000000056,0000055000,088216,069375,085521,009843,082496,044885
0000000057,0000056000,090132,070266,082714,004761,076597,055866
0000000058,0000057000,091287,071963,079863,002939,068121,066163
0000000059,0000058000,091569,074304,077240,004558,057886,074779
0000000060,0000059000,090966,077033,075113,009456,046910,080856
0000000061,0000060000,089524,079897,073691,017152,036273,083798
0000000062,0000061000,087372,082633,073106,026906,026992,083325
0000000063,0000062000,084744,084950,073417,037755,019984,079484
0000000064,0000063000,081897,086621,074594,048621,015952,072650
0000000065,0000064000,079085,087501,076527,058463,015277,063483
0000000066,0000065000,076599,087490,079023,066320,018018,052884
0000000067,0000066000,074694,086588,081831,071403,023916,041904
0000000068,0000067000,073536,084893,084683,073219,032397,031607
0000000069,0000068000,073244,082562,087306,071605,042627,022991
0000000070,0000069000,073857,079823,089432,066710,053599,016914
0000000071,0000070000,075301,076956,090855,059009,064242,013972
0000000072,0000071000,077442,074231,091440,049257,073521,014444
0000000073,0000072000,080076,071909,091128,038414,080524,018285
0000000074,0000073000,082930,070230,089952,027544,084561,025119
0000000075,0000074000,085732,069361,088019,017700,085239,034285
0000000076,0000075000,088217,069372,085522,009849,082492,044882
0000000077,0000076000,090134,070263,082715,004764,076597,055862
0000000078,0000077000,091284,071965,079863,002943,068121,066158
0000000079,0000078000,091570,074302,077240,004562,057886,074774
0000000080,0000079000,090969,077030,075113,009457,046914,080852
0000000081,0000080000,089523,079899,073691,017152,036278,083794
0000000082,0000081000,087373,082634,073106,026906,026996,083322
0000000083,0000082000,084747,084948,073417,037752,019989,079482
0000000084,0000083000,081896,086622,074593,048616,015958,072649
0000000085,0000084000,079084,087503,076526,058459,015280,063484
0000000086,0000085000,076601,087489,079022,066316,018020,052887
0000000087,0000086000,074693,086589,081830,071397,023917,041909
0000000088,0000087000,073534,084896,084682,073216,032395,031612
0000000089,0000088000,073245,082561,087305,071603,042623,022997
0000000090,0000089000,073857,079823,089432,066708,053595,016920
0000000091,0000090000,075298,076959,090855,059010,064236,013977
0000000092,0000091000,077442,074231,091440,049261,073514,014448
0000000093,0000092000,080076,071907,091129,038418,080518,018287
0000000094,0000093000,082927,070232,089953,027549,084555,025119
0000000095,0000094000,085731,069361,088020,017709,085232,034283
0000000096,0000095000,088220,069369,085523,009856,082488,044878
0000000097,0000096000,090132,070264,082716,004771,076596,055856
0000000098,0000097000,091284,071965,079864,002951,068121,066151
0000000099,0000098000,091574,074299,077240,004567,057889,074766
0000000100,0000099000,090970,077029,075113,009459,046921,080844
0000000101,0000100000,089522,079900,073690,017152,036284,083787
0000000102,0000101000,087376,082632,073105,026905,027002,083316
0000000103,0000102000,084750,084947,073416,037746,019998,079479
0000000104,0000103000,081895,086625,074592,048610,015965,072648
0000000105,0000104000,079085,087503,076524,058453,015285,063486
0000000106,0000105000,076604,087488,079021,066307,018025,052892
0000000107,0000106000,074691,086592,081829,071388,023920,041915
0000000108,0000107000,073532,084899,084681,073210,032393,031621
0000000109,0000108000,073246,082561,087305,071598,042619,023006
0000000110,0000109000,073854,079825,089432,066705,053590,016929
0000000111,0000110000,075295,076962,090856,059011,064226,013985
0000000112,0000111000,077442,074229,091441,049265,073503,014454
0000000113,0000112000,080075,071907,091131,038423,080509,018291
0000000114,0000113000,082924,070233,089955,027558,084545,025120
0000000115,0000114000,085731,069359,088022,017720,085223,034280
0000000116,0000115000,088221,069366,085525,009867,082484,044873
0000000117,0000116000,090131,070263,082718,004781,076595,055848
0000000118,0000117000,091285,071963,079864,002961,068121,066141
0000000119,0000118000,091577,074295,077241,004574,057894,074755
0000000120,0000119000,090971,077029,075113,009462,046929,080833
0000000121,0000120000,089523,079900,073689,017153,036293,083777
0000000122,0000121000,087380,082629,073103,026901,027014,083309
0000000123,0000122000,084751,084947,073414,037738,020011,079474
0000000124,0000123000,081895,086627,074590,048601,015976,072647
0000000125,0000124000,079088,087503,076522,058441,015293,063488
0000000126,0000125000,076604,087489,079019,066293,018031,052898
0000000127,0000126000,074689,086596,081827,071377,023922,041925
0000000128,0000127000,073532,084900,084680,073201,032390,031633
0000000129,0000128000,073246,082562,087305,071590,042614,023020
0000000130,0000129000,073851,079829,089433,066701,053581,016942
0000000131,0000130000,075292,076963,090857,059013,064213,013997
0000000132,0000131000,077441,074229,091443,049270,073489,014464
0000000133,0000132000,080072,071908,091133,038431,080495,018296
0000000134,0000133000,082922,070233,089957,027571,084532,025121
0000000135,0000134000,085732,069356,088025,017735,085212,034277
0000000136,0000135000,088220,069364,085528,009881,082477,044865
0000000137,0000136000,090130,070262,082720,004796,076591,055836
0000000138,0000137000,091287,071959,079866,002974,068122,066127
0000000139,0000138000,091579,074292,077241,004582,057901,074739
0000000140,0000139000,090972,077028,075113,009466,046939,080817
0000000141,0000140000,089527,079897,073688,017154,036306,083763
0000000142,0000141000,087384,082627,073101,026896,027030,083298
0000000143,0000142000,084752,084949,073411,037728,020028,079467
0000000144,0000143000,081897,086629,074587,048588,015990,072645
0000000145,0000144000,079090,087503,076519,058425,015305,063492
0000000146,0000145000,076604,087493,079016,066276,018040,052907
0000000147,0000146000,074688,086600,081825,071361,023924,041938
0000000148,0000147000,073531,084902,084679,073187,032388,031649
0000000149,0000148000,073243,082565,087304,071579,042607,023037
0000000150,0000149000,073846,079833,089433,066696,053568,016959
0000000151,0000150000,075290,076964,090858,059014,064196,014012
0000000152,0000151000,077438,074229,091445,049275,073472,014476
0000000153,0000152000,080067,071909,091136,038443,080477,018303
0000000154,0000153000,082920,070232,089961,027588,084513,025122
0000000155,0000154000,085731,069352,088028,017753,085198,034272
0000000156,0000155000,088219,069362,085531,009900,082468,044855
0000000157,0000156000,090131,070259,082722,004815,076587,055821
0000000158,0000157000,091290,071954,079868,002990,068125,066108
0000000159,0000158000,091582,074289,077242,004593,057910,074719
0000000160,0000159000,090974,077026,075112,009473,046953,080797
0000000161,0000160000,089532,079894,073686,017154,036324,083745
0000000162,0000161000,087387,082626,073099,026888,027051,083284
0000000163,0000162000,084754,084950,073408,037716,020049,079459
0000000164,0000163000,081900,086629,074583,048571,016009,072643
0000000165,0000164000,079093,087505,076515,058404,015322,063497
0000000166,0000165000,076603,087497,079013,066253,018051,052918
0000000167,0000166000,074687,086604,081821,071341,023928,041955
0000000168,0000167000,073530,084905,084677,073169,032385,031670
0000000169,0000168000,073239,082570,087303,071566,042598,023060
0000000170,0000169000,073842,079837,089433,066690,053552,016982
0000000171,0000170000,075287,076966,090860,059015,064176,014032
0000000172,0000171000,077433,074231,091448,049283,073449,014491
0000000173,0000172000,080063,071910,091140,038458,080452,018313
0000000174,0000173000,082918,070230,089965,027608,084491,025124
0000000175,0000174000,085730,069349,088033,017776,085181,034267
0000000176,0000175000,088217,069360,085535,009926,082456,044842
0000000177,0000176000,090132,070254,082726,004840,076581,055802
0000000178,0000177000,091293,071949,079870,003010,068128,066084
0000000179,0000178000,091584,074285,077243,004608,057922,074693
0000000180,0000179000,090979,077022,075112,009481,046970,080771
0000000181,0000180000,089538,079890,073684,017153,036348,083722
0000000182,0000181000,087392,082625,073095,026879,027078,083266
0000000183,0000182000,084758,084950,073403,037700,020075,079448
0000000184,0000183000,081905,086630,074578,048548,016033,072641
0000000185,0000184000,079094,087508,076510,058377,015342,063504
0000000186,0000185000,076603,087502,079008,066226,018064,052933
0000000187,0000186000,074686,086608,081818,071314,023933,041976
0000000188,0000187000,073528,084910,084674,073146,032382,031696
0000000189,0000188000,073234,082576,087302,071549,042585,023089
0000000190,0000189000,073837,079841,089434,066682,053531,017010
0000000191,0000190000,075282,076968,090862,059015,064150,014058
0000000192,0000191000,077427,074233,091452,049292,073420,014511
0000000193,0000192000,080058,071910,091145,038477,080422,018324
0000000194,0000193000,082915,070227,089971,027633,084463,025127
0000000195,0000194000,085727,069346,088039,017805,085159,034259
0000000196,0000195000,088216,069355,085540,009957,082441,044825
0000000197,0000196000,090135,070248,082730,004870,076575,055778
0000000198,0000197000,091296,071943,079873,003035,068133,066055
0000000199,0000198000,091588,074280,077244,004627,057935,074661
0000000200,0000199000,090985,077017,075111,009491,046992,080740
0000000201,0000200000,089544,079886,073682,017152,036377,083695
0000000202,0000201000,087397,082624,073091,026868,027111,083245
0000000203,0000202000,084764,084950,073398,037680,020108,079436
0000000204,0000203000,081910,086631,074571,048521,016064,072639
0000000205,0000204000,079096,087513,076504,058344,015367,063511
0000000206,0000205000,076603,087507,079002,066192,018080,052950
0000000207,0000206000,074686,086614,081813,071282,023939,042002
0000000208,0000207000,073524,084917,084671,073118,032377,031729
0000000209,0000208000,073229,082583,087301,071530,042570,023124
0000000210,0000209000,073832,079845,089435,066672,053506,017045
0000000211,0000210000,075275,076972,090865,059016,064119,014088
0000000212,0000211000,077420,074236,091457,049305,073384,014534
0000000213,0000212000,080053,071909,091151,038500,080385,018338
0000000214,0000213000,082910,070224,089977,027663,084430,025130
0000000215,0000214000,085723,069343,088046,017841,085132,034251
0000000216,0000215000,088216,069350,085547,009995,082423,044806
0000000217,0000216000,090137,070240,082735,004905,076569,055749
0000000218,0000217000,091299,071936,079877,003065,068138,066020
0000000219,0000218000,091593,074274,077246,004649,057952,074622
0000000220,0000219000,090992,077010,075110,009502,047019,080702
0000000221,0000220000,089551,079882,073679,017151,036412,083661
0000000222,0000221000,087404,082622,073086,026855,027150,083219
0000000223,0000222000,084771,084950,073391,037656,020147,079420
0000000224,0000223000,081915,086634,074564,048487,016100,072636
0000000225,0000224000,079099,087518,076496,058305,015397,063521
0000000226,0000225000,076604,087513,078995,066151,018099,052972
0000000227,0000226000,074684,086621,081807,071242,023947,042034
0000000228,0000227000,073520,084926,084667,073084,032372,031767
0000000229,0000228000,073223,082590,087299,071506,042551,023166
0000000230,0000229000,073825,079851,089436,066660,053477,017086
0000000231,0000230000,075266,076977,090869,059017,064081,014125
0000000232,0000231000,077412,074239,091462,049320,073341,014562
0000000233,0000232000,080046,071909,091158,038526,080342,018355
0000000234,0000233000,082905,070222,089986,027699,084391,025133
0000000235,0000234000,085719,069339,088054,017884,085100,034240
0000000236,0000235000,088215,069342,085554,010040,082401,044782
0000000237,0000236000,090139,070232,082742,004947,076561,055715
0000000238,0000237000,091303,071928,079881,003101,068144,065977
0000000239,0000238000,091600,074265,077247,004675,057971,074577
0000000240,0000239000,091001,077003,075109,009515,047051,080657
0000000241,0000240000,089559,079878,073675,017149,036453,083621
0000000242,0000241000,087412,082620,073080,026839,027195,083189
0000000243,0000242000,084779,084949,073384,037627,020194,079403
0000000244,0000243000,081920,086637,074555,048447,016144,072632
0000000245,0000244000,079102,087524,076487,058259,015431,063532
0000000246,0000245000,076606,087520,078987,066103,018122,052998
0000000247,0000246000,074682,086630,081800,071196,023956,042071
0000000248,0000247000,073515,084935,084662,073046,032365,031813
0000000249,0000248000,073216,082599,087297,071479,042529,023215
0000000250,0000249000,073817,079859,089437,066646,053443,017135
0000000251,0000250000,075256,076984,090872,059019,064037,014167
0000000252,0000251000,077402,074242,091469,049337,073291,014595
0000000253,0000252000,080038,071908,091166,038557,080291,018374
0000000254,0000253000,082898,070219,089995,027742,084345,025136
0000000255,0000254000,085715,069333,088064,017934,085062,034227
0000000256,0000255000,088215,069334,085563,010092,082377,044755
0000000257,0000256000,090141,070223,082749,004996,076552,055674
0000000258,0000257000,091308,071918,079886,003143,068152,065928
0000000259,0000258000,091608,074255,077249,004705,057994,074523
0000000260,0000259000,091010,076994,075108,009529,047089,080605
0000000261,0000260000,089569,079872,073671,017147,036501,083575
0000000262,0000261000,087423,082616,073073,026821,027249,083154
0000000263,0000262000,084788,084949,073374,037593,020248,079382
0000000264,0000263000,081927,086640,074545,048401,016193,072628
0000000265,0000264000,079107,087530,076476,058206,015471,063546
0000000266,0000265000,076607,087529,078977,066047,018149,053027
0000000267,0000266000,074680,086640,081792,071143,023965,042115
0000000268,0000267000,073509,084947,084657,073001,032357,031866
0000000269,0000268000,073209,082609,087295,071447,042504,023273
0000000270,0000269000,073806,079868,089438,066630,053403,017190
0000000271,0000270000,075245,076990,090877,059021,063985,014216
0000000272,0000271000,077392,074245,091476,049358,073233,014632
0000000273,0000272000,080028,071908,091176,038594,080233,018396
0000000274,0000273000,082890,070216,090007,027791,084292,025140
0000000275,0000274000,085711,069326,088075,017992,085019,034213
0000000276,0000275000,088214,069324,085574,010152,082349,044723
0000000277,0000276000,090143,070212,082758,005053,076542,055628
0000000278,0000277000,091314,071907,079892,003191,068160,065871
0000000279,0000278000,091617,074244,077252,004739,058022,074462
0000000280,0000279000,091021,076985,075107,009546,047132,080545
0000000281,0000280000,089581,079865,073666,017145,036556,083523
0000000282,0000281000,087435,082612,073065,026799,027311,083114
0000000283,0000282000,084799,084949,073364,037554,020311,079359
0000000284,0000283000,081935,086644,074533,048349,016250,072624
0000000285,0000284000,079112,087537,076464,058144,015516,063562
0000000286,0000285000,076608,087539,078965,065982,018179,053062
0000000287,0000286000,074677,086653,081783,071082,023976,042164
0000000288,0000287000,073503,084959,084650,072950,032347,031926
0000000289,0000288000,073199,082621,087292,071410,042475,023338
0000000290,0000289000,073794,079878,089439,066612,053357,017254
0000000291,0000290000,075232,076998,090882,059024,063926,014273
0000000292,0000291000,077379,074249,091484,049381,073167,014675
0000000293,0000292000,080017,071908,091187,038635,080167,018421
0000000294,0000293000,082880,070212,090019,027848,084231,025144
0000000295,0000294000,085705,069318,088088,018058,084970,034196
0000000296,0000295000,088212,069314,085586,010221,082317,044686
0000000297,0000296000,090145,070199,082768,005118,076530,055575
0000000298,0000297000,091321,071893,079899,003246,068170,065807
0000000299,0000298000,091627,074230,077255,004777,058053,074392
0000000300,0000299000,091033,076974,075105,009565,047181,080477
0000000301,0000300000,089595,079856,073661,017142,036618,083463
