DIgSILENT PowerFactory,21000900,2000
6,06A,00D
1,TTPP_200000_100:Secondary Voltage A,,,V,0.010000000,-71.427071,0.000000,-85630,99998,1,1,P
2,TTPP_200000_100:Secondary Voltage B,,,V,0.010000000,-58.473450,0.000000,-87925,99998,1,1,P
3,TTPP_200000_100:Secondary Voltage C,,,V,0.10000000,-8994.474609,0.000000,79451,99998,1,1,P
4,TTCC_300_1:Secondary Current A,,,A,0.00010000000,-3.835978,0.000000,-54615,99998,1,1,P
5,TTCC_300_1:Secondary Current B,,,A,0.00010000000,-4.953663,0.000000,-963,99998,1,1,P
6,TTCC_300_1:Secondary Current C,,,A,0.00010000000,-4.878299,0.000000,-2435,99998,1,1,P
50
1
1000.000000,1101
30/06/2023,06:03:00.000000
30/06/2023,06:03:00.000000
ASCII
1.000000
0000000001,0000000000,078208,020600,081363,017423,035555,083701
0000000002,0000001000,056858,047786,080778,027178,026272,083230
0000000003,0000002000,030491,071049,081090,038014,019276,079390
0000000004,0000003000,001912,087854,082266,048888,015235,072557
0000000005,0000004000,-26069,096517,084200,058736,014552,063391
0000000006,0000005000,-50960,096423,086697,066588,017301,052791
0000000007,0000006000,-70113,087515,089504,071678,023192,041809
0000000008,0000007000,-81546,070425,092355,073501,031668,031512
0000000009,0000008000,-84436,047086,094978,071874,041912,022893
0000000010,0000009000,-78477,019867,097105,066984,052882,016814
0000000011,0000010000,-63976,-08858,098527,059295,063514,013870
0000000012,0000011000,-42433,-36238,099111,049534,072804,014340
0000000013,0000012000,-16213,-59347,098799,038687,079812,018180
0000000014,0000013000,012293,-76075,097622,027821,083844,025014
0000000015,0000014000,040434,-84900,095690,017973,084526,034181
0000000016,0000015000,065216,-84715,093193,010117,081783,044779
0000000017,0000016000,084292,-75716,090386,005036,075883,055760
0000000018,0000017000,095944,-58841,087533,003214,067406,066058
0000000019,0000018000,098793,-35464,084911,004825,057178,074677
0000000020,0000019000,092625,-08037,082785,009721,046202,080756
0000000021,0000020000,078243,020567,081363,017423,035556,083700
0000000022,0000021000,056826,047821,080779,027175,026276,083230
0000000023,0000022000,030451,071083,081090,038019,019271,079389
0000000024,0000023000,001956,087819,082266,048892,015231,072556
0000000025,0000024000,-26059,096501,084199,058734,014554,063390
0000000026,0000025000,-50983,096456,086697,066589,017300,052791
0000000027,0000026000,-70100,087499,089504,071680,023189,041810
0000000028,0000027000,-81546,070427,092356,073501,031668,031511
0000000029,0000028000,-84465,047112,094978,071879,041908,022893
0000000030,0000029000,-78458,019852,097105,066988,052878,016813
0000000031,0000030000,-63945,-08884,098527,059294,063516,013870
0000000032,0000031000,-42466,-36208,099112,049536,072803,014340
0000000033,0000032000,-16234,-59323,098800,038692,079809,018179
0000000034,0000033000,012327,-76114,097622,027824,083843,025013
0000000035,0000034000,040435,-84898,095690,017975,084525,034179
0000000036,0000035000,065198,-84696,093193,010119,081783,044778
0000000037,0000036000,084315,-75735,090386,005038,075882,055759
0000000038,0000037000,095939,-58838,087534,003216,067406,066057
0000000039,0000038000,098768,-35440,084911,004827,057177,074675
0000000040,0000039000,092652,-08060,082785,009724,046200,080755
0000000041,0000040000,078270,020542,081362,017423,035558,083699
0000000042,0000041000,056798,047853,080779,027173,026278,083228
0000000043,0000042000,030442,071095,081090,038021,019270,079389
0000000044,0000043000,001984,087793,082266,048893,015231,072556
0000000045,0000044000,-26067,096512,084199,058733,014556,063390
0000000046,0000045000,-50990,096467,086696,066589,017298,052791
0000000047,0000046000,-70075,087480,089503,071680,023189,041811
0000000048,0000047000,-81560,070439,092356,073499,031669,031512
0000000049,0000048000,-84492,047142,094979,071881,041905,022894
0000000050,0000049000,-78439,019831,097104,066991,052874,016814
0000000051,0000050000,-63930,-08900,098527,059293,063515,013870
0000000052,0000051000,-42497,-36180,099112,049537,072801,014341
0000000053,0000052000,-16237,-59322,098800,038695,079805,018179
0000000054,0000053000,012342,-76135,097623,027827,083841,025012
0000000055,0000054000,040415,-84885,095691,017978,084523,034178
0000000056,0000055000,065196,-84696,093193,010123,081781,044776
0000000057,0000056000,084340,-75764,090386,005041,075882,055757
0000000058,0000057000,095927,-58829,087534,003217,067407,066055
0000000059,0000058000,098749,-35424,084911,004831,057176,074672
0000000060,0000059000,092680,-08086,082785,009727,046200,080752
0000000061,0000060000,078283,020529,081362,017422,035561,083697
0000000062,0000061000,056780,047874,080778,027173,026281,083226
0000000063,0000062000,030455,071088,081089,038021,019271,079388
0000000064,0000063000,001998,087781,082266,048890,015233,072555
0000000065,0000064000,-26085,096534,084199,058731,014558,063390
0000000066,0000065000,-50986,096469,086696,066589,017298,052793
0000000067,0000066000,-70054,087465,089503,071677,023190,041813
0000000068,0000067000,-81580,070460,092355,073496,031669,031515
0000000069,0000068000,-84511,047163,094978,071881,041901,022897
0000000070,0000069000,-78423,019814,097104,066991,052871,016818
0000000071,0000070000,-63935,-08898,098527,059293,063513,013873
0000000072,0000071000,-42521,-36160,099112,049540,072796,014343
0000000073,0000072000,-16231,-59333,098800,038699,079800,018181
0000000074,0000073000,012343,-76144,097624,027830,083837,025012
0000000075,0000074000,040391,-84870,095691,017983,084520,034177
0000000076,0000075000,065204,-84709,093194,010129,081777,044773
0000000077,0000076000,084360,-75790,090387,005045,075882,055753
0000000078,0000077000,095913,-58821,087535,003220,067408,066050
0000000079,0000078000,098747,-35422,084911,004835,057177,074667
0000000080,0000079000,092707,-08113,082785,009729,046203,080747
0000000081,0000080000,078287,020528,081362,017422,035566,083692
0000000082,0000081000,056776,047884,080777,027172,026285,083223
0000000083,0000082000,030479,071073,081088,038019,019275,079386
0000000084,0000083000,002005,087782,082265,048886,015239,072555
0000000085,0000084000,-26099,096558,084198,058727,014561,063391
0000000086,0000085000,-50974,096467,086695,066585,017299,052795
0000000087,0000086000,-70043,087461,089502,071671,023191,041817
0000000088,0000087000,-81602,070488,092355,073491,031669,031520
0000000089,0000088000,-84522,047177,094978,071880,041897,022903
0000000090,0000089000,-78417,019807,097105,066990,052866,016823
0000000091,0000090000,-63956,-08883,098528,059293,063508,013878
0000000092,0000091000,-42540,-36147,099113,049543,072789,014347
0000000093,0000092000,-16225,-59349,098801,038703,079793,018183
0000000094,0000093000,012331,-76145,097625,027835,083832,025013
0000000095,0000094000,040370,-84861,095693,017991,084514,034175
0000000096,0000095000,065215,-84731,093195,010138,081773,044769
0000000097,0000096000,084371,-75811,090388,005051,075881,055747
0000000098,0000097000,095904,-58818,087535,003227,067409,066043
0000000099,0000098000,098760,-35437,084912,004840,057179,074659
0000000100,0000099000,092731,-08137,082784,009732,046208,080739
0000000101,0000100000,078289,020531,081362,017422,035573,083685
0000000102,0000101000,056787,047883,080776,027171,026292,083217
0000000103,0000102000,030507,071058,081087,038014,019283,079382
0000000104,0000103000,002009,087792,082264,048878,015247,072554
0000000105,0000104000,-26104,096580,084196,058719,014566,063393
0000000106,0000105000,-50959,096467,086693,066577,017302,052800
0000000107,0000106000,-70043,087471,089501,071663,023193,041824
0000000108,0000107000,-81624,070518,092354,073484,031667,031528
0000000109,0000108000,-84527,047187,094978,071875,041892,022912
0000000110,0000109000,-78424,019812,097105,066987,052860,016833
0000000111,0000110000,-63987,-08860,098529,059294,063499,013886
0000000112,0000111000,-42557,-36141,099114,049548,072778,014353
0000000113,0000112000,-16227,-59363,098803,038709,079783,018187
0000000114,0000113000,012310,-76143,097627,027843,083823,025013
0000000115,0000114000,040355,-84863,095694,018002,084506,034172
0000000116,0000115000,065226,-84759,093197,010149,081767,044764
0000000117,0000116000,084374,-75830,090389,005061,075879,055739
0000000118,0000117000,095903,-58826,087536,003236,067410,066033
0000000119,0000118000,098784,-35464,084912,004848,057183,074648
0000000120,0000119000,092755,-08159,082784,009735,046217,080728
0000000121,0000120000,078297,020531,081361,017422,035583,083675
0000000122,0000121000,056812,047874,080775,027168,026302,083209
0000000123,0000122000,030537,071047,081085,038007,019295,079377
0000000124,0000123000,002014,087808,082262,048868,015258,072553
0000000125,0000124000,-26099,096598,084194,058709,014575,063396
0000000126,0000125000,-50945,096474,086691,066565,017308,052806
0000000127,0000126000,-70052,087497,089499,071650,023196,041833
0000000128,0000127000,-81644,070551,092353,073475,031665,031540
0000000129,0000128000,-84535,047201,094977,071868,041886,022925
0000000130,0000129000,-78445,019829,097105,066983,052851,016846
0000000131,0000130000,-64023,-08834,098530,059294,063487,013898
0000000132,0000131000,-42576,-36138,099115,049553,072764,014362
0000000133,0000132000,-16241,-59371,098805,038718,079770,018192
0000000134,0000133000,012282,-76141,097630,027855,083810,025014
0000000135,0000134000,040343,-84877,095697,018017,084494,034169
0000000136,0000135000,065233,-84791,093199,010164,081760,044756
0000000137,0000136000,084374,-75851,090391,005075,075877,055727
0000000138,0000137000,095911,-58848,087538,003249,067412,066019
0000000139,0000138000,098815,-35501,084913,004857,057190,074633
0000000140,0000139000,092780,-08182,082784,009739,046228,080713
0000000141,0000140000,078317,020524,081360,017422,035597,083661
0000000142,0000141000,056848,047858,080773,027163,026318,083199
0000000143,0000142000,030567,071042,081083,037997,019312,079371
0000000144,0000143000,002024,087828,082259,048855,015273,072551
0000000145,0000144000,-26084,096615,084191,058693,014586,063400
0000000146,0000145000,-50934,096491,086688,066547,017317,052815
0000000147,0000146000,-70067,087534,089497,071634,023200,041846
0000000148,0000147000,-81662,070586,092351,073461,031662,031556
0000000149,0000148000,-84550,047222,094976,071858,041878,022943
0000000150,0000149000,-78479,019859,097106,066977,052839,016863
0000000151,0000150000,-64063,-08807,098531,059295,063470,013913
0000000152,0000151000,-42601,-36135,099118,049560,072745,014374
0000000153,0000152000,-16269,-59374,098808,038729,079751,018199
0000000154,0000153000,012250,-76143,097633,027871,083793,025016
0000000155,0000154000,040333,-84901,095700,018036,084480,034164
0000000156,0000155000,065235,-84826,093203,010183,081751,044746
0000000157,0000156000,084373,-75878,090394,005094,075873,055712
0000000158,0000157000,095930,-58884,087539,003266,067414,066000
0000000159,0000158000,098851,-35545,084913,004869,057198,074612
0000000160,0000159000,092809,-08207,082784,009744,046242,080693
0000000161,0000160000,078350,020506,081358,017422,035614,083643
0000000162,0000161000,056894,047839,080770,027157,026338,083185
0000000163,0000162000,030600,071042,081079,037984,019333,079363
0000000164,0000163000,002044,087848,082255,048837,015293,072549
0000000165,0000164000,-26062,096633,084187,058672,014602,063405
0000000166,0000165000,-50927,096520,086685,066525,017328,052827
0000000167,0000166000,-70084,087582,089494,071612,023204,041863
0000000168,0000167000,-81681,070627,092349,073444,031659,031577
0000000169,0000168000,-84575,047255,094975,071845,041869,022966
0000000170,0000169000,-78525,019899,097106,066970,052824,016886
0000000171,0000170000,-64109,-08779,098533,059296,063449,013934
0000000172,0000171000,-42636,-36129,099121,049568,072721,014390
0000000173,0000172000,-16310,-59373,098812,038743,079728,018209
0000000174,0000173000,012215,-76152,097637,027891,083770,025018
0000000175,0000174000,040321,-84934,095705,018060,084461,034159
0000000176,0000175000,065232,-84866,093207,010208,081739,044733
0000000177,0000176000,084377,-75915,090398,005118,075868,055693
0000000178,0000177000,095957,-58934,087542,003286,067416,065976
0000000179,0000178000,098892,-35595,084914,004883,057210,074586
0000000180,0000179000,092847,-08240,082783,009752,046260,080667
0000000181,0000180000,078399,020479,081356,017422,035637,083621
0000000182,0000181000,056949,047817,080767,027148,026365,083167
0000000183,0000182000,030639,071046,081075,037967,019361,079352
0000000184,0000183000,002074,087868,082250,048815,015317,072547
0000000185,0000184000,-26035,096658,084182,058646,014622,063411
0000000186,0000185000,-50923,096562,086680,066497,017341,052841
0000000187,0000186000,-70101,087638,089490,071586,023209,041884
0000000188,0000187000,-81704,070676,092346,073421,031655,031604
0000000189,0000188000,-84612,047302,094974,071828,041857,022995
0000000190,0000189000,-78581,019948,097107,066962,052804,016914
0000000191,0000190000,-64162,-08747,098535,059298,063423,013959
0000000192,0000191000,-42685,-36118,099124,049578,072692,014409
0000000193,0000192000,-16363,-59369,098817,038761,079698,018220
0000000194,0000193000,012176,-76168,097643,027917,083743,025020
0000000195,0000194000,040304,-84974,095710,018090,084439,034151
0000000196,0000195000,065224,-84911,093212,010239,081724,044717
0000000197,0000196000,084386,-75966,090402,005148,075862,055669
0000000198,0000197000,095992,-58998,087545,003312,067420,065947
0000000199,0000198000,098937,-35653,084916,004901,057224,074554
0000000200,0000199000,092897,-08283,082782,009761,046282,080636
0000000201,0000200000,078463,020441,081353,017421,035666,083593
0000000202,0000201000,057012,047795,080763,027137,026397,083146
0000000203,0000202000,030687,071052,081070,037947,019394,079339
0000000204,0000203000,002115,087889,082243,048788,015347,072544
0000000205,0000204000,-26005,096690,084175,058613,014647,063419
0000000206,0000205000,-50921,096617,086674,066462,017358,052859
0000000207,0000206000,-70118,087703,089485,071554,023215,041911
0000000208,0000207000,-81732,070737,092343,073394,031650,031636
0000000209,0000208000,-84662,047365,094973,071808,041842,023030
0000000210,0000209000,-78647,020006,097108,066952,052779,016949
0000000211,0000210000,-64226,-08711,098538,059299,063391,013989
0000000212,0000211000,-42750,-36100,099129,049590,072657,014433
0000000213,0000212000,-16427,-59365,098823,038783,079662,018234
0000000214,0000213000,012132,-76191,097650,027948,083709,025023
0000000215,0000214000,040280,-85020,095717,018125,084412,034143
0000000216,0000215000,065214,-84965,093219,010276,081706,044697
0000000217,0000216000,084400,-76033,090407,005184,075855,055640
0000000218,0000217000,096033,-59075,087548,003342,067425,065911
0000000219,0000218000,098990,-35721,084917,004923,057240,074516
0000000220,0000219000,092961,-08338,082782,009773,046309,080598
0000000221,0000220000,078541,020394,081350,017420,035700,083559
0000000222,0000221000,057086,047771,080758,027123,026437,083120
0000000223,0000222000,030747,071057,081063,037922,019433,079324
0000000224,0000223000,002168,087912,082236,048755,015383,072541
0000000225,0000224000,-25971,096732,084168,058574,014676,063429
0000000226,0000225000,-50917,096684,086667,066421,017378,052880
0000000227,0000226000,-70136,087779,089480,071515,023222,041942
0000000228,0000227000,-81768,070812,092339,073361,031644,031675
0000000229,0000228000,-84724,047442,094972,071784,041824,023072
0000000230,0000229000,-78723,020073,097109,066940,052750,016990
0000000231,0000230000,-64303,-08668,098541,059300,063353,014026
0000000232,0000231000,-42830,-36075,099135,049604,072614,014461
0000000233,0000232000,-16501,-59362,098830,038810,079618,018251
0000000234,0000233000,012079,-76219,097658,027984,083669,025026
0000000235,0000234000,040248,-85071,095726,018168,084380,034132
0000000236,0000235000,065201,-85030,093226,010321,081685,044673
0000000237,0000236000,084420,-76115,090413,005226,075847,055606
0000000238,0000237000,096079,-59165,087552,003378,067432,065869
0000000239,0000238000,099051,-35800,084919,004948,057260,074470
0000000240,0000239000,093041,-08406,082780,009786,046341,080553
0000000241,0000240000,078633,020339,081347,017419,035741,083520
0000000242,0000241000,057171,047744,080752,027107,026483,083090
0000000243,0000242000,030822,071061,081055,037894,019480,079306
0000000244,0000243000,002232,087937,082227,048715,015426,072538
0000000245,0000244000,-25933,096784,084159,058528,014711,063440
0000000246,0000245000,-50912,096762,086659,066373,017401,052906
0000000247,0000246000,-70154,087866,089473,071469,023231,041979
0000000248,0000247000,-81812,070903,092334,073322,031638,031720
0000000249,0000248000,-84797,047535,094970,071756,041802,023122
0000000250,0000249000,-78810,020150,097110,066926,052715,017038
0000000251,0000250000,-64395,-08614,098545,059302,063309,014069
0000000252,0000251000,-42927,-36043,099141,049621,072565,014493
0000000253,0000252000,-16587,-59361,098839,038842,079568,018270
0000000254,0000253000,012016,-76253,097667,028027,083623,025030
0000000255,0000254000,040206,-85129,095736,018217,084343,034120
0000000256,0000255000,065189,-85108,093235,010373,081661,044646
0000000257,0000256000,084443,-76213,090421,005276,075838,055566
0000000258,0000257000,096131,-59268,087558,003420,067439,065820
0000000259,0000258000,099124,-35894,084921,004978,057284,074417
0000000260,0000259000,093136,-08490,082779,009801,046378,080501
0000000261,0000260000,078738,020275,081342,017417,035789,083474
0000000262,0000261000,057271,047713,080745,027088,026537,083055
0000000263,0000262000,030912,071063,081046,037860,019534,079285
0000000264,0000263000,002306,087967,082216,048669,015476,072534
0000000265,0000264000,-25890,096847,084148,058474,014751,063454
0000000266,0000265000,-50902,096851,086649,066317,017427,052936
0000000267,0000266000,-70174,087967,089464,071416,023240,042023
0000000268,0000267000,-81866,071012,092329,073277,031630,031773
0000000269,0000268000,-84881,047642,094967,071724,041777,023179
0000000270,0000269000,-78910,020239,097111,066911,052674,017094
0000000271,0000270000,-64505,-08550,098549,059304,063257,014118
0000000272,0000271000,-43039,-36005,099148,049641,072507,014531
0000000273,0000272000,-16685,-59360,098848,038878,079509,018292
0000000274,0000273000,011942,-76291,097679,028076,083570,025034
0000000275,0000274000,040157,-85194,095747,018275,084300,034105
0000000276,0000275000,065175,-85199,093246,010434,081632,044614
0000000277,0000276000,084470,-76326,090429,005333,075827,055519
0000000278,0000277000,096188,-59386,087564,003467,067448,065764
0000000279,0000278000,099209,-36005,084924,005013,057311,074355
0000000280,0000279000,093246,-08588,082778,009818,046421,080441
0000000281,0000280000,078859,020201,081338,017414,035844,083421
0000000282,0000281000,057387,047677,080737,027067,026599,083014
0000000283,0000282000,031018,071062,081036,037821,019597,079262
0000000284,0000283000,002391,088002,082204,048616,015533,072530
0000000285,0000284000,-25840,096920,084136,058412,014797,063469
0000000286,0000285000,-50889,096952,086638,066252,017457,052970
0000000287,0000286000,-70197,088084,089455,071356,023251,042073
0000000288,0000287000,-81928,071139,092323,073225,031620,031834
0000000289,0000288000,-84976,047765,094965,071688,041748,023244
0000000290,0000289000,-79025,020341,097112,066893,052628,017158
0000000291,0000290000,-64633,-08473,098555,059307,063198,014174
0000000292,0000291000,-43169,-35961,099157,049665,072441,014574
0000000293,0000292000,-16798,-59360,098860,038920,079442,018317
0000000294,0000293000,011854,-76332,097692,028132,083509,025038
0000000295,0000294000,040099,-85268,095760,018341,084251,034088
0000000296,0000295000,065159,-85306,093258,010502,081600,044577
0000000297,0000296000,084498,-76456,090439,005398,075816,055466
0000000298,0000297000,096253,-59520,087571,003522,067458,065699
0000000299,0000298000,099307,-36133,084927,005051,057342,074286
0000000300,0000299000,093373,-08701,082777,009837,046470,080373
0000000301,0000300000,078996,020118,081332,017411,035907,083361
