DIgSILENT PowerFactory,21000900,2000
6,06A,00D
1,TTPP_200000_100:Secondary Voltage A,,,V,0.10000000,-8381.250000,0.000000,69234,99998,1,1,P
2,TTPP_200000_100:Secondary Voltage B,,,V,0.10000000,-8439.156250,0.000000,70402,99998,1,1,P
3,TTPP_200000_100:Secondary Voltage C,,,V,0.10000000,-8428.908203,0.000000,66817,99998,1,1,P
4,TTCC_500_5:Secondary Current A,,,A,0.0010000000,-79.325195,0.000000,65085,99998,1,1,P
5,TTCC_500_5:Secondary Current B,,,A,0.0010000000,-84.506706,0.000000,69092,99998,1,1,P
6,TTCC_500_5:Secondary Current C,,,A,0.0010000000,-84.877579,0.000000,69776,99998,1,1,P
50
1
1000.000000,1101
30/06/2023,06:10:54.000000
30/06/2023,06:10:54.000000
ASCII
1.000000
0000000001,0000000000,089325,088032,075136,085241,089186,074282
0000000002,0000001000,086776,090466,075251,082224,091904,074581
0000000003,0000002000,083928,092318,076249,078928,093895,075886
0000000004,0000003000,081076,093386,078031,075672,094965,078072
0000000005,0000004000,078496,093564,080433,072765,095018,080926
0000000006,0000005000,076423,092858,083212,070505,094038,084166
0000000007,0000006000,075079,091326,086087,069114,092123,087472
0000000008,0000007000,074601,089100,088793,068717,089465,090527
0000000009,0000008000,075013,086417,091062,069357,086322,093031
0000000010,0000009000,076280,083552,092662,070976,083000,094733
0000000011,0000010000,078300,080752,093441,073414,079824,095471
0000000012,0000011000,080859,078306,093327,076428,077109,095173
0000000013,0000012000,083690,076472,092330,079725,075117,093867
0000000014,0000013000,086544,075403,090546,082986,074042,091682
0000000015,0000014000,089141,075208,088145,085887,073995,088828
0000000016,0000015000,091199,075928,085367,088145,074976,085588
0000000017,0000016000,092536,077466,082491,089542,076886,082281
0000000018,0000017000,093034,079674,079786,089938,079545,079227
0000000019,0000018000,092615,082362,077516,089294,082692,076723
0000000020,0000019000,091332,085245,075916,087677,086012,075020
0000000021,0000020000,089330,088025,075137,085242,089184,074283
0000000022,0000021000,086775,090467,075251,082224,091904,074581
0000000023,0000022000,083923,092323,076248,078926,093896,075887
0000000024,0000023000,081079,093382,078032,075670,094967,078072
0000000025,0000024000,078498,093562,080434,072767,095017,080926
0000000026,0000025000,076420,092862,083211,070506,094038,084166
0000000027,0000026000,075079,091326,086087,069112,092125,087473
0000000028,0000027000,074602,089098,088793,068716,089466,090528
0000000029,0000028000,075012,086419,091062,069358,086321,093031
0000000030,0000029000,076281,083551,092662,070976,083000,094734
0000000031,0000030000,078301,080751,093441,073412,079826,095471
0000000032,0000031000,080857,078309,093328,076427,077110,095173
0000000033,0000032000,083692,076471,092330,079726,075116,093867
0000000034,0000033000,086546,075401,090546,082984,074043,091682
0000000035,0000034000,089137,075211,088145,085885,073996,088828
0000000036,0000035000,091199,075927,085367,088146,074975,085588
0000000037,0000036000,092541,077462,082491,089542,076886,082282
0000000038,0000037000,093032,079676,079786,089937,079546,079227
0000000039,0000038000,092611,082365,077517,089293,082692,076724
0000000040,0000039000,091338,085239,075916,087677,086011,075021
0000000041,0000040000,089331,088025,075137,085241,089185,074283
0000000042,0000041000,086770,090473,075251,082224,091904,074582
0000000043,0000042000,083926,092320,076247,078927,093896,075887
0000000044,0000043000,081084,093378,078031,075670,094967,078072
0000000045,0000044000,078493,093567,080433,072766,095017,080926
0000000046,0000045000,076418,092864,083211,070506,094037,084166
0000000047,0000046000,075085,091321,086087,069112,092125,087472
0000000048,0000047000,074600,089100,088793,068715,089467,090527
0000000049,0000048000,075007,086424,091062,069358,086321,093030
0000000050,0000049000,076284,083547,092662,070976,083000,094733
0000000051,0000050000,078302,080750,093442,073411,079828,095471
0000000052,0000051000,080852,078313,093328,076427,077110,095173
0000000053,0000052000,083693,076470,092331,079726,075116,093867
0000000054,0000053000,086548,075398,090547,082983,074045,091682
0000000055,0000054000,089134,075214,088146,085884,073997,088828
0000000056,0000055000,091198,075928,085367,088146,074975,085589
0000000057,0000056000,092544,077458,082491,089541,076886,082283
0000000058,0000057000,093030,079677,079786,089935,079547,079228
0000000059,0000058000,092610,082367,077517,089293,082692,076725
0000000060,0000059000,091341,085236,075916,087677,086011,075022
0000000061,0000060000,089332,088025,075137,085241,089185,074284
0000000062,0000061000,086768,090475,075250,082224,091903,074582
0000000063,0000062000,083928,092318,076247,078928,093895,075887
0000000064,0000063000,081085,093378,078031,075670,094967,078073
0000000065,0000064000,078491,093570,080433,072767,095017,080926
0000000066,0000065000,076420,092863,083210,070507,094037,084165
0000000067,0000066000,075086,091320,086087,069112,092126,087472
0000000068,0000067000,074597,089103,088792,068716,089467,090526
0000000069,0000068000,075007,086425,091061,069359,086322,093029
0000000070,0000069000,076286,083546,092662,070976,083001,094732
0000000071,0000070000,078298,080753,093442,073410,079829,095470
0000000072,0000071000,080850,078315,093329,076427,077111,095172
0000000073,0000072000,083695,076467,092331,079725,075118,093867
0000000074,0000073000,086546,075398,090548,082981,074046,091682
0000000075,0000074000,089131,075215,088146,085883,073997,088829
0000000076,0000075000,091201,075924,085368,088144,074975,085590
0000000077,0000076000,092545,077456,082492,089539,076887,082284
0000000078,0000077000,093028,079679,079787,089934,079546,079229
0000000079,0000078000,092613,082364,077517,089293,082691,076726
0000000080,0000079000,091344,085233,075916,087676,086010,075023
0000000081,0000080000,089330,088027,075136,085240,089184,074285
0000000082,0000081000,086770,090474,075249,082225,091901,074583
0000000083,0000082000,083932,092315,076246,078928,093893,075888
0000000084,0000083000,081084,093380,078030,075670,094966,078073
0000000085,0000084000,078489,093573,080431,072768,095015,080926
0000000086,0000085000,076423,092861,083209,070509,094036,084165
0000000087,0000086000,075086,091322,086086,069113,092126,087471
0000000088,0000087000,074594,089107,088792,068717,089467,090525
0000000089,0000088000,075008,086424,091061,069360,086322,093028
0000000090,0000089000,076286,083545,092662,070976,083003,094731
0000000091,0000090000,078294,080756,093443,073410,079831,095469
0000000092,0000091000,080849,078315,093330,076426,077113,095171
0000000093,0000092000,083696,076465,092333,079723,075120,093867
0000000094,0000093000,086544,075400,090550,082979,074048,091682
0000000095,0000094000,089130,075215,088148,085882,073999,088829
0000000096,0000095000,091203,075921,085370,088142,074976,085591
0000000097,0000096000,092544,077455,082494,089537,076888,082285
0000000098,0000097000,093027,079679,079787,089933,079546,079231
0000000099,0000098000,092616,082360,077517,089292,082690,076728
0000000100,0000099000,091346,085231,075916,087675,086009,075025
0000000101,0000100000,089330,088027,075135,085240,089182,074287
0000000102,0000101000,086773,090473,075248,082226,091899,074585
0000000103,0000102000,083935,092314,076244,078929,093891,075889
0000000104,0000103000,081083,093382,078028,075672,094964,078073
0000000105,0000104000,078491,093574,080429,072771,095013,080925
0000000106,0000105000,076425,092861,083207,070511,094035,084163
0000000107,0000106000,075084,091325,086084,069115,092126,087469
0000000108,0000107000,074593,089110,088790,068719,089468,090522
0000000109,0000108000,075008,086424,091060,069361,086323,093025
0000000110,0000109000,076283,083548,092662,070976,083005,094728
0000000111,0000110000,078291,080759,093443,073410,079833,095466
0000000112,0000111000,080849,078314,093331,076425,077115,095169
0000000113,0000112000,083693,076465,092335,079721,075123,093865
0000000114,0000113000,086540,075401,090552,082977,074051,091682
0000000115,0000114000,089130,075213,088150,085879,074001,088830
0000000116,0000115000,091203,075917,085372,088139,074978,085592
0000000117,0000116000,092543,077455,082496,089533,076888,082288
0000000118,0000117000,093029,079676,079789,089930,079545,079234
0000000119,0000118000,092620,082356,077518,089290,082688,076732
0000000120,0000119000,091347,085230,075916,087674,086007,075029
0000000121,0000120000,089332,088027,075134,085241,089179,074290
0000000122,0000121000,086777,090470,075246,082227,091895,074587
0000000123,0000122000,083937,092314,076242,078931,093888,075890
0000000124,0000123000,081084,093385,078025,075675,094961,078073
0000000125,0000124000,078494,093574,080426,072774,095011,080925
0000000126,0000125000,076426,092863,083204,070514,094034,084162
0000000127,0000126000,075082,091330,086082,069119,092125,087466
0000000128,0000127000,074592,089112,088788,068722,089468,090519
0000000129,0000128000,075007,086426,091060,069363,086325,093021
0000000130,0000129000,076278,083552,092663,070977,083008,094724
0000000131,0000130000,078287,080761,093445,073410,079836,095463
0000000132,0000131000,080847,078313,093333,076424,077119,095167
0000000133,0000132000,083689,076465,092338,079718,075127,093864
0000000134,0000133000,086537,075401,090555,082973,074055,091682
0000000135,0000134000,089130,075209,088154,085875,074004,088831
0000000136,0000135000,091203,075915,085376,088134,074981,085595
0000000137,0000136000,092542,077453,082498,089529,076889,082291
0000000138,0000137000,093032,079671,079790,089927,079545,079238
0000000139,0000138000,092623,082352,077519,089287,082687,076736
0000000140,0000139000,091349,085229,075916,087673,086004,075033
0000000141,0000140000,089336,088024,075133,085241,089175,074294
0000000142,0000141000,086782,090467,075243,082228,091891,074590
0000000143,0000142000,083939,092316,076238,078934,093884,075892
0000000144,0000143000,081087,093386,078021,075679,094957,078074
0000000145,0000144000,078497,093575,080422,072779,095007,080923
0000000146,0000145000,076425,092867,083201,070519,094032,084159
0000000147,0000146000,075080,091335,086078,069123,092124,087462
0000000148,0000147000,074591,089116,088786,068726,089468,090514
0000000149,0000148000,075004,086430,091059,069366,086328,093016
0000000150,0000149000,076273,083557,092663,070978,083012,094719
0000000151,0000150000,078284,080763,093446,073410,079841,095459
0000000152,0000151000,080843,078314,093336,076422,077125,095163
0000000153,0000152000,083684,076467,092342,079715,075133,093862
0000000154,0000153000,086534,075399,090560,082969,074059,091681
0000000155,0000154000,089129,075205,088159,085869,074008,088832
0000000156,0000155000,091201,075912,085380,088128,074983,085598
0000000157,0000156000,092543,077449,082502,089524,076890,082295
0000000158,0000157000,093035,079665,079793,089922,079544,079244
0000000159,0000158000,092626,082347,077520,089283,082684,076742
0000000160,0000159000,091353,085225,075915,087671,086000,075039
0000000161,0000160000,089343,088020,075130,085241,089169,074299
0000000162,0000161000,086788,090465,075240,082230,091885,074594
0000000163,0000162000,083943,092317,076234,078937,093878,075894
0000000164,0000163000,081091,093387,078015,075685,094951,078074
0000000165,0000164000,078500,093577,080416,072785,095003,080922
0000000166,0000165000,076425,092873,083196,070525,094029,084156
0000000167,0000166000,075079,091340,086074,069130,092123,087457
0000000168,0000167000,074589,089120,088783,068732,089469,090508
0000000169,0000168000,074999,086437,091058,069369,086331,093010
0000000170,0000169000,076267,083562,092664,070980,083016,094713
0000000171,0000170000,078279,080766,093449,073410,079847,095453
0000000172,0000171000,080837,078316,093340,076419,077132,095159
0000000173,0000172000,083678,076468,092347,079711,075140,093859
0000000174,0000173000,086531,075397,090566,082963,074066,091681
0000000175,0000174000,089126,075202,088165,085862,074013,088834
0000000176,0000175000,091199,075908,085386,088121,074987,085601
0000000177,0000176000,092545,077442,082506,089517,076891,082301
0000000178,0000177000,093039,079658,079796,089916,079543,079250
0000000179,0000178000,092630,082342,077522,089279,082681,076749
0000000180,0000179000,091359,085220,075914,087669,085994,075046
0000000181,0000180000,089350,088015,075128,085241,089162,074306
0000000182,0000181000,086793,090464,075236,082232,091878,074599
0000000183,0000182000,083948,092317,076228,078942,093870,075897
0000000184,0000183000,081096,093388,078009,075691,094944,078075
0000000185,0000184000,078502,093581,080410,072792,094997,080920
0000000186,0000185000,076425,092879,083189,070533,094025,084151
0000000187,0000186000,075078,091346,086069,069137,092121,087451
0000000188,0000187000,074586,089127,088780,068738,089471,090501
0000000189,0000188000,074992,086444,091056,069374,086334,093001
0000000190,0000189000,076261,083568,092664,070983,083022,094705
0000000191,0000190000,078272,080769,093452,073409,079855,095446
0000000192,0000191000,080829,078319,093345,076416,077140,095153
0000000193,0000192000,083672,076468,092354,079705,075148,093856
0000000194,0000193000,086526,075393,090573,082956,074074,091680
0000000195,0000194000,089123,075198,088173,085853,074020,088836
0000000196,0000195000,091198,075902,085393,088112,074991,085606
0000000197,0000196000,092547,077434,082512,089509,076893,082308
0000000198,0000197000,093043,079650,079801,089909,079542,079259
0000000199,0000198000,092635,082335,077523,089274,082677,076759
0000000200,0000199000,091367,085213,075913,087666,085988,075055
0000000201,0000200000,089359,088010,075125,085241,089154,074314
0000000202,0000201000,086801,090462,075230,082236,091868,074605
0000000203,0000202000,083956,092317,076221,078948,093860,075901
0000000204,0000203000,081103,093390,078001,075699,094935,078075
0000000205,0000204000,078505,093587,080401,072802,094990,080918
0000000206,0000205000,076426,092886,083181,070543,094020,084146
0000000207,0000206000,075077,091353,086062,069147,092119,087443
0000000208,0000207000,074582,089136,088775,068746,089472,090491
0000000209,0000208000,074986,086453,091054,069380,086339,092991
0000000210,0000209000,076254,083575,092665,070986,083029,094695
0000000211,0000210000,078264,080775,093455,073409,079864,095437
0000000212,0000211000,080819,078323,093351,076413,077151,095146
0000000213,0000212000,083664,076468,092361,079699,075159,093852
0000000214,0000213000,086520,075390,090582,082947,074083,091679
0000000215,0000214000,089118,075193,088182,085843,074028,088839
0000000216,0000215000,091197,075895,085401,088101,074996,085612
0000000217,0000216000,092550,077424,082519,089499,076895,082316
0000000218,0000217000,093047,079641,079805,089900,079540,079269
0000000219,0000218000,092642,082326,077525,089268,082672,076770
0000000220,0000219000,091376,085205,075912,087663,085980,075066
0000000221,0000220000,089368,088004,075121,085242,089144,074323
0000000222,0000221000,086810,090459,075224,082240,091857,074613
0000000223,0000222000,083965,092316,076212,078955,093849,075905
0000000224,0000223000,081110,093393,077991,075709,094925,078076
0000000225,0000224000,078509,093593,080391,072813,094982,080915
0000000226,0000225000,076427,092894,083172,070555,094014,084140
0000000227,0000226000,075076,091363,086054,069158,092117,087434
0000000228,0000227000,074576,089147,088770,068755,089474,090480
0000000229,0000228000,074978,086463,091052,069386,086344,092979
0000000230,0000229000,076244,083583,092666,070989,083038,094683
0000000231,0000230000,078252,080781,093460,073408,079875,095426
0000000232,0000231000,080808,078327,093358,076408,077163,095138
0000000233,0000232000,083655,076467,092371,079691,075171,093847
0000000234,0000233000,086513,075387,090593,082936,074095,091678
0000000235,0000234000,089113,075187,088193,085831,074037,088842
0000000236,0000235000,091196,075885,085412,088089,075002,085619
0000000237,0000236000,092552,077413,082528,089486,076897,082326
0000000238,0000237000,093052,079630,079811,089890,079539,079281
0000000239,0000238000,092650,082315,077528,089260,082666,076783
0000000240,0000239000,091387,085195,075911,087660,085971,075079
0000000241,0000240000,089379,087997,075116,085242,089133,074335
0000000242,0000241000,086821,090456,075216,082244,091844,074621
0000000243,0000242000,083976,092316,076202,078964,093835,075910
0000000244,0000243000,081118,093397,077979,075720,094912,078077
0000000245,0000244000,078514,093601,080379,072826,094972,080911
0000000246,0000245000,076429,092904,083161,070569,094008,084132
0000000247,0000246000,075073,091375,086045,069171,092115,087423
0000000248,0000247000,074569,089160,088764,068766,089476,090467
0000000249,0000248000,074969,086475,091049,069394,086350,092965
0000000250,0000249000,076233,083593,092667,070993,083048,094669
0000000251,0000250000,078239,080790,093465,073408,079888,095414
0000000252,0000251000,080796,078331,093367,076403,077177,095129
0000000253,0000252000,083644,076467,092382,079682,075186,093842
0000000254,0000253000,086504,075383,090606,082924,074108,091677
0000000255,0000254000,089107,075180,088206,085817,074047,088846
0000000256,0000255000,091195,075874,085424,088074,075009,085627
0000000257,0000256000,092554,077401,082538,089472,076900,082338
0000000258,0000257000,093058,079617,079818,089878,079536,079295
0000000259,0000258000,092661,082302,077531,089252,082660,076798
0000000260,0000259000,091400,085183,075910,087655,085960,075094
0000000261,0000260000,089393,087989,075111,085243,089119,074348
0000000262,0000261000,086835,090451,075207,082250,091828,074631
0000000263,0000262000,083988,092315,076190,078974,093820,075916
0000000264,0000263000,081127,093401,077965,075733,094898,078078
0000000265,0000264000,078520,093609,080365,072842,094960,080907
0000000266,0000265000,076431,092915,083147,070585,094000,084124
0000000267,0000266000,075070,091389,086035,069186,092113,087411
0000000268,0000267000,074562,089175,088756,068779,089478,090452
0000000269,0000268000,074959,086489,091046,069403,086358,092948
0000000270,0000269000,076219,083605,092669,070997,083059,094653
0000000271,0000270000,078224,080799,093470,073407,079903,095400
0000000272,0000271000,080782,078335,093377,076398,077194,095118
0000000273,0000272000,083631,076467,092395,079671,075202,093836
0000000274,0000273000,086493,075379,090621,082910,074123,091676
0000000275,0000274000,089101,075171,088221,085800,074059,088850
0000000276,0000275000,091194,075862,085438,088056,075017,085636
0000000277,0000276000,092557,077386,082550,089456,076902,082351
0000000278,0000277000,093066,079601,079826,089864,079534,079312
0000000279,0000278000,092673,082287,077534,089242,082652,076816
0000000280,0000279000,091414,085171,075909,087651,085948,075111
0000000281,0000280000,089408,087980,075105,085244,089103,074363
0000000282,0000281000,086851,090445,075196,082256,091810,074643
0000000283,0000282000,084002,092315,076176,078985,093802,075923
0000000284,0000283000,081137,093407,077949,075749,094882,078079
0000000285,0000284000,078527,093618,080348,072860,094947,080903
0000000286,0000285000,076433,092928,083132,070604,093992,084114
0000000287,0000286000,075066,091405,086022,069204,092110,087396
0000000288,0000287000,074554,089191,088747,068794,089481,090434
0000000289,0000288000,074947,086504,091042,069414,086366,092930
0000000290,0000289000,076204,083619,092671,071002,083073,094634
0000000291,0000290000,078207,080809,093477,073406,079920,095384
0000000292,0000291000,080765,078341,093388,076391,077213,095106
0000000293,0000292000,083616,076467,092410,079659,075222,093829
0000000294,0000293000,086481,075374,090638,082893,074141,091675
0000000295,0000294000,089094,075160,088239,085781,074073,088855
0000000296,0000295000,091191,075848,085454,088036,075026,085647
0000000297,0000296000,092560,077370,082563,089437,076906,082367
0000000298,0000297000,093075,079583,079835,089849,079530,079331
0000000299,0000298000,092686,082269,077538,089231,082643,076836
0000000300,0000299000,091430,085156,075907,087645,085933,075131
0000000301,0000300000,089427,087969,075097,085245,089084,074380
