DIgSILENT PowerFactory,21000900,2000
6,06A,00D
1,TTPP_200000_100:Secondary Voltage A,,,V,0.10000000,-8498.791992,0.000000,71148,99998,1,1,P
2,TTPP_200000_100:Secondary Voltage B,,,V,0.10000000,-8514.945313,0.000000,71720,99998,1,1,P
3,TTPP_200000_100:Secondary Voltage C,,,V,0.10000000,-8461.692383,0.000000,66352,99998,1,1,P
4,TTCC_300_1:Secondary Current A,,,A,0.00010000000,-5.457799,0.000000,-11277,99998,1,1,P
5,TTCC_300_1:Secondary Current B,,,A,0.00010000000,-4.868688,0.000000,-3402,99998,1,1,P
6,TTCC_300_1:Secondary Current C,,,A,0.00010000000,-5.023001,0.000000,243,99998,1,1,P
50
1
1000.000000,1101
30/06/2023,06:10:17.000000
30/06/2023,06:10:17.000000
ASCII
1.000000
0000000001,0000000000,092094,086625,076035,033648,034697,085149
0000000002,0000001000,089960,089342,075451,043401,025419,084676
0000000003,0000002000,087319,091673,075762,054240,018422,080833
0000000004,0000003000,084463,093351,076939,065119,014378,073998
0000000005,0000004000,081669,094213,078872,074962,013703,064829
0000000006,0000005000,079182,094204,081369,082810,016456,054230
0000000007,0000006000,077260,093318,084175,087896,022350,043248
0000000008,0000007000,076116,091610,087029,089720,030826,032951
0000000009,0000008000,075831,089272,089650,088095,041066,024334
0000000010,0000009000,076428,086550,091776,083198,052041,018256
0000000011,0000010000,077877,083679,093198,075504,062675,015316
0000000012,0000011000,080030,080941,093783,065745,071961,015789
0000000013,0000012000,082652,078632,093471,054896,078968,019631
0000000014,0000013000,085503,076957,092294,044031,082997,026467
0000000015,0000014000,088317,076075,090362,034187,083673,035636
0000000016,0000015000,090796,076092,087865,026329,080933,046234
0000000017,0000016000,092703,076993,085057,021249,075029,057216
0000000018,0000017000,093866,078683,082206,019431,066550,067514
0000000019,0000018000,094150,081020,079584,021047,056318,076130
0000000020,0000019000,093538,083759,077457,025945,045342,082207
0000000021,0000020000,092100,086619,076035,033647,034699,085149
0000000022,0000021000,089954,089349,075451,043398,025422,084675
0000000023,0000022000,087317,091674,075763,054248,018415,080833
0000000024,0000023000,084471,093344,076939,065119,014379,073997
0000000025,0000024000,081668,094215,078872,074959,013706,064829
0000000026,0000025000,079175,094211,081369,082814,016452,054229
0000000027,0000026000,077267,093312,084176,087902,022345,043248
0000000028,0000027000,076119,091608,087028,089716,030829,032950
0000000029,0000028000,075824,089279,089651,088096,041065,024334
0000000030,0000029000,076429,086549,091776,083204,052034,018256
0000000031,0000030000,077883,083673,093198,075504,062676,015315
0000000032,0000031000,080025,080946,093783,065744,071962,015788
0000000033,0000032000,082649,078635,093471,054901,078963,019630
0000000034,0000033000,085508,076952,092294,044035,082994,026466
0000000035,0000034000,088316,076076,090362,034185,083676,035634
0000000036,0000035000,090792,076097,087865,026332,080930,046233
0000000037,0000036000,092707,076989,085058,021254,075027,057214
0000000038,0000037000,093868,078681,082206,019431,066551,067512
0000000039,0000038000,094147,081024,079583,021047,056319,076128
0000000040,0000039000,093539,083758,077457,025949,045339,082206
0000000041,0000040000,092103,086616,076035,033647,034700,085148
0000000042,0000041000,089952,089351,075451,043398,025423,084674
0000000043,0000042000,087317,091675,075762,054249,018414,080832
0000000044,0000043000,084473,093342,076939,065119,014378,073997
0000000045,0000044000,081666,094217,078872,074958,013707,064829
0000000046,0000045000,079174,094212,081368,082815,016450,054230
0000000047,0000046000,077269,093310,084175,087901,022345,043249
0000000048,0000047000,076117,091609,087028,089716,030828,032951
0000000049,0000048000,075823,089281,089650,088098,041063,024335
0000000050,0000049000,076432,086546,091776,083205,052032,018257
0000000051,0000050000,077882,083674,093199,075504,062675,015316
0000000052,0000051000,080022,080949,093783,065748,071958,015789
0000000053,0000052000,082651,078632,093471,054905,078960,019630
0000000054,0000053000,085509,076951,092295,044035,082994,026466
0000000055,0000054000,088313,076079,090363,034189,083673,035633
0000000056,0000055000,090794,076095,087865,026337,080926,046231
0000000057,0000056000,092710,076986,085058,021255,075028,057212
0000000058,0000057000,093864,078684,082207,019433,066552,067510
0000000059,0000058000,094147,081024,079583,021052,056317,076125
0000000060,0000059000,093544,083754,077457,025950,045341,082203
0000000061,0000060000,092101,086618,076035,033646,034704,085145
0000000062,0000061000,089949,089354,075450,043400,025423,084672
0000000063,0000062000,087321,091671,075762,054249,018415,080831
0000000064,0000063000,084474,093341,076939,065115,014383,073996
0000000065,0000064000,081662,094221,078871,074957,013708,064829
0000000066,0000065000,079176,094210,081368,082815,016449,054231
0000000067,0000066000,077271,093308,084175,087897,022347,043251
0000000068,0000067000,076113,091613,087028,089713,030828,032954
0000000069,0000068000,075822,089282,089650,088099,041058,024338
0000000070,0000069000,076435,086543,091776,083205,052030,018261
0000000071,0000070000,077879,083676,093199,075503,062673,015319
0000000072,0000071000,080020,080951,093784,065751,071952,015791
0000000073,0000072000,082654,078629,093472,054909,078955,019632
0000000074,0000073000,085508,076950,092296,044038,082992,026466
0000000075,0000074000,088309,076081,090363,034195,083669,035631
0000000076,0000075000,090795,076093,087866,026344,080923,046229
0000000077,0000076000,092711,076984,085059,021258,075028,057209
0000000078,0000077000,093862,078686,082207,019437,066552,067505
0000000079,0000078000,094148,081023,079584,021057,056317,076121
0000000080,0000079000,093546,083751,077457,025952,045345,082198
0000000081,0000080000,092100,086619,076035,033646,034709,085141
0000000082,0000081000,089950,089354,075450,043400,025427,084668
0000000083,0000082000,087324,091669,075761,054246,018420,080829
0000000084,0000083000,084474,093343,076938,065111,014388,073996
0000000085,0000084000,081661,094223,078870,074953,013711,064830
0000000086,0000085000,079179,094209,081367,082810,016451,054234
0000000087,0000086000,077271,093309,084175,087891,022348,043255
0000000088,0000087000,076111,091616,087027,089710,030826,032959
0000000089,0000088000,075823,089281,089650,088097,041054,024344
0000000090,0000089000,076434,086543,091777,083202,052026,018266
0000000091,0000090000,077876,083679,093200,075504,062667,015324
0000000092,0000091000,080020,080951,093784,065755,071945,015795
0000000093,0000092000,082654,078627,093473,054912,078949,019634
0000000094,0000093000,085505,076952,092297,044043,082986,026466
0000000095,0000094000,088309,076081,090364,034203,083663,035630
0000000096,0000095000,090798,076089,087867,026351,080919,046225
0000000097,0000096000,092710,076984,085060,021265,075027,057203
0000000098,0000097000,093861,078686,082207,019445,066552,067498
0000000099,0000098000,094151,081019,079584,021062,056320,076113
0000000100,0000099000,093547,083750,077457,025953,045351,082191
0000000101,0000100000,092099,086621,076034,033647,034715,085133
0000000102,0000101000,089953,089352,075449,043399,025433,084663
0000000103,0000102000,087327,091667,075760,054240,018429,080826
0000000104,0000103000,084472,093346,076936,065104,014396,073995
0000000105,0000104000,081663,094224,078868,074947,013715,064832
0000000106,0000105000,079181,094208,081366,082801,016455,054238
0000000107,0000106000,077269,093312,084173,087883,022351,043262
0000000108,0000107000,076110,091619,087026,089704,030824,032967
0000000109,0000108000,075824,089281,089649,088092,041050,024353
0000000110,0000109000,076432,086545,091777,083199,052021,018275
0000000111,0000110000,077872,083682,093200,075506,062657,015332
0000000112,0000111000,080020,080949,093785,065759,071934,015801
0000000113,0000112000,082653,078627,093475,054917,078940,019638
0000000114,0000113000,085502,076954,092299,044052,082976,026466
0000000115,0000114000,088309,076079,090366,034214,083654,035627
0000000116,0000115000,090799,076086,087869,026361,080915,046220
0000000117,0000116000,092709,076984,085062,021275,075025,057195
0000000118,0000117000,093862,078684,082208,019455,066552,067488
0000000119,0000118000,094155,081016,079584,021068,056325,076102
0000000120,0000119000,093548,083749,077457,025956,045360,082179
0000000121,0000120000,092101,086620,076033,033648,034724,085123
0000000122,0000121000,089957,089350,075447,043395,025445,084655
0000000123,0000122000,087328,091668,075758,054233,018442,080821
0000000124,0000123000,084472,093348,076934,065095,014406,073993
0000000125,0000124000,081665,094224,078866,074936,013724,064835
0000000126,0000125000,079181,094210,081364,082788,016462,054245
0000000127,0000126000,077267,093316,084172,087871,022353,043271
0000000128,0000127000,076109,091620,087025,089695,030821,032979
0000000129,0000128000,075823,089282,089649,088084,041045,024366
0000000130,0000129000,076428,086549,091777,083195,052012,018288
0000000131,0000130000,077870,083683,093201,075507,062644,015343
0000000132,0000131000,080019,080949,093787,065764,071920,015810
0000000133,0000132000,082650,078628,093477,054925,078926,019643
0000000134,0000133000,085499,076954,092301,044065,082962,026467
0000000135,0000134000,088310,076076,090369,034229,083643,035624
0000000136,0000135000,090798,076084,087872,026375,080908,046212
0000000137,0000136000,092708,076983,085064,021290,075022,057183
0000000138,0000137000,093865,078680,082210,019468,066553,067473
0000000139,0000138000,094157,081012,079585,021076,056332,076086
0000000140,0000139000,093549,083749,077457,025961,045370,082164
0000000141,0000140000,092104,086618,076032,033648,034737,085110
0000000142,0000141000,089961,089348,075445,043390,025461,084645
0000000143,0000142000,087329,091669,075756,054223,018458,080814
0000000144,0000143000,084474,093349,076931,065082,014420,073992
0000000145,0000144000,081668,094224,078863,074919,013736,064839
0000000146,0000145000,079181,094213,081361,082770,016471,054254
0000000147,0000146000,077265,093320,084169,087855,022355,043284
0000000148,0000147000,076109,091622,087023,089681,030818,032996
0000000149,0000148000,075821,089285,089649,088073,041038,024384
0000000150,0000149000,076424,086553,091778,083190,051999,018306
0000000151,0000150000,077868,083684,093202,075508,062627,015359
0000000152,0000151000,080016,080949,093790,065769,071903,015822
0000000153,0000152000,082645,078629,093480,054937,078908,019650
0000000154,0000153000,085497,076952,092305,044082,082944,026469
0000000155,0000154000,088309,076073,090372,034247,083629,035619
0000000156,0000155000,090797,076083,087875,026394,080899,046202
0000000157,0000156000,092709,076980,085066,021309,075018,057168
0000000158,0000157000,093868,078675,082211,019484,066556,067455
0000000159,0000158000,094159,081009,079586,021088,056341,076066
0000000160,0000159000,093552,083746,077456,025967,045384,082144
0000000161,0000160000,092109,086615,076030,033648,034755,085092
0000000162,0000161000,089965,089346,075443,043382,025482,084631
0000000163,0000162000,087332,091670,075752,054210,018479,080806
0000000164,0000163000,084478,093350,076927,065065,014440,073990
0000000165,0000164000,081670,094226,078859,074898,013753,064844
0000000166,0000165000,079180,094217,081357,082748,016482,054265
0000000167,0000166000,077264,093324,084166,087835,022359,043301
0000000168,0000167000,076108,091625,087021,089663,030816,033017
0000000169,0000168000,075817,089290,089648,088060,041029,024407
0000000170,0000169000,076420,086557,091778,083184,051982,018328
0000000171,0000170000,077864,083686,093204,075509,062607,015379
0000000172,0000171000,080011,080951,093793,065777,071880,015838
0000000173,0000172000,082641,078630,093484,054952,078883,019659
0000000174,0000173000,085495,076950,092309,044102,082922,026471
0000000175,0000174000,088307,076070,090377,034270,083611,035614
0000000176,0000175000,090795,076080,087879,026420,080887,046188
0000000177,0000176000,092710,076975,085069,021334,075012,057149
0000000178,0000177000,093871,078669,082214,019504,066559,067431
0000000179,0000178000,094162,081006,079587,021102,056352,076040
0000000180,0000179000,093556,083743,077456,025975,045401,082118
0000000181,0000180000,092115,086611,076028,033647,034778,085069
0000000182,0000181000,089969,089346,075440,043373,025509,084613
0000000183,0000182000,087335,091671,075748,054194,018506,080795
0000000184,0000183000,084482,093350,076922,065043,014464,073988
0000000185,0000184000,081672,094229,078854,074871,013773,064850
0000000186,0000185000,079180,094222,081352,082720,016495,054279
0000000187,0000186000,077264,093328,084162,087809,022364,043323
0000000188,0000187000,076105,091630,087019,089640,030812,033043
0000000189,0000188000,075812,089296,089647,088043,041016,024436
0000000190,0000189000,076415,086561,091779,083176,051962,018357
0000000191,0000190000,077859,083688,093207,075509,062581,015404
0000000192,0000191000,080005,080953,093796,065787,071851,015857
0000000193,0000192000,082636,078630,093489,054971,078853,019671
0000000194,0000193000,085492,076947,092315,044127,082894,026474
0000000195,0000194000,088305,076067,090383,034299,083590,035606
0000000196,0000195000,090794,076076,087884,026451,080872,046172
0000000197,0000196000,092712,076968,085074,021364,075006,057125
0000000198,0000197000,093874,078664,082217,019529,066564,067402
0000000199,0000198000,094166,081001,079588,021121,056366,076008
0000000200,0000199000,093562,083737,077455,025985,045423,082087
0000000201,0000200000,092121,086607,076026,033646,034808,085041
0000000202,0000201000,089974,089345,075435,043362,025542,084592
0000000203,0000202000,087341,091671,075742,054174,018538,080782
0000000204,0000203000,084487,093352,076916,065015,014495,073985
0000000205,0000204000,081673,094233,078848,074838,013798,064858
0000000206,0000205000,079180,094228,081347,082686,016511,054297
0000000207,0000206000,077263,093334,084157,087776,022370,043349
0000000208,0000207000,076102,091637,087015,089612,030808,033075
0000000209,0000208000,075806,089303,089645,088024,041001,024471
0000000210,0000209000,076410,086565,091779,083166,051937,018391
0000000211,0000210000,077853,083692,093209,075510,062550,015435
0000000212,0000211000,079998,080956,093801,065799,071815,015881
0000000213,0000212000,082630,078629,093495,054994,078816,019685
0000000214,0000213000,085488,076945,092321,044157,082861,026476
0000000215,0000214000,088301,076063,090390,034335,083563,035597
0000000216,0000215000,090794,076070,087891,026489,080853,046152
0000000217,0000216000,092714,076961,085079,021399,075000,057096
0000000218,0000217000,093877,078657,082221,019559,066569,067366
0000000219,0000218000,094171,080994,079589,021143,056382,075969
0000000220,0000219000,093570,083731,077454,025996,045450,082049
0000000221,0000220000,092128,086603,076023,033645,034843,085008
0000000222,0000221000,089981,089343,075430,043349,025580,084566
0000000223,0000222000,087348,091670,075736,054150,018578,080767
0000000224,0000223000,084492,093354,076908,064981,014531,073982
0000000225,0000224000,081676,094238,078840,074799,013828,064868
0000000226,0000225000,079181,094234,081339,082646,016530,054319
0000000227,0000226000,077262,093341,084152,087737,022378,043381
0000000228,0000227000,076097,091646,087011,089579,030803,033114
0000000229,0000228000,075800,089310,089644,088001,040982,024513
0000000230,0000229000,076403,086571,091780,083154,051908,018433
0000000231,0000230000,077844,083697,093213,075511,062512,015471
0000000232,0000231000,079990,080959,093806,065814,071772,015909
0000000233,0000232000,082624,078629,093502,055020,078773,019702
0000000234,0000233000,085482,076942,092330,044193,082822,026480
0000000235,0000234000,088297,076059,090398,034378,083530,035587
0000000236,0000235000,090793,076063,087898,026534,080832,046129
0000000237,0000236000,092716,076952,085085,021441,074992,057062
0000000238,0000237000,093881,078649,082225,019595,066575,067324
0000000239,0000238000,094178,080986,079591,021169,056402,075923
0000000240,0000239000,093578,083723,077453,026009,045482,082004
0000000241,0000240000,092137,086598,076019,033643,034884,084968
0000000242,0000241000,089990,089340,075424,043334,025626,084536
0000000243,0000242000,087356,091670,075728,054121,018625,080749
0000000244,0000243000,084498,093357,076900,064941,014574,073979
0000000245,0000244000,081679,094244,078831,074753,013862,064879
0000000246,0000245000,079183,094241,081331,082597,016553,054344
0000000247,0000246000,077260,093350,084145,087691,022386,043418
0000000248,0000247000,076092,091655,087007,089540,030796,033159
0000000249,0000248000,075794,089319,089642,087973,040960,024562
0000000250,0000249000,076394,086579,091781,083140,051874,018481
0000000251,0000250000,077834,083703,093217,075513,062468,015514
0000000252,0000251000,079980,080962,093813,065832,071722,015941
0000000253,0000252000,082616,078628,093510,055052,078722,019721
0000000254,0000253000,085476,076939,092339,044236,082776,026483
0000000255,0000254000,088293,076053,090408,034428,083493,035574
0000000256,0000255000,090793,076054,087907,026586,080807,046101
0000000257,0000256000,092718,076943,085093,021491,074983,057021
0000000258,0000257000,093886,078639,082230,019637,066582,067275
0000000259,0000258000,094186,080976,079593,021199,056425,075870
0000000260,0000259000,093588,083715,077452,026023,045520,081952
0000000261,0000260000,092147,086592,076015,033641,034931,084922
0000000262,0000261000,090000,089337,075417,043315,025680,084501
0000000263,0000262000,087366,091670,075719,054087,018679,080729
0000000264,0000263000,084504,093361,076889,064895,014624,073975
0000000265,0000264000,081684,094250,078820,074700,013902,064893
0000000266,0000265000,079184,094249,081321,082541,016579,054374
0000000267,0000266000,077257,093360,084137,087637,022396,043461
0000000268,0000267000,076086,091667,087001,089496,030787,033212
0000000269,0000268000,075786,089329,089639,087941,040935,024620
0000000270,0000269000,076384,086588,091783,083124,051834,018537
0000000271,0000270000,077823,083710,093221,075515,062416,015563
0000000272,0000271000,079970,080965,093820,065852,071664,015979
0000000273,0000272000,082606,078628,093520,055088,078664,019743
0000000274,0000273000,085467,076936,092351,044285,082723,026487
0000000275,0000274000,088289,076046,090419,034486,083450,035560
0000000276,0000275000,090792,076044,087918,026646,080779,046069
0000000277,0000276000,092720,076932,085102,021547,074973,056975
0000000278,0000277000,093891,078627,082236,019685,066591,067218
0000000279,0000278000,094195,080964,079596,021233,056452,075809
0000000280,0000279000,093598,083705,077451,026040,045563,081892
0000000281,0000280000,092159,086585,076010,033639,034986,084870
0000000282,0000281000,090012,089332,075409,043293,025742,084460
0000000283,0000282000,087376,091670,075708,054048,018742,080705
0000000284,0000283000,084512,093365,076877,064843,014681,073971
0000000285,0000284000,081689,094257,078808,074638,013947,064909
0000000286,0000285000,079186,094259,081310,082476,016610,054409
0000000287,0000286000,077254,093373,084127,087577,022407,043511
0000000288,0000287000,076080,091679,086995,089445,030778,033273
0000000289,0000288000,075777,089341,089637,087904,040906,024685
0000000290,0000289000,076372,086598,091784,083106,051787,018601
0000000291,0000290000,077810,083718,093226,075518,062357,015619
0000000292,0000291000,079957,080969,093829,065875,071598,016022
0000000293,0000292000,082595,078628,093532,055129,078598,019768
0000000294,0000293000,085458,076932,092363,044342,082662,026491
0000000295,0000294000,088283,076038,090432,034552,083401,035543
0000000296,0000295000,090790,076034,087930,026715,080748,046033
0000000297,0000296000,092723,076920,085112,021612,074961,056921
0000000298,0000297000,093898,078613,082243,019740,066601,067154
0000000299,0000298000,094205,080951,079599,021272,056484,075739
0000000300,0000299000,093610,083695,077449,026059,045612,081824
0000000301,0000300000,092172,086577,076005,033636,035049,084810
