DIgSILENT PowerFactory,21000900,2000
6,06A,00D
1,TTPP_200000_100:Secondary Voltage A,,,V,0.010000000,-67.870186,0.000000,-86352,99998,1,1,P
2,TTPP_200000_100:Secondary Voltage B,,,V,0.010000000,-10.566181,0.000000,-97472,99998,1,1,P
3,TTPP_200000_100:Secondary Voltage C,,,V,0.10000000,-8972.508789,0.000000,79499,99998,1,1,P
4,TTCC_500_5:Secondary Current A,,,A,0.0010000000,-80.055397,0.000000,48096,99998,1,1,P
5,TTCC_500_5:Secondary Current B,,,A,0.0010000000,-84.636192,0.000000,69305,99998,1,1,P
6,TTCC_500_5:Secondary Current C,,,A,0.0010000000,-84.723145,0.000000,69458,99998,1,1,P
50
1
1000.000000,1101
30/06/2023,06:05:14.000000
30/06/2023,06:05:14.000000
ASCII
1.000000
0000000001,0000000000,061920,037447,080573,085972,089314,074128
0000000002,0000001000,036432,061794,080686,082957,092030,074427
0000000003,0000002000,007934,080332,081684,079657,094027,075731
0000000004,0000003000,-20559,090987,083467,076404,095094,077917
0000000005,0000004000,-46327,092753,085868,073497,095147,080771
0000000006,0000005000,-67110,085746,088646,071237,094167,084010
0000000007,0000006000,-80572,070442,091522,069842,092255,087317
0000000008,0000007000,-85321,048139,094227,069448,089595,090372
0000000009,0000008000,-81173,021295,096496,070088,086451,092875
0000000010,0000009000,-68562,-07311,098097,071704,083132,094579
0000000011,0000010000,-48385,-35292,098877,074144,079954,095317
0000000012,0000011000,-22744,-59797,098764,077157,077240,095018
0000000013,0000012000,005584,-78158,097767,080455,075246,093713
0000000014,0000013000,034065,-88801,095983,083713,074173,091528
0000000015,0000014000,060026,-90754,093582,086616,074124,088674
0000000016,0000015000,080666,-83624,090805,088876,075104,085435
0000000017,0000016000,094033,-68215,087928,090272,077015,082128
0000000018,0000017000,098983,-46116,085222,090668,079674,079073
0000000019,0000018000,094807,-19250,082954,090024,082821,076570
0000000020,0000019000,082009,009553,081353,088409,086139,074866
0000000021,0000020000,061979,037384,080573,085973,089313,074128
0000000022,0000021000,036427,061806,080686,082956,092032,074427
0000000023,0000022000,007910,080353,081683,079657,094026,075732
0000000024,0000023000,-20532,090966,083467,076402,095096,077917
0000000025,0000024000,-46349,092763,085868,073498,095146,080771
0000000026,0000025000,-67121,085761,088646,071236,094169,084010
0000000027,0000026000,-80538,070415,091521,069843,092255,087317
0000000028,0000027000,-85323,048139,094227,069446,089596,090372
0000000029,0000028000,-81221,021347,096497,070088,086451,092875
0000000030,0000029000,-68536,-07340,098097,071705,083131,094579
0000000031,0000030000,-48347,-35323,098877,074141,079957,095317
0000000032,0000031000,-22789,-59759,098764,077156,077240,095019
0000000033,0000032000,005561,-78138,097767,080455,075246,093714
0000000034,0000033000,034109,-88849,095983,083713,074173,091528
0000000035,0000034000,060023,-90756,093582,086614,074126,088675
0000000036,0000035000,080631,-83585,090805,088876,075104,085435
0000000037,0000036000,094056,-68245,087928,090272,077014,082129
0000000038,0000037000,098992,-46124,085223,090667,079674,079074
0000000039,0000038000,094788,-19231,082954,090024,082821,076570
0000000040,0000039000,082028,009538,081353,088409,086139,074867
0000000041,0000040000,061990,037373,080573,085973,089313,074129
0000000042,0000041000,036398,061832,080686,082955,092033,074427
0000000043,0000042000,007928,080342,081683,079658,094025,075732
0000000044,0000043000,-20502,090937,083466,076401,095097,077917
0000000045,0000044000,-46382,092800,085868,073498,095146,080771
0000000046,0000045000,-67134,085775,088645,071237,094168,084010
0000000047,0000046000,-80498,070379,091521,069843,092255,087317
0000000048,0000047000,-85330,048149,094227,069446,089597,090372
0000000049,0000048000,-81261,021386,096497,070088,086452,092875
0000000050,0000049000,-68516,-07359,098097,071705,083131,094578
0000000051,0000050000,-48336,-35340,098877,074140,079958,095317
0000000052,0000051000,-22821,-59727,098765,077156,077241,095018
0000000053,0000052000,005563,-78144,097768,080454,075247,093714
0000000054,0000053000,034122,-88869,095984,083712,074174,091528
0000000055,0000054000,060001,-90739,093583,086613,074126,088675
0000000056,0000055000,080631,-83588,090805,088875,075104,085436
0000000057,0000056000,094082,-68273,087929,090271,077015,082129
0000000058,0000057000,098973,-46111,085223,090666,079675,079074
0000000059,0000058000,094781,-19223,082954,090024,082820,076571
0000000060,0000059000,082066,009502,081353,088408,086139,074868
0000000061,0000060000,061990,037374,080573,085972,089313,074130
0000000062,0000061000,036375,061859,080686,082955,092032,074428
0000000063,0000062000,007954,080321,081682,079659,094024,075732
0000000064,0000063000,-20479,090921,083466,076401,095096,077917
0000000065,0000064000,-46408,092833,085867,073498,095146,080771
0000000066,0000065000,-67132,085781,088645,071238,094167,084010
0000000067,0000066000,-80477,070362,091521,069843,092256,087316
0000000068,0000067000,-85350,048173,094227,069446,089598,090371
0000000069,0000068000,-81274,021405,096496,070088,086452,092874
0000000070,0000069000,-68504,-07373,098097,071705,083132,094578
0000000071,0000070000,-48354,-35326,098878,074140,079959,095316
0000000072,0000071000,-22845,-59709,098765,077155,077242,095018
0000000073,0000072000,005578,-78166,097768,080454,075248,093713
0000000074,0000073000,034114,-88873,095985,083710,074176,091529
0000000075,0000074000,059972,-90720,093584,086612,074127,088675
0000000076,0000075000,080646,-83611,090806,088874,075105,085436
0000000077,0000076000,094099,-68300,087930,090269,077015,082130
0000000078,0000077000,098953,-46097,085224,090664,079675,079076
0000000079,0000078000,094787,-19232,082954,090023,082819,076572
0000000080,0000079000,082101,009467,081353,088407,086138,074869
0000000081,0000080000,061989,037379,080572,085972,089312,074131
0000000082,0000081000,036374,061869,080685,082956,092030,074429
0000000083,0000082000,007985,080301,081681,079660,094022,075733
0000000084,0000083000,-20473,090925,083464,076402,095095,077917
0000000085,0000084000,-46418,092858,085866,073499,095145,080770
0000000086,0000085000,-67114,085778,088643,071240,094166,084009
0000000087,0000086000,-80474,070369,091520,069844,092256,087315
0000000088,0000087000,-85376,048207,094226,069447,089598,090369
0000000089,0000088000,-81275,021410,096496,070089,086453,092872
0000000090,0000089000,-68502,-07376,098097,071705,083133,094576
0000000091,0000090000,-48390,-35298,098878,074139,079961,095314
0000000092,0000091000,-22863,-59699,098766,077155,077243,095017
0000000093,0000092000,005585,-78187,097770,080452,075250,093713
0000000094,0000093000,034092,-88868,095987,083708,074178,091528
0000000095,0000094000,059950,-90714,093586,086611,074128,088676
0000000096,0000095000,080662,-83643,090807,088872,075106,085438
0000000097,0000096000,094104,-68319,087931,090267,077016,082132
0000000098,0000097000,098944,-46097,085225,090663,079675,079078
0000000099,0000098000,094811,-19258,082954,090022,082818,076575
0000000100,0000099000,082127,009441,081353,088406,086137,074871
0000000101,0000100000,061991,037384,080572,085971,089310,074133
0000000102,0000101000,036397,061860,080684,082957,092028,074430
0000000103,0000102000,008017,080285,081679,079661,094020,075734
0000000104,0000103000,-20473,090944,083463,076404,095093,077918
0000000105,0000104000,-46414,092876,085864,073502,095143,080770
0000000106,0000105000,-67093,085776,088641,071242,094165,084008
0000000107,0000106000,-80485,070395,091518,069846,092256,087313
0000000108,0000107000,-85401,048245,094225,069449,089598,090367
0000000109,0000108000,-81276,021417,096495,070091,086454,092870
0000000110,0000109000,-68519,-07362,098098,071706,083136,094573
0000000111,0000110000,-48430,-35266,098879,074139,079964,095312
0000000112,0000111000,-22880,-59697,098767,077154,077246,095015
0000000113,0000112000,005575,-78199,097772,080450,075253,093712
0000000114,0000113000,034061,-88861,095989,083706,074181,091528
0000000115,0000114000,059938,-90726,093588,086608,074130,088677
0000000116,0000115000,080673,-83678,090810,088868,075107,085439
0000000117,0000116000,094100,-68336,087933,090263,077017,082134
0000000118,0000117000,098949,-46115,085226,090660,079674,079081
0000000119,0000118000,094845,-19299,082955,090020,082817,076578
0000000120,0000119000,082149,009420,081352,088405,086135,074875
0000000121,0000120000,062006,037380,080571,085972,089307,074136
0000000122,0000121000,036437,061840,080682,082958,092024,074432
0000000123,0000122000,008049,080277,081677,079663,094017,075735
0000000124,0000123000,-20468,090968,083460,076406,095090,077918
0000000125,0000124000,-46397,092890,085860,073505,095140,080769
0000000126,0000125000,-67077,085788,088638,071245,094163,084006
0000000127,0000126000,-80502,070435,091516,069849,092255,087310
0000000128,0000127000,-85420,048282,094223,069452,089599,090364
0000000129,0000128000,-81286,021435,096494,070093,086456,092866
0000000130,0000129000,-68554,-07331,098098,071707,083139,094570
0000000131,0000130000,-48472,-35236,098881,074139,079967,095309
0000000132,0000131000,-22901,-59697,098769,077153,077250,095012
0000000133,0000132000,005545,-78200,097775,080447,075257,093710
0000000134,0000133000,034025,-88859,095993,083702,074184,091528
0000000135,0000134000,059931,-90753,093591,086604,074133,088678
0000000136,0000135000,080675,-83714,090813,088864,075109,085441
0000000137,0000136000,094094,-68358,087936,090259,077018,082138
0000000138,0000137000,098969,-46153,085228,090657,079673,079085
0000000139,0000138000,094885,-19348,082956,090017,082815,076582
0000000140,0000139000,082175,009397,081352,088404,086132,074879
0000000141,0000140000,062039,037363,080569,085972,089303,074140
0000000142,0000141000,036488,061815,080679,082960,092020,074435
0000000143,0000142000,008081,080279,081673,079665,094012,075737
0000000144,0000143000,-20450,090990,083456,076410,095086,077918
0000000145,0000144000,-46370,092905,085856,073510,095137,080768
0000000146,0000145000,-67069,085817,088635,071250,094161,084003
0000000147,0000146000,-80522,070487,091513,069854,092254,087306
0000000148,0000147000,-85436,048321,094221,069457,089599,090359
0000000149,0000148000,-81310,021468,096494,070096,086458,092861
0000000150,0000149000,-68605,-07285,098099,071708,083142,094564
0000000151,0000150000,-48518,-35206,098882,074139,079972,095304
0000000152,0000151000,-22935,-59693,098772,077151,077255,095009
0000000153,0000152000,005499,-78194,097779,080444,075263,093708
0000000154,0000153000,033986,-88865,095997,083698,074189,091528
0000000155,0000154000,059921,-90791,093596,086598,074137,088679
0000000156,0000155000,080669,-83754,090818,088858,075112,085444
0000000157,0000156000,094094,-68394,087940,090254,077019,082142
0000000158,0000157000,099000,-46208,085231,090652,079672,079090
0000000159,0000158000,094926,-19401,082957,090014,082813,076588
0000000160,0000159000,082212,009365,081352,088402,086128,074885
0000000161,0000160000,062092,037331,080567,085972,089298,074145
0000000162,0000161000,036547,061789,080676,082962,092014,074439
0000000163,0000162000,008119,080285,081669,079669,094006,075739
0000000164,0000163000,-20416,091010,083450,076416,095080,077919
0000000165,0000164000,-46338,092927,085851,073516,095132,080766
0000000166,0000165000,-67067,085864,088630,071256,094158,084000
0000000167,0000166000,-80540,070548,091508,069860,092253,087301
0000000168,0000167000,-85455,048370,094218,069462,089600,090353
0000000169,0000168000,-81351,021519,096492,070099,086461,092854
0000000170,0000169000,-68667,-07229,098099,071710,083147,094558
0000000171,0000170000,-48571,-35175,098884,074139,079978,095298
0000000172,0000171000,-22987,-59681,098776,077148,077262,095004
0000000173,0000172000,005438,-78186,097784,080439,075270,093705
0000000174,0000173000,033945,-88883,096003,083692,074196,091527
0000000175,0000174000,059903,-90834,093602,086592,074142,088681
0000000176,0000175000,080656,-83799,090824,088851,075116,085448
0000000177,0000176000,094102,-68449,087944,090247,077020,082148
0000000178,0000177000,099039,-46280,085234,090646,079671,079097
0000000179,0000178000,094971,-19462,082959,090010,082809,076596
0000000180,0000179000,082264,009320,081351,088400,086123,074892
0000000181,0000180000,062164,037286,080564,085972,089291,074151
0000000182,0000181000,036615,061764,080671,082964,092006,074444
0000000183,0000182000,008169,080293,081663,079674,093999,075742
0000000184,0000183000,-20367,091028,083444,076422,095073,077919
0000000185,0000184000,-46303,092960,085844,073524,095127,080765
0000000186,0000185000,-67066,085926,088624,071264,094155,083996
0000000187,0000186000,-80555,070617,091503,069868,092252,087295
0000000188,0000187000,-85483,048433,094214,069468,089601,090345
0000000189,0000188000,-81407,021591,096491,070104,086465,092846
0000000190,0000189000,-68737,-07164,098100,071712,083153,094550
0000000191,0000190000,-48638,-35138,098887,074139,079985,095291
0000000192,0000191000,-23060,-59658,098781,077145,077271,094999
0000000193,0000192000,005367,-78178,097791,080434,075278,093702
0000000194,0000193000,033899,-88909,096010,083685,074203,091526
0000000195,0000194000,059875,-90883,093610,086583,074149,088683
0000000196,0000195000,080641,-83854,090831,088842,075120,085453
0000000197,0000196000,094119,-68524,087950,090239,077022,082155
0000000198,0000197000,099084,-46365,085238,090639,079670,079105
0000000199,0000198000,095025,-19533,082960,090004,082806,076605
0000000200,0000199000,082335,009258,081350,088397,086116,074901
0000000201,0000200000,062252,037231,080561,085973,089283,074159
0000000202,0000201000,036693,061739,080666,082967,091997,074451
0000000203,0000202000,008236,080298,081656,079680,093989,075746
0000000204,0000203000,-20305,091049,083435,076430,095064,077920
0000000205,0000204000,-46267,093006,085836,073533,095120,080762
0000000206,0000205000,-67063,086001,088616,071274,094150,083991
0000000207,0000206000,-80570,070697,091497,069877,092250,087288
0000000208,0000207000,-85521,048515,094210,069476,089603,090336
0000000209,0000208000,-81477,021680,096489,070109,086469,092836
0000000210,0000209000,-68819,-07091,098101,071715,083160,094540
0000000211,0000210000,-48721,-35091,098891,074138,079994,095282
0000000212,0000211000,-23152,-59626,098787,077142,077281,094992
0000000213,0000212000,005284,-78174,097798,080428,075289,093698
0000000214,0000213000,033842,-88943,096019,083676,074213,091526
0000000215,0000214000,059835,-90937,093619,086572,074157,088685
0000000216,0000215000,080625,-83924,090839,088831,075125,085459
0000000217,0000216000,094143,-68618,087957,090228,077023,082163
0000000218,0000217000,099133,-46464,085243,090630,079669,079116
0000000219,0000218000,095090,-19619,082962,089998,082801,076616
0000000220,0000219000,082426,009177,081349,088394,086108,074912
0000000221,0000220000,062354,037167,080557,085973,089273,074169
0000000222,0000221000,036786,061712,080659,082971,091986,074458
0000000223,0000222000,008322,080300,081647,079687,093978,075750
0000000224,0000223000,-20231,091074,083425,076440,095054,077921
0000000225,0000224000,-46226,093067,085826,073544,095111,080759
0000000226,0000225000,-67055,086088,088606,071286,094144,083984
0000000227,0000226000,-80586,070791,091489,069889,092248,087278
0000000228,0000227000,-85573,048619,094204,069486,089604,090325
0000000229,0000228000,-81560,021786,096487,070116,086475,092824
0000000230,0000229000,-68913,-07006,098102,071719,083168,094528
0000000231,0000230000,-48826,-35029,098895,074138,080005,095272
0000000232,0000231000,-23263,-59587,098795,077137,077293,094984
0000000233,0000232000,005190,-78173,097808,080420,075301,093693
0000000234,0000233000,033771,-88981,096030,083665,074224,091525
0000000235,0000234000,059785,-90998,093631,086560,074166,088689
0000000236,0000235000,080611,-84012,090849,088818,075131,085465
0000000237,0000236000,094170,-68730,087966,090216,077026,082173
0000000238,0000237000,099188,-46579,085249,090620,079667,079128
0000000239,0000238000,095172,-19725,082965,089991,082795,076629
0000000240,0000239000,082535,009080,081348,088391,086099,074925
0000000241,0000240000,062472,037095,080552,085973,089261,074180
0000000242,0000241000,036897,061678,080652,082976,091972,074467
0000000243,0000242000,008428,080298,081637,079695,093964,075755
0000000244,0000243000,-20146,091107,083414,076451,095041,077922
0000000245,0000244000,-46179,093141,085814,073557,095101,080756
0000000246,0000245000,-67041,086187,088595,071300,094138,083977
0000000247,0000246000,-80607,070904,091480,069902,092245,087268
0000000248,0000247000,-85636,048746,094198,069497,089606,090312
0000000249,0000248000,-81654,021908,096484,070124,086481,092810
0000000250,0000249000,-69025,-06907,098103,071722,083178,094514
0000000251,0000250000,-48953,-34954,098900,074137,080018,095260
0000000252,0000251000,-23393,-59542,098803,077132,077308,094975
0000000253,0000252000,005080,-78174,097819,080411,075316,093688
0000000254,0000253000,033684,-89023,096043,083653,074238,091524
0000000255,0000254000,059726,-91070,093644,086546,074177,088692
0000000256,0000255000,080597,-84118,090861,088803,075138,085474
0000000257,0000256000,094200,-68861,087976,090202,077028,082185
0000000258,0000257000,099250,-46711,085256,090608,079665,079142
0000000259,0000258000,095270,-19852,082968,089982,082788,076645
0000000260,0000259000,082663,008965,081347,088386,086088,074940
0000000261,0000260000,062608,037013,080547,085974,089247,074194
0000000262,0000261000,037030,061637,080643,082981,091957,074477
0000000263,0000262000,008552,080294,081625,079705,093948,075761
0000000264,0000263000,-20050,091148,083400,076465,095027,077923
0000000265,0000264000,-46123,093226,085799,073573,095090,080752
0000000266,0000265000,-67023,086300,088582,071316,094130,083968
0000000267,0000266000,-80633,071039,091469,069917,092243,087255
0000000268,0000267000,-85709,048894,094191,069509,089609,090296
0000000269,0000268000,-81761,022048,096481,070133,086488,092793
0000000270,0000269000,-69156,-06791,098104,071727,083190,094498
0000000271,0000270000,-49103,-34863,098906,074136,080033,095245
0000000272,0000271000,-23541,-59491,098813,077127,077324,094964
0000000273,0000272000,004952,-78176,097832,080400,075332,093682
0000000274,0000273000,033581,-89068,096058,083639,074253,091523
0000000275,0000274000,059659,-91155,093659,086529,074189,088697
0000000276,0000275000,080581,-84243,090876,088786,075146,085483
0000000277,0000276000,094232,-69009,087987,090186,077031,082198
0000000278,0000277000,099323,-46864,085264,090594,079662,079158
0000000279,0000278000,095386,-20003,082971,089973,082780,076662
0000000280,0000279000,082809,008833,081345,088382,086076,074957
0000000281,0000280000,062764,036919,080541,085975,089231,074209
0000000282,0000281000,037187,061585,080632,082988,091939,074488
0000000283,0000282000,008696,080289,081611,079716,093931,075768
0000000284,0000283000,-19941,091197,083384,076480,095011,077924
0000000285,0000284000,-46055,093321,085783,073591,095077,080747
0000000286,0000285000,-67001,086430,088567,071335,094122,083958
0000000287,0000286000,-80666,071195,091456,069934,092240,087241
0000000288,0000287000,-85793,049064,094182,069524,089612,090279
0000000289,0000288000,-81882,022207,096477,070144,086497,092774
0000000290,0000289000,-69308,-06654,098106,071732,083203,094480
0000000291,0000290000,-49275,-34757,098913,074135,080050,095229
0000000292,0000291000,-23708,-59435,098824,077120,077343,094952
0000000293,0000292000,004804,-78176,097847,080388,075352,093675
0000000294,0000293000,033460,-89117,096075,083622,074270,091522
0000000295,0000294000,059583,-91253,093676,086510,074203,088702
0000000296,0000295000,080562,-84386,090892,088766,075155,085494
0000000297,0000296000,094265,-69177,088001,090167,077034,082214
0000000298,0000297000,099407,-47040,085273,090579,079659,079177
0000000299,0000298000,095518,-20176,082975,089962,082771,076682
0000000300,0000299000,082974,008684,081344,088376,086062,074977
0000000301,0000300000,062943,036811,080534,085976,089213,074226
