DIgSILENT PowerFactory,21000900,2000
6,06A,00D
1,TTPP_200000_100:Secondary Voltage A,,,V,0.010000000,-71.425316,0.000000,-85629,99998,1,1,P
2,TTPP_200000_100:Secondary Voltage B,,,V,0.10000000,-8929.719727,0.000000,79915,99998,1,1,P
3,TTPP_200000_100:Secondary Voltage C,,,V,0.10000000,-8960.888672,0.000000,78452,99998,1,1,P
4,TTCC_300_1:Secondary Current A,,,A,0.00010000000,-3.667688,0.000000,-56287,99998,1,1,P
5,TTCC_300_1:Secondary Current B,,,A,0.00010000000,-4.962090,0.000000,-812,99998,1,1,P
6,TTCC_300_1:Secondary Current C,,,A,0.00010000000,-4.881576,0.000000,-2416,99998,1,1,P
50
1
1000.000000,1101
30/06/2023,06:04:34.000000
30/06/2023,06:04:34.000000
ASCII
1.000000
0000000001,0000000000,078208,090772,081027,015741,035639,083734
0000000002,0000001000,056856,093491,080442,025495,026356,083263
0000000003,0000002000,030487,095818,080755,036331,019361,079422
0000000004,0000003000,001903,097498,081930,047207,015317,072589
0000000005,0000004000,-26066,098364,083864,057054,014636,063423
0000000006,0000005000,-50950,098354,086361,064905,017386,052823
0000000007,0000006000,-70103,097463,089168,069996,023276,041842
0000000008,0000007000,-81549,095755,092020,071816,031755,031543
0000000009,0000008000,-84451,093422,094642,070191,041997,022926
0000000010,0000009000,-78480,090700,096769,065304,052964,016847
0000000011,0000010000,-63967,087826,098191,057610,063601,013902
0000000012,0000011000,-42420,085088,098775,047851,072889,014374
0000000013,0000012000,-16220,082779,098463,037003,079897,018213
0000000014,0000013000,012278,081106,097286,026136,083931,025047
0000000015,0000014000,040433,080223,095354,016294,084606,034214
0000000016,0000015000,065225,080240,092857,008434,081867,044812
0000000017,0000016000,084311,081140,090050,003351,075969,055794
0000000018,0000017000,095937,082829,087197,001532,067489,066092
0000000019,0000018000,098779,085168,084576,003140,057263,074710
0000000020,0000019000,092623,087909,082449,008040,046284,080790
0000000021,0000020000,078258,090768,081027,015743,035637,083733
0000000022,0000021000,056840,093493,080443,025490,026363,083262
0000000023,0000022000,030441,095822,080754,036336,019355,079422
0000000024,0000023000,001941,097496,081931,047210,015315,072589
0000000025,0000024000,-26063,098363,083864,057053,014638,063422
0000000026,0000025000,-50969,098357,086361,064908,017382,052823
0000000027,0000026000,-70085,097461,089167,069996,023276,041841
0000000028,0000027000,-81554,095756,092020,071815,031755,031543
0000000029,0000028000,-84482,093425,094643,070197,041992,022926
0000000030,0000029000,-78464,090698,096769,065306,052962,016846
0000000031,0000030000,-63927,087822,098191,057611,063600,013902
0000000032,0000031000,-42455,085091,098775,047852,072888,014373
0000000033,0000032000,-16242,082781,098464,037005,079896,018212
0000000034,0000033000,012312,081102,097287,026141,083926,025046
0000000035,0000034000,040428,080223,095354,016293,084608,034213
0000000036,0000035000,065210,080242,092857,008436,081867,044811
0000000037,0000036000,084328,081138,090050,003355,075967,055792
0000000038,0000037000,095933,082829,087198,001531,067491,066091
0000000039,0000038000,098751,085170,084576,003144,057260,074708
0000000040,0000039000,092648,087907,082449,008044,046282,080788
0000000041,0000040000,078283,090765,081027,015741,035641,083732
0000000042,0000041000,056806,093497,080443,025490,026363,083261
0000000043,0000042000,030437,095822,080754,036338,019354,079421
0000000044,0000043000,001973,097493,081931,047211,015314,072588
0000000045,0000044000,-26072,098364,083864,057052,014639,063422
0000000046,0000045000,-50981,098358,086361,064908,017382,052823
0000000047,0000046000,-70065,097460,089167,069997,023275,041842
0000000048,0000047000,-81564,095757,092020,071815,031755,031544
0000000049,0000048000,-84505,093428,094643,070198,041989,022927
0000000050,0000049000,-78440,090695,096769,065309,052958,016847
0000000051,0000050000,-63920,087821,098191,057610,063600,013903
0000000052,0000051000,-42492,085094,098776,047853,072886,014374
0000000053,0000052000,-16240,082781,098464,037010,079890,018213
0000000054,0000053000,012335,081100,097287,026143,083925,025046
0000000055,0000054000,040411,080224,095355,016296,084607,034212
0000000056,0000055000,065202,080242,092858,008440,081864,044809
0000000057,0000056000,084348,081135,090050,003357,075966,055790
0000000058,0000057000,095923,082830,087198,001533,067492,066088
0000000059,0000058000,098740,085171,084576,003148,057260,074705
0000000060,0000059000,092680,087904,082449,008045,046283,080785
0000000061,0000060000,078289,090765,081027,015740,035644,083729
0000000062,0000061000,056782,093500,080442,025490,026365,083259
0000000063,0000062000,030454,095821,080753,036339,019355,079420
0000000064,0000063000,001994,097491,081930,047208,015317,072588
0000000065,0000064000,-26088,098366,083863,057049,014642,063422
0000000066,0000065000,-50982,098359,086360,064907,017382,052825
0000000067,0000066000,-70048,097458,089167,069994,023275,041845
0000000068,0000067000,-81583,095759,092020,071812,031755,031547
0000000069,0000068000,-84517,093429,094642,070198,041986,022930
0000000070,0000069000,-78421,090694,096769,065308,052956,016850
0000000071,0000070000,-63932,087822,098191,057610,063598,013906
0000000072,0000071000,-42521,085097,098776,047856,072881,014376
0000000073,0000072000,-16231,082779,098464,037015,079885,018214
0000000074,0000073000,012341,081098,097288,026146,083922,025046
0000000075,0000074000,040388,080226,095355,016300,084604,034210
0000000076,0000075000,065206,080241,092858,008446,081861,044807
0000000077,0000076000,084364,081133,090051,003361,075966,055787
0000000078,0000077000,095910,082831,087199,001537,067492,066084
0000000079,0000078000,098744,085171,084576,003152,057260,074700
0000000080,0000079000,092708,087901,082449,008047,046286,080780
0000000081,0000080000,078287,090765,081026,015739,035649,083725
0000000082,0000081000,056775,093501,080442,025490,026369,083255
0000000083,0000082000,030480,095820,080753,036337,019359,079418
0000000084,0000083000,002005,097491,081929,047203,015323,072587
0000000085,0000084000,-26102,098369,083862,057045,014645,063423
0000000086,0000085000,-50972,098359,086359,064903,017383,052827
0000000087,0000086000,-70040,097458,089166,069989,023276,041849
0000000088,0000087000,-81604,095761,092019,071808,031754,031552
0000000089,0000088000,-84522,093430,094642,070197,041982,022935
0000000090,0000089000,-78414,090693,096769,065306,052951,016856
0000000091,0000090000,-63957,087824,098192,057610,063593,013911
0000000092,0000091000,-42541,085098,098777,047860,072874,014379
0000000093,0000092000,-16222,082777,098465,037019,079878,018216
0000000094,0000093000,012331,081098,097289,026151,083917,025046
0000000095,0000094000,040368,080227,095357,016308,084598,034208
0000000096,0000095000,065216,080239,092859,008454,081857,044803
0000000097,0000096000,084372,081131,090052,003368,075965,055781
0000000098,0000097000,095901,082831,087199,001544,067493,066077
0000000099,0000098000,098760,085169,084576,003158,057263,074693
0000000100,0000099000,092733,087899,082449,008049,046292,080773
0000000101,0000100000,078286,090766,081026,015739,035657,083718
0000000102,0000101000,056786,093501,080441,025489,026375,083250
0000000103,0000102000,030510,095818,080751,036332,019367,079415
0000000104,0000103000,002009,097492,081928,047196,015331,072586
0000000105,0000104000,-26106,098371,083861,057037,014651,063425
0000000106,0000105000,-50957,098359,086357,064895,017387,052832
0000000107,0000106000,-70043,097460,089165,069980,023278,041856
0000000108,0000107000,-81626,095764,092018,071802,031752,031560
0000000109,0000108000,-84526,093431,094642,070192,041977,022944
0000000110,0000109000,-78422,090693,096769,065303,052945,016865
0000000111,0000110000,-63989,087827,098193,057610,063584,013919
0000000112,0000111000,-42558,085098,098778,047864,072863,014386
0000000113,0000112000,-16224,082776,098467,037026,079868,018220
0000000114,0000113000,012309,081098,097291,026159,083908,025047
0000000115,0000114000,040353,080226,095358,016319,084590,034206
0000000116,0000115000,065227,080236,092861,008465,081851,044797
0000000117,0000116000,084373,081130,090053,003378,075963,055773
0000000118,0000117000,095900,082830,087200,001553,067494,066066
0000000119,0000118000,098786,085166,084576,003165,057267,074681
0000000120,0000119000,092756,087896,082449,008052,046300,080761
0000000121,0000120000,078294,090766,081025,015739,035667,083708
0000000122,0000121000,056812,093500,080439,025486,026386,083242
0000000123,0000122000,030539,095817,080749,036325,019379,079410
0000000124,0000123000,002012,097493,081926,047186,015342,072585
0000000125,0000124000,-26100,098372,083858,057026,014659,063428
0000000126,0000125000,-50943,098360,086355,064882,017393,052838
0000000127,0000126000,-70053,097462,089164,069967,023281,041865
0000000128,0000127000,-81645,095768,092017,071792,031750,031572
0000000129,0000128000,-84532,093432,094641,070185,041971,022958
0000000130,0000129000,-78445,090695,096769,065299,052937,016878
0000000131,0000130000,-64026,087829,098194,057611,063572,013930
0000000132,0000131000,-42575,085099,098779,047870,072849,014395
0000000133,0000132000,-16239,082775,098469,037034,079854,018225
0000000134,0000133000,012280,081099,097294,026171,083895,025048
0000000135,0000134000,040343,080225,095361,016333,084578,034202
0000000136,0000135000,065234,080233,092863,008480,081844,044790
0000000137,0000136000,084371,081128,090056,003392,075961,055761
0000000138,0000137000,095910,082828,087202,001566,067495,066052
0000000139,0000138000,098818,085162,084577,003174,057273,074666
0000000140,0000139000,092779,087894,082448,008056,046311,080746
0000000141,0000140000,078314,090765,081024,015740,035680,083694
0000000142,0000141000,056849,093498,080437,025481,026401,083231
0000000143,0000142000,030568,095816,080747,036315,019396,079403
0000000144,0000143000,002022,097495,081923,047172,015357,072583
0000000145,0000144000,-26084,098374,083855,057011,014671,063432
0000000146,0000145000,-50932,098361,086352,064865,017401,052847
0000000147,0000146000,-70069,097466,089161,069951,023285,041878
0000000148,0000147000,-81663,095771,092015,071779,031747,031588
0000000149,0000148000,-84547,093434,094640,070175,041963,022975
0000000150,0000149000,-78480,090698,096770,065293,052925,016895
0000000151,0000150000,-64065,087832,098195,057612,063555,013946
0000000152,0000151000,-42599,085099,098782,047876,072830,014407
0000000153,0000152000,-16269,082775,098472,037045,079836,018233
0000000154,0000153000,012248,081098,097297,026187,083877,025049
0000000155,0000154000,040334,080222,095364,016353,084564,034198
0000000156,0000155000,065236,080230,092867,008500,081835,044780
0000000157,0000156000,084371,081125,090058,003411,075957,055746
0000000158,0000157000,095929,082824,087203,001583,067497,066033
0000000159,0000158000,098853,085158,084577,003186,057282,074646
0000000160,0000159000,092807,087892,082448,008062,046326,080726
0000000161,0000160000,078349,090763,081022,015740,035698,083676
0000000162,0000161000,056896,093496,080434,025475,026422,083217
0000000163,0000162000,030599,095817,080744,036301,019417,079395
0000000164,0000163000,002042,097497,081919,047155,015377,072582
0000000165,0000164000,-26061,098376,083851,056990,014686,063437
0000000166,0000165000,-50926,098364,086349,064842,017412,052859
0000000167,0000166000,-70086,097471,089158,069930,023289,041895
0000000168,0000167000,-81681,095775,092013,071761,031744,031609
0000000169,0000168000,-84573,093438,094640,070162,041954,022998
0000000170,0000169000,-78527,090702,096770,065287,052909,016918
0000000171,0000170000,-64110,087835,098197,057613,063534,013966
0000000172,0000171000,-42634,085099,098785,047884,072806,014423
0000000173,0000172000,-16311,082775,098476,037059,079812,018242
0000000174,0000173000,012213,081097,097302,026208,083855,025051
0000000175,0000174000,040323,080219,095369,016377,084545,034192
0000000176,0000175000,065231,080226,092871,008524,081823,044767
0000000177,0000176000,084374,081121,090062,003435,075952,055727
0000000178,0000177000,095958,082819,087206,001604,067500,066010
0000000179,0000178000,098893,085153,084579,003200,057293,074620
0000000180,0000179000,092845,087889,082447,008069,046344,080700
0000000181,0000180000,078399,090760,081020,015740,035721,083653
0000000182,0000181000,056950,093494,080431,025466,026448,083200
0000000183,0000182000,030637,095817,080739,036285,019444,079384
0000000184,0000183000,002073,097499,081914,047133,015401,072579
0000000185,0000184000,-26033,098378,083846,056964,014706,063443
0000000186,0000185000,-50923,098369,086344,064814,017426,052873
0000000187,0000186000,-70103,097476,089154,069903,023294,041916
0000000188,0000187000,-81702,095780,092010,071739,031740,031636
0000000189,0000188000,-84611,093443,094639,070145,041942,023027
0000000190,0000189000,-78583,090707,096771,065278,052889,016946
0000000191,0000190000,-64162,087838,098199,057614,063508,013991
0000000192,0000191000,-42684,085101,098788,047894,072777,014442
0000000193,0000192000,-16365,082776,098481,037077,079783,018253
0000000194,0000193000,012175,081096,097307,026233,083827,025054
0000000195,0000194000,040306,080215,095375,016406,084523,034185
0000000196,0000195000,065223,080221,092876,008555,081808,044750
0000000197,0000196000,084384,081116,090066,003465,075946,055703
0000000198,0000197000,095994,082813,087209,001629,067504,065980
0000000199,0000198000,098937,085147,084580,003218,057307,074588
0000000200,0000199000,092895,087884,082447,008079,046366,080669
0000000201,0000200000,078463,090756,081017,015739,035749,083626
0000000202,0000201000,057013,093492,080427,025454,026481,083178
0000000203,0000202000,030685,095818,080734,036265,019478,079372
0000000204,0000203000,002115,097501,081907,047106,015431,072577
0000000205,0000204000,-26003,098381,083840,056931,014731,063451
0000000206,0000205000,-50922,098374,086338,064780,017443,052891
0000000207,0000206000,-70119,097483,089149,069871,023300,041943
0000000208,0000207000,-81730,095786,092007,071711,031735,031668
0000000209,0000208000,-84662,093449,094637,070125,041927,023062
0000000210,0000209000,-78648,090713,096772,065269,052864,016981
0000000211,0000210000,-64224,087841,098202,057615,063476,014022
0000000212,0000211000,-42749,085102,098793,047906,072742,014466
0000000213,0000212000,-16429,082776,098487,037100,079746,018267
0000000214,0000213000,012132,081093,097314,026264,083793,025056
0000000215,0000214000,040281,080210,095382,016442,084496,034176
0000000216,0000215000,065212,080216,092883,008593,081791,044731
0000000217,0000216000,084399,081109,090071,003501,075939,055674
0000000218,0000217000,096035,082805,087212,001659,067509,065945
0000000219,0000218000,098988,085140,084581,003240,057324,074549
0000000220,0000219000,092960,087879,082446,008090,046393,080631
0000000221,0000220000,078542,090752,081014,015738,035784,083592
0000000222,0000221000,057085,093489,080422,025441,026520,083153
0000000223,0000222000,030745,095818,080727,036240,019517,079356
0000000224,0000223000,002169,097504,081900,047073,015467,072574
0000000225,0000224000,-25970,098386,083832,056892,014761,063461
0000000226,0000225000,-50919,098381,086331,064739,017462,052912
0000000227,0000226000,-70135,097490,089144,069832,023307,041974
0000000228,0000227000,-81766,095793,092003,071678,031729,031707
0000000229,0000228000,-84725,093457,094636,070101,041909,023104
0000000230,0000229000,-78723,090720,096773,065257,052835,017022
0000000231,0000230000,-64301,087846,098205,057617,063438,014058
0000000232,0000231000,-42830,085105,098799,047920,072699,014494
0000000233,0000232000,-16503,082776,098494,037127,079703,018284
0000000234,0000233000,012080,081090,097322,026300,083754,025060
0000000235,0000234000,040248,080205,095390,016484,084464,034166
0000000236,0000235000,065200,080210,092891,008638,081769,044707
0000000237,0000236000,084419,081101,090077,003543,075931,055639
0000000238,0000237000,096080,082796,087217,001695,067515,065903
0000000239,0000238000,099049,085133,084583,003266,057344,074503
0000000240,0000239000,093040,087872,082445,008103,046424,080586
0000000241,0000240000,078634,090746,081011,015737,035825,083553
0000000242,0000241000,057170,093487,080416,025425,026567,083122
0000000243,0000242000,030820,095819,080719,036212,019564,079338
0000000244,0000243000,002233,097506,081891,047033,015510,072570
0000000245,0000244000,-25933,098391,083823,056846,014795,063472
0000000246,0000245000,-50913,098389,086323,064690,017485,052938
0000000247,0000246000,-70153,097499,089137,069787,023315,042011
0000000248,0000247000,-81811,095803,091999,071639,031723,031752
0000000249,0000248000,-84799,093466,094634,070073,041887,023154
0000000250,0000249000,-78810,090728,096774,065243,052800,017071
0000000251,0000250000,-64394,087851,098209,057618,063394,014101
0000000252,0000251000,-42927,085108,098805,047937,072650,014526
0000000253,0000252000,-16588,082777,098503,037158,079652,018303
0000000254,0000253000,012017,081087,097332,026343,083707,025063
0000000255,0000254000,040206,080200,095400,016534,084427,034153
0000000256,0000255000,065187,080202,092900,008690,081745,044679
0000000257,0000256000,084444,081091,090085,003593,075921,055599
0000000258,0000257000,096131,082786,087222,001737,067523,065854
0000000259,0000258000,099122,085123,084585,003296,057367,074450
0000000260,0000259000,093136,087863,082443,008118,046461,080534
0000000261,0000260000,078739,090740,081007,015735,035873,083507
0000000262,0000261000,057269,093484,080409,025406,026621,083087
0000000263,0000262000,030911,095819,080710,036178,019618,079318
0000000264,0000263000,002307,097509,081881,046987,015560,072566
0000000265,0000264000,-25891,098397,083812,056792,014836,063486
0000000266,0000265000,-50903,098398,086313,064634,017511,052968
0000000267,0000266000,-70173,097509,089129,069734,023325,042055
0000000268,0000267000,-81866,095814,091993,071594,031715,031805
0000000269,0000268000,-84882,093477,094632,070041,041862,023211
0000000270,0000269000,-78909,090736,096775,065228,052759,017127
0000000271,0000270000,-64504,087857,098213,057620,063342,014150
0000000272,0000271000,-43040,085112,098813,047958,072592,014564
0000000273,0000272000,-16685,082776,098513,037195,079594,018325
0000000274,0000273000,011943,081083,097343,026392,083654,025067
0000000275,0000274000,040156,080193,095411,016591,084384,034138
0000000276,0000275000,065174,080193,092910,008750,081716,044647
0000000277,0000276000,084470,081080,090093,003650,075911,055553
0000000278,0000277000,096188,082774,087228,001785,067532,065797
0000000279,0000278000,099207,085112,084588,003330,057395,074389
0000000280,0000279000,093247,087854,082442,008135,046504,080474
0000000281,0000280000,078859,090733,081002,015732,035928,083454
0000000282,0000281000,057386,093480,080401,025384,026682,083047
0000000283,0000282000,031018,095819,080700,036139,019680,079294
0000000284,0000283000,002392,097513,081869,046934,015617,072562
0000000285,0000284000,-25841,098405,083800,056730,014882,063501
0000000286,0000285000,-50889,098408,086302,064570,017541,053002
0000000287,0000286000,-70196,097521,089119,069673,023336,042105
0000000288,0000287000,-81929,095826,091987,071543,031705,031866
0000000289,0000288000,-84977,093489,094629,070005,041833,023277
0000000290,0000289000,-79024,090746,096776,065210,052713,017191
0000000291,0000290000,-64633,087865,098219,057623,063284,014207
0000000292,0000291000,-43170,085117,098821,047981,072526,014606
0000000293,0000292000,-16797,082776,098524,037237,079527,018350
0000000294,0000293000,011854,081079,097356,026449,083593,025072
0000000295,0000294000,040097,080186,095425,016657,084336,034121
0000000296,0000295000,065159,080182,092922,008819,081684,044610
0000000297,0000296000,084499,081067,090104,003714,075900,055499
0000000298,0000297000,096252,082761,087235,001839,067542,065732
0000000299,0000298000,099306,085099,084591,003369,057426,074319
0000000300,0000299000,093373,087842,082441,008154,046554,080406
0000000301,0000300000,078996,090724,080996,015729,035991,083394
