DIgSILENT PowerFactory,21000900,2000
6,06A,00D
1,TTPP_200000_100:Secondary Voltage A,,,V,0.10000000,-8472.202148,0.000000,71453,99998,1,1,P
2,TTPP_200000_100:Secondary Voltage B,,,V,0.10000000,-8366.466797,0.000000,68473,99998,1,1,P
3,TTPP_200000_100:Secondary Voltage C,,,V,0.10000000,-8588.541992,0.000000,68380,99998,1,1,P
4,TTCC_500_5:Secondary Current A,,,A,0.0010000000,-78.732338,0.000000,64214,99998,1,1,P
5,TTCC_500_5:Secondary Current B,,,A,0.0010000000,-84.562721,0.000000,69159,99998,1,1,P
6,TTCC_500_5:Secondary Current C,,,A,0.0010000000,-84.814323,0.000000,69649,99998,1,1,P
50
1
1000.000000,1101
30/06/2023,06:12:26.000000
30/06/2023,06:12:26.000000
ASCII
1.000000
0000000001,0000000000,090234,087305,076733,084648,089242,074219
0000000002,0000001000,087686,089738,076847,081632,091959,074518
0000000003,0000002000,084834,091594,077845,078334,093952,075823
0000000004,0000003000,081988,092656,079628,075076,095024,078009
0000000005,0000004000,079406,092837,082030,072175,095071,080863
0000000006,0000005000,077330,092133,084808,069912,094095,084103
0000000007,0000006000,075989,090599,087683,068520,092180,087409
0000000008,0000007000,075511,088372,090389,068124,089521,090464
0000000009,0000008000,075924,085690,092658,068764,086377,092968
0000000010,0000009000,077188,082826,094259,070384,083055,094670
0000000011,0000010000,079210,080025,095037,072820,079882,095408
0000000012,0000011000,081771,077578,094924,075836,077165,095109
0000000013,0000012000,084599,075747,093927,079133,075173,093804
0000000014,0000013000,087453,074676,092142,082392,074099,091618
0000000015,0000014000,090050,074481,089741,085294,074051,088764
0000000016,0000015000,092109,075200,086963,087552,075033,085525
0000000017,0000016000,093445,076740,084087,088950,076941,082218
0000000018,0000017000,093943,078948,081382,089345,079602,079163
0000000019,0000018000,093525,081634,079113,088700,082749,076660
0000000020,0000019000,092242,084518,077513,087085,086068,074957
0000000021,0000020000,090239,087299,076733,084649,089241,074219
0000000022,0000021000,087685,089740,076847,081631,091960,074518
0000000023,0000022000,084833,091595,077844,078333,093953,075824
0000000024,0000023000,081989,092655,079628,075077,095023,078009
0000000025,0000024000,079406,092836,082030,072174,095073,080863
0000000026,0000025000,077330,092134,084807,069912,094094,084103
0000000027,0000026000,075990,090599,087683,068519,092181,087409
0000000028,0000027000,075511,088371,090389,068123,089522,090464
0000000029,0000028000,075921,085693,092658,068765,086377,092967
0000000030,0000029000,077190,082824,094258,070383,083056,094670
0000000031,0000030000,079210,080024,095038,072819,079882,095408
0000000032,0000031000,081766,077582,094924,075835,077165,095109
0000000033,0000032000,084601,075744,093926,079133,075172,093804
0000000034,0000033000,087456,074674,092142,082391,074099,091619
0000000035,0000034000,090046,074484,089742,085293,074052,088765
0000000036,0000035000,092108,075201,086963,087553,075031,085525
0000000037,0000036000,093451,076735,084087,088949,076942,082218
0000000038,0000037000,093941,078949,081382,089343,079603,079164
0000000039,0000038000,093521,081639,079113,088701,082748,076660
0000000040,0000039000,092247,084512,077512,087085,086067,074957
0000000041,0000040000,090241,087297,076733,084648,089241,074220
0000000042,0000041000,087679,089746,076847,081631,091960,074518
0000000043,0000042000,084835,091593,077844,078334,093952,075824
0000000044,0000043000,081994,092651,079628,075077,095023,078009
0000000045,0000044000,079402,092841,082030,072173,095073,080863
0000000046,0000045000,077328,092137,084807,069913,094093,084103
0000000047,0000046000,075995,090594,087683,068519,092181,087409
0000000048,0000047000,075510,088372,090389,068122,089523,090464
0000000049,0000048000,075917,085697,092658,068765,086377,092967
0000000050,0000049000,077194,082820,094258,070383,083056,094670
0000000051,0000050000,079212,080023,095038,072818,079883,095408
0000000052,0000051000,081761,077586,094924,075834,077166,095109
0000000053,0000052000,084602,075743,093927,079133,075172,093804
0000000054,0000053000,087458,074671,092143,082390,074100,091619
0000000055,0000054000,090043,074487,089742,085291,074053,088765
0000000056,0000055000,092107,075201,086964,087553,075031,085525
0000000057,0000056000,093453,076731,084088,088948,076942,082219
0000000058,0000057000,093940,078950,081382,089342,079603,079164
0000000059,0000058000,093520,081640,079113,088700,082748,076661
0000000060,0000059000,092250,084509,077512,087084,086067,074958
0000000061,0000060000,090241,087298,076733,084648,089241,074221
0000000062,0000061000,087678,089748,076846,081631,091959,074519
0000000063,0000062000,084838,091591,077843,078335,093951,075824
0000000064,0000063000,081994,092651,079627,075077,095023,078009
0000000065,0000064000,079400,092843,082029,072174,095073,080863
0000000066,0000065000,077330,092136,084806,069914,094093,084102
0000000067,0000066000,075996,090593,087683,068519,092181,087409
0000000068,0000067000,075507,088376,090389,068123,089523,090463
0000000069,0000068000,075917,085698,092658,068766,086377,092966
0000000070,0000069000,077195,082819,094258,070383,083057,094669
0000000071,0000070000,079208,080026,095038,072818,079885,095407
0000000072,0000071000,081760,077588,094925,075834,077167,095109
0000000073,0000072000,084605,075740,093928,079132,075174,093804
0000000074,0000073000,087456,074672,092144,082388,074102,091619
0000000075,0000074000,090040,074489,089743,085291,074053,088765
0000000076,0000075000,092110,075197,086964,087552,075032,085526
0000000077,0000076000,093454,076729,084088,088946,076943,082220
0000000078,0000077000,093937,078953,081383,089341,079603,079166
0000000079,0000078000,093522,081637,079113,088700,082747,076663
0000000080,0000079000,092254,084506,077512,087083,086066,074960
0000000081,0000080000,090239,087300,076733,084647,089240,074222
0000000082,0000081000,087679,089748,076845,081632,091957,074520
0000000083,0000082000,084842,091588,077842,078335,093949,075825
0000000084,0000083000,081994,092653,079626,075077,095023,078010
0000000085,0000084000,079399,092846,082027,072175,095071,080863
0000000086,0000085000,077333,092134,084805,069916,094092,084102
0000000087,0000086000,075996,090594,087682,068520,092182,087407
0000000088,0000087000,075504,088380,090388,068124,089523,090462
0000000089,0000088000,075917,085697,092657,068767,086378,092965
0000000090,0000089000,077195,082819,094258,070383,083059,094668
0000000091,0000090000,079204,080029,095039,072817,079887,095406
0000000092,0000091000,081759,077588,094926,075834,077168,095108
0000000093,0000092000,084605,075738,093929,079130,075176,093803
0000000094,0000093000,087453,074673,092146,082386,074104,091619
0000000095,0000094000,090039,074488,089744,085289,074055,088766
0000000096,0000095000,092112,075194,086966,087549,075033,085527
0000000097,0000096000,093454,076729,084090,088944,076944,082222
0000000098,0000097000,093937,078952,081384,089340,079602,079168
0000000099,0000098000,093525,081633,079114,088699,082746,076665
0000000100,0000099000,092255,084504,077512,087082,086065,074962
0000000101,0000100000,090239,087301,076732,084647,089238,074224
0000000102,0000101000,087682,089746,076844,081633,091955,074522
0000000103,0000102000,084844,091587,077841,078336,093947,075826
0000000104,0000103000,081993,092655,079624,075079,095020,078010
0000000105,0000104000,079401,092847,082025,072178,095069,080862
0000000106,0000105000,077335,092134,084803,069918,094091,084100
0000000107,0000106000,075993,090598,087680,068522,092182,087406
0000000108,0000107000,075502,088383,090386,068126,089523,090459
0000000109,0000108000,075918,085697,092657,068768,086379,092962
0000000110,0000109000,077192,082821,094259,070383,083061,094665
0000000111,0000110000,079200,080032,095040,072817,079889,095403
0000000112,0000111000,081758,077587,094927,075833,077171,095106
0000000113,0000112000,084603,075738,093931,079128,075179,093802
0000000114,0000113000,087449,074674,092148,082384,074107,091618
0000000115,0000114000,090039,074486,089747,085286,074057,088767
0000000116,0000115000,092113,075191,086969,087546,075034,085529
0000000117,0000116000,093452,076728,084092,088941,076945,082224
0000000118,0000117000,093938,078949,081385,089337,079601,079171
0000000119,0000118000,093529,081629,079114,088697,082745,076668
0000000120,0000119000,092256,084503,077512,087081,086063,074965
0000000121,0000120000,090241,087300,076731,084648,089235,074227
0000000122,0000121000,087687,089743,076842,081634,091951,074524
0000000123,0000122000,084847,091587,077838,078338,093944,075827
0000000124,0000123000,081993,092658,079621,075082,095017,078010
0000000125,0000124000,079403,092847,082022,072181,095067,080861
0000000126,0000125000,077335,092136,084801,069921,094090,084098
0000000127,0000126000,075991,090603,087678,068526,092181,087403
0000000128,0000127000,075502,088386,090385,068130,089524,090456
0000000129,0000128000,075917,085699,092656,068770,086381,092958
0000000130,0000129000,077188,082825,094259,070384,083064,094661
0000000131,0000130000,079197,080035,095041,072817,079892,095400
0000000132,0000131000,081756,077586,094930,075831,077175,095103
0000000133,0000132000,084599,075739,093934,079125,075183,093801
0000000134,0000133000,087446,074674,092152,082381,074111,091618
0000000135,0000134000,090039,074482,089750,085282,074060,088768
0000000136,0000135000,092112,075188,086972,087541,075037,085531
0000000137,0000136000,093452,076726,084095,088937,076945,082228
0000000138,0000137000,093941,078944,081387,089334,079601,079175
0000000139,0000138000,093532,081625,079115,088694,082743,076673
0000000140,0000139000,092258,084502,077512,087080,086060,074970
0000000141,0000140000,090246,087297,076729,084648,089231,074231
0000000142,0000141000,087692,089740,076840,081635,091947,074527
0000000143,0000142000,084849,091589,077835,078341,093940,075829
0000000144,0000143000,081996,092659,079617,075086,095013,078011
0000000145,0000144000,079406,092848,082018,072186,095063,080860
0000000146,0000145000,077335,092140,084797,069926,094088,084096
0000000147,0000146000,075989,090608,087675,068531,092180,087399
0000000148,0000147000,075501,088388,090382,068134,089524,090451
0000000149,0000148000,075913,085704,092655,068773,086383,092953
0000000150,0000149000,077182,082830,094259,070386,083068,094656
0000000151,0000150000,079194,080036,095043,072817,079897,095395
0000000152,0000151000,081752,077587,094933,075829,077181,095100
0000000153,0000152000,084594,075740,093938,079122,075189,093799
0000000154,0000153000,087443,074672,092156,082376,074115,091618
0000000155,0000154000,090038,074479,089755,085276,074064,088769
0000000156,0000155000,092110,075185,086977,087535,075040,085534
0000000157,0000156000,093452,076722,084098,088931,076946,082232
0000000158,0000157000,093945,078938,081389,089329,079600,079180
0000000159,0000158000,093535,081621,079116,088690,082741,076679
0000000160,0000159000,092262,084499,077511,087078,086056,074975
0000000161,0000160000,090252,087293,076727,084648,089225,074236
0000000162,0000161000,087697,089738,076836,081637,091941,074531
0000000163,0000162000,084852,091590,077830,078344,093934,075831
0000000164,0000163000,082001,092660,079612,075092,095007,078011
0000000165,0000164000,079409,092850,082013,072192,095059,080859
0000000166,0000165000,077334,092146,084792,069932,094085,084093
0000000167,0000166000,075989,090613,087670,068537,092179,087394
0000000168,0000167000,075499,088393,090380,068139,089525,090445
0000000169,0000168000,075908,085710,092654,068776,086386,092946
0000000170,0000169000,077177,082836,094260,070388,083072,094650
0000000171,0000170000,079189,080039,095045,072817,079903,095390
0000000172,0000171000,081746,077589,094937,075826,077188,095095
0000000173,0000172000,084588,075741,093944,079118,075196,093796
0000000174,0000173000,087440,074670,092162,082370,074122,091617
0000000175,0000174000,090036,074475,089761,085269,074069,088771
0000000176,0000175000,092109,075181,086982,087528,075043,085538
0000000177,0000176000,093454,076715,084103,088925,076947,082238
0000000178,0000177000,093948,078931,081393,089323,079599,079187
0000000179,0000178000,093539,081615,079118,088686,082738,076686
0000000180,0000179000,092268,084493,077511,087076,086051,074983
0000000181,0000180000,090260,087288,076724,084648,089219,074242
0000000182,0000181000,087703,089737,076832,081639,091934,074536
0000000183,0000182000,084858,091590,077824,078349,093926,075834
0000000184,0000183000,082006,092661,079605,075098,095000,078012
0000000185,0000184000,079412,092854,082006,072199,095053,080857
0000000186,0000185000,077335,092152,084785,069940,094081,084088
0000000187,0000186000,075988,090619,087665,068545,092177,087388
0000000188,0000187000,075496,088400,090376,068145,089527,090438
0000000189,0000188000,075902,085718,092652,068781,086390,092938
0000000190,0000189000,077171,082841,094260,070390,083078,094641
0000000191,0000190000,079182,080042,095048,072817,079910,095382
0000000192,0000191000,081738,077593,094942,075824,077196,095090
0000000193,0000192000,084581,075741,093950,079113,075204,093793
0000000194,0000193000,087436,074667,092169,082363,074130,091617
0000000195,0000194000,090032,074471,089769,085261,074076,088773
0000000196,0000195000,092107,075175,086989,087519,075047,085543
0000000197,0000196000,093457,076707,084109,088916,076949,082244
0000000198,0000197000,093952,078923,081397,089316,079598,079195
0000000199,0000198000,093544,081609,079120,088681,082733,076695
0000000200,0000199000,092276,084486,077510,087073,086044,074992
0000000201,0000200000,090268,087283,076721,084648,089210,074250
0000000202,0000201000,087710,089735,076827,081643,091925,074542
0000000203,0000202000,084865,091590,077817,078355,093916,075838
0000000204,0000203000,082012,092663,079597,075106,094991,078012
0000000205,0000204000,079415,092860,081998,072209,095046,080855
0000000206,0000205000,077335,092159,084778,069950,094076,084083
0000000207,0000206000,075987,090626,087659,068554,092175,087380
0000000208,0000207000,075491,088409,090372,068153,089528,090428
0000000209,0000208000,075895,085726,092650,068787,086394,092928
0000000210,0000209000,077163,082848,094261,070393,083085,094632
0000000211,0000210000,079173,080048,095052,072816,079920,095374
0000000212,0000211000,081729,077596,094948,075820,077206,095083
0000000213,0000212000,084574,075741,093958,079106,075214,093789
0000000214,0000213000,087430,074663,092179,082354,074139,091616
0000000215,0000214000,090027,074466,089778,085250,074084,088775
0000000216,0000215000,092107,075168,086998,087509,075052,085548
0000000217,0000216000,093459,076697,084116,088906,076951,082253
0000000218,0000217000,093956,078914,081402,089307,079597,079206
0000000219,0000218000,093551,081600,079122,088675,082728,076706
0000000220,0000219000,092286,084478,077509,087070,086036,075003
0000000221,0000220000,090278,087277,076717,084649,089201,074260
0000000222,0000221000,087719,089733,076820,081647,091913,074549
0000000223,0000222000,084874,091589,077808,078362,093905,075842
0000000224,0000223000,082019,092666,079587,075116,094981,078013
0000000225,0000224000,079418,092867,081988,072220,095038,080852
0000000226,0000225000,077337,092167,084768,069962,094070,084077
0000000227,0000226000,075985,090636,087651,068565,092173,087371
0000000228,0000227000,075485,088420,090366,068162,089530,090417
0000000229,0000228000,075887,085736,092648,068794,086400,092916
0000000230,0000229000,077154,082856,094262,070396,083093,094620
0000000231,0000230000,079162,080055,095056,072816,079931,095363
0000000232,0000231000,081718,077600,094955,075816,077219,095075
0000000233,0000232000,084565,075740,093967,079099,075227,093784
0000000234,0000233000,087422,074660,092189,082344,074151,091615
0000000235,0000234000,090022,074460,089789,085238,074093,088778
0000000236,0000235000,092106,075158,087008,087496,075058,085555
0000000237,0000236000,093461,076686,084124,088893,076953,082263
0000000238,0000237000,093961,078903,081408,089297,079595,079218
0000000239,0000238000,093560,081588,079124,088667,082723,076720
0000000240,0000239000,092297,084468,077508,087067,086027,075016
0000000241,0000240000,090289,087270,076713,084649,089189,074271
0000000242,0000241000,087731,089729,076812,081651,091900,074558
0000000243,0000242000,084885,091589,077798,078371,093891,075847
0000000244,0000243000,082027,092670,079575,075127,094968,078014
0000000245,0000244000,079423,092874,081975,072233,095028,080848
0000000246,0000245000,077339,092177,084757,069976,094064,084069
0000000247,0000246000,075983,090648,087642,068578,092171,087360
0000000248,0000247000,075479,088433,090360,068173,089532,090404
0000000249,0000248000,075879,085748,092645,068802,086406,092902
0000000250,0000249000,077143,082866,094264,070400,083103,094606
0000000251,0000250000,079149,080063,095061,072815,079944,095351
0000000252,0000251000,081705,077604,094963,075811,077233,095066
0000000253,0000252000,084554,075740,093978,079089,075241,093779
0000000254,0000253000,087413,074657,092202,082331,074164,091614
0000000255,0000254000,090017,074453,089802,085224,074103,088782
0000000256,0000255000,092105,075147,087020,087481,075065,085563
0000000257,0000256000,093464,076674,084135,088879,076956,082275
0000000258,0000257000,093968,078890,081415,089285,079593,079232
0000000259,0000258000,093570,081575,079127,088659,082716,076735
0000000260,0000259000,092309,084457,077506,087062,086016,075031
0000000261,0000260000,090302,087263,076707,084650,089175,074285
0000000262,0000261000,087745,089724,076803,081657,091884,074568
0000000263,0000262000,084898,091588,077786,078381,093876,075853
0000000264,0000263000,082036,092675,079562,075140,094954,078015
0000000265,0000264000,079429,092882,081961,072249,095016,080844
0000000266,0000265000,077341,092188,084744,069992,094056,084061
0000000267,0000266000,075979,090662,087631,068593,092168,087348
0000000268,0000267000,075472,088448,090352,068186,089534,090389
0000000269,0000268000,075868,085762,092642,068811,086413,092885
0000000270,0000269000,077129,082878,094265,070404,083115,094590
0000000271,0000270000,079134,080072,095067,072814,079958,095337
0000000272,0000271000,081691,077608,094973,075805,077250,095055
0000000273,0000272000,084541,075740,093991,079079,075258,093772
0000000274,0000273000,087402,074653,092217,082317,074179,091613
0000000275,0000274000,090011,074444,089817,085207,074115,088787
0000000276,0000275000,092103,075135,087034,087463,075073,085573
0000000277,0000276000,093466,076660,084146,088863,076959,082288
0000000278,0000277000,093975,078875,081423,089271,079590,079248
0000000279,0000278000,093582,081560,079130,088649,082708,076753
0000000280,0000279000,092323,084444,077505,087058,086004,075048
0000000281,0000280000,090318,087253,076701,084651,089159,074300
0000000282,0000281000,087761,089718,076792,081663,091866,074579
0000000283,0000282000,084911,091588,077772,078392,093858,075860
0000000284,0000283000,082047,092680,079546,075156,094938,078016
0000000285,0000284000,079437,092891,081945,072267,095003,080840
0000000286,0000285000,077343,092201,084729,070011,094048,084051
0000000287,0000286000,075976,090678,087618,068611,092165,087333
0000000288,0000287000,075464,088464,090344,068201,089537,090371
0000000289,0000288000,075856,085777,092638,068821,086422,092866
0000000290,0000289000,077113,082892,094267,070409,083129,094571
0000000291,0000290000,079117,080082,095073,072813,079975,095321
0000000292,0000291000,081675,077614,094984,075798,077269,095043
0000000293,0000292000,084525,075740,094006,079066,075278,093765
0000000294,0000293000,087390,074648,092234,082301,074197,091612
0000000295,0000294000,090003,074434,089835,085188,074129,088792
0000000296,0000295000,092101,075121,087050,087444,075082,085583
0000000297,0000296000,093470,076643,084160,088844,076962,082303
0000000298,0000297000,093984,078856,081432,089256,079587,079267
0000000299,0000298000,093595,081542,079135,088638,082699,076773
0000000300,0000299000,092339,084429,077503,087052,085990,075067
0000000301,0000300000,090336,087242,076694,084652,089141,074317
