DIgSILENT PowerFactory,21000900,2000
6,06A,00D
1,TTPP_200000_100:Secondary Voltage A,,,V,0.010000000,-71.446495,0.000000,-85626,99998,1,1,P
2,TTPP_200000_100:Secondary Voltage B,,,V,0.10000000,-8923.521484,0.000000,79857,99998,1,1,P
3,TTPP_200000_100:Secondary Voltage C,,,V,0.10000000,-8935.338867,0.000000,79167,99998,1,1,P
4,TTCC_300_1:Secondary Current A,,,A,0.00010000000,-2.972195,0.000000,-75792,99998,1,1,P
5,TTCC_300_1:Secondary Current B,,,A,0.00010000000,-4.988734,0.000000,-313,99998,1,1,P
6,TTCC_300_1:Secondary Current C,,,A,0.00010000000,-4.878214,0.000000,-2357,99998,1,1,P
50
1
1000.000000,1101
30/06/2023,06:02:04.000000
30/06/2023,06:02:04.000000
ASCII
1.000000
0000000001,0000000000,078209,090710,080772,008789,035902,083701
0000000002,0000001000,056871,093429,080188,018542,026621,083228
0000000003,0000002000,030475,095757,080499,029380,019627,079388
0000000004,0000003000,001888,097438,081675,040259,015579,072553
0000000005,0000004000,-26055,098300,083608,050101,014905,063385
0000000006,0000005000,-50929,098290,086105,057954,017651,052785
0000000007,0000006000,-70095,097401,088912,063037,023550,041803
0000000008,0000007000,-81580,095698,091765,064861,032024,031507
0000000009,0000008000,-84447,093360,094388,063241,042263,022889
0000000010,0000009000,-78447,090635,096513,058346,053235,016810
0000000011,0000010000,-63940,087762,097934,050651,063873,013868
0000000012,0000011000,-42448,085028,098519,040889,073161,014340
0000000013,0000012000,-16248,082720,098208,030046,080164,018182
0000000014,0000013000,012307,081041,097031,019180,084195,025016
0000000015,0000014000,040463,080159,095099,009334,084874,034184
0000000016,0000015000,065216,080179,092601,001472,082137,044783
0000000017,0000016000,084280,081081,089795,-03603,076230,055764
0000000018,0000017000,095940,082766,086942,-05423,067752,066062
0000000019,0000018000,098795,085104,084320,-03812,057524,074679
0000000020,0000019000,092629,087847,082194,001086,046547,080758
0000000021,0000020000,078250,090706,080772,008789,035902,083700
0000000022,0000021000,056827,093433,080188,018540,026624,083228
0000000023,0000022000,030446,095759,080499,029385,019620,079386
0000000024,0000023000,001954,097433,081675,040260,015579,072552
0000000025,0000024000,-26060,098301,083609,050100,014906,063385
0000000026,0000025000,-50973,098295,086106,057956,017650,052785
0000000027,0000026000,-70074,097399,088912,063043,023545,041804
0000000028,0000027000,-81554,095694,091764,064861,032025,031506
0000000029,0000028000,-84486,093364,094387,063241,042262,022889
0000000030,0000029000,-78450,090635,096513,058350,053231,016810
0000000031,0000030000,-63911,087759,097935,050652,063872,013868
0000000032,0000031000,-42470,085031,098520,040892,073159,014340
0000000033,0000032000,-16252,082720,098208,030048,080162,018181
0000000034,0000033000,012332,081039,097031,019183,084194,025015
0000000035,0000034000,040439,080160,095099,009334,084875,034183
0000000036,0000035000,065202,080181,092602,001477,082133,044781
0000000037,0000036000,084319,081077,089794,-03602,076230,055763
0000000038,0000037000,095936,082767,086943,-05423,067753,066061
0000000039,0000038000,098756,085108,084320,-03809,057523,074678
0000000040,0000039000,092659,087844,082193,001090,046545,080756
0000000041,0000040000,078277,090704,080771,008788,035904,083699
0000000042,0000041000,056789,093436,080187,018540,026625,083227
0000000043,0000042000,030448,095760,080499,029389,019617,079386
0000000044,0000043000,001992,097429,081675,040259,015580,072552
0000000045,0000044000,-26078,098303,083608,050099,014907,063385
0000000046,0000045000,-50991,098297,086105,057957,017649,052786
0000000047,0000046000,-70049,097396,088912,063044,023543,041805
0000000048,0000047000,-81559,095695,091764,064860,032025,031507
0000000049,0000048000,-84510,093367,094387,063242,042260,022890
0000000050,0000049000,-78428,090633,096513,058352,053229,016811
0000000051,0000050000,-63913,087759,097935,050652,063871,013869
0000000052,0000051000,-42501,085033,098520,040895,073156,014340
0000000053,0000052000,-16236,082719,098208,030052,080158,018181
0000000054,0000053000,012347,081037,097032,019184,084193,025015
0000000055,0000054000,040406,080163,095099,009337,084874,034182
0000000056,0000055000,065200,080181,092602,001483,082129,044780
0000000057,0000056000,084355,081073,089795,-03599,076230,055761
0000000058,0000057000,095918,082768,086943,-05422,067755,066058
0000000059,0000058000,098739,085109,084320,-03805,057522,074675
0000000060,0000059000,092693,087841,082193,001092,046546,080753
0000000061,0000060000,078284,090703,080771,008787,035908,083697
0000000062,0000061000,056768,093439,080187,018540,026627,083225
0000000063,0000062000,030467,095758,080498,029389,019618,079385
0000000064,0000063000,002009,097427,081675,040256,015584,072551
0000000065,0000064000,-26100,098306,083608,050097,014909,063385
0000000066,0000065000,-50983,098297,086104,057955,017649,052787
0000000067,0000066000,-70033,097395,088912,063041,023544,041807
0000000068,0000067000,-81584,095697,091764,064857,032025,031510
0000000069,0000068000,-84517,093368,094387,063243,042256,022893
0000000070,0000069000,-78408,090631,096513,058351,053226,016815
0000000071,0000070000,-63934,087761,097936,050651,063868,013871
0000000072,0000071000,-42526,085036,098520,040898,073151,014342
0000000073,0000072000,-16216,082716,098209,030056,080153,018182
0000000074,0000073000,012345,081036,097032,019186,084190,025015
0000000075,0000074000,040376,080165,095100,009342,084870,034180
0000000076,0000075000,065213,080179,092603,001489,082125,044777
0000000077,0000076000,084373,081070,089795,-03596,076230,055757
0000000078,0000077000,095899,082770,086943,-05418,067756,066054
0000000079,0000078000,098745,085109,084320,-03801,057522,074670
0000000080,0000079000,092721,087838,082193,001094,046549,080749
0000000081,0000080000,078279,090704,080771,008787,035913,083692
0000000082,0000081000,056768,093440,080186,018540,026631,083221
0000000083,0000082000,030496,095756,080497,029387,019623,079383
0000000084,0000083000,002008,097428,081674,040251,015589,072551
0000000085,0000084000,-26112,098308,083607,050093,014912,063386
0000000086,0000085000,-50963,098296,086103,057951,017650,052790
0000000087,0000086000,-70030,097395,088911,063035,023546,041811
0000000088,0000087000,-81611,095700,091764,064853,032024,031515
0000000089,0000088000,-84515,093368,094386,063241,042252,022899
0000000090,0000089000,-78402,090630,096513,058349,053222,016820
0000000091,0000090000,-63966,087763,097936,050651,063863,013877
0000000092,0000091000,-42541,085036,098521,040902,073143,014346
0000000093,0000092000,-16205,082714,098210,030060,080147,018184
0000000094,0000093000,012326,081037,097034,019192,084185,025015
0000000095,0000094000,040358,080166,095101,009350,084864,034178
0000000096,0000095000,065229,080176,092604,001497,082121,044773
0000000097,0000096000,084375,081069,089797,-03589,076229,055751
0000000098,0000097000,095889,082770,086944,-05412,067756,066046
0000000099,0000098000,098767,085106,084320,-03795,057524,074662
0000000100,0000099000,092741,087836,082193,001096,046555,080741
0000000101,0000100000,078275,090705,080771,008787,035919,083685
0000000102,0000101000,056787,093439,080185,018538,026638,083216
0000000103,0000102000,030524,095754,080496,029381,019631,079379
0000000104,0000103000,002003,097430,081673,040244,015597,072550
0000000105,0000104000,-26110,098309,083605,050086,014917,063388
0000000106,0000105000,-50942,098296,086102,057942,017654,052794
0000000107,0000106000,-70041,097397,088910,063026,023548,041818
0000000108,0000107000,-81633,095704,091763,064847,032022,031523
0000000109,0000108000,-84512,093368,094386,063237,042247,022908
0000000110,0000109000,-78414,090631,096513,058346,053217,016829
0000000111,0000110000,-64000,087766,097937,050652,063854,013885
0000000112,0000111000,-42550,085036,098522,040906,073132,014353
0000000113,0000112000,-16210,082713,098211,030066,080137,018188
0000000114,0000113000,012299,081038,097036,019200,084176,025016
0000000115,0000114000,040351,080165,095103,009361,084855,034176
0000000116,0000115000,065241,080173,092606,001508,082116,044768
0000000117,0000116000,084368,081068,089798,-03579,076228,055743
0000000118,0000117000,095892,082769,086945,-05402,067757,066036
0000000119,0000118000,098798,085103,084321,-03789,057529,074651
0000000120,0000119000,092756,087834,082193,001098,046563,080730
0000000121,0000120000,078283,090705,080770,008788,035929,083675
0000000122,0000121000,056821,093437,080184,018535,026649,083208
0000000123,0000122000,030547,095754,080494,029374,019644,079374
0000000124,0000123000,002002,097432,081670,040235,015608,072548
0000000125,0000124000,-26096,098310,083603,050076,014925,063390
0000000126,0000125000,-50928,098296,086100,057930,017661,052801
0000000127,0000126000,-70058,097401,088908,063013,023551,041827
0000000128,0000127000,-81647,095706,091761,064838,032019,031535
0000000129,0000128000,-84516,093369,094385,063229,042241,022921
0000000130,0000129000,-78443,090633,096514,058341,053208,016842
0000000131,0000130000,-64033,087769,097938,050653,063842,013896
0000000132,0000131000,-42562,085036,098524,040912,073118,014362
0000000133,0000132000,-16233,082713,098214,030074,080124,018194
0000000134,0000133000,012269,081038,097038,019212,084162,025017
0000000135,0000134000,040349,080163,095105,009376,084844,034172
0000000136,0000135000,065244,080170,092608,001522,082109,044760
0000000137,0000136000,084361,081067,089800,-03565,076225,055731
0000000138,0000137000,095909,082766,086946,-05388,067758,066022
0000000139,0000138000,098830,085099,084321,-03780,057536,074635
0000000140,0000139000,092772,087833,082193,001103,046574,080714
0000000141,0000140000,078307,090704,080768,008789,035942,083661
0000000142,0000141000,056862,093435,080182,018530,026664,083197
0000000143,0000142000,030569,095754,080492,029363,019661,079368
0000000144,0000143000,002013,097434,081667,040222,015623,072547
0000000145,0000144000,-26073,098311,083600,050060,014937,063394
0000000146,0000145000,-50923,098298,086097,057912,017670,052810
0000000147,0000146000,-70077,097405,088906,062997,023554,041840
0000000148,0000147000,-81658,095709,091760,064825,032016,031551
0000000149,0000148000,-84533,093371,094385,063219,042234,022939
0000000150,0000149000,-78484,090637,096514,058336,053196,016860
0000000151,0000150000,-64066,087771,097939,050654,063825,013912
0000000152,0000151000,-42585,085036,098526,040918,073099,014374
0000000153,0000152000,-16270,082713,098217,030085,080105,018201
0000000154,0000153000,012241,081038,097041,019229,084144,025018
0000000155,0000154000,040345,080159,095109,009394,084829,034168
0000000156,0000155000,065239,080167,092611,001541,082100,044750
0000000157,0000156000,084360,081064,089803,-03546,076221,055716
0000000158,0000157000,095935,082762,086948,-05372,067759,066003
0000000159,0000158000,098862,085095,084322,-03769,057545,074615
0000000160,0000159000,092796,087831,082193,001109,046589,080694
0000000161,0000160000,078349,090701,080767,008789,035960,083643
0000000162,0000161000,056908,093433,080179,018523,026685,083183
0000000163,0000162000,030594,095755,080488,029350,019682,079359
0000000164,0000163000,002038,097436,081663,040204,015642,072545
0000000165,0000164000,-26047,098313,083596,050039,014953,063399
0000000166,0000165000,-50924,098302,086094,057889,017681,052821
0000000167,0000166000,-70092,097410,088903,062977,023558,041857
0000000168,0000167000,-81670,095712,091757,064807,032013,031572
0000000169,0000168000,-84565,093375,094384,063205,042225,022962
0000000170,0000169000,-78533,090641,096515,058330,053179,016883
0000000171,0000170000,-64104,087773,097941,050655,063804,013932
0000000172,0000171000,-42623,085036,098529,040925,073076,014390
0000000173,0000172000,-16317,082714,098221,030100,080082,018210
0000000174,0000173000,012212,081036,097046,019249,084122,025020
0000000175,0000174000,040335,080156,095113,009418,084812,034162
0000000176,0000175000,065228,080164,092616,001566,082089,044737
0000000177,0000176000,084367,081060,089806,-03521,076216,055697
0000000178,0000177000,095968,082756,086950,-05351,067763,065980
0000000179,0000178000,098895,085091,084323,-03754,057556,074589
0000000180,0000179000,092835,087828,082192,001117,046606,080668
0000000181,0000180000,078405,090698,080765,008789,035983,083621
0000000182,0000181000,056958,093431,080176,018514,026712,083166
0000000183,0000182000,030629,095756,080484,029334,019709,079349
0000000184,0000183000,002075,097437,081658,040182,015666,072543
0000000185,0000184000,-26021,098315,083591,050012,014973,063406
0000000186,0000185000,-50927,098307,086089,057861,017694,052835
0000000187,0000186000,-70104,097415,088899,062950,023562,041879
0000000188,0000187000,-81689,095717,091755,064784,032009,031599
0000000189,0000188000,-84610,093381,094383,063188,042213,022991
0000000190,0000189000,-78587,090646,096515,058322,053159,016911
0000000191,0000190000,-64151,087775,097943,050656,063778,013957
0000000192,0000191000,-42678,085038,098533,040935,073047,014409
0000000193,0000192000,-16372,082715,098226,030118,080051,018222
0000000194,0000193000,012180,081034,097051,019275,084094,025023
0000000195,0000194000,040315,080152,095119,009447,084789,034155
0000000196,0000195000,065216,080160,092621,001597,082074,044721
0000000197,0000196000,084382,081055,089810,-03491,076209,055673
0000000198,0000197000,096003,082750,086953,-05326,067767,065950
0000000199,0000198000,098933,085086,084324,-03736,057570,074557
0000000200,0000199000,092889,087823,082191,001126,046628,080637
0000000201,0000200000,078473,090694,080762,008788,036011,083593
0000000202,0000201000,057015,093430,080172,018503,026745,083144
0000000203,0000202000,030678,095757,080479,029314,019742,079336
0000000204,0000203000,002123,097439,081652,040155,015696,072540
0000000205,0000204000,-25996,098319,083584,049979,014998,063414
0000000206,0000205000,-50927,098313,086083,057827,017711,052853
0000000207,0000206000,-70114,097421,088894,062918,023568,041905
0000000208,0000207000,-81719,095723,091752,064756,032005,031631
0000000209,0000208000,-84665,093387,094382,063168,042198,023026
0000000210,0000209000,-78647,090652,096516,058312,053134,016945
0000000211,0000210000,-64213,087778,097946,050657,063746,013988
0000000212,0000211000,-42748,085041,098538,040947,073012,014432
0000000213,0000212000,-16433,082715,098231,030141,080015,018236
0000000214,0000213000,012140,081031,097058,019305,084060,025026
0000000215,0000214000,040285,080148,095126,009483,084763,034146
0000000216,0000215000,065205,080155,092627,001635,082056,044701
0000000217,0000216000,084403,081047,089815,-03455,076202,055644
0000000218,0000217000,096041,082742,086957,-05296,067772,065915
0000000219,0000218000,098982,085079,084326,-03714,057587,074518
0000000220,0000219000,092958,087817,082190,001138,046655,080599
0000000221,0000220000,078550,090689,080759,008786,036046,083559
0000000222,0000221000,057082,093428,080167,018489,026784,083119
0000000223,0000222000,030742,095757,080472,029290,019781,079321
0000000224,0000223000,002179,097441,081645,040122,015732,072537
0000000225,0000224000,-25968,098323,083577,049940,015028,063423
0000000226,0000225000,-50922,098320,086076,057786,017730,052875
0000000227,0000226000,-70126,097428,088888,062879,023576,041937
0000000228,0000227000,-81759,095731,091748,064723,031999,031670
0000000229,0000228000,-84729,093395,094380,063145,042179,023068
0000000230,0000229000,-78717,090658,096517,058300,053105,016987
0000000231,0000230000,-64291,087783,097949,050658,063709,014024
0000000232,0000231000,-42833,085044,098543,040961,072969,014460
0000000233,0000232000,-16502,082715,098239,030168,079971,018252
0000000234,0000233000,012089,081028,097066,019342,084021,025029
0000000235,0000234000,040247,080144,095135,009525,084731,034136
0000000236,0000235000,065195,080148,092635,001680,082034,044677
0000000237,0000236000,084426,081039,089822,-03413,076194,055610
0000000238,0000237000,096082,082734,086961,-05261,067779,065873
0000000239,0000238000,099043,085071,084328,-03688,057607,074473
0000000240,0000239000,093043,087810,082189,001151,046686,080554
0000000241,0000240000,078639,090684,080755,008785,036087,083520
0000000242,0000241000,057165,093425,080161,018473,026830,083088
0000000243,0000242000,030822,095757,080464,029261,019828,079303
0000000244,0000243000,002242,097443,081636,040082,015775,072534
0000000245,0000244000,-25935,098329,083568,049894,015062,063435
0000000246,0000245000,-50913,098327,086068,057738,017753,052900
0000000247,0000246000,-70142,097436,088881,062833,023584,041974
0000000248,0000247000,-81809,095741,091743,064684,031993,031715
0000000249,0000248000,-84801,093405,094378,063117,042157,023117
0000000250,0000249000,-78800,090665,096518,058286,053070,017035
0000000251,0000250000,-64388,087789,097953,050660,063664,014067
0000000252,0000251000,-42931,085047,098549,040979,072919,014493
0000000253,0000252000,-16583,082715,098247,030199,079921,018271
0000000254,0000253000,012024,081025,097076,019384,083975,025033
0000000255,0000254000,040202,080138,095144,009575,084694,034123
0000000256,0000255000,065187,080140,092644,001733,082009,044650
0000000257,0000256000,084450,081029,089829,-03364,076185,055570
0000000258,0000257000,096129,082724,086966,-05219,067786,065824
0000000259,0000258000,099118,085062,084330,-03658,057630,074419
0000000260,0000259000,093141,087801,082188,001166,046724,080502
0000000261,0000260000,078740,090678,080751,008783,036135,083474
0000000262,0000261000,057265,093422,080154,018455,026884,083053
0000000263,0000262000,030917,095756,080455,029227,019882,079282
0000000264,0000263000,002313,097446,081625,040036,015825,072530
0000000265,0000264000,-25894,098336,083557,049840,015102,063448
0000000266,0000265000,-50899,098336,086058,057682,017779,052930
0000000267,0000266000,-70164,097446,088873,062780,023594,042017
0000000268,0000267000,-81866,095752,091738,064639,031985,031768
0000000269,0000268000,-84881,093415,094376,063085,042132,023174
0000000270,0000269000,-78899,090674,096519,058271,053030,017091
0000000271,0000270000,-64502,087795,097958,050662,063613,014116
0000000272,0000271000,-43042,085051,098557,040999,072861,014531
0000000273,0000272000,-16678,082714,098257,030236,079862,018293
0000000274,0000273000,011946,081021,097087,019433,083922,025036
0000000275,0000274000,040152,080132,095156,009633,084651,034108
0000000276,0000275000,065177,080131,092654,001793,081981,044618
0000000277,0000276000,084475,081017,089838,-03307,076175,055523
0000000278,0000277000,096184,082712,086972,-05171,067795,065767
0000000279,0000278000,099207,085050,084332,-03624,057657,074358
0000000280,0000279000,093252,087791,082187,001182,046767,080442
0000000281,0000280000,078857,090671,080747,008780,036191,083421
0000000282,0000281000,057384,093419,080146,018433,026945,083013
0000000283,0000282000,031025,095756,080444,029188,019944,079259
0000000284,0000283000,002394,097450,081613,039983,015882,072526
0000000285,0000284000,-25843,098343,083545,049779,015148,063464
0000000286,0000285000,-50882,098345,086046,057618,017809,052964
0000000287,0000286000,-70190,097458,088864,062719,023605,042067
0000000288,0000287000,-81930,095765,091731,064588,031975,031829
0000000289,0000288000,-84972,093427,094373,063049,042103,023240
0000000290,0000289000,-79015,090684,096520,058253,052984,017155
0000000291,0000290000,-64633,087803,097963,050665,063554,014172
0000000292,0000291000,-43168,085055,098565,041023,072795,014573
0000000293,0000292000,-16790,082714,098268,030278,079796,018318
0000000294,0000293000,011854,081018,097100,019490,083861,025041
0000000295,0000294000,040095,080124,095169,009699,084602,034091
0000000296,0000295000,065164,080120,092667,001862,081949,044581
0000000297,0000296000,084500,081005,089848,-03242,076164,055470
0000000298,0000297000,096248,082699,086979,-05116,067805,065702
0000000299,0000298000,099309,085037,084335,-03585,057688,074288
0000000300,0000299000,093376,087780,082186,001201,046816,080374
0000000301,0000300000,078992,090663,080741,008777,036253,083361
