DIgSILENT PowerFactory,21000900,2000
6,06A,00D
1,TTPP_200000_100:Secondary Voltage A,,,V,0.010000000,-71.429123,0.000000,-85630,99998,1,1,P
2,TTPP_200000_100:Secondary Voltage B,,,V,0.010000000,-47.871162,0.000000,-88876,99998,1,1,P
3,TTPP_200000_100:Secondary Voltage C,,,V,0.10000000,-8996.212891,0.000000,79937,99998,1,1,P
4,TTCC_300_1:Secondary Current A,,,A,0.00010000000,-4.398540,0.000000,-38426,99998,1,1,P
5,TTCC_300_1:Secondary Current B,,,A,0.00010000000,-4.922988,0.000000,-1477,99998,1,1,P
6,TTCC_300_1:Secondary Current C,,,A,0.00010000000,-4.881986,0.000000,-2283,99998,1,1,P
50
1
1000.000000,1101
30/06/2023,06:03:29.000000
30/06/2023,06:03:29.000000
ASCII
1.000000
0000000001,0000000000,078209,019540,081380,023048,035250,083738
0000000002,0000001000,056861,046726,080796,032803,025966,083267
0000000003,0000002000,030493,069989,081108,043640,018968,079427
0000000004,0000003000,001917,086798,082284,054512,014930,072594
0000000005,0000004000,-26068,095460,084217,064359,014246,063428
0000000006,0000005000,-50952,095361,086714,072213,016993,052830
0000000007,0000006000,-70124,086470,089522,077303,022885,041847
0000000008,0000007000,-81554,069375,092373,079127,031360,031549
0000000009,0000008000,-84410,046008,094996,077504,041600,022931
0000000010,0000009000,-78466,018803,097122,072607,052577,016851
0000000011,0000010000,-63978,-09909,098544,064918,063209,013907
0000000012,0000011000,-42451,-37278,099129,055164,072493,014378
0000000013,0000012000,-16224,-60396,098817,044313,079506,018216
0000000014,0000013000,012316,-77158,097640,033449,083537,025049
0000000015,0000014000,040450,-85969,095707,023602,084217,034216
0000000016,0000015000,065222,-85775,093211,015738,081482,044815
0000000017,0000016000,084281,-76763,090403,010661,075578,055797
0000000018,0000017000,095917,-59876,087551,008844,067096,066095
0000000019,0000018000,098801,-36534,084929,010451,056872,074713
0000000020,0000019000,092653,-09124,082802,015346,045896,080792
0000000021,0000020000,078256,019500,081380,023047,035251,083737
0000000022,0000021000,056813,046775,080796,032796,025973,083267
0000000023,0000022000,030426,070047,081108,043644,018964,079427
0000000024,0000023000,001949,086759,082284,054520,014921,072594
0000000025,0000024000,-26040,095422,084217,064360,014247,063427
0000000026,0000025000,-50964,095377,086714,072212,016994,052829
0000000027,0000026000,-70102,086444,089521,077304,022884,041848
0000000028,0000027000,-81570,069388,092373,079125,031361,031549
0000000029,0000028000,-84479,046062,094996,077506,041598,022931
0000000030,0000029000,-78449,018779,097122,072617,052568,016850
0000000031,0000030000,-63927,-09963,098544,064920,063208,013906
0000000032,0000031000,-42460,-37273,099129,055160,072497,014377
0000000033,0000032000,-16248,-60371,098817,044316,079503,018216
0000000034,0000033000,012307,-77158,097640,033452,083534,025049
0000000035,0000034000,040437,-85963,095708,023604,084217,034215
0000000036,0000035000,065217,-85776,093211,015746,081476,044813
0000000037,0000036000,084323,-76801,090403,010663,075577,055795
0000000038,0000037000,095932,-59890,087551,008840,067102,066093
0000000039,0000038000,098757,-36489,084929,010452,056871,074711
0000000040,0000039000,092646,-09117,082802,015351,045893,080791
0000000041,0000040000,078280,019473,081380,023049,035251,083736
0000000042,0000041000,056811,046780,080796,032797,025973,083265
0000000043,0000042000,030443,070037,081107,043645,018964,079426
0000000044,0000043000,001970,086747,082284,054517,014924,072594
0000000045,0000044000,-26073,095457,084217,064359,014248,063428
0000000046,0000045000,-50984,095400,086714,072216,016990,052829
0000000047,0000046000,-70070,086416,089521,077305,022882,041848
0000000048,0000047000,-81556,069378,092373,079123,031362,031550
0000000049,0000048000,-84494,046084,094996,077507,041597,022932
0000000050,0000049000,-78447,018779,097122,072617,052567,016852
0000000051,0000050000,-63932,-09959,098544,064920,063207,013907
0000000052,0000051000,-42489,-37249,099129,055165,072493,014377
0000000053,0000052000,-16234,-60385,098817,044321,079498,018216
0000000054,0000053000,012339,-77191,097640,033453,083534,025048
0000000055,0000054000,040414,-85943,095708,023605,084217,034214
0000000056,0000055000,065196,-85758,093211,015749,081474,044812
0000000057,0000056000,084340,-76823,090403,010667,075576,055792
0000000058,0000057000,095930,-59892,087551,008843,067101,066091
0000000059,0000058000,098753,-36487,084929,010456,056871,074708
0000000060,0000059000,092677,-09144,082802,015352,045895,080788
0000000061,0000060000,078282,019471,081380,023047,035255,083733
0000000062,0000061000,056784,046810,080795,032798,025975,083263
0000000063,0000062000,030454,070029,081107,043646,018965,079425
0000000064,0000063000,001996,086724,082283,054515,014927,072593
0000000065,0000064000,-26082,095471,084216,064356,014251,063428
0000000066,0000065000,-50985,095408,086713,072214,016991,052830
0000000067,0000066000,-70057,086408,089520,077302,022882,041851
0000000068,0000067000,-81579,069399,092373,079121,031361,031553
0000000069,0000068000,-84511,046102,094996,077507,041593,022935
0000000070,0000069000,-78426,018757,097122,072617,052563,016855
0000000071,0000070000,-63934,-09960,098545,064920,063205,013910
0000000072,0000071000,-42518,-37224,099130,055166,072489,014379
0000000073,0000072000,-16234,-60391,098818,044325,079493,018217
0000000074,0000073000,012340,-77201,097641,033457,083530,025048
0000000075,0000074000,040395,-85933,095709,023610,084213,034213
0000000076,0000075000,065206,-85772,093211,015755,081471,044809
0000000077,0000076000,084359,-76848,090404,010671,075576,055789
0000000078,0000077000,095915,-59882,087552,008846,067103,066086
0000000079,0000078000,098747,-36482,084929,010460,056871,074703
0000000080,0000079000,092703,-09169,082802,015355,045897,080784
0000000081,0000080000,078290,019465,081379,023047,035260,083729
0000000082,0000081000,056782,046819,080795,032797,025979,083260
0000000083,0000082000,030477,070016,081106,043643,018969,079423
0000000084,0000083000,002002,086726,082282,054510,014932,072593
0000000085,0000084000,-26098,095497,084215,064352,014254,063429
0000000086,0000085000,-50975,095407,086712,072210,016992,052833
0000000087,0000086000,-70043,086401,089519,077297,022884,041855
0000000088,0000087000,-81597,069423,092372,079116,031361,031558
0000000089,0000088000,-84523,046118,094995,077505,041590,022941
0000000090,0000089000,-78424,018753,097122,072616,052558,016861
0000000091,0000090000,-63955,-09945,098545,064920,063199,013915
0000000092,0000091000,-42536,-37212,099130,055170,072481,014383
0000000093,0000092000,-16226,-60409,098819,044330,079486,018219
0000000094,0000093000,012331,-77205,097642,033462,083525,025049
0000000095,0000094000,040372,-85922,095710,023617,084208,034211
0000000096,0000095000,065212,-85789,093213,015764,081466,044805
0000000097,0000096000,084371,-76871,090405,010677,075574,055783
0000000098,0000097000,095909,-59884,087553,008852,067103,066079
0000000099,0000098000,098761,-36498,084929,010465,056874,074696
0000000100,0000099000,092728,-09193,082802,015357,045903,080776
0000000101,0000100000,078291,019469,081379,023047,035267,083722
0000000102,0000101000,056790,046821,080794,032796,025986,083254
0000000103,0000102000,030506,070000,081104,043639,018977,079420
0000000104,0000103000,002010,086731,082281,054503,014940,072592
0000000105,0000104000,-26102,095517,084214,064344,014260,063431
0000000106,0000105000,-50963,095411,086711,072202,016995,052838
0000000107,0000106000,-70044,086413,089518,077288,022886,041861
0000000108,0000107000,-81619,069453,092372,079110,031360,031566
0000000109,0000108000,-84528,046128,094995,077501,041585,022950
0000000110,0000109000,-78428,018755,097122,072613,052552,016870
0000000111,0000110000,-63985,-09922,098546,064920,063191,013923
0000000112,0000111000,-42557,-37202,099131,055174,072471,014390
0000000113,0000112000,-16229,-60421,098820,044336,079476,018223
0000000114,0000113000,012313,-77206,097644,033470,083516,025049
0000000115,0000114000,040358,-85926,095712,023628,084199,034208
0000000116,0000115000,065222,-85816,093214,015775,081461,044800
0000000117,0000116000,084374,-76889,090407,010687,075573,055775
0000000118,0000117000,095906,-59890,087554,008862,067104,066069
0000000119,0000118000,098783,-36523,084929,010473,056878,074684
0000000120,0000119000,092754,-09218,082802,015360,045911,080765
0000000121,0000120000,078301,019467,081378,023047,035277,083712
0000000122,0000121000,056812,046814,080792,032793,025997,083246
0000000123,0000122000,030534,069991,081102,043632,018989,079415
0000000124,0000123000,002016,086746,082279,054493,014952,072590
0000000125,0000124000,-26098,095536,084212,064333,014268,063434
0000000126,0000125000,-50948,095417,086708,072190,017001,052844
0000000127,0000126000,-70051,086436,089517,077276,022889,041871
0000000128,0000127000,-81641,069487,092370,079100,031358,031578
0000000129,0000128000,-84538,046143,094994,077494,041579,022963
0000000130,0000129000,-78447,018771,097123,072609,052543,016883
0000000131,0000130000,-64020,-09898,098547,064921,063179,013935
0000000132,0000131000,-42577,-37198,099133,055180,072456,014399
0000000133,0000132000,-16243,-60430,098823,044344,079462,018229
0000000134,0000133000,012286,-77205,097647,033482,083503,025051
0000000135,0000134000,040344,-85938,095714,023643,084188,034205
0000000136,0000135000,065230,-85848,093217,015790,081453,044792
0000000137,0000136000,084375,-76912,090409,010701,075571,055763
0000000138,0000137000,095914,-59911,087555,008874,067106,066055
0000000139,0000138000,098813,-36559,084930,010482,056884,074669
0000000140,0000139000,092780,-09241,082801,015364,045922,080749
0000000141,0000140000,078320,019460,081377,023047,035291,083698
0000000142,0000141000,056847,046800,080790,032788,026012,083236
0000000143,0000142000,030565,069984,081100,043622,019005,079408
0000000144,0000143000,002027,086765,082276,054479,014967,072589
0000000145,0000144000,-26085,095555,084208,064318,014280,063437
0000000146,0000145000,-50937,095434,086706,072173,017009,052853
0000000147,0000146000,-70065,086472,089514,077259,022892,041884
0000000148,0000147000,-81660,069524,092369,079087,031355,031594
0000000149,0000148000,-84553,046165,094994,077484,041571,022981
0000000150,0000149000,-78479,018799,097123,072603,052532,016900
0000000151,0000150000,-64062,-09870,098548,064922,063163,013950
0000000152,0000151000,-42603,-37193,099135,055186,072438,014411
0000000153,0000152000,-16270,-60434,098826,044355,079444,018236
0000000154,0000153000,012254,-77208,097650,033497,083486,025052
0000000155,0000154000,040333,-85961,095718,023662,084173,034200
0000000156,0000155000,065233,-85884,093220,015809,081444,044782
0000000157,0000156000,084376,-76940,090411,010720,075567,055748
0000000158,0000157000,095930,-59945,087557,008891,067108,066036
0000000159,0000158000,098849,-36602,084931,010494,056892,074648
0000000160,0000159000,092812,-09269,082801,015370,045936,080729
0000000161,0000160000,078353,019444,081375,023047,035309,083680
0000000162,0000161000,056892,046782,080788,032781,026032,083222
0000000163,0000162000,030600,069984,081097,043608,019027,079400
0000000164,0000163000,002046,086785,082272,054462,014986,072587
0000000165,0000164000,-26064,095575,084204,064297,014295,063442
0000000166,0000165000,-50929,095462,086702,072150,017020,052864
0000000167,0000166000,-70081,086519,089511,077238,022897,041901
0000000168,0000167000,-81681,069567,092366,079069,031351,031615
0000000169,0000168000,-84578,046198,094993,077471,041561,023004
0000000170,0000169000,-78524,018837,097124,072596,052516,016923
0000000171,0000170000,-64108,-09840,098550,064923,063142,013971
0000000172,0000171000,-42639,-37187,099138,055194,072414,014426
0000000173,0000172000,-16310,-60434,098830,044370,079420,018245
0000000174,0000173000,012218,-77216,097655,033518,083464,025054
0000000175,0000174000,040320,-85993,095722,023686,084155,034195
0000000176,0000175000,065231,-85925,093224,015834,081432,044769
0000000177,0000176000,084380,-76978,090415,010744,075562,055729
0000000178,0000177000,095957,-59994,087559,008912,067111,066012
0000000179,0000178000,098890,-36653,084932,010509,056904,074623
0000000180,0000179000,092851,-09303,082800,015377,045954,080704
0000000181,0000180000,078401,019418,081373,023047,035332,083657
0000000182,0000181000,056946,046760,080784,032773,026059,083204
0000000183,0000182000,030640,069986,081092,043592,019054,079389
0000000184,0000183000,002075,086806,082267,054440,015011,072585
0000000185,0000184000,-26038,095600,084199,064271,014315,063449
0000000186,0000185000,-50924,095503,086697,072122,017034,052879
0000000187,0000186000,-70099,086575,089508,077211,022902,041922
0000000188,0000187000,-81705,069617,092364,079047,031347,031641
0000000189,0000188000,-84614,046245,094992,077454,041549,023033
0000000190,0000189000,-78579,018886,097124,072588,052496,016951
0000000191,0000190000,-64163,-09808,098552,064924,063115,013996
0000000192,0000191000,-42688,-37176,099142,055204,072385,014446
0000000193,0000192000,-16361,-60432,098835,044388,079390,018257
0000000194,0000193000,012178,-77230,097660,033543,083436,025056
0000000195,0000194000,040302,-86032,095728,023716,084132,034187
0000000196,0000195000,065225,-85972,093230,015865,081418,044753
0000000197,0000196000,084388,-77029,090419,010774,075556,055705
0000000198,0000197000,095990,-60057,087562,008937,067114,065983
0000000199,0000198000,098937,-36712,084933,010527,056918,074591
0000000200,0000199000,092901,-09346,082800,015386,045977,080672
0000000201,0000200000,078463,019381,081371,023046,035360,083629
0000000202,0000201000,057011,046737,080780,032761,026091,083183
0000000203,0000202000,030689,069991,081087,043571,019087,079377
0000000204,0000203000,002116,086828,082261,054412,015041,072582
0000000205,0000204000,-26007,095632,084193,064238,014340,063457
0000000206,0000205000,-50920,095557,086692,072087,017051,052897
0000000207,0000206000,-70117,086641,089503,077179,022908,041948
0000000208,0000207000,-81734,069679,092360,079019,031343,031674
0000000209,0000208000,-84663,046306,094991,077434,041534,023068
0000000210,0000209000,-78645,018944,097125,072578,052471,016986
0000000211,0000210000,-64228,-09770,098555,064925,063083,014026
0000000212,0000211000,-42751,-37159,099146,055216,072349,014469
0000000213,0000212000,-16424,-60429,098841,044410,079354,018271
0000000214,0000213000,012132,-77252,097667,033574,083402,025059
0000000215,0000214000,040278,-86078,095735,023752,084105,034179
0000000216,0000215000,065215,-86027,093236,015903,081400,044733
0000000217,0000216000,084401,-77094,090424,010810,075549,055676
0000000218,0000217000,096031,-60133,087565,008968,067119,065947
0000000219,0000218000,098990,-36781,084934,010548,056934,074552
0000000220,0000219000,092964,-09400,082799,015398,046003,080634
0000000221,0000220000,078540,019335,081367,023045,035394,083596
0000000222,0000221000,057085,046712,080775,032748,026131,083157
0000000223,0000222000,030749,069996,081080,043547,019127,079361
0000000224,0000223000,002167,086852,082253,054379,015077,072579
0000000225,0000224000,-25973,095674,084185,064199,014369,063466
0000000226,0000225000,-50915,095622,086685,072046,017070,052918
0000000227,0000226000,-70135,086718,089497,077140,022915,041980
0000000228,0000227000,-81769,069754,092357,078986,031337,031713
0000000229,0000228000,-84724,046382,094989,077410,041516,023110
0000000230,0000229000,-78722,019012,097126,072566,052442,017027
0000000231,0000230000,-64305,-09726,098558,064927,063045,014063
0000000232,0000231000,-42830,-37135,099152,055231,072307,014497
0000000233,0000232000,-16499,-60426,098848,044437,079311,018287
0000000234,0000233000,012079,-77280,097675,033611,083362,025062
0000000235,0000234000,040247,-86130,095743,023794,084073,034168
0000000236,0000235000,065204,-86092,093244,015947,081379,044709
0000000237,0000236000,084420,-77175,090431,010852,075541,055642
0000000238,0000237000,096078,-60223,087570,009004,067126,065905
0000000239,0000238000,099053,-36862,084936,010574,056955,074506
0000000240,0000239000,093043,-09468,082798,015411,046035,080589
0000000241,0000240000,078632,019280,081364,023044,035435,083556
0000000242,0000241000,057172,046684,080769,032732,026177,083127
0000000243,0000242000,030824,070000,081073,043518,019174,079343
0000000244,0000243000,002230,086879,082244,054340,015120,072576
0000000245,0000244000,-25934,095725,084176,064153,014404,063478
0000000246,0000245000,-50910,095700,086676,071998,017093,052944
0000000247,0000246000,-70154,086806,089490,077095,022923,042017
0000000248,0000247000,-81813,069844,092352,078947,031330,031758
0000000249,0000248000,-84796,046474,094987,077382,041494,023159
0000000250,0000249000,-78810,019090,097127,072552,052407,017076
0000000251,0000250000,-64397,-09673,098562,064928,063001,014106
0000000252,0000251000,-42926,-37104,099158,055248,072257,014530
0000000253,0000252000,-16585,-60423,098856,044468,079260,018306
0000000254,0000253000,012016,-77313,097685,033653,083316,025066
0000000255,0000254000,040207,-86189,095753,023844,084036,034156
0000000256,0000255000,065191,-86170,093253,015999,081354,044682
0000000257,0000256000,084443,-77272,090438,010902,075532,055602
0000000258,0000257000,096130,-60327,087575,009045,067133,065856
0000000259,0000258000,099126,-36956,084938,010604,056978,074453
0000000260,0000259000,093137,-09551,082797,015426,046072,080537
0000000261,0000260000,078738,019216,081360,023042,035483,083510
0000000262,0000261000,057272,046653,080762,032713,026231,083092
0000000263,0000262000,030913,070002,081063,043485,019228,079323
0000000264,0000263000,002304,086909,082234,054294,015169,072572
0000000265,0000264000,-25890,095787,084166,064099,014444,063491
0000000266,0000265000,-50901,095790,086666,071942,017120,052973
0000000267,0000266000,-70175,086908,089482,077042,022933,042061
0000000268,0000267000,-81866,069952,092346,078902,031322,031811
0000000269,0000268000,-84880,046581,094985,077350,041469,023216
0000000270,0000269000,-78911,019179,097128,072537,052367,017132
0000000271,0000270000,-64507,-09609,098567,064930,062950,014155
0000000272,0000271000,-43038,-37067,099166,055268,072199,014568
0000000273,0000272000,-16684,-60422,098866,044505,079202,018328
0000000274,0000273000,011941,-77350,097696,033703,083263,025070
0000000275,0000274000,040158,-86255,095765,023901,083993,034141
0000000276,0000275000,065176,-86261,093263,016060,081326,044650
0000000277,0000276000,084469,-77385,090447,010959,075521,055555
0000000278,0000277000,096188,-60446,087581,009093,067142,065800
0000000279,0000278000,099211,-37067,084941,010638,057005,074392
0000000280,0000279000,093247,-09648,082795,015443,046115,080477
0000000281,0000280000,078859,019142,081355,023039,035538,083458
0000000282,0000281000,057389,046616,080754,032691,026293,083052
0000000283,0000282000,031018,070002,081053,043446,019290,079299
0000000284,0000283000,002389,086944,082222,054241,015226,072568
0000000285,0000284000,-25839,095859,084153,064037,014490,063507
0000000286,0000285000,-50888,095891,086655,071877,017150,053008
0000000287,0000286000,-70199,087026,089473,076981,022944,042110
0000000288,0000287000,-81928,070079,092340,078851,031313,031872
0000000289,0000288000,-84975,046704,094982,077314,041440,023282
0000000290,0000289000,-79026,019282,097129,072519,052321,017196
0000000291,0000290000,-64634,-09533,098572,064933,062891,014211
0000000292,0000291000,-43167,-37023,099174,055291,072133,014610
0000000293,0000292000,-16798,-60421,098877,044547,079135,018353
0000000294,0000293000,011853,-77391,097709,033759,083202,025074
0000000295,0000294000,040100,-86330,095778,023967,083945,034124
0000000296,0000295000,065160,-86367,093276,016128,081294,044613
0000000297,0000296000,084498,-77515,090457,011024,075510,055502
0000000298,0000297000,096253,-60581,087588,009148,067152,065735
0000000299,0000298000,099308,-37195,084944,010677,057036,074322
0000000300,0000299000,093373,-09761,082794,015462,046164,080409
0000000301,0000300000,078997,019058,081350,023036,035601,083398
