DIgSILENT PowerFactory,21000900,2000
6,06A,00D
1,TTPP_200000_100:Secondary Voltage A,,,V,0.10000000,-8341.818359,0.000000,68321,99998,1,1,P
2,TTPP_200000_100:Secondary Voltage B,,,V,0.10000000,-8434.819336,0.000000,69208,99998,1,1,P
3,TTPP_200000_100:Secondary Voltage C,,,V,0.10000000,-8465.134766,0.000000,66101,99998,1,1,P
4,TTCC_300_1:Secondary Current A,,,A,0.00010000000,-5.558727,0.000000,-10294,99998,1,1,P
5,TTCC_300_1:Secondary Current B,,,A,0.00010000000,-4.689153,0.000000,-5799,99998,1,1,P
6,TTCC_300_1:Secondary Current C,,,A,0.00010000000,-5.074814,0.000000,695,99998,1,1,P
50
1
1000.000000,1101
30/06/2023,06:12:24.000000
30/06/2023,06:12:24.000000
ASCII
1.000000
0000000001,0000000000,090524,085823,076070,034658,032902,085668
0000000002,0000001000,088390,088541,075485,044411,023623,085194
0000000003,0000002000,085750,090871,075797,055249,016627,081351
0000000004,0000003000,082893,092550,076974,066130,012582,074516
0000000005,0000004000,080100,093412,078907,075970,011909,065347
0000000006,0000005000,077612,093403,081404,083821,014659,054747
0000000007,0000006000,075690,092517,084210,088905,020556,043766
0000000008,0000007000,074547,090808,087063,090730,029030,033468
0000000009,0000008000,074261,088471,089685,089104,039272,024852
0000000010,0000009000,074859,085748,091810,084207,050246,018774
0000000011,0000010000,076306,082879,093233,076513,060880,015834
0000000012,0000011000,078461,080139,093818,066753,070166,016307
0000000013,0000012000,081082,077832,093506,055906,077172,020149
0000000014,0000013000,083933,076156,092328,045039,081203,026986
0000000015,0000014000,086747,075274,090397,035196,081877,036154
0000000016,0000015000,089226,075291,087900,027337,079137,046753
0000000017,0000016000,091134,076191,085092,022259,073233,057735
0000000018,0000017000,092296,077882,082241,020440,064754,068032
0000000019,0000018000,092581,080219,079618,022056,054522,076649
0000000020,0000019000,091968,082958,077492,026955,043546,082725
0000000021,0000020000,090531,085818,076069,034657,032903,085667
0000000022,0000021000,088384,088548,075486,044408,023626,085193
0000000023,0000022000,085747,090873,075797,055258,016619,081351
0000000024,0000023000,082901,092543,076973,066129,012583,074515
0000000025,0000024000,080098,093414,078907,075969,011911,065347
0000000026,0000025000,077605,093409,081403,083823,014657,054747
0000000027,0000026000,075697,092511,084210,088912,020550,043766
0000000028,0000027000,074550,090806,087062,090725,029034,033468
0000000029,0000028000,074254,088478,089685,089106,039270,024852
0000000030,0000029000,074859,085748,091811,084213,050240,018774
0000000031,0000030000,076313,082871,093233,076514,060880,015833
0000000032,0000031000,078455,080145,093818,066753,070167,016307
0000000033,0000032000,081079,077833,093506,055910,077168,020149
0000000034,0000033000,083938,076150,092329,045043,081199,026984
0000000035,0000034000,086747,075274,090397,035195,081880,036153
0000000036,0000035000,089222,075296,087899,027341,079134,046752
0000000037,0000036000,091137,076188,085092,022263,073231,057733
0000000038,0000037000,092298,077879,082241,020441,064755,068031
0000000039,0000038000,092577,080223,079618,022057,054523,076647
0000000040,0000039000,091969,082957,077492,026959,043544,082724
0000000041,0000040000,090533,085815,076070,034657,032904,085666
0000000042,0000041000,088382,088550,075485,044408,023627,085192
0000000043,0000042000,085748,090873,075797,055259,016618,081350
0000000044,0000043000,082903,092541,076973,066129,012583,074515
0000000045,0000044000,080096,093416,078906,075968,011912,065347
0000000046,0000045000,077605,093410,081403,083824,014655,054747
0000000047,0000046000,075699,092509,084210,088910,020550,043767
0000000048,0000047000,074547,090808,087062,090725,029033,033469
0000000049,0000048000,074253,088480,089685,089107,039268,024853
0000000050,0000049000,074862,085745,091811,084214,050238,018775
0000000051,0000050000,076312,082873,093233,076513,060880,015834
0000000052,0000051000,078453,080148,093818,066757,070163,016307
0000000053,0000052000,081082,077831,093506,055913,077165,020149
0000000054,0000053000,083939,076149,092329,045044,081199,026984
0000000055,0000054000,086743,075278,090397,035198,081878,036151
0000000056,0000055000,089224,075294,087900,027346,079131,046750
0000000057,0000056000,091140,076185,085093,022264,073232,057731
0000000058,0000057000,092294,077883,082241,020442,064756,068028
0000000059,0000058000,092577,080223,079618,022062,054521,076644
0000000060,0000059000,091974,082952,077492,026960,043545,082722
0000000061,0000060000,090532,085816,076070,034655,032909,085663
0000000062,0000061000,088379,088553,075485,044410,023628,085190
0000000063,0000062000,085752,090870,075796,055259,016619,081349
0000000064,0000063000,082905,092540,076973,066125,012588,074514
0000000065,0000064000,080092,093420,078906,075966,011913,065347
0000000066,0000065000,077607,093409,081402,083824,014654,054749
0000000067,0000066000,075702,092506,084210,088907,020551,043769
0000000068,0000067000,074544,090812,087062,090722,029033,033472
0000000069,0000068000,074252,088481,089685,089108,039263,024856
0000000070,0000069000,074865,085742,091811,084214,050235,018778
0000000071,0000070000,076310,082875,093234,076512,060878,015837
0000000072,0000071000,078450,080150,093818,066760,070157,016309
0000000073,0000072000,081084,077828,093506,055917,077160,020150
0000000074,0000073000,083938,076149,092330,045047,081197,026984
0000000075,0000074000,086740,075280,090398,035203,081874,036150
0000000076,0000075000,089226,075291,087900,027352,079127,046748
0000000077,0000076000,091142,076183,085094,022268,073232,057727
0000000078,0000077000,092292,077884,082241,020447,064756,068023
0000000079,0000078000,092578,080222,079618,022066,054522,076639
0000000080,0000079000,091976,082950,077492,026961,043549,082717
0000000081,0000080000,090530,085818,076069,034655,032913,085659
0000000082,0000081000,088380,088553,075484,044410,023631,085187
0000000083,0000082000,085755,090867,075795,055256,016624,081347
0000000084,0000083000,082904,092542,076972,066120,012593,074513
0000000085,0000084000,080092,093422,078905,075963,011915,065348
0000000086,0000085000,077609,093408,081401,083819,014656,054752
0000000087,0000086000,075701,092508,084209,088901,020553,043773
0000000088,0000087000,074541,090815,087061,090719,029031,033477
0000000089,0000088000,074253,088480,089684,089106,039260,024862
0000000090,0000089000,074865,085742,091811,084211,050232,018784
0000000091,0000090000,076306,082878,093234,076513,060872,015842
0000000092,0000091000,078450,080149,093819,066764,070149,016313
0000000093,0000092000,081084,077826,093508,055921,077154,020152
0000000094,0000093000,083935,076151,092332,045052,081191,026984
0000000095,0000094000,086739,075280,090399,035212,081867,036148
0000000096,0000095000,089228,075288,087902,027360,079124,046744
0000000097,0000096000,091140,076183,085095,022274,073232,057722
0000000098,0000097000,092291,077885,082242,020454,064756,068016
0000000099,0000098000,092582,080218,079618,022071,054524,076631
0000000100,0000099000,091978,082948,077492,026962,043556,082709
0000000101,0000100000,090529,085820,076069,034656,032919,085652
0000000102,0000101000,088383,088551,075483,044409,023638,085181
0000000103,0000102000,085757,090866,075794,055250,016634,081343
0000000104,0000103000,082902,092545,076971,066114,012601,074512
0000000105,0000104000,080093,093422,078903,075956,011920,065350
0000000106,0000105000,077611,093407,081400,083810,014660,054756
0000000107,0000106000,075699,092511,084208,088892,020556,043779
0000000108,0000107000,074540,090817,087060,090714,029029,033485
0000000109,0000108000,074254,088479,089684,089101,039255,024871
0000000110,0000109000,074862,085744,091811,084208,050226,018793
0000000111,0000110000,076303,082881,093235,076514,060862,015850
0000000112,0000111000,078450,080148,093820,066768,070139,016319
0000000113,0000112000,081083,077825,093509,055926,077145,020156
0000000114,0000113000,083932,076152,092333,045061,081181,026985
0000000115,0000114000,086739,075278,090401,035223,081858,036146
0000000116,0000115000,089229,075285,087904,027370,079119,046738
0000000117,0000116000,091139,076183,085096,022284,073230,057713
0000000118,0000117000,092293,077883,082243,020464,064756,068006
0000000119,0000118000,092585,080214,079619,022077,054529,076620
0000000120,0000119000,091978,082948,077492,026965,043564,082698
0000000121,0000120000,090531,085819,076068,034657,032928,085642
0000000122,0000121000,088387,088549,075482,044405,023649,085173
0000000123,0000122000,085758,090867,075793,055242,016646,081339
0000000124,0000123000,082903,092547,076968,066105,012611,074511
0000000125,0000124000,080095,093422,078901,075945,011929,065353
0000000126,0000125000,077612,093408,081398,083797,014667,054762
0000000127,0000126000,075697,092515,084206,088880,020558,043789
0000000128,0000127000,074540,090819,087059,090704,029026,033497
0000000129,0000128000,074253,088481,089683,089093,039250,024884
0000000130,0000129000,074858,085748,091812,084204,050217,018806
0000000131,0000130000,076300,082882,093235,076516,060849,015861
0000000132,0000131000,078449,080147,093822,066773,070125,016329
0000000133,0000132000,081080,077827,093512,055934,077131,020161
0000000134,0000133000,083930,076152,092336,045074,081167,026986
0000000135,0000134000,086740,075274,090403,035238,081847,036142
0000000136,0000135000,089228,075283,087906,027384,079113,046730
0000000137,0000136000,091138,076181,085098,022299,073226,057702
0000000138,0000137000,092295,077879,082244,020477,064757,067992
0000000139,0000138000,092587,080211,079620,022086,054536,076605
0000000140,0000139000,091979,082947,077491,026970,043575,082682
0000000141,0000140000,090534,085817,076066,034658,032941,085628
0000000142,0000141000,088391,088546,075480,044399,023665,085163
0000000143,0000142000,085760,090868,075790,055232,016663,081332
0000000144,0000143000,082905,092548,076965,066092,012625,074510
0000000145,0000144000,080098,093423,078898,075929,011941,065357
0000000146,0000145000,077611,093411,081395,083779,014676,054771
0000000147,0000146000,075695,092519,084204,088865,020560,043802
0000000148,0000147000,074539,090821,087057,090691,029023,033513
0000000149,0000148000,074251,088484,089683,089082,039243,024902
0000000150,0000149000,074854,085751,091812,084199,050204,018824
0000000151,0000150000,076298,082883,093237,076517,060833,015877
0000000152,0000151000,078446,080148,093824,066778,070108,016341
0000000153,0000152000,081076,077828,093515,055946,077112,020169
0000000154,0000153000,083928,076151,092339,045091,081149,026988
0000000155,0000154000,086739,075271,090407,035256,081834,036138
0000000156,0000155000,089227,075281,087909,027403,079104,046720
0000000157,0000156000,091139,076178,085100,022319,073222,057686
0000000158,0000157000,092298,077874,082246,020493,064760,067973
0000000159,0000158000,092590,080208,079620,022097,054545,076584
0000000160,0000159000,091982,082945,077491,026977,043588,082662
0000000161,0000160000,090539,085813,076065,034658,032959,085610
0000000162,0000161000,088395,088545,075477,044392,023687,085149
0000000163,0000162000,085762,090869,075787,055220,016684,081324
0000000164,0000163000,082908,092548,076961,066075,012644,074508
0000000165,0000164000,080100,093424,078894,075908,011957,065362
0000000166,0000165000,077610,093416,081392,083757,014687,054783
0000000167,0000166000,075695,092523,084200,088844,020564,043819
0000000168,0000167000,074538,090824,087055,090672,029021,033534
0000000169,0000168000,074247,088489,089682,089069,039234,024925
0000000170,0000169000,074850,085755,091812,084193,050188,018846
0000000171,0000170000,076295,082885,093239,076518,060812,015897
0000000172,0000171000,078441,080149,093827,066786,070085,016356
0000000173,0000172000,081071,077829,093518,055961,077088,020178
0000000174,0000173000,083926,076149,092343,045111,081127,026990
0000000175,0000174000,086738,075268,090411,035279,081816,036132
0000000176,0000175000,089225,075279,087914,027429,079092,046707
0000000177,0000176000,091140,076173,085104,022343,073217,057667
0000000178,0000177000,092301,077868,082248,020513,064763,067950
0000000179,0000178000,092592,080205,079621,022112,054557,076558
0000000180,0000179000,091987,082941,077490,026985,043605,082637
0000000181,0000180000,090545,085810,076063,034657,032983,085587
0000000182,0000181000,088399,088544,075474,044383,023713,085131
0000000183,0000182000,085766,090870,075782,055204,016710,081313
0000000184,0000183000,082912,092549,076956,066052,012669,074506
0000000185,0000184000,080102,093427,078889,075881,011978,065368
0000000186,0000185000,077610,093421,081387,083730,014700,054797
0000000187,0000186000,075694,092527,084197,088818,020569,043840
0000000188,0000187000,074536,090829,087053,090649,029018,033561
0000000189,0000188000,074242,088495,089681,089053,039221,024953
0000000190,0000189000,074845,085759,091813,084185,050167,018875
0000000191,0000190000,076290,082887,093241,076518,060786,015922
0000000192,0000191000,078435,080152,093831,066795,070056,016376
0000000193,0000192000,081066,077829,093523,055980,077058,020189
0000000194,0000193000,083923,076146,092349,045136,081099,026992
0000000195,0000194000,086735,075265,090417,035308,081794,036125
0000000196,0000195000,089224,075274,087919,027460,079076,046691
0000000197,0000196000,091143,076167,085108,022373,073211,057644
0000000198,0000197000,092304,077862,082251,020538,064768,067920
0000000199,0000198000,092596,080200,079622,022130,054570,076526
0000000200,0000199000,091993,082936,077489,026995,043627,082605
0000000201,0000200000,090552,085806,076060,034656,033012,085560
0000000202,0000201000,088404,088543,075470,044372,023746,085110
0000000203,0000202000,085771,090870,075777,055184,016743,081300
0000000204,0000203000,082917,092550,076950,066024,012699,074503
0000000205,0000204000,080104,093432,078882,075848,012003,065376
0000000206,0000205000,077611,093426,081381,083696,014716,054815
0000000207,0000206000,075693,092533,084192,088785,020575,043867
0000000208,0000207000,074532,090836,087050,090621,029013,033593
0000000209,0000208000,074236,088501,089680,089033,039206,024988
0000000210,0000209000,074840,085764,091814,084175,050142,018909
0000000211,0000210000,076283,082891,093244,076519,060755,015953
0000000212,0000211000,078428,080155,093835,066808,070020,016399
0000000213,0000212000,081061,077828,093529,056002,077021,020203
0000000214,0000213000,083918,076143,092356,045166,081066,026995
0000000215,0000214000,086731,075262,090424,035344,081767,036116
0000000216,0000215000,089224,075269,087925,027498,079058,046671
0000000217,0000216000,091145,076159,085113,022408,073204,057615
0000000218,0000217000,092307,077856,082255,020568,064773,067885
0000000219,0000218000,092601,080193,079624,022152,054587,076488
0000000220,0000219000,092000,082929,077488,027006,043654,082567
0000000221,0000220000,090559,085802,076057,034654,033047,085526
0000000222,0000221000,088411,088542,075465,044359,023785,085084
0000000223,0000222000,085778,090869,075770,055160,016782,081285
0000000224,0000223000,082922,092553,076943,065991,012736,074500
0000000225,0000224000,080106,093437,078875,075809,012032,065385
0000000226,0000225000,077612,093432,081374,083655,014735,054836
0000000227,0000226000,075692,092540,084186,088746,020583,043898
0000000228,0000227000,074527,090844,087046,090588,029008,033632
0000000229,0000228000,074231,088509,089678,089010,039187,025031
0000000230,0000229000,074833,085770,091815,084163,050113,018951
0000000231,0000230000,076274,082896,093247,076520,060717,015989
0000000232,0000231000,078420,080157,093841,066823,069977,016427
0000000233,0000232000,081054,077827,093536,056029,076978,020220
0000000234,0000233000,083913,076141,092364,045202,081027,026998
0000000235,0000234000,086727,075258,090432,035387,081735,036105
0000000236,0000235000,089224,075261,087933,027543,079036,046648
0000000237,0000236000,091147,076151,085120,022450,073196,057580
0000000238,0000237000,092311,077848,082259,020604,064779,067843
0000000239,0000238000,092608,080185,079626,022178,054606,076442
0000000240,0000239000,092009,082922,077487,027018,043686,082522
0000000241,0000240000,090567,085797,076054,034653,033088,085486
0000000242,0000241000,088420,088539,075459,044343,023830,085054
0000000243,0000242000,085787,090869,075762,055131,016829,081267
0000000244,0000243000,082928,092556,076934,065951,012779,074497
0000000245,0000244000,080110,093443,078866,075763,012067,065397
0000000246,0000245000,077613,093439,081365,083607,014758,054862
0000000247,0000246000,075690,092549,084179,088700,020591,043936
0000000248,0000247000,074522,090854,087041,090549,029001,033677
0000000249,0000248000,074224,088517,089676,088982,039165,025080
0000000250,0000249000,074824,085777,091816,084149,050079,018999
0000000251,0000250000,076264,082902,093251,076522,060673,016032
0000000252,0000251000,078411,080160,093847,066840,069927,016460
0000000253,0000252000,081046,077827,093545,056060,076927,020239
0000000254,0000253000,083906,076138,092374,045245,080981,027002
0000000255,0000254000,086723,075252,090442,035437,081697,036093
0000000256,0000255000,089223,075253,087942,027595,079012,046620
0000000257,0000256000,091149,076142,085127,022500,073187,057540
0000000258,0000257000,092316,077838,082264,020646,064787,067794
0000000259,0000258000,092616,080174,079628,022208,054629,076389
0000000260,0000259000,092018,082914,077486,027033,043724,082470
0000000261,0000260000,090577,085791,076049,034651,033136,085440
0000000262,0000261000,088430,088535,075452,044325,023884,085019
0000000263,0000262000,085796,090868,075753,055097,016884,081247
0000000264,0000263000,082934,092560,076924,065905,012829,074493
0000000265,0000264000,080114,093449,078855,075710,012106,065411
0000000266,0000265000,077615,093448,081356,083551,014784,054892
0000000267,0000266000,075687,092559,084171,088647,020601,043979
0000000268,0000267000,074517,090865,087035,090505,028992,033730
0000000269,0000268000,074216,088527,089674,088950,039140,025137
0000000270,0000269000,074814,085786,091817,084133,050039,019055
0000000271,0000270000,076253,082909,093256,076524,060621,016081
0000000272,0000271000,078400,080163,093855,066861,069869,016497
0000000273,0000272000,081036,077827,093555,056097,076869,020261
0000000274,0000273000,083898,076135,092385,045294,080927,027006
0000000275,0000274000,086719,075245,090454,035495,081654,036078
0000000276,0000275000,089222,075243,087952,027655,078984,046588
0000000277,0000276000,091151,076131,085136,022557,073177,057493
0000000278,0000277000,092322,077826,082270,020694,064795,067737
0000000279,0000278000,092625,080163,079630,022243,054657,076327
0000000280,0000279000,092028,082904,077485,027050,043767,082410
0000000281,0000280000,090589,085784,076045,034649,033191,085388
0000000282,0000281000,088443,088531,075444,044303,023946,084978
0000000283,0000282000,085806,090869,075743,055058,016946,081223
0000000284,0000283000,082943,092564,076912,065853,012886,074489
0000000285,0000284000,080120,093456,078843,075648,012152,065426
0000000286,0000285000,077616,093458,081344,083486,014814,054926
0000000287,0000286000,075684,092572,084162,088586,020612,044029
0000000288,0000287000,074511,090878,087029,090454,028983,033791
0000000289,0000288000,074207,088539,089671,088913,039111,025203
0000000290,0000289000,074802,085797,091818,084115,049993,019119
0000000291,0000290000,076240,082917,093261,076527,060562,016137
0000000292,0000291000,078387,080167,093863,066884,069803,016540
0000000293,0000292000,081025,077827,093566,056138,076803,020286
0000000294,0000293000,083889,076131,092398,045351,080867,027010
0000000295,0000294000,086714,075237,090467,035561,081606,036061
0000000296,0000295000,089220,075233,087965,027724,078952,046551
0000000297,0000296000,091153,076119,085146,022621,073165,057440
0000000298,0000297000,092329,077812,082277,020749,064805,067672
0000000299,0000298000,092635,080150,079633,022281,054688,076258
0000000300,0000299000,092041,082893,077484,027069,043816,082342
0000000301,0000300000,090603,085776,076039,034646,033253,085328
