DIgSILENT PowerFactory,21000900,2000
6,06A,00D
1,TTPP_200000_100:Secondary Voltage A,,,V,0.10000000,-8257.047852,0.000000,67519,99998,1,1,P
2,TTPP_200000_100:Secondary Voltage B,,,V,0.10000000,-8420.379883,0.000000,68471,99998,1,1,P
3,TTPP_200000_100:Secondary Voltage C,,,V,0.10000000,-8132.480469,0.000000,59461,99998,1,1,P
4,TTCC_500_5:Secondary Current A,,,A,0.0010000000,-79.673340,0.000000,65967,99998,1,1,P
5,TTCC_500_5:Secondary Current B,,,A,0.0010000000,-84.325691,0.000000,68834,99998,1,1,P
6,TTCC_500_5:Secondary Current C,,,A,0.0010000000,-84.973373,0.000000,70063,99998,1,1,P
50
1
1000.000000,1101
30/06/2023,06:11:54.000000
30/06/2023,06:11:54.000000
ASCII
1.000000
0000000001,0000000000,088082,087844,072172,085589,089005,074378
0000000002,0000001000,085535,090277,072286,082573,091722,074677
0000000003,0000002000,082683,092133,073285,079276,093714,075982
0000000004,0000003000,079835,093196,075067,076017,094787,078168
0000000005,0000004000,077256,093374,077469,073116,094834,081022
0000000006,0000005000,075178,092673,080248,070854,093856,084262
0000000007,0000006000,073837,091138,083123,069460,091945,087568
0000000008,0000007000,073361,088910,085828,069066,089283,090623
0000000009,0000008000,073770,086231,088097,069705,086141,093126
0000000010,0000009000,075038,083364,089698,071324,082819,094829
0000000011,0000010000,077058,080565,090477,073762,079643,095567
0000000012,0000011000,079618,078118,090363,076775,076929,095268
0000000013,0000012000,082449,076284,089366,080074,074935,093963
0000000014,0000013000,085300,075216,087582,083334,073861,091777
0000000015,0000014000,087899,075019,085180,086234,073815,088923
0000000016,0000015000,089958,075739,082403,088494,074794,085684
0000000017,0000016000,091293,077280,079526,089891,076704,082377
0000000018,0000017000,091793,079486,076821,090286,079365,079322
0000000019,0000018000,091373,082174,074552,089642,082511,076819
0000000020,0000019000,090090,085057,072952,088025,085831,075116
0000000021,0000020000,088088,087838,072173,085591,089003,074379
0000000022,0000021000,085533,090280,072286,082572,091723,074677
0000000023,0000022000,082681,092135,073284,079274,093716,075982
0000000024,0000023000,079838,093194,075067,076019,094786,078168
0000000025,0000024000,077255,093375,077470,073115,094836,081022
0000000026,0000025000,075178,092674,080247,070853,093858,084262
0000000027,0000026000,073838,091138,083123,069460,091944,087568
0000000028,0000027000,073360,088910,085829,069064,089285,090623
0000000029,0000028000,073770,086232,088097,069706,086140,093126
0000000030,0000029000,075039,083363,089697,071324,082819,094829
0000000031,0000030000,077059,080563,090477,073760,079645,095567
0000000032,0000031000,079615,078121,090364,076776,076928,095268
0000000033,0000032000,082450,076284,089366,080074,074935,093963
0000000034,0000033000,085304,075213,087582,083332,073863,091778
0000000035,0000034000,087895,075023,085181,086234,073815,088924
0000000036,0000035000,089956,075740,082403,088494,074794,085684
0000000037,0000036000,091299,077274,079526,089890,076705,082378
0000000038,0000037000,091790,079488,076821,090285,079365,079323
0000000039,0000038000,091369,082177,074552,089642,082511,076820
0000000040,0000039000,090096,085052,072952,088026,085830,075117
0000000041,0000040000,088089,087837,072172,085589,089004,074379
0000000042,0000041000,085528,090285,072286,082572,091723,074677
0000000043,0000042000,082684,092132,073283,079275,093714,075983
0000000044,0000043000,079842,093190,075067,076018,094786,078168
0000000045,0000044000,077251,093380,077469,073114,094836,081022
0000000046,0000045000,075177,092676,080247,070855,093856,084262
0000000047,0000046000,073843,091133,083123,069460,091944,087568
0000000048,0000047000,073358,088912,085829,069063,089286,090623
0000000049,0000048000,073765,086236,088097,069706,086140,093126
0000000050,0000049000,075042,083359,089698,071324,082819,094829
0000000051,0000050000,077060,080562,090477,073759,079647,095567
0000000052,0000051000,079610,078126,090364,076775,076929,095268
0000000053,0000052000,082451,076282,089366,080074,074935,093963
0000000054,0000053000,085307,075210,087583,083331,073864,091778
0000000055,0000054000,087891,075026,085181,086232,073816,088924
0000000056,0000055000,089956,075740,082403,088494,074794,085685
0000000057,0000056000,091302,077270,079527,089889,076705,082378
0000000058,0000057000,091788,079489,076822,090283,079366,079324
0000000059,0000058000,091368,082179,074552,089641,082511,076820
0000000060,0000059000,090099,085048,072952,088025,085829,075117
0000000061,0000060000,088090,087837,072172,085589,089004,074380
0000000062,0000061000,085526,090287,072286,082572,091722,074678
0000000063,0000062000,082686,092131,073282,079276,093713,075983
0000000064,0000063000,079843,093190,075067,076018,094786,078168
0000000065,0000064000,077249,093383,077468,073115,094836,081022
0000000066,0000065000,075178,092675,080246,070855,093856,084261
0000000067,0000066000,073844,091132,083122,069460,091945,087568
0000000068,0000067000,073355,088915,085828,069064,089286,090622
0000000069,0000068000,073765,086237,088097,069707,086141,093125
0000000070,0000069000,075044,083358,089698,071324,082820,094828
0000000071,0000070000,077056,080565,090478,073758,079648,095566
0000000072,0000071000,079608,078127,090364,076775,076930,095268
0000000073,0000072000,082453,076279,089367,080073,074937,093963
0000000074,0000073000,085304,075211,087584,083329,073865,091778
0000000075,0000074000,087889,075028,085182,086231,073816,088924
0000000076,0000075000,089959,075737,082404,088492,074794,085685
0000000077,0000076000,091303,077269,079528,089887,076706,082379
0000000078,0000077000,091786,079491,076822,090282,079365,079325
0000000079,0000078000,091371,082176,074552,089641,082510,076822
0000000080,0000079000,090102,085045,072952,088024,085829,075119
0000000081,0000080000,088088,087839,072172,085588,089003,074381
0000000082,0000081000,085528,090287,072285,082573,091720,074679
0000000083,0000082000,082690,092127,073281,079276,093712,075984
0000000084,0000083000,079842,093192,075066,076019,094785,078169
0000000085,0000084000,077247,093385,077467,073117,094834,081022
0000000086,0000085000,075181,092673,080245,070857,093855,084260
0000000087,0000086000,073844,091134,083121,069461,091945,087566
0000000088,0000087000,073352,088919,085827,069065,089286,090621
0000000089,0000088000,073766,086236,088097,069708,086141,093123
0000000090,0000089000,075044,083358,089698,071324,082822,094827
0000000091,0000090000,077052,080569,090478,073758,079650,095565
0000000092,0000091000,079607,078127,090365,076774,076932,095267
0000000093,0000092000,082454,076277,089369,080071,074939,093962
0000000094,0000093000,085301,075212,087585,083327,073867,091778
0000000095,0000094000,087887,075028,085184,086230,073818,088925
0000000096,0000095000,089961,075733,082406,088490,074795,085687
0000000097,0000096000,091302,077268,079529,089885,076707,082381
0000000098,0000097000,091785,079491,076823,090281,079365,079327
0000000099,0000098000,091374,082173,074553,089640,082509,076824
0000000100,0000099000,090104,085043,072952,088023,085828,075121
0000000101,0000100000,088088,087840,072171,085588,089001,074383
0000000102,0000101000,085531,090285,072283,082574,091718,074681
0000000103,0000102000,082693,092126,073280,079277,093710,075985
0000000104,0000103000,079841,093194,075064,076020,094783,078169
0000000105,0000104000,077249,093386,077465,073119,094832,081021
0000000106,0000105000,075183,092673,080243,070859,093854,084259
0000000107,0000106000,073842,091137,083120,069463,091945,087564
0000000108,0000107000,073351,088922,085826,069067,089287,090618
0000000109,0000108000,073766,086237,088096,069709,086142,093121
0000000110,0000109000,075041,083360,089698,071324,082824,094824
0000000111,0000110000,077049,080571,090479,073758,079652,095562
0000000112,0000111000,079607,078126,090367,076773,076934,095265
0000000113,0000112000,082451,076277,089371,080069,074942,093961
0000000114,0000113000,085298,075213,087588,083325,073870,091778
0000000115,0000114000,087888,075025,085186,086227,073820,088926
0000000116,0000115000,089961,075730,082408,088487,074797,085688
0000000117,0000116000,091301,077267,079531,089882,076707,082383
0000000118,0000117000,091787,079488,076824,090278,079364,079330
0000000119,0000118000,091378,082168,074554,089638,082507,076827
0000000120,0000119000,090105,085043,072952,088022,085826,075124
0000000121,0000120000,088090,087839,072170,085589,088998,074386
0000000122,0000121000,085535,090282,072281,082575,091714,074683
0000000123,0000122000,082695,092127,073278,079279,093707,075986
0000000124,0000123000,079842,093197,075061,076023,094780,078169
0000000125,0000124000,077252,093386,077461,073123,094830,081020
0000000126,0000125000,075184,092675,080240,070862,093853,084257
0000000127,0000126000,073839,091142,083117,069467,091944,087562
0000000128,0000127000,073350,088925,085824,069071,089287,090615
0000000129,0000128000,073765,086238,088095,069711,086144,093117
0000000130,0000129000,075036,083365,089699,071325,082827,094820
0000000131,0000130000,077045,080574,090480,073758,079655,095559
0000000132,0000131000,079605,078125,090369,076772,076938,095262
0000000133,0000132000,082447,076278,089374,080066,074946,093960
0000000134,0000133000,085295,075213,087591,083321,073874,091777
0000000135,0000134000,087888,075022,085190,086223,073823,088927
0000000136,0000135000,089961,075727,082412,088482,074800,085691
0000000137,0000136000,091300,077265,079534,089878,076708,082387
0000000138,0000137000,091790,079484,076826,090275,079364,079334
0000000139,0000138000,091381,082164,074555,089635,082506,076832
0000000140,0000139000,090107,085041,072951,088021,085823,075129
0000000141,0000140000,088094,087836,072168,085589,088993,074390
0000000142,0000141000,085540,090279,072279,082576,091710,074686
0000000143,0000142000,082697,092128,073274,079282,093703,075988
0000000144,0000143000,079845,093198,075056,076028,094776,078169
0000000145,0000144000,077255,093387,077457,073127,094826,081019
0000000146,0000145000,075183,092679,080236,070867,093851,084255
0000000147,0000146000,073838,091147,083114,069472,091943,087558
0000000148,0000147000,073349,088928,085822,069075,089287,090610
0000000149,0000148000,073762,086243,088095,069714,086147,093112
0000000150,0000149000,075031,083370,089699,071327,082831,094815
0000000151,0000150000,077042,080575,090482,073758,079660,095554
0000000152,0000151000,079601,078126,090372,076770,076944,095259
0000000153,0000152000,082442,076279,089378,080063,074952,093958
0000000154,0000153000,085292,075212,087595,083317,073878,091777
0000000155,0000154000,087887,075018,085194,086217,073827,088928
0000000156,0000155000,089959,075724,082416,088476,074802,085693
0000000157,0000156000,091301,077261,079538,089872,076709,082391
0000000158,0000157000,091793,079477,076829,090270,079363,079339
0000000159,0000158000,091384,082160,074556,089631,082503,076838
0000000160,0000159000,090111,085038,072951,088019,085819,075135
0000000161,0000160000,088101,087832,072166,085589,088988,074395
0000000162,0000161000,085546,090278,072276,082578,091704,074690
0000000163,0000162000,082701,092129,073270,079286,093697,075990
0000000164,0000163000,079849,093199,075051,076033,094770,078170
0000000165,0000164000,077258,093389,077452,073133,094822,081018
0000000166,0000165000,075183,092685,080231,070873,093848,084251
0000000167,0000166000,073837,091152,083110,069478,091942,087553
0000000168,0000167000,073347,088932,085819,069080,089288,090604
0000000169,0000168000,073757,086249,088093,069717,086150,093105
0000000170,0000169000,075025,083375,089699,071329,082835,094809
0000000171,0000170000,077037,080578,090484,073758,079666,095549
0000000172,0000171000,079595,078128,090376,076767,076951,095254
0000000173,0000172000,082436,076280,089383,080059,074959,093955
0000000174,0000173000,085289,075209,087601,083311,073885,091776
0000000175,0000174000,087884,075014,085201,086210,073832,088930
0000000176,0000175000,089957,075720,082422,088469,074806,085697
0000000177,0000176000,091303,077254,079542,089866,076710,082397
0000000178,0000177000,091797,079470,076832,090264,079362,079346
0000000179,0000178000,091388,082154,074557,089627,082500,076845
0000000180,0000179000,090117,085032,072950,088017,085813,075142
0000000181,0000180000,088108,087827,072164,085589,088981,074401
0000000182,0000181000,085551,090276,072271,082581,091697,074695
0000000183,0000182000,082706,092129,073264,079291,093689,075993
0000000184,0000183000,079855,093200,075044,076039,094763,078171
0000000185,0000184000,077260,093394,077445,073141,094816,081016
0000000186,0000185000,075183,092691,080225,070882,093844,084247
0000000187,0000186000,073836,091158,083104,069486,091940,087547
0000000188,0000187000,073344,088939,085816,069086,089290,090596
0000000189,0000188000,073750,086257,088092,069722,086153,093097
0000000190,0000189000,075019,083380,089700,071331,082841,094800
0000000191,0000190000,077030,080582,090487,073758,079674,095541
0000000192,0000191000,079587,078132,090381,076764,076959,095249
0000000193,0000192000,082430,076280,089389,080053,074967,093952
0000000194,0000193000,085284,075206,087609,083304,073893,091776
0000000195,0000194000,087881,075010,085208,086202,073839,088932
0000000196,0000195000,089956,075715,082429,088460,074810,085702
0000000197,0000196000,091305,077246,079548,089857,076712,082404
0000000198,0000197000,091801,079462,076836,090257,079361,079355
0000000199,0000198000,091393,082148,074559,089622,082496,076854
0000000200,0000199000,090125,085025,072949,088015,085807,075151
0000000201,0000200000,088117,087822,072161,085590,088973,074409
0000000202,0000201000,085559,090274,072266,082584,091687,074701
0000000203,0000202000,082714,092129,073256,079297,093679,075997
0000000204,0000203000,079861,093202,075036,076047,094754,078171
0000000205,0000204000,077263,093399,077437,073150,094809,081014
0000000206,0000205000,075184,092698,080217,070892,093839,084242
0000000207,0000206000,073835,091166,083098,069495,091938,087539
0000000208,0000207000,073340,088948,085811,069094,089291,090587
0000000209,0000208000,073743,086266,088090,069728,086158,093087
0000000210,0000209000,075012,083387,089701,071334,082848,094790
0000000211,0000210000,077021,080587,090491,073757,079683,095533
0000000212,0000211000,079577,078135,090387,076761,076970,095242
0000000213,0000212000,082422,076280,089397,080047,074978,093948
0000000214,0000213000,085278,075202,087618,083295,073902,091775
0000000215,0000214000,087876,075005,085218,086191,073846,088935
0000000216,0000215000,089955,075707,082437,088450,074815,085708
0000000217,0000216000,091308,077236,079555,089847,076714,082412
0000000218,0000217000,091805,079453,076841,090248,079359,079365
0000000219,0000218000,091400,082139,074561,089616,082491,076866
0000000220,0000219000,090134,085017,072948,088011,085799,075162
0000000221,0000220000,088126,087816,072157,085590,088963,074419
0000000222,0000221000,085568,090272,072259,082588,091676,074708
0000000223,0000222000,082723,092129,073248,079304,093668,076001
0000000224,0000223000,079868,093205,075026,076057,094744,078172
0000000225,0000224000,077267,093406,077427,073161,094801,081011
0000000226,0000225000,075185,092706,080207,070903,093833,084236
0000000227,0000226000,073834,091175,083090,069506,091936,087530
0000000228,0000227000,073334,088959,085806,069103,089293,090576
0000000229,0000228000,073736,086276,088087,069735,086163,093075
0000000230,0000229000,075002,083395,089702,071337,082857,094779
0000000231,0000230000,077010,080594,090495,073756,079694,095522
0000000232,0000231000,079566,078139,090394,076757,076982,095234
0000000233,0000232000,082413,076279,089407,080039,074990,093943
0000000234,0000233000,085271,075199,087629,083284,073914,091774
0000000235,0000234000,087871,074999,085229,086179,073856,088938
0000000236,0000235000,089954,075697,082447,088437,074821,085715
0000000237,0000236000,091310,077225,079564,089834,076716,082422
0000000238,0000237000,091810,079442,076847,090238,079358,079377
0000000239,0000238000,091408,082128,074563,089608,082485,076879
0000000240,0000239000,090145,085007,072947,088008,085790,075175
0000000241,0000240000,088137,087810,072152,085590,088952,074430
0000000242,0000241000,085579,090268,072251,082593,091663,074717
0000000243,0000242000,082734,092128,073237,079312,093654,076006
0000000244,0000243000,079876,093209,075015,076068,094731,078173
0000000245,0000244000,077272,093413,077415,073175,094791,081007
0000000246,0000245000,075187,092716,080196,070917,093827,084228
0000000247,0000246000,073831,091187,083081,069519,091934,087519
0000000248,0000247000,073327,088972,085799,069114,089295,090563
0000000249,0000248000,073727,086287,088085,069743,086169,093061
0000000250,0000249000,074991,083405,089703,071341,082867,094765
0000000251,0000250000,076997,080602,090500,073756,079707,095510
0000000252,0000251000,079554,078143,090402,076752,076996,095225
0000000253,0000252000,082402,076279,089418,080030,075005,093938
0000000254,0000253000,085261,075196,087642,083272,073927,091773
0000000255,0000254000,087865,074992,085242,086165,073866,088941
0000000256,0000255000,089953,075686,082459,088422,074828,085723
0000000257,0000256000,091312,077213,079574,089820,076719,082434
0000000258,0000257000,091816,079429,076854,090226,079355,079391
0000000259,0000258000,091419,082114,074566,089600,082478,076894
0000000260,0000259000,090158,084996,072946,088004,085779,075190
0000000261,0000260000,088151,087802,072147,085591,088938,074444
0000000262,0000261000,085593,090263,072242,082598,091647,074727
0000000263,0000262000,082746,092128,073225,079322,093639,076012
0000000264,0000263000,079885,093214,075001,076081,094717,078174
0000000265,0000264000,077278,093421,077400,073190,094779,081003
0000000266,0000265000,075189,092727,080183,070933,093819,084220
0000000267,0000266000,073828,091201,083070,069534,091932,087506
0000000268,0000267000,073320,088987,085792,069127,089297,090547
0000000269,0000268000,073717,086301,088082,069752,086177,093044
0000000270,0000269000,074977,083417,089705,071345,082878,094749
0000000271,0000270000,076982,080611,090506,073755,079722,095496
0000000272,0000271000,079540,078147,090412,076746,077013,095214
0000000273,0000272000,082389,076279,089431,080019,075021,093932
0000000274,0000273000,085251,075192,087656,083258,073942,091772
0000000275,0000274000,087859,074983,085257,086148,073878,088946
0000000276,0000275000,089952,075674,082474,088404,074836,085732
0000000277,0000276000,091315,077199,079586,089804,076721,082447
0000000278,0000277000,091824,079414,076862,090212,079353,079408
0000000279,0000278000,091431,082099,074570,089590,082471,076912
0000000280,0000279000,090172,084983,072944,087999,085767,075207
0000000281,0000280000,088166,087792,072140,085592,088922,074459
0000000282,0000281000,085609,090258,072232,082604,091629,074738
0000000283,0000282000,082760,092128,073212,079333,093621,076019
0000000284,0000283000,079895,093219,074985,076097,094701,078175
0000000285,0000284000,077285,093430,077384,073208,094766,080999
0000000286,0000285000,075191,092740,080168,070952,093811,084210
0000000287,0000286000,073824,091217,083058,069552,091929,087492
0000000288,0000287000,073312,089003,085783,069142,089300,090530
0000000289,0000288000,073705,086317,088078,069762,086185,093025
0000000290,0000289000,074962,083431,089706,071350,082892,094730
0000000291,0000290000,076965,080621,090513,073754,079739,095480
0000000292,0000291000,079523,078153,090423,076739,077032,095202
0000000293,0000292000,082374,076280,089446,080007,075041,093925
0000000294,0000293000,085239,075187,087673,083241,073960,091771
0000000295,0000294000,087852,074973,085274,086129,073892,088951
0000000296,0000295000,089949,075660,082490,088385,074845,085743
0000000297,0000296000,091318,077182,079599,089785,076725,082463
0000000298,0000297000,091833,079396,076871,090197,079349,079426
0000000299,0000298000,091444,082082,074574,089579,082462,076932
0000000300,0000299000,090188,084969,072943,087994,085752,075227
0000000301,0000300000,088185,087781,072133,085593,088903,074476
