DIgSILENT PowerFactory,21000900,2000
6,06A,00D
1,TTPP_200000_100:Secondary Voltage A,,,V,0.010000000,-67.884048,0.000000,-86353,99998,1,1,P
2,TTPP_200000_100:Secondary Voltage B,,,V,0.010000000,-33.028522,0.000000,-97104,99998,1,1,P
3,TTPP_200000_100:Secondary Voltage C,,,V,0.10000000,-8982.822266,0.000000,79855,99998,1,1,P
4,TTCC_500_5:Secondary Current A,,,A,0.0010000000,-84.813110,0.000000,62234,99998,1,1,P
5,TTCC_500_5:Secondary Current B,,,A,0.0010000000,-84.884827,0.000000,69789,99998,1,1,P
6,TTCC_500_5:Secondary Current C,,,A,0.0010000000,-84.613548,0.000000,69244,99998,1,1,P
50
1
1000.000000,1101
30/06/2023,06:02:22.000000
30/06/2023,06:02:22.000000
ASCII
1.000000
0000000001,0000000000,061929,039685,080676,090730,089562,074019
0000000002,0000001000,036454,064021,080789,087715,092279,074317
0000000003,0000002000,007911,082606,081787,084417,094273,075621
0000000004,0000003000,-20534,093215,083569,081161,095344,077807
0000000005,0000004000,-46325,095007,085971,078258,095393,080660
0000000006,0000005000,-67076,087972,088748,075993,094419,083900
0000000007,0000006000,-80572,072707,091624,074601,092504,087207
0000000008,0000007000,-85352,050426,094330,074205,089844,090262
0000000009,0000008000,-81160,023538,096599,074846,086700,092765
0000000010,0000009000,-68546,-05074,098200,076462,083381,094469
0000000011,0000010000,-48375,-33050,098979,078898,080206,095207
0000000012,0000011000,-22782,-57513,098867,081915,077488,094909
0000000013,0000012000,005557,-75899,097871,085212,075496,093604
0000000014,0000013000,034076,-86576,096087,088472,074421,091419
0000000015,0000014000,060042,-88531,093686,091373,074373,088565
0000000016,0000015000,080658,-81373,090908,093632,075353,085326
0000000017,0000016000,093995,-65943,088032,095030,077262,082019
0000000018,0000017000,098988,-43883,085327,095426,079921,078964
0000000019,0000018000,094842,-17040,083058,094782,083068,076461
0000000020,0000019000,082025,011785,081456,093166,086389,074757
0000000021,0000020000,061961,039653,080676,090732,089561,074019
0000000022,0000021000,036420,064055,080790,087714,092280,074317
0000000023,0000022000,007946,082570,081786,084417,094273,075622
0000000024,0000023000,-20513,093204,083569,081160,095345,077807
0000000025,0000024000,-46347,095020,085970,078256,095395,080661
0000000026,0000025000,-67129,088024,088748,075995,094417,083900
0000000027,0000026000,-80536,072666,091624,074601,092504,087207
0000000028,0000027000,-85305,050380,094330,074205,089845,090262
0000000029,0000028000,-81218,023597,096599,074844,086702,092765
0000000030,0000029000,-68550,-05075,098200,076462,083380,094469
0000000031,0000030000,-48366,-33060,098980,078898,080206,095207
0000000032,0000031000,-22783,-57519,098868,081914,077489,094909
0000000033,0000032000,005560,-75895,097871,085212,075495,093604
0000000034,0000033000,034092,-86594,096087,088470,074422,091419
0000000035,0000034000,060018,-88509,093686,091372,074374,088566
0000000036,0000035000,080628,-81346,090909,093633,075353,085326
0000000037,0000036000,094054,-66002,088032,095030,077262,082020
0000000038,0000037000,098993,-43884,085327,095425,079922,078965
0000000039,0000038000,094803,-17003,083058,094782,083069,076461
0000000040,0000039000,082030,011782,081456,093166,086387,074758
0000000041,0000040000,061988,039621,080676,090731,089561,074019
0000000042,0000041000,036415,064065,080789,087714,092280,074317
0000000043,0000042000,007942,082578,081785,084417,094273,075622
0000000044,0000043000,-20493,093185,083569,081160,095345,077807
0000000045,0000044000,-46376,095050,085970,078256,095395,080661
0000000046,0000045000,-67130,088026,088748,075995,094417,083900
0000000047,0000046000,-80498,072635,091624,074601,092505,087206
0000000048,0000047000,-85319,050394,094329,074203,089846,090261
0000000049,0000048000,-81255,023636,096599,074845,086702,092765
0000000050,0000049000,-68538,-05089,098200,076463,083381,094468
0000000051,0000050000,-48344,-33083,098980,078898,080207,095207
0000000052,0000051000,-22812,-57490,098868,081913,077490,094909
0000000053,0000052000,005558,-75896,097871,085211,075496,093604
0000000054,0000053000,034101,-86607,096088,088469,074423,091420
0000000055,0000054000,059996,-88495,093687,091371,074374,088566
0000000056,0000055000,080635,-81353,090909,093632,075353,085327
0000000057,0000056000,094080,-66031,088033,095028,077263,082020
0000000058,0000057000,098978,-43873,085327,095423,079923,078965
0000000059,0000058000,094782,-16984,083058,094782,083068,076462
0000000060,0000059000,082066,011746,081456,093166,086387,074758
0000000061,0000060000,062004,039608,080676,090731,089561,074020
0000000062,0000061000,036395,064089,080789,087714,092280,074318
0000000063,0000062000,007955,082572,081785,084417,094272,075622
0000000064,0000063000,-20478,093173,083568,081160,095345,077807
0000000065,0000064000,-46387,095068,085970,078256,095395,080660
0000000066,0000065000,-67124,088029,088747,075996,094416,083899
0000000067,0000066000,-80481,072624,091623,074601,092505,087206
0000000068,0000067000,-85345,050423,094329,074204,089847,090261
0000000069,0000068000,-81272,023654,096599,074846,086702,092764
0000000070,0000069000,-68515,-05110,098200,076463,083381,094468
0000000071,0000070000,-48357,-33075,098981,078897,080209,095206
0000000072,0000071000,-22844,-57463,098868,081912,077491,094908
0000000073,0000072000,005562,-75907,097872,085210,075497,093604
0000000074,0000073000,034105,-86622,096089,088468,074424,091420
0000000075,0000074000,059975,-88484,093688,091369,074375,088566
0000000076,0000075000,080640,-81367,090910,093631,075353,085328
0000000077,0000076000,094093,-66053,088034,095027,077263,082022
0000000078,0000077000,098962,-43865,085328,095422,079923,078967
0000000079,0000078000,094790,-16994,083058,094781,083067,076463
0000000080,0000079000,082099,011713,081456,093166,086386,074760
0000000081,0000080000,062005,039611,080676,090730,089560,074021
0000000082,0000081000,036389,064103,080788,087714,092278,074319
0000000083,0000082000,007984,082554,081784,084418,094270,075623
0000000084,0000083000,-20464,093171,083567,081161,095344,077807
0000000085,0000084000,-46399,095093,085968,078258,095394,080660
0000000086,0000085000,-67112,088032,088745,075998,094415,083899
0000000087,0000086000,-80477,072628,091622,074602,092505,087205
0000000088,0000087000,-85369,050454,094329,074205,089847,090259
0000000089,0000088000,-81277,023665,096598,074847,086702,092762
0000000090,0000089000,-68512,-05115,098200,076463,083383,094466
0000000091,0000090000,-48388,-33050,098981,078896,080211,095205
0000000092,0000091000,-22869,-57447,098869,081912,077493,094907
0000000093,0000092000,005568,-75927,097873,085209,075499,093604
0000000094,0000093000,034091,-86625,096091,088465,074426,091419
0000000095,0000094000,059952,-88477,093690,091367,074377,088567
0000000096,0000095000,080649,-81391,090911,093629,075354,085329
0000000097,0000096000,094101,-66076,088035,095024,077264,082023
0000000098,0000097000,098956,-43869,085329,095420,079923,078969
0000000099,0000098000,094811,-17018,083058,094780,083066,076466
0000000100,0000099000,082128,011686,081456,093165,086385,074762
0000000101,0000100000,062007,039615,080675,090730,089558,074023
0000000102,0000101000,036406,064099,080787,087715,092276,074320
0000000103,0000102000,008020,082535,081782,084419,094268,075624
0000000104,0000103000,-20457,093184,083565,081162,095342,077807
0000000105,0000104000,-46401,095118,085966,078260,095392,080659
0000000106,0000105000,-67096,088036,088743,076000,094414,083897
0000000107,0000106000,-80480,072647,091620,074604,092505,087203
0000000108,0000107000,-85392,050489,094327,074207,089848,090257
0000000109,0000108000,-81283,023678,096598,074848,086703,092760
0000000110,0000109000,-68526,-05103,098200,076463,083385,094463
0000000111,0000110000,-48427,-33021,098982,078896,080213,095202
0000000112,0000111000,-22890,-57442,098871,081911,077495,094905
0000000113,0000112000,005560,-75940,097875,085207,075502,093602
0000000114,0000113000,034062,-86622,096093,088463,074429,091419
0000000115,0000114000,059934,-88483,093692,091365,074379,088568
0000000116,0000115000,080659,-81425,090914,093626,075355,085330
0000000117,0000116000,094103,-66099,088037,095021,077265,082026
0000000118,0000117000,098958,-43884,085330,095418,079922,078972
0000000119,0000118000,094841,-17054,083059,094778,083065,076469
0000000120,0000119000,082155,011660,081456,093163,086383,074765
0000000121,0000120000,062022,039610,080674,090730,089555,074026
0000000122,0000121000,036441,064084,080785,087717,092272,074323
0000000123,0000122000,008055,082525,081779,084421,094265,075625
0000000124,0000123000,-20450,093204,083562,081165,095339,077808
0000000125,0000124000,-46390,095137,085963,078264,095389,080659
0000000126,0000125000,-67079,088047,088741,076004,094412,083896
0000000127,0000126000,-80492,072682,091618,074607,092504,087200
0000000128,0000127000,-85415,050530,094326,074210,089848,090253
0000000129,0000128000,-81296,023698,096597,074850,086705,092756
0000000130,0000129000,-68557,-05077,098201,076464,083388,094460
0000000131,0000130000,-48470,-32990,098984,078896,080217,095199
0000000132,0000131000,-22914,-57438,098873,081910,077499,094903
0000000133,0000132000,005535,-75946,097878,085204,075506,093601
0000000134,0000133000,034026,-86620,096097,088459,074433,091419
0000000135,0000134000,059921,-88505,093695,091361,074382,088569
0000000136,0000135000,080666,-81465,090917,093621,075358,085333
0000000137,0000136000,094101,-66126,088040,095017,077266,082029
0000000138,0000137000,098972,-43916,085332,095414,079921,078976
0000000139,0000138000,094880,-17101,083060,094775,083063,076473
0000000140,0000139000,082187,011631,081456,093162,086380,074770
0000000141,0000140000,062053,039595,080672,090730,089551,074030
0000000142,0000141000,036489,064062,080782,087718,092268,074326
0000000143,0000142000,008091,082521,081776,084424,094261,075627
0000000144,0000143000,-20432,093227,083558,081169,095334,077808
0000000145,0000144000,-46367,095157,085959,078268,095386,080658
0000000146,0000145000,-67067,088072,088737,076008,094410,083893
0000000147,0000146000,-80510,072731,091615,074612,092504,087196
0000000148,0000147000,-85437,050575,094323,074214,089849,090249
0000000149,0000148000,-81318,023730,096596,074853,086707,092751
0000000150,0000149000,-68603,-05036,098201,076465,083392,094455
0000000151,0000150000,-48521,-32957,098985,078896,080221,095194
0000000152,0000151000,-22950,-57432,098876,081908,077504,094899
0000000153,0000152000,005494,-75945,097882,085201,075512,093599
0000000154,0000153000,033986,-86625,096101,088455,074438,091419
0000000155,0000154000,059908,-88539,093700,091355,074386,088570
0000000156,0000155000,080664,-81509,090922,093615,075360,085336
0000000157,0000156000,094101,-66163,088044,095011,077267,082033
0000000158,0000157000,098998,-43967,085335,095410,079921,078981
0000000159,0000158000,094924,-17157,083061,094772,083060,076479
0000000160,0000159000,082226,011596,081455,093160,086376,074776
0000000161,0000160000,062101,039568,080670,090730,089546,074035
0000000162,0000161000,036549,064037,080779,087720,092262,074330
0000000163,0000162000,008134,082523,081772,084427,094255,075629
0000000164,0000163000,-20402,093250,083553,081174,095329,077809
0000000165,0000164000,-46337,095181,085953,078275,095381,080656
0000000166,0000165000,-67060,088114,088732,076015,094407,083890
0000000167,0000166000,-80529,072793,091611,074618,092502,087191
0000000168,0000167000,-85460,050628,094320,074219,089849,090243
0000000169,0000168000,-81355,023778,096595,074857,086710,092744
0000000170,0000169000,-68663,-04982,098202,076467,083396,094448
0000000171,0000170000,-48579,-32920,098988,078896,080227,095189
0000000172,0000171000,-23000,-57421,098880,081905,077511,094895
0000000173,0000172000,005437,-75941,097888,085196,075519,093596
0000000174,0000173000,033941,-86639,096107,088449,074444,091418
0000000175,0000174000,059890,-88581,093706,091349,074391,088572
0000000176,0000175000,080656,-81558,090927,093608,075364,085339
0000000177,0000176000,094107,-66215,088048,095004,077268,082039
0000000178,0000177000,099034,-44035,085338,095404,079919,078988
0000000179,0000178000,094974,-17222,083062,094768,083057,076487
0000000180,0000179000,082278,011550,081454,093158,086371,074783
0000000181,0000180000,062168,039528,080667,090731,089539,074042
0000000182,0000181000,036620,064009,080774,087723,092254,074335
0000000183,0000182000,008186,082528,081766,084432,094247,075632
0000000184,0000183000,-20358,093273,083546,081181,095322,077809
0000000185,0000184000,-46301,095213,085946,078282,095375,080654
0000000186,0000185000,-67055,088172,088726,076023,094404,083885
0000000187,0000186000,-80548,072865,091606,074626,092501,087185
0000000188,0000187000,-85489,050693,094317,074226,089850,090235
0000000189,0000188000,-81407,023845,096593,074861,086714,092736
0000000190,0000189000,-68735,-04916,098203,076469,083402,094440
0000000191,0000190000,-48648,-32879,098990,078896,080235,095181
0000000192,0000191000,-23069,-57402,098885,081902,077520,094889
0000000193,0000192000,005366,-75935,097894,085191,075527,093593
0000000194,0000193000,033890,-86661,096114,088442,074452,091417
0000000195,0000194000,059864,-88631,093714,091340,074397,088574
0000000196,0000195000,080643,-81617,090935,093599,075368,085344
0000000197,0000196000,094120,-66286,088054,094996,077270,082046
0000000198,0000197000,099079,-44120,085342,095397,079918,078997
0000000199,0000198000,095032,-17297,083064,094762,083053,076496
0000000200,0000199000,082346,011490,081454,093155,086364,074792
0000000201,0000200000,062254,039475,080664,090731,089531,074050
0000000202,0000201000,036702,063980,080769,087726,092245,074341
0000000203,0000202000,008253,082533,081759,084438,094237,075636
0000000204,0000203000,-20299,093297,083538,081189,095313,077810
0000000205,0000204000,-46261,095258,085938,078291,095368,080652
0000000206,0000205000,-67050,088245,088718,076032,094399,083880
0000000207,0000206000,-80567,072949,091599,074635,092499,087177
0000000208,0000207000,-85526,050775,094312,074234,089852,090226
0000000209,0000208000,-81474,023930,096592,074867,086719,092726
0000000210,0000209000,-68820,-04840,098203,076472,083409,094430
0000000211,0000210000,-48733,-32830,098994,078895,080244,095173
0000000212,0000211000,-23157,-57374,098891,081899,077530,094883
0000000213,0000212000,005282,-75929,097902,085185,075538,093589
0000000214,0000213000,033830,-86691,096123,088433,074462,091417
0000000215,0000214000,059828,-88689,093723,091330,074405,088577
0000000216,0000215000,080628,-81688,090943,093588,075373,085350
0000000217,0000216000,094140,-66376,088061,094986,077272,082054
0000000218,0000217000,099130,-44221,085347,095388,079917,079007
0000000219,0000218000,095099,-17386,083066,094756,083049,076507
0000000220,0000219000,082433,011414,081453,093152,086356,074803
0000000221,0000220000,062357,039412,080660,090731,089521,074059
0000000222,0000221000,036798,063949,080762,087730,092234,074348
0000000223,0000222000,008336,082537,081750,084445,094226,075640
0000000224,0000223000,-20227,093325,083528,081199,095302,077811
0000000225,0000224000,-46217,095315,085928,078303,095360,080649
0000000226,0000225000,-67043,088332,088708,076044,094393,083874
0000000227,0000226000,-80586,073047,091591,074646,092497,087168
0000000228,0000227000,-85574,050877,094307,074243,089854,090214
0000000229,0000228000,-81556,024035,096589,074874,086724,092714
0000000230,0000229000,-68919,-04752,098204,076476,083418,094418
0000000231,0000230000,-48836,-32770,098998,078895,080255,095162
0000000232,0000231000,-23266,-57338,098898,081894,077542,094875
0000000233,0000232000,005184,-75925,097911,085177,075550,093584
0000000234,0000233000,033759,-86728,096134,088422,074473,091416
0000000235,0000234000,059781,-88754,093734,091317,074414,088580
0000000236,0000235000,080611,-81774,090954,093575,075379,085357
0000000237,0000236000,094165,-66486,088070,094974,077274,082064
0000000238,0000237000,099189,-44338,085353,095378,079915,079019
0000000239,0000238000,095180,-17492,083069,094749,083043,076520
0000000240,0000239000,082540,011319,081451,093149,086347,074816
0000000241,0000240000,062477,039338,080656,090732,089509,074071
0000000242,0000241000,036911,063913,080755,087734,092220,074357
0000000243,0000242000,008438,082539,081740,084454,094212,075645
0000000244,0000243000,-20141,093357,083516,081210,095290,077812
0000000245,0000244000,-46167,095385,085916,078316,095350,080646
0000000246,0000245000,-67032,088434,088697,076058,094387,083866
0000000247,0000246000,-80608,073161,091582,074660,092495,087157
0000000248,0000247000,-85634,051000,094301,074254,089856,090201
0000000249,0000248000,-81651,024158,096587,074882,086730,092699
0000000250,0000249000,-69032,-04650,098206,076480,083428,094404
0000000251,0000250000,-48960,-32697,099003,078894,080267,095150
0000000252,0000251000,-23395,-57293,098906,081889,077557,094865
0000000253,0000252000,005071,-75923,097923,085168,075565,093579
0000000254,0000253000,033674,-86771,096147,088410,074486,091415
0000000255,0000254000,059724,-88828,093747,091303,074425,088583
0000000256,0000255000,080594,-81878,090966,093560,075386,085365
0000000257,0000256000,094195,-66616,088080,094959,077276,082076
0000000258,0000257000,099254,-44473,085360,095366,079913,079033
0000000259,0000258000,095276,-17618,083072,094740,083036,076536
0000000260,0000259000,082666,011206,081450,093145,086336,074831
0000000261,0000260000,062616,039253,080650,090732,089495,074084
0000000262,0000261000,037044,063872,080746,087740,092205,074367
0000000263,0000262000,008560,082537,081728,084464,094197,075651
0000000264,0000263000,-20043,093396,083502,081223,095276,077813
0000000265,0000264000,-46110,095468,085902,078331,095339,080642
0000000266,0000265000,-67017,088550,088684,076074,094379,083858
0000000267,0000266000,-80634,073295,091571,074675,092492,087145
0000000268,0000267000,-85705,051145,094293,074267,089858,090186
0000000269,0000268000,-81760,024299,096583,074891,086738,092683
0000000270,0000269000,-69164,-04532,098207,076484,083439,094388
0000000271,0000270000,-49107,-32609,099009,078893,080282,095136
0000000272,0000271000,-23544,-57242,098916,081883,077573,094855
0000000273,0000272000,004942,-75922,097935,085157,075581,093573
0000000274,0000273000,033573,-86818,096162,088396,074502,091414
0000000275,0000274000,059657,-88913,093763,091286,074437,088588
0000000276,0000275000,080576,-82000,090980,093543,075394,085374
0000000277,0000276000,094228,-66765,088091,094943,077279,082089
0000000278,0000277000,099328,-44628,085368,095352,079910,079050
0000000279,0000278000,095390,-17766,083075,094730,083028,076553
0000000280,0000279000,082812,011075,081449,093140,086324,074848
0000000281,0000280000,062774,039157,080644,090733,089479,074099
0000000282,0000281000,037199,063822,080735,087746,092187,074378
0000000283,0000282000,008702,082534,081714,084475,094179,075658
0000000284,0000283000,-19931,093443,083486,081238,095259,077814
0000000285,0000284000,-46043,095564,085885,078349,095326,080637
0000000286,0000285000,-66997,088681,088669,076093,094371,083848
0000000287,0000286000,-80664,073450,091559,074692,092489,087130
0000000288,0000287000,-85788,051314,094284,074282,089861,090168
0000000289,0000288000,-81884,024461,096579,074901,086746,092664
0000000290,0000289000,-69315,-04396,098209,076489,083453,094370
0000000291,0000290000,-49278,-32505,099016,078892,080299,095120
0000000292,0000291000,-23714,-57184,098927,081877,077592,094843
0000000293,0000292000,004793,-75922,097950,085145,075601,093566
0000000294,0000293000,033454,-86870,096179,088379,074519,091413
0000000295,0000294000,059580,-89011,093780,091267,074451,088593
0000000296,0000295000,080556,-82141,090996,093523,075403,085385
0000000297,0000296000,094264,-66935,088105,094924,077282,082105
0000000298,0000297000,099412,-44805,085377,095336,079907,079068
0000000299,0000298000,095520,-17937,083079,094719,083019,076573
0000000300,0000299000,082979,010925,081447,093135,086309,074868
0000000301,0000300000,062954,039047,080637,090734,089461,074116
