DIgSILENT PowerFactory,21000900,2000
6,06A,00D
1,TTPP_200000_100:Secondary Voltage A,,,V,0.10000000,-8608.499023,0.000000,73282,99998,1,1,P
2,TTPP_200000_100:Secondary Voltage B,,,V,0.10000000,-8579.282227,0.000000,73476,99998,1,1,P
3,TTPP_200000_100:Secondary Voltage C,,,V,0.10000000,-8610.560547,0.000000,69867,99998,1,1,P
4,TTCC_300_1:Secondary Current A,,,A,0.00010000000,-5.263385,0.000000,-16151,99998,1,1,P
5,TTCC_300_1:Secondary Current B,,,A,0.00010000000,-4.872923,0.000000,-2769,99998,1,1,P
6,TTCC_300_1:Secondary Current C,,,A,0.00010000000,-4.962991,0.000000,-849,99998,1,1,P
50
1
1000.000000,1101
30/06/2023,06:09:48.000000
30/06/2023,06:09:48.000000
ASCII
1.000000
0000000001,0000000000,093191,087268,077524,031704,034739,084549
0000000002,0000001000,091057,089985,076940,041457,025461,084076
0000000003,0000002000,088416,092316,077251,052296,018464,080233
0000000004,0000003000,085560,093994,078428,063175,014421,073398
0000000005,0000004000,082766,094857,080361,073018,013745,064228
0000000006,0000005000,080279,094847,082858,080866,016498,053629
0000000007,0000006000,078358,093962,085664,085952,022392,042648
0000000008,0000007000,077213,092253,088517,087775,030868,032350
0000000009,0000008000,076928,089915,091139,086151,041109,023734
0000000010,0000009000,077526,087193,093265,081253,052084,017656
0000000011,0000010000,078974,084323,094687,073560,062718,014716
0000000012,0000011000,081127,081585,095272,063800,072003,015188
0000000013,0000012000,083749,079276,094960,052952,079010,019031
0000000014,0000013000,086600,077601,093783,042086,083040,025867
0000000015,0000014000,089414,076719,091851,032242,083715,035036
0000000016,0000015000,091893,076736,089354,024384,080975,045635
0000000017,0000016000,093801,077636,086546,019305,075071,056616
0000000018,0000017000,094963,079326,083695,017487,066592,066914
0000000019,0000018000,095247,081663,081073,019103,056360,075530
0000000020,0000019000,094635,084403,078946,024002,045384,081607
0000000021,0000020000,093197,087262,077524,031704,034741,084549
0000000022,0000021000,091051,089992,076940,041454,025464,084075
0000000023,0000022000,088414,092318,077251,052304,018457,080233
0000000024,0000023000,085568,093988,078427,063176,014421,073397
0000000025,0000024000,082765,094858,080361,073015,013748,064229
0000000026,0000025000,080272,094854,082858,080870,016494,053629
0000000027,0000026000,078364,093956,085664,085958,022388,042647
0000000028,0000027000,077216,092251,088517,087772,030871,032350
0000000029,0000028000,076921,089923,091139,086152,041108,023734
0000000030,0000029000,077526,087192,093265,081260,052077,017656
0000000031,0000030000,078980,084316,094687,073560,062718,014715
0000000032,0000031000,081122,081589,095272,063800,072004,015188
0000000033,0000032000,083746,079278,094960,052957,079006,019030
0000000034,0000033000,086605,077595,093783,042090,083037,025866
0000000035,0000034000,089414,076719,091851,032241,083718,035034
0000000036,0000035000,091889,076740,089354,024388,080972,045634
0000000037,0000036000,093804,077633,086547,019309,075069,056615
0000000038,0000037000,094965,079324,083695,017488,066593,066912
0000000039,0000038000,095244,081667,081072,019103,056361,075528
0000000040,0000039000,094636,084402,078946,024005,045381,081606
0000000041,0000040000,093200,087260,077524,031704,034742,084547
0000000042,0000041000,091049,089995,076940,041455,025465,084074
0000000043,0000042000,088414,092318,077251,052305,018456,080232
0000000044,0000043000,085570,093985,078428,063176,014421,073396
0000000045,0000044000,082763,094860,080361,073015,013749,064228
0000000046,0000045000,080272,094855,082857,080871,016493,053629
0000000047,0000046000,078366,093954,085664,085957,022388,042648
0000000048,0000047000,077214,092252,088517,087772,030871,032351
0000000049,0000048000,076920,089924,091139,086154,041105,023734
0000000050,0000049000,077529,087189,093265,081261,052075,017657
0000000051,0000050000,078979,084317,094688,073560,062717,014716
0000000052,0000051000,081119,081592,095272,063803,072001,015189
0000000053,0000052000,083748,079275,094960,052960,079002,019030
0000000054,0000053000,086606,077594,093784,042091,083037,025866
0000000055,0000054000,089409,076722,091851,032245,083716,035033
0000000056,0000055000,091891,076738,089354,024393,080969,045632
0000000057,0000056000,093807,077629,086547,019310,075070,056613
0000000058,0000057000,094961,079327,083695,017489,066594,066910
0000000059,0000058000,095244,081668,081072,019108,056359,075526
0000000060,0000059000,094641,084397,078946,024006,045383,081603
0000000061,0000060000,093198,087261,077524,031702,034746,084545
0000000062,0000061000,091046,089998,076939,041456,025465,084072
0000000063,0000062000,088418,092314,077250,052305,018457,080231
0000000064,0000063000,085571,093985,078427,063171,014425,073396
0000000065,0000064000,082759,094865,080360,073013,013751,064229
0000000066,0000065000,080273,094854,082857,080871,016491,053631
0000000067,0000066000,078369,093951,085664,085953,022389,042651
0000000068,0000067000,077211,092256,088516,087769,030871,032354
0000000069,0000068000,076919,089926,091139,086155,041101,023738
0000000070,0000069000,077532,087186,093265,081260,052072,017660
0000000071,0000070000,078976,084319,094688,073559,062715,014718
0000000072,0000071000,081117,081595,095272,063807,071995,015191
0000000073,0000072000,083750,079272,094961,052964,078997,019032
0000000074,0000073000,086605,077594,093785,042093,083034,025866
0000000075,0000074000,089407,076725,091852,032250,083712,035032
0000000076,0000075000,091892,076736,089355,024399,080965,045629
0000000077,0000076000,093808,077627,086548,019314,075070,056609
0000000078,0000077000,094959,079329,083696,017493,066594,066905
0000000079,0000078000,095245,081666,081072,019112,056359,075521
0000000080,0000079000,094643,084394,078946,024008,045387,081599
0000000081,0000080000,093197,087262,077524,031702,034751,084540
0000000082,0000081000,091047,089998,076938,041456,025469,084068
0000000083,0000082000,088421,092312,077250,052302,018462,080229
0000000084,0000083000,085571,093986,078427,063167,014431,073395
0000000085,0000084000,082759,094866,080359,073009,013753,064230
0000000086,0000085000,080276,094852,082856,080866,016493,053633
0000000087,0000086000,078368,093953,085663,085947,022391,042655
0000000088,0000087000,077208,092259,088516,087766,030869,032359
0000000089,0000088000,076920,089925,091138,086153,041097,023744
0000000090,0000089000,077531,087187,093265,081258,052069,017666
0000000091,0000090000,078973,084322,094688,073560,062709,014723
0000000092,0000091000,081117,081594,095273,063811,071987,015195
0000000093,0000092000,083751,079271,094962,052967,078991,019034
0000000094,0000093000,086602,077596,093786,042099,083028,025866
0000000095,0000094000,089406,076724,091853,032259,083705,035030
0000000096,0000095000,091895,076733,089356,024406,080962,045625
0000000097,0000096000,093807,077627,086549,019320,075069,056603
0000000098,0000097000,094958,079329,083696,017501,066594,066898
0000000099,0000098000,095249,081663,081073,019118,056362,075513
0000000100,0000099000,094644,084393,078946,024009,045393,081591
0000000101,0000100000,093196,087264,077523,031703,034757,084533
0000000102,0000101000,091050,089996,076937,041455,025475,084063
0000000103,0000102000,088424,092311,077249,052297,018471,080225
0000000104,0000103000,085569,093989,078425,063160,014438,073394
0000000105,0000104000,082760,094867,080357,073003,013758,064232
0000000106,0000105000,080278,094851,082854,080857,016498,053638
0000000107,0000106000,078366,093956,085662,085938,022393,042661
0000000108,0000107000,077207,092262,088515,087760,030866,032367
0000000109,0000108000,076921,089924,091138,086148,041093,023753
0000000110,0000109000,077529,087189,093266,081254,052064,017675
0000000111,0000110000,078970,084325,094689,073561,062700,014732
0000000112,0000111000,081117,081593,095274,063815,071977,015201
0000000113,0000112000,083750,079270,094964,052973,078982,019038
0000000114,0000113000,086599,077597,093788,042108,083019,025867
0000000115,0000114000,089406,076722,091855,032270,083696,035027
0000000116,0000115000,091896,076730,089358,024416,080957,045620
0000000117,0000116000,093806,077627,086550,019331,075068,056595
0000000118,0000117000,094959,079327,083697,017511,066594,066888
0000000119,0000118000,095252,081659,081073,019124,056367,075502
0000000120,0000119000,094645,084393,078946,024012,045402,081579
0000000121,0000120000,093198,087264,077522,031704,034766,084523
0000000122,0000121000,091054,089993,076936,041452,025487,084055
0000000123,0000122000,088425,092311,077247,052289,018484,080220
0000000124,0000123000,085570,093991,078423,063151,014449,073393
0000000125,0000124000,082762,094867,080355,072992,013766,064235
0000000126,0000125000,080278,094853,082852,080844,016505,053644
0000000127,0000126000,078364,093960,085660,085927,022395,042671
0000000128,0000127000,077206,092264,088513,087751,030864,032379
0000000129,0000128000,076920,089925,091138,086140,041088,023766
0000000130,0000129000,077525,087192,093266,081250,052055,017688
0000000131,0000130000,078967,084327,094690,073563,062687,014743
0000000132,0000131000,081116,081592,095276,063819,071963,015210
0000000133,0000132000,083747,079271,094966,052981,078969,019043
0000000134,0000133000,086596,077597,093790,042121,083005,025868
0000000135,0000134000,089407,076719,091857,032284,083685,035024
0000000136,0000135000,091895,076728,089360,024431,080951,045612
0000000137,0000136000,093805,077626,086552,019346,075064,056583
0000000138,0000137000,094962,079323,083698,017524,066595,066874
0000000139,0000138000,095254,081656,081074,019132,056374,075486
0000000140,0000139000,094646,084392,078945,024017,045412,081564
0000000141,0000140000,093201,087261,077521,031704,034779,084510
0000000142,0000141000,091058,089991,076934,041446,025503,084044
0000000143,0000142000,088426,092313,077244,052279,018501,080214
0000000144,0000143000,085571,093992,078420,063138,014463,073392
0000000145,0000144000,082765,094867,080352,072976,013779,064238
0000000146,0000145000,080278,094856,082850,080826,016514,053653
0000000147,0000146000,078362,093964,085658,085911,022398,042684
0000000148,0000147000,077206,092266,088512,087737,030861,032395
0000000149,0000148000,076918,089928,091137,086129,041081,023784
0000000150,0000149000,077521,087196,093266,081246,052042,017706
0000000151,0000150000,078965,084328,094691,073564,062670,014759
0000000152,0000151000,081113,081592,095278,063825,071945,015222
0000000153,0000152000,083742,079272,094969,052992,078950,019050
0000000154,0000153000,086595,077596,093793,042137,082987,025869
0000000155,0000154000,089406,076716,091861,032303,083671,035020
0000000156,0000155000,091894,076726,089364,024450,080941,045602
0000000157,0000156000,093806,077623,086555,019365,075060,056568
0000000158,0000157000,094965,079318,083700,017540,066598,066855
0000000159,0000158000,095256,081653,081075,019144,056383,075466
0000000160,0000159000,094649,084390,078945,024023,045426,081544
0000000161,0000160000,093206,087258,077519,031704,034797,084492
0000000162,0000161000,091062,089990,076932,041438,025524,084031
0000000163,0000162000,088429,092314,077241,052266,018522,080205
0000000164,0000163000,085575,093993,078416,063121,014482,073390
0000000165,0000164000,082767,094869,080348,072954,013795,064243
0000000166,0000165000,080277,094861,082846,080804,016525,053664
0000000167,0000166000,078361,093967,085655,085891,022401,042701
0000000168,0000167000,077205,092269,088510,087719,030858,032416
0000000169,0000168000,076914,089933,091136,086116,041071,023807
0000000170,0000169000,077517,087200,093267,081240,052025,017728
0000000171,0000170000,078961,084329,094693,073564,062649,014779
0000000172,0000171000,081108,081594,095281,063832,071922,015238
0000000173,0000172000,083738,079273,094973,053008,078926,019060
0000000174,0000173000,086592,077593,093798,042158,082964,025871
0000000175,0000174000,089405,076713,091866,032326,083654,035014
0000000176,0000175000,091892,076723,089368,024475,080929,045589
0000000177,0000176000,093807,077618,086558,019390,075054,056549
0000000178,0000177000,094968,079313,083703,017560,066601,066831
0000000179,0000178000,095259,081649,081076,019158,056394,075440
0000000180,0000179000,094653,084386,078944,024032,045443,081518
0000000181,0000180000,093212,087254,077517,031704,034820,084469
0000000182,0000181000,091066,089989,076928,041429,025551,084013
0000000183,0000182000,088433,092314,077236,052250,018548,080195
0000000184,0000183000,085579,093994,078411,063099,014506,073388
0000000185,0000184000,082769,094872,080343,072927,013816,064250
0000000186,0000185000,080277,094866,082841,080776,016538,053679
0000000187,0000186000,078361,093972,085651,085865,022406,042722
0000000188,0000187000,077202,092274,088507,087696,030855,032443
0000000189,0000188000,076909,089939,091135,086099,041059,023835
0000000190,0000189000,077512,087204,093267,081232,052005,017757
0000000191,0000190000,078957,084332,094695,073565,062624,014804
0000000192,0000191000,081102,081596,095285,063842,071893,015257
0000000193,0000192000,083733,079273,094977,053026,078895,019071
0000000194,0000193000,086590,077591,093803,042183,082937,025874
0000000195,0000194000,089402,076710,091871,032355,083632,035007
0000000196,0000195000,091891,076719,089373,024507,080914,045572
0000000197,0000196000,093809,077612,086562,019419,075048,056525
0000000198,0000197000,094971,079307,083706,017585,066606,066802
0000000199,0000198000,095263,081644,081077,019177,056408,075408
0000000200,0000199000,094660,084381,078943,024041,045465,081487
0000000201,0000200000,093218,087250,077515,031702,034850,084441
0000000202,0000201000,091071,089988,076924,041418,025584,083991
0000000203,0000202000,088438,092314,077231,052231,018580,080182
0000000204,0000203000,085584,093995,078404,063071,014537,073385
0000000205,0000204000,082770,094876,080337,072894,013841,064258
0000000206,0000205000,080277,094871,082835,080742,016554,053697
0000000207,0000206000,078360,093977,085646,085832,022413,042749
0000000208,0000207000,077199,092280,088504,087668,030851,032475
0000000209,0000208000,076903,089946,091134,086080,041043,023870
0000000210,0000209000,077507,087209,093268,081222,051980,017791
0000000211,0000210000,078950,084336,094698,073565,062592,014835
0000000212,0000211000,081095,081599,095290,063855,071857,015281
0000000213,0000212000,083728,079273,094983,053049,078859,019085
0000000214,0000213000,086585,077588,093810,042213,082904,025877
0000000215,0000214000,089398,076707,091878,032391,083605,034998
0000000216,0000215000,091891,076713,089379,024545,080896,045553
0000000217,0000216000,093811,077604,086568,019455,075042,056496
0000000218,0000217000,094974,079300,083709,017615,066611,066767
0000000219,0000218000,095268,081638,081078,019199,056424,075369
0000000220,0000219000,094667,084374,078943,024052,045492,081449
0000000221,0000220000,093225,087246,077512,031701,034885,084408
0000000222,0000221000,091078,089986,076919,041405,025622,083966
0000000223,0000222000,088445,092314,077224,052206,018620,080167
0000000224,0000223000,085589,093997,078397,063037,014574,073382
0000000225,0000224000,082773,094882,080329,072855,013870,064267
0000000226,0000225000,080278,094877,082828,080702,016573,053718
0000000227,0000226000,078359,093984,085640,085793,022420,042780
0000000228,0000227000,077194,092289,088500,087635,030845,032513
0000000229,0000228000,076897,089953,091132,086056,041025,023912
0000000230,0000229000,077500,087214,093269,081210,051951,017833
0000000231,0000230000,078941,084341,094702,073567,062555,014871
0000000232,0000231000,081087,081602,095295,063870,071814,015309
0000000233,0000232000,083721,079272,094990,053076,078815,019102
0000000234,0000233000,086580,077585,093818,042249,082865,025880
0000000235,0000234000,089394,076702,091887,032434,083573,034987
0000000236,0000235000,091890,076706,089387,024590,080874,045529
0000000237,0000236000,093813,077596,086574,019497,075034,056462
0000000238,0000237000,094978,079292,083714,017651,066617,066724
0000000239,0000238000,095275,081629,081080,019225,056444,075324
0000000240,0000239000,094675,084367,078942,024065,045524,081404
0000000241,0000240000,093234,087242,077508,031699,034926,084368
0000000242,0000241000,091087,089984,076913,041390,025668,083935
0000000243,0000242000,088453,092313,077216,052177,018667,080149
0000000244,0000243000,085595,094001,078388,062998,014617,073378
0000000245,0000244000,082776,094887,080320,072810,013904,064279
0000000246,0000245000,080280,094884,082820,080653,016595,053744
0000000247,0000246000,078357,093993,085634,085747,022429,042817
0000000248,0000247000,077189,092299,088495,087596,030838,032559
0000000249,0000248000,076891,089962,091130,086029,041003,023962
0000000250,0000249000,077491,087222,093270,081196,051916,017881
0000000251,0000250000,078931,084347,094705,073568,062510,014914
0000000252,0000251000,081077,081605,095301,063887,071764,015341
0000000253,0000252000,083713,079272,094999,053107,078765,019121
0000000254,0000253000,086573,077583,093828,042291,082818,025883
0000000255,0000254000,089390,076696,091896,032484,083535,034975
0000000256,0000255000,091890,076697,089396,024642,080850,045502
0000000257,0000256000,093815,077586,086582,019546,075025,056422
0000000258,0000257000,094983,079282,083719,017693,066624,066675
0000000259,0000258000,095283,081619,081082,019255,056467,075270
0000000260,0000259000,094685,084358,078941,024079,045562,081352
0000000261,0000260000,093244,087236,077504,031698,034973,084322
0000000262,0000261000,091097,089980,076906,041371,025722,083900
0000000263,0000262000,088463,092313,077207,052143,018721,080128
0000000264,0000263000,085601,094004,078378,062952,014666,073375
0000000265,0000264000,082781,094893,080309,072756,013944,064292
0000000266,0000265000,080281,094892,082810,080597,016622,053774
0000000267,0000266000,078354,094004,085626,085693,022439,042861
0000000268,0000267000,077184,092310,088490,087551,030830,032612
0000000269,0000268000,076883,089972,091128,085997,040978,024019
0000000270,0000269000,077481,087231,093271,081180,051876,017937
0000000271,0000270000,078920,084354,094710,073571,062459,014963
0000000272,0000271000,081067,081608,095309,063907,071706,015379
0000000273,0000272000,083703,079272,095009,053143,078707,019143
0000000274,0000273000,086565,077580,093839,042341,082765,025887
0000000275,0000274000,089386,076690,091908,032542,083492,034960
0000000276,0000275000,091889,076688,089407,024702,080822,045470
0000000277,0000276000,093817,077576,086590,019603,075015,056375
0000000278,0000277000,094989,079271,083725,017741,066633,066619
0000000279,0000278000,095292,081607,081085,019289,056494,075209
0000000280,0000279000,094695,084349,078939,024096,045605,081292
0000000281,0000280000,093256,087229,077499,031695,035028,084270
0000000282,0000281000,091109,089976,076898,041349,025784,083860
0000000283,0000282000,088473,092313,077197,052104,018784,080105
0000000284,0000283000,085609,094008,078366,062899,014723,073371
0000000285,0000284000,082787,094900,080297,072695,013990,064308
0000000286,0000285000,080283,094902,082799,080533,016652,053808
0000000287,0000286000,078351,094016,085616,085633,022450,042911
0000000288,0000287000,077178,092322,088483,087500,030820,032673
0000000289,0000288000,076874,089984,091125,085960,040949,024085
0000000290,0000289000,077469,087242,093273,081162,051830,018001
0000000291,0000290000,078907,084362,094715,073574,062400,015019
0000000292,0000291000,081054,081612,095317,063931,071640,015422
0000000293,0000292000,083692,079272,095020,053185,078640,019168
0000000294,0000293000,086555,077576,093852,042398,082704,025891
0000000295,0000294000,089380,076682,091921,032607,083443,034943
0000000296,0000295000,091887,076677,089419,024770,080790,045433
0000000297,0000296000,093820,077563,086600,019668,075003,056322
0000000298,0000297000,094995,079257,083731,017796,066643,066554
0000000299,0000298000,095302,081594,081088,019328,056526,075139
0000000300,0000299000,094707,084338,078938,024115,045654,081224
0000000301,0000300000,093269,087220,077493,031692,035091,084210
