DIgSILENT PowerFactory,21000900,2000
6,06A,00D
1,TTPP_200000_100:Secondary Voltage A,,,V,0.10000000,-8224.966797,0.000000,61609,99998,1,1,P
2,TTPP_200000_100:Secondary Voltage B,,,V,0.10000000,-7797.344238,0.000000,59324,99998,1,1,P
3,TTPP_200000_100:Secondary Voltage C,,,V,0.10000000,-8136.757324,0.000000,62121,99998,1,1,P
4,TTCC_300_1:Secondary Current A,,,A,0.00010000000,-4.042314,0.000000,-1879,99998,1,1,P
5,TTCC_300_1:Secondary Current B,,,A,0.00010000000,-5.022290,0.000000,679,99998,1,1,P
6,TTCC_300_1:Secondary Current C,,,A,0.00010000000,-4.888381,0.000000,-1587,99998,1,1,P
50
1
1000.000000,1101
30/06/2023,06:07:51.000000
30/06/2023,06:07:51.000000
ASCII
1.000000
0000000001,0000000000,089356,079448,072786,019493,036233,083803
0000000002,0000001000,087222,082165,072201,029246,026955,083329
0000000003,0000002000,084581,084496,072513,040084,019958,079487
0000000004,0000003000,081725,086175,073690,050965,015914,072651
0000000005,0000004000,078932,087037,075623,060807,015239,063483
0000000006,0000005000,076444,087028,078119,068656,017992,052883
0000000007,0000006000,074522,086142,080926,073742,023886,041902
0000000008,0000007000,073378,084434,083779,075564,032362,031605
0000000009,0000008000,073093,082096,086401,073941,042602,022988
0000000010,0000009000,073690,079374,088526,069042,053577,016910
0000000011,0000010000,075138,076503,089949,061349,064211,013969
0000000012,0000011000,077291,073765,090534,051590,073496,014442
0000000013,0000012000,079913,071457,090222,040741,080504,018285
0000000014,0000013000,082764,069782,089045,029876,084533,025121
0000000015,0000014000,085579,068899,087113,020032,085209,034289
0000000016,0000015000,088058,068916,084616,012174,082469,044889
0000000017,0000016000,089965,069817,081808,007095,076565,055870
0000000018,0000017000,091127,071507,078957,005276,068086,066168
0000000019,0000018000,091412,073844,076335,006892,057854,074784
0000000020,0000019000,090800,076583,074208,011791,046878,080861
0000000021,0000020000,089362,079443,072786,019493,036235,083803
0000000022,0000021000,087216,082173,072202,029243,026958,083329
0000000023,0000022000,084579,084498,072513,040093,019950,079487
0000000024,0000023000,081733,086168,073689,050964,015915,072651
0000000025,0000024000,078930,087039,075623,060804,015242,063483
0000000026,0000025000,076437,087035,078119,068659,017988,052883
0000000027,0000026000,074529,086136,080926,073747,023881,041902
0000000028,0000027000,073381,084432,083778,075561,032365,031604
0000000029,0000028000,073086,082103,086401,073942,042601,022988
0000000030,0000029000,073691,079373,088527,069049,053571,016910
0000000031,0000030000,075144,076497,089949,061349,064212,013969
0000000032,0000031000,077287,073770,090534,051589,073498,014442
0000000033,0000032000,079910,071459,090222,040747,080499,018284
0000000034,0000033000,082770,069776,089045,029880,084530,025120
0000000035,0000034000,085578,068900,087113,020031,085212,034288
0000000036,0000035000,088053,068921,084616,012177,082466,044887
0000000037,0000036000,089969,069813,081809,007099,076563,055868
0000000038,0000037000,091129,071505,078957,005277,068087,066166
0000000039,0000038000,091409,073848,076334,006892,057855,074782
0000000040,0000039000,090801,076582,074208,011795,046875,080860
0000000041,0000040000,089365,079440,072786,019493,036236,083801
0000000042,0000041000,087214,082175,072202,029244,026959,083328
0000000043,0000042000,084579,084498,072513,040094,019950,079486
0000000044,0000043000,081735,086166,073690,050965,015914,072650
0000000045,0000044000,078928,087041,075622,060804,015243,063483
0000000046,0000045000,076436,087036,078119,068660,017986,052883
0000000047,0000046000,074531,086134,080926,073746,023881,041903
0000000048,0000047000,073379,084433,083778,075561,032364,031605
0000000049,0000048000,073084,082105,086401,073943,042599,022989
0000000050,0000049000,073694,079370,088527,069050,053568,016911
0000000051,0000050000,075143,076498,089949,061349,064211,013970
0000000052,0000051000,077284,073773,090534,051593,073494,014443
0000000053,0000052000,079913,071456,090222,040750,080496,018284
0000000054,0000053000,082770,069775,089046,029880,084530,025120
0000000055,0000054000,085574,068903,087114,020034,085209,034287
0000000056,0000055000,088055,068919,084616,012182,082462,044885
0000000057,0000056000,089972,069810,081809,007100,076564,055866
0000000058,0000057000,091126,071508,078958,005279,068088,066163
0000000059,0000058000,091408,073848,076334,006897,057853,074779
0000000060,0000059000,090806,076577,074208,011795,046877,080857
0000000061,0000060000,089363,079441,072786,019491,036240,083799
0000000062,0000061000,087211,082178,072201,029245,026959,083326
0000000063,0000062000,084583,084495,072512,040094,019951,079485
0000000064,0000063000,081736,086165,073689,050960,015919,072650
0000000065,0000064000,078924,087045,075622,060802,015244,063483
0000000066,0000065000,076438,087034,078118,068660,017985,052885
0000000067,0000066000,074533,086132,080925,073743,023883,041905
0000000068,0000067000,073375,084437,083778,075558,032364,031608
0000000069,0000068000,073084,082106,086400,073944,042594,022992
0000000070,0000069000,073696,079367,088527,069050,053566,016914
0000000071,0000070000,075141,076500,089950,061348,064209,013972
0000000072,0000071000,077281,073775,090534,051596,073488,014445
0000000073,0000072000,079915,071453,090223,040754,080491,018285
0000000074,0000073000,082770,069774,089047,029883,084528,025119
0000000075,0000074000,085571,068905,087114,020040,085205,034285
0000000076,0000075000,088057,068917,084617,012189,082459,044883
0000000077,0000076000,089973,069808,081810,007104,076564,055862
0000000078,0000077000,091124,071509,078958,005282,068088,066159
0000000079,0000078000,091410,073847,076335,006902,057853,074774
0000000080,0000079000,090808,076575,074208,011797,046881,080852
0000000081,0000080000,089362,079443,072786,019491,036245,083794
0000000082,0000081000,087212,082178,072200,029245,026963,083322
0000000083,0000082000,084586,084492,072512,040091,019956,079483
0000000084,0000083000,081736,086167,073688,050956,015924,072649
0000000085,0000084000,078924,087047,075621,060798,015247,063484
0000000086,0000085000,076441,087033,078117,068655,017987,052888
0000000087,0000086000,074533,086133,080925,073737,023884,041909
0000000088,0000087000,073373,084440,083777,075555,032362,031613
0000000089,0000088000,073085,082106,086400,073942,042591,022998
0000000090,0000089000,073696,079368,088527,069047,053562,016920
0000000091,0000090000,075137,076503,089950,061349,064203,013977
0000000092,0000091000,077281,073775,090535,051600,073481,014449
0000000093,0000092000,079916,071451,090224,040757,080485,018288
0000000094,0000093000,082766,069776,089048,029888,084522,025120
0000000095,0000094000,085570,068905,087115,020048,085199,034283
0000000096,0000095000,088059,068913,084618,012196,082455,044879
0000000097,0000096000,089972,069808,081811,007110,076563,055857
0000000098,0000097000,091123,071510,078958,005290,068088,066152
0000000099,0000098000,091413,073843,076335,006907,057856,074767
0000000100,0000099000,090809,076573,074208,011798,046887,080845
0000000101,0000100000,089361,079444,072785,019492,036251,083787
0000000102,0000101000,087215,082176,072199,029244,026969,083317
0000000103,0000102000,084589,084491,072510,040086,019965,079479
0000000104,0000103000,081734,086170,073687,050949,015932,072648
0000000105,0000104000,078925,087047,075619,060792,015251,063486
0000000106,0000105000,076443,087032,078116,068646,017992,052892
0000000107,0000106000,074531,086137,080924,073728,023887,041916
0000000108,0000107000,073371,084443,083776,075549,032360,031621
0000000109,0000108000,073086,082105,086400,073937,042586,023007
0000000110,0000109000,073694,079370,088527,069044,053557,016929
0000000111,0000110000,075134,076506,089951,061351,064193,013985
0000000112,0000111000,077281,073774,090536,051604,073470,014455
0000000113,0000112000,079914,071451,090226,040762,080476,018291
0000000114,0000113000,082763,069778,089050,029897,084512,025120
0000000115,0000114000,085570,068903,087117,020059,085190,034281
0000000116,0000115000,088060,068910,084620,012206,082451,044873
0000000117,0000116000,089970,069808,081813,007120,076561,055848
0000000118,0000117000,091124,071508,078959,005300,068088,066141
0000000119,0000118000,091416,073839,076335,006913,057861,074756
0000000120,0000119000,090810,076573,074208,011801,046896,080833
0000000121,0000120000,089363,079444,072784,019493,036260,083777
0000000122,0000121000,087219,082174,072198,029241,026981,083309
0000000123,0000122000,084590,084492,072509,040078,019978,079474
0000000124,0000123000,081735,086172,073685,050940,015942,072647
0000000125,0000124000,078927,087047,075617,060781,015260,063489
0000000126,0000125000,076443,087034,078114,068633,017998,052898
0000000127,0000126000,074528,086140,080922,073716,023889,041925
0000000128,0000127000,073371,084444,083775,075540,032357,031633
0000000129,0000128000,073085,082106,086399,073929,042581,023020
0000000130,0000129000,073690,079373,088528,069040,053548,016942
0000000131,0000130000,075132,076508,089952,061352,064180,013997
0000000132,0000131000,077280,073773,090538,051609,073456,014464
0000000133,0000132000,079911,071452,090228,040771,080462,018297
0000000134,0000133000,082761,069778,089052,029910,084498,025121
0000000135,0000134000,085571,068900,087120,020074,085179,034278
0000000136,0000135000,088059,068908,084623,012220,082444,044866
0000000137,0000136000,089970,069807,081815,007135,076558,055837
0000000138,0000137000,091127,071504,078961,005313,068089,066127
0000000139,0000138000,091419,073836,076336,006921,057868,074740
0000000140,0000139000,090811,076572,074208,011806,046906,080818
0000000141,0000140000,089366,079442,072783,019494,036273,083764
0000000142,0000141000,087223,082172,072196,029235,026997,083298
0000000143,0000142000,084591,084493,072506,040068,019994,079468
0000000144,0000143000,081736,086173,073681,050927,015956,072646
0000000145,0000144000,078930,087048,075614,060765,015272,063493
0000000146,0000145000,076443,087037,078111,068615,018007,052907
0000000147,0000146000,074527,086144,080919,073700,023891,041938
0000000148,0000147000,073371,084446,083773,075526,032355,031649
0000000149,0000148000,073082,082109,086399,073918,042574,023038
0000000150,0000149000,073686,079377,088528,069035,053535,016960
0000000151,0000150000,075129,076509,089953,061353,064163,014013
0000000152,0000151000,077277,073773,090540,051614,073439,014476
0000000153,0000152000,079907,071453,090231,040782,080444,018304
0000000154,0000153000,082759,069776,089055,029927,084480,025123
0000000155,0000154000,085571,068897,087123,020092,085165,034273
0000000156,0000155000,088058,068907,084626,012239,082435,044855
0000000157,0000156000,089970,069803,081817,007155,076553,055822
0000000158,0000157000,091130,071499,078962,005329,068091,066109
0000000159,0000158000,091421,073833,076337,006933,057877,074720
0000000160,0000159000,090814,076570,074207,011812,046920,080797
0000000161,0000160000,089371,079438,072781,019493,036291,083746
0000000162,0000161000,087227,082170,072194,029228,027018,083284
0000000163,0000162000,084594,084494,072503,040055,020015,079459
0000000164,0000163000,081740,086174,073677,050910,015976,072644
0000000165,0000164000,078932,087049,075610,060743,015289,063498
0000000166,0000165000,076442,087041,078108,068593,018018,052919
0000000167,0000166000,074526,086148,080916,073680,023895,041955
0000000168,0000167000,073370,084450,083771,075508,032352,031670
0000000169,0000168000,073078,082114,086398,073905,042565,023061
0000000170,0000169000,073681,079381,088528,069029,053519,016982
0000000171,0000170000,075126,076510,089955,061354,064143,014033
0000000172,0000171000,077273,073775,090543,051622,073416,014492
0000000173,0000172000,079902,071454,090235,040797,080419,018313
0000000174,0000173000,082757,069774,089060,029947,084458,025125
0000000175,0000174000,085569,068894,087128,020115,085148,034267
0000000176,0000175000,088057,068904,084630,012265,082423,044842
0000000177,0000176000,089972,069798,081820,007179,076548,055803
0000000178,0000177000,091133,071493,078965,005349,068095,066085
0000000179,0000178000,091424,073829,076338,006947,057888,074694
0000000180,0000179000,090818,076566,074206,011821,046937,080772
0000000181,0000180000,089377,079435,072779,019493,036314,083723
0000000182,0000181000,087231,082169,072190,029218,027045,083267
0000000183,0000182000,084598,084495,072498,040039,020042,079449
0000000184,0000183000,081744,086174,073672,050888,016000,072642
0000000185,0000184000,078934,087053,075605,060716,015309,063504
0000000186,0000185000,076442,087046,078103,068565,018031,052933
0000000187,0000186000,074526,086153,080912,073654,023900,041977
0000000188,0000187000,073367,084454,083769,075485,032349,031697
0000000189,0000188000,073073,082120,086397,073889,042552,023089
0000000190,0000189000,073677,079385,088529,069021,053498,017011
0000000191,0000190000,075121,076513,089957,061354,064117,014058
0000000192,0000191000,077267,073777,090547,051632,073387,014511
0000000193,0000192000,079897,071454,090239,040816,080389,018325
0000000194,0000193000,082754,069771,089065,029972,084430,025127
0000000195,0000194000,085566,068891,087134,020145,085126,034260
0000000196,0000195000,088056,068900,084635,012296,082408,044826
0000000197,0000196000,089974,069792,081825,007209,076542,055779
0000000198,0000197000,091136,071487,078968,005374,068100,066056
0000000199,0000198000,091427,073825,076339,006966,057902,074662
0000000200,0000199000,090824,076561,074206,011830,046959,080741
0000000201,0000200000,089383,079431,072777,019491,036344,083695
0000000202,0000201000,087236,082168,072186,029207,027077,083245
0000000203,0000202000,084603,084495,072493,040020,020074,079436
0000000204,0000203000,081749,086176,073666,050860,016031,072639
0000000205,0000204000,078935,087057,075598,060683,015334,063512
0000000206,0000205000,076442,087052,078097,068532,018047,052951
0000000207,0000206000,074525,086158,080908,073621,023906,042003
0000000208,0000207000,073363,084461,083766,075457,032344,031729
0000000209,0000208000,073068,082127,086396,073869,042537,023124
0000000210,0000209000,073671,079390,088530,069011,053473,017045
0000000211,0000210000,075114,076516,089960,061355,064086,014089
0000000212,0000211000,077259,073780,090552,051644,073351,014535
0000000213,0000212000,079892,071454,090245,040839,080352,018339
0000000214,0000213000,082750,069769,089072,030002,084397,025130
0000000215,0000214000,085563,068887,087141,020180,085099,034251
0000000216,0000215000,088055,068894,084642,012334,082389,044806
0000000217,0000216000,089976,069785,081830,007244,076536,055750
0000000218,0000217000,091139,071481,078972,005404,068105,066020
0000000219,0000218000,091433,073818,076340,006988,057918,074623
0000000220,0000219000,090832,076554,074205,011841,046986,080703
0000000221,0000220000,089390,079427,072774,019490,036379,083662
0000000222,0000221000,087243,082167,072181,029194,027116,083220
0000000223,0000222000,084610,084494,072486,039995,020114,079421
0000000224,0000223000,081754,086178,073659,050826,016067,072636
0000000225,0000224000,078938,087062,075591,060644,015364,063521
0000000226,0000225000,076443,087058,078090,068491,018066,052972
0000000227,0000226000,074524,086165,080902,073582,023914,042034
0000000228,0000227000,073359,084470,083762,075424,032339,031768
0000000229,0000228000,073062,082134,086394,073846,042518,023167
0000000230,0000229000,073664,079395,088531,068999,053444,017087
0000000231,0000230000,075106,076522,089963,061356,064048,014125
0000000232,0000231000,077251,073783,090557,051659,073308,014563
0000000233,0000232000,079885,071453,090253,040865,080309,018355
0000000234,0000233000,082744,069766,089081,030038,084358,025133
0000000235,0000234000,085559,068883,087149,020223,085066,034241
0000000236,0000235000,088055,068887,084649,012379,082368,044783
0000000237,0000236000,089978,069776,081836,007286,076528,055715
0000000238,0000237000,091142,071473,078976,005440,068111,065978
0000000239,0000238000,091439,073810,076342,007014,057938,074577
0000000240,0000239000,090840,076547,074204,011854,047018,080658
0000000241,0000240000,089399,079422,072770,019488,036420,083622
0000000242,0000241000,087252,082164,072175,029179,027162,083189
0000000243,0000242000,084618,084494,072478,039966,020161,079403
0000000244,0000243000,081760,086181,073650,050787,016110,072633
0000000245,0000244000,078941,087068,075582,060599,015398,063533
0000000246,0000245000,076445,087065,078081,068442,018089,052998
0000000247,0000246000,074522,086174,080895,073536,023923,042072
0000000248,0000247000,073354,084480,083757,075385,032332,031813
0000000249,0000248000,073056,082143,086392,073818,042496,023216
0000000250,0000249000,073656,079403,088532,068985,053410,017135
0000000251,0000250000,075096,076528,089967,061358,064004,014168
0000000252,0000251000,077242,073786,090563,051677,073258,014595
0000000253,0000252000,079877,071452,090261,040897,080258,018375
0000000254,0000253000,082737,069764,089090,030081,084312,025137
0000000255,0000254000,085555,068877,087159,020273,085029,034228
0000000256,0000255000,088054,068878,084658,012431,082343,044755
0000000257,0000256000,089980,069767,081844,007336,076519,055675
0000000258,0000257000,091147,071463,078981,005482,068118,065929
0000000259,0000258000,091447,073799,076344,007044,057961,074524
0000000260,0000259000,090849,076539,074203,011869,047055,080606
0000000261,0000260000,089409,079416,072766,019487,036467,083576
0000000262,0000261000,087262,082160,072168,029160,027216,083154
0000000263,0000262000,084628,084494,072469,039932,020215,079382
0000000264,0000263000,081766,086185,073640,050741,016160,072629
0000000265,0000264000,078946,087074,075571,060545,015438,063547
0000000266,0000265000,076446,087073,078072,068386,018116,053028
0000000267,0000266000,074519,086185,080887,073483,023932,042115
0000000268,0000267000,073348,084491,083751,075341,032324,031866
0000000269,0000268000,073048,082153,086390,073786,042471,023273
0000000270,0000269000,073646,079412,088533,068969,053370,017191
0000000271,0000270000,075084,076535,089972,061360,063952,014217
0000000272,0000271000,077231,073789,090571,051697,073200,014633
0000000273,0000272000,079868,071452,090271,040933,080200,018397
0000000274,0000273000,082729,069760,089101,030130,084259,025141
0000000275,0000274000,085550,068870,087170,020331,084986,034213
0000000276,0000275000,088053,068868,084669,012491,082315,044723
0000000277,0000276000,089982,069756,081853,007393,076509,055629
0000000278,0000277000,091153,071451,078987,005530,068127,065872
0000000279,0000278000,091456,073788,076347,007078,057988,074463
0000000280,0000279000,090860,076529,074202,011885,047099,080546
0000000281,0000280000,089420,079409,072761,019484,036522,083523
0000000282,0000281000,087274,082156,072160,029139,027278,083114
0000000283,0000282000,084638,084494,072459,039893,020278,079359
0000000284,0000283000,081774,086189,073628,050688,016217,072625
0000000285,0000284000,078952,087081,075559,060484,015483,063562
0000000286,0000285000,076448,087083,078060,068322,018146,053062
0000000287,0000286000,074516,086197,080878,073422,023943,042165
0000000288,0000287000,073342,084503,083745,075290,032314,031927
0000000289,0000288000,073039,082165,086387,073749,042442,023339
0000000290,0000289000,073634,079423,088534,068951,053324,017255
0000000291,0000290000,075071,076542,089977,061363,063893,014273
0000000292,0000291000,077219,073793,090579,051720,073134,014675
0000000293,0000292000,079856,071453,090282,040975,080134,018421
0000000294,0000293000,082720,069757,089114,030187,084198,025145
0000000295,0000294000,085545,068862,087183,020397,084937,034196
0000000296,0000295000,088051,068858,084681,012560,082284,044686
0000000297,0000296000,089984,069744,081863,007457,076497,055575
0000000298,0000297000,091160,071437,078994,005585,068137,065808
0000000299,0000298000,091466,073775,076350,007117,058020,074393
0000000300,0000299000,090872,076518,074200,011904,047148,080478
0000000301,0000300000,089434,079401,072755,019481,036585,083464
