DIgSILENT PowerFactory,21000900,2000
6,06A,00D
1,TTPP_200000_100:Secondary Voltage A,,,V,0.10000000,-8307.453125,0.000000,67210,99998,1,1,P
2,TTPP_200000_100:Secondary Voltage B,,,V,0.10000000,-8353.641602,0.000000,67559,99998,1,1,P
3,TTPP_200000_100:Secondary Voltage C,,,V,0.10000000,-8212.145508,0.000000,60539,99998,1,1,P
4,TTCC_500_5:Secondary Current A,,,A,0.0010000000,-80.114365,0.000000,66250,99998,1,1,P
5,TTCC_500_5:Secondary Current B,,,A,0.0010000000,-84.374680,0.000000,68952,99998,1,1,P
6,TTCC_500_5:Secondary Current C,,,A,0.0010000000,-84.971794,0.000000,70006,99998,1,1,P
50
1
1000.000000,1101
30/06/2023,06:10:51.000000
30/06/2023,06:10:51.000000
ASCII
1.000000
0000000001,0000000000,088587,087177,072969,086030,089054,074377
0000000002,0000001000,086039,089610,073083,083014,091771,074675
0000000003,0000002000,083188,091465,074081,079718,093762,075981
0000000004,0000003000,080338,092530,075864,076459,094836,078166
0000000005,0000004000,077760,092707,078266,073555,094885,081021
0000000006,0000005000,075684,092004,081044,071296,093905,084260
0000000007,0000006000,074339,090473,083919,069901,091993,087567
0000000008,0000007000,073866,088242,086625,069505,089334,090622
0000000009,0000008000,074276,085562,088894,070148,086188,093125
0000000010,0000009000,075540,082699,090495,071765,082868,094828
0000000011,0000010000,077563,079896,091274,074202,079694,095565
0000000012,0000011000,080123,077450,091160,077218,076976,095267
0000000013,0000012000,082951,075619,090163,080515,074984,093962
0000000014,0000013000,085805,074548,088378,083774,073911,091776
0000000015,0000014000,088404,074352,085977,086676,073863,088922
0000000016,0000015000,090461,075073,083199,088935,074843,085682
0000000017,0000016000,091798,076611,080323,090331,076754,082376
0000000018,0000017000,092297,078819,077618,090727,079413,079321
0000000019,0000018000,091877,081507,075349,090083,082560,076818
0000000020,0000019000,090595,084389,073749,088466,085880,075115
0000000021,0000020000,088593,087170,072969,086032,089052,074377
0000000022,0000021000,086037,089612,073083,083013,091772,074675
0000000023,0000022000,083185,091468,074080,079715,093765,075981
0000000024,0000023000,080342,092526,075864,076460,094835,078167
0000000025,0000024000,077759,092708,078266,073556,094884,081020
0000000026,0000025000,075682,092007,081044,071294,093907,084260
0000000027,0000026000,074342,090470,083919,069901,091993,087567
0000000028,0000027000,073864,088242,086625,069506,089333,090622
0000000029,0000028000,074273,085565,088894,070146,086190,093125
0000000030,0000029000,075543,082696,090494,071765,082868,094828
0000000031,0000030000,077563,079896,091274,074201,079694,095566
0000000032,0000031000,080119,077454,091160,077216,076978,095267
0000000033,0000032000,082954,075616,090163,080515,074985,093962
0000000034,0000033000,085808,074546,088379,083773,073911,091776
0000000035,0000034000,088399,074356,085978,086675,073864,088922
0000000036,0000035000,090461,075072,083199,088935,074843,085683
0000000037,0000036000,091803,076607,080323,090331,076754,082376
0000000038,0000037000,092294,078821,077618,090726,079414,079321
0000000039,0000038000,091874,081510,075349,090083,082560,076818
0000000040,0000039000,090600,084384,073748,088467,085879,075115
0000000041,0000040000,088593,087170,072969,086030,089053,074377
0000000042,0000041000,086032,089617,073083,083013,091772,074676
0000000043,0000042000,083188,091465,074080,079716,093763,075981
0000000044,0000043000,080346,092523,075864,076459,094835,078167
0000000045,0000044000,077755,092712,078266,073555,094885,081021
0000000046,0000045000,075681,092008,081043,071296,093905,084260
0000000047,0000046000,074347,090466,083919,069901,091993,087566
0000000048,0000047000,073862,088245,086625,069504,089335,090621
0000000049,0000048000,074269,085569,088894,070147,086189,093124
0000000050,0000049000,075546,082692,090494,071765,082868,094827
0000000051,0000050000,077564,079895,091274,074200,079696,095565
0000000052,0000051000,080114,077458,091161,077216,076978,095267
0000000053,0000052000,082955,075614,090163,080515,074984,093962
0000000054,0000053000,085811,074542,088379,083772,073913,091776
0000000055,0000054000,088396,074359,085978,086673,073865,088923
0000000056,0000055000,090460,075073,083200,088935,074843,085683
0000000057,0000056000,091806,076603,080324,090330,076754,082377
0000000058,0000057000,092292,078822,077618,090724,079415,079322
0000000059,0000058000,091872,081511,075349,090083,082559,076819
0000000060,0000059000,090603,084381,073748,088466,085878,075116
0000000061,0000060000,088594,087169,072969,086030,089053,074378
0000000062,0000061000,086030,089620,073082,083013,091771,074676
0000000063,0000062000,083190,091463,074079,079717,093762,075981
0000000064,0000063000,080347,092522,075863,076459,094835,078167
0000000065,0000064000,077753,092715,078265,073556,094885,081020
0000000066,0000065000,075682,092008,081042,071296,093905,084260
0000000067,0000066000,074348,090465,083919,069901,091994,087566
0000000068,0000067000,073860,088248,086625,069505,089335,090621
0000000069,0000068000,074269,085570,088894,070148,086190,093124
0000000070,0000069000,075548,082691,090494,071765,082869,094827
0000000071,0000070000,077561,079897,091275,074199,079697,095565
0000000072,0000071000,080112,077459,091161,077216,076979,095266
0000000073,0000072000,082957,075612,090164,080514,074986,093961
0000000074,0000073000,085809,074543,088380,083770,073914,091776
0000000075,0000074000,088393,074360,085979,086672,073865,088923
0000000076,0000075000,090463,075069,083200,088933,074843,085684
0000000077,0000076000,091807,076601,080325,090328,076755,082378
0000000078,0000077000,092290,078824,077619,090723,079414,079323
0000000079,0000078000,091875,081509,075349,090082,082559,076820
0000000080,0000079000,090606,084378,073748,088465,085878,075117
0000000081,0000080000,088592,087172,072969,086030,089052,074379
0000000082,0000081000,086032,089619,073081,083014,091769,074677
0000000083,0000082000,083194,091460,074078,079717,093761,075982
0000000084,0000083000,080346,092525,075862,076460,094834,078167
0000000085,0000084000,077752,092718,078263,073558,094883,081020
0000000086,0000085000,075685,092006,081041,071298,093904,084259
0000000087,0000086000,074348,090466,083918,069902,091994,087565
0000000088,0000087000,073856,088252,086624,069506,089335,090619
0000000089,0000088000,074270,085569,088893,070149,086190,093122
0000000090,0000089000,075548,082690,090495,071765,082871,094825
0000000091,0000090000,077556,079901,091275,074199,079699,095563
0000000092,0000091000,080111,077460,091162,077215,076981,095265
0000000093,0000092000,082958,075609,090165,080512,074988,093961
0000000094,0000093000,085806,074545,088382,083768,073916,091776
0000000095,0000094000,088392,074360,085980,086671,073867,088923
0000000096,0000095000,090465,075065,083202,088931,074844,085685
0000000097,0000096000,091806,076600,080326,090326,076756,082380
0000000098,0000097000,092289,078824,077620,090722,079414,079325
0000000099,0000098000,091878,081505,075350,090081,082558,076823
0000000100,0000099000,090608,084376,073748,088464,085877,075120
0000000101,0000100000,088592,087172,072968,086030,089050,074381
0000000102,0000101000,086035,089617,073080,083015,091767,074679
0000000103,0000102000,083197,091459,074077,079718,093759,075983
0000000104,0000103000,080345,092527,075860,076461,094832,078167
0000000105,0000104000,077753,092719,078261,073560,094881,081019
0000000106,0000105000,075687,092006,081039,071300,093903,084258
0000000107,0000106000,074346,090470,083916,069904,091994,087563
0000000108,0000107000,073855,088255,086623,069508,089336,090617
0000000109,0000108000,074270,085569,088893,070150,086191,093119
0000000110,0000109000,075545,082693,090495,071765,082873,094822
0000000111,0000110000,077553,079904,091276,074199,079701,095561
0000000112,0000111000,080111,077459,091163,077214,076983,095263
0000000113,0000112000,082955,075609,090168,080510,074991,093960
0000000114,0000113000,085802,074546,088384,083766,073919,091776
0000000115,0000114000,088392,074358,085983,086668,073869,088924
0000000116,0000115000,090465,075062,083205,088928,074846,085687
0000000117,0000116000,091805,076600,080328,090323,076756,082382
0000000118,0000117000,092291,078821,077621,090719,079413,079328
0000000119,0000118000,091882,081501,075350,090079,082556,076826
0000000120,0000119000,090609,084375,073748,088463,085875,075123
0000000121,0000120000,088594,087172,072967,086030,089047,074384
0000000122,0000121000,086039,089615,073078,083016,091763,074681
0000000123,0000122000,083199,091459,074074,079720,093756,075984
0000000124,0000123000,080346,092529,075857,076464,094829,078167
0000000125,0000124000,077756,092719,078258,073564,094879,081019
0000000126,0000125000,075688,092008,081037,071304,093902,084256
0000000127,0000126000,074344,090475,083914,069908,091993,087560
0000000128,0000127000,073854,088257,086621,069512,089336,090613
0000000129,0000128000,074269,085571,088892,070152,086193,093116
0000000130,0000129000,075540,082697,090495,071766,082876,094819
0000000131,0000130000,077549,079906,091277,074199,079704,095557
0000000132,0000131000,080109,077458,091166,077213,076987,095261
0000000133,0000132000,082951,075610,090171,080507,074995,093958
0000000134,0000133000,085799,074546,088388,083762,073923,091776
0000000135,0000134000,088392,074354,085986,086664,073872,088925
0000000136,0000135000,090465,075059,083208,088923,074849,085689
0000000137,0000136000,091804,076598,080331,090319,076757,082385
0000000138,0000137000,092294,078816,077623,090716,079413,079332
0000000139,0000138000,091885,081497,075351,090076,082555,076830
0000000140,0000139000,090611,084373,073748,088462,085872,075127
0000000141,0000140000,088598,087169,072965,086030,089042,074388
0000000142,0000141000,086044,089612,073076,083017,091759,074684
0000000143,0000142000,083201,091460,074071,079723,093752,075986
0000000144,0000143000,080349,092531,075853,076469,094824,078168
0000000145,0000144000,077759,092720,078254,073568,094875,081018
0000000146,0000145000,075688,092012,081033,071308,093900,084253
0000000147,0000146000,074342,090480,083911,069913,091992,087556
0000000148,0000147000,073853,088260,086619,069516,089336,090609
0000000149,0000148000,074266,085575,088891,070155,086196,093110
0000000150,0000149000,075535,082702,090496,071768,082880,094814
0000000151,0000150000,077546,079908,091279,074199,079709,095553
0000000152,0000151000,080105,077459,091169,077211,076993,095257
0000000153,0000152000,082946,075612,090175,080504,075001,093956
0000000154,0000153000,085796,074544,088392,083758,073927,091775
0000000155,0000154000,088391,074350,085991,086658,073876,088927
0000000156,0000155000,090463,075057,083213,088917,074851,085692
0000000157,0000156000,091805,076593,080334,090313,076758,082390
0000000158,0000157000,092297,078810,077625,090711,079412,079338
0000000159,0000158000,091888,081492,075352,090072,082552,076836
0000000160,0000159000,090615,084370,073747,088460,085868,075133
0000000161,0000160000,088605,087165,072963,086030,089037,074393
0000000162,0000161000,086050,089610,073072,083019,091753,074688
0000000163,0000162000,083205,091462,074066,079727,093746,075989
0000000164,0000163000,080353,092532,075848,076474,094819,078168
0000000165,0000164000,077762,092722,078249,073574,094871,081016
0000000166,0000165000,075687,092018,081028,071315,093897,084250
0000000167,0000166000,074341,090485,083906,069919,091991,087551
0000000168,0000167000,073852,088265,086616,069521,089337,090602
0000000169,0000168000,074261,085581,088890,070158,086199,093104
0000000170,0000169000,075529,082707,090496,071770,082884,094807
0000000171,0000170000,077541,079911,091281,074199,079715,095547
0000000172,0000171000,080099,077461,091173,077208,077000,095253
0000000173,0000172000,082940,075613,090180,080500,075008,093953
0000000174,0000173000,085793,074541,088398,083752,073934,091775
0000000175,0000174000,088388,074346,085997,086651,073881,088928
0000000176,0000175000,090461,075053,083218,088910,074855,085696
0000000177,0000176000,091807,076587,080339,090307,076759,082395
0000000178,0000177000,092301,078803,077629,090705,079411,079345
0000000179,0000178000,091892,081487,075354,090068,082549,076844
0000000180,0000179000,090621,084365,073747,088458,085862,075140
0000000181,0000180000,088612,087160,072960,086030,089030,074400
0000000182,0000181000,086055,089609,073068,083022,091746,074693
0000000183,0000182000,083210,091462,074060,079732,093738,075992
0000000184,0000183000,080359,092533,075841,076480,094812,078169
0000000185,0000184000,077764,092726,078242,073582,094865,081014
0000000186,0000185000,075687,092024,081022,071323,093893,084246
0000000187,0000186000,074340,090491,083901,069927,091989,087545
0000000188,0000187000,073848,088272,086612,069527,089339,090595
0000000189,0000188000,074254,085589,088889,070163,086202,093095
0000000190,0000189000,075523,082713,090497,071772,082890,094799
0000000191,0000190000,077534,079914,091284,074199,079723,095540
0000000192,0000191000,080091,077464,091178,077205,077008,095247
0000000193,0000192000,082934,075613,090186,080494,075016,093950
0000000194,0000193000,085788,074538,088405,083745,073942,091774
0000000195,0000194000,088385,074342,086005,086643,073888,088930
0000000196,0000195000,090460,075047,083225,088901,074859,085700
0000000197,0000196000,091809,076579,080345,090298,076761,082402
0000000198,0000197000,092305,078795,077633,090698,079410,079353
0000000199,0000198000,091897,081480,075356,090063,082545,076853
0000000200,0000199000,090629,084358,073746,088456,085856,075149
0000000201,0000200000,088621,087154,072957,086031,089022,074408
0000000202,0000201000,086063,089607,073063,083025,091736,074699
0000000203,0000202000,083218,091462,074053,079738,093728,075995
0000000204,0000203000,080365,092535,075833,076488,094803,078170
0000000205,0000204000,077767,092732,078234,073591,094858,081012
0000000206,0000205000,075688,092031,081014,071333,093888,084240
0000000207,0000206000,074339,090498,083895,069936,091987,087537
0000000208,0000207000,073844,088281,086608,069535,089340,090586
0000000209,0000208000,074248,085598,088887,070169,086207,093085
0000000210,0000209000,075516,082719,090497,071775,082897,094789
0000000211,0000210000,077526,079919,091288,074198,079732,095531
0000000212,0000211000,080081,077468,091184,077202,077019,095241
0000000213,0000212000,082926,075612,090194,080488,075027,093946
0000000214,0000213000,085782,074535,088415,083736,073951,091774
0000000215,0000214000,088380,074338,086014,086632,073895,088933
0000000216,0000215000,090459,075039,083234,088891,074864,085706
0000000217,0000216000,091812,076569,080352,090288,076763,082411
0000000218,0000217000,092309,078786,077638,090689,079408,079363
0000000219,0000218000,091904,081471,075358,090057,082540,076864
0000000220,0000219000,090638,084349,073745,088453,085848,075160
0000000221,0000220000,088630,087149,072953,086031,089012,074418
0000000222,0000221000,086072,089604,073056,083029,091725,074707
0000000223,0000222000,083227,091461,074044,079745,093717,076000
0000000224,0000223000,080372,092538,075823,076498,094793,078170
0000000225,0000224000,077771,092738,078223,073602,094850,081009
0000000226,0000225000,075689,092039,081004,071345,093882,084234
0000000227,0000226000,074338,090508,083887,069947,091985,087528
0000000228,0000227000,073838,088292,086602,069544,089342,090574
0000000229,0000228000,074240,085608,088884,070176,086212,093073
0000000230,0000229000,075506,082728,090499,071778,082906,094777
0000000231,0000230000,077514,079926,091292,074197,079743,095521
0000000232,0000231000,080070,077472,091191,077198,077031,095233
0000000233,0000232000,082917,075612,090203,080480,075039,093942
0000000234,0000233000,085775,074532,088426,083725,073963,091773
0000000235,0000234000,088375,074332,086025,086620,073905,088936
0000000236,0000235000,090458,075030,083244,088878,074870,085713
0000000237,0000236000,091814,076558,080360,090275,076765,082421
0000000238,0000237000,092314,078775,077644,090679,079407,079376
0000000239,0000238000,091912,081460,075360,090049,082534,076877
0000000240,0000239000,090649,084339,073744,088449,085839,075173
0000000241,0000240000,088641,087142,072949,086031,089000,074429
0000000242,0000241000,086083,089601,073048,083034,091712,074715
0000000243,0000242000,083238,091461,074034,079753,093703,076005
0000000244,0000243000,080380,092542,075811,076509,094780,078171
0000000245,0000244000,077776,092746,078211,073616,094840,081006
0000000246,0000245000,075691,092048,080993,071358,093876,084227
0000000247,0000246000,074335,090520,083878,069960,091983,087517
0000000248,0000247000,073831,088305,086596,069556,089344,090561
0000000249,0000248000,074231,085620,088881,070184,086218,093059
0000000250,0000249000,075495,082738,090500,071782,082916,094763
0000000251,0000250000,077501,079934,091297,074197,079756,095508
0000000252,0000251000,080058,077476,091199,077193,077045,095223
0000000253,0000252000,082906,075612,090215,080471,075054,093936
0000000254,0000253000,085766,074528,088438,083713,073976,091772
0000000255,0000254000,088369,074324,086038,086606,073915,088940
0000000256,0000255000,090457,075019,083256,088863,074877,085721
0000000257,0000256000,091816,076546,080371,090261,076768,082432
0000000258,0000257000,092320,078762,077651,090667,079404,079390
0000000259,0000258000,091923,081447,075363,090041,082527,076893
0000000260,0000259000,090662,084328,073742,088445,085828,075188
0000000261,0000260000,088655,087134,072943,086032,088987,074442
0000000262,0000261000,086097,089596,073039,083039,091696,074725
0000000263,0000262000,083250,091460,074022,079763,093688,076010
0000000264,0000263000,080389,092546,075798,076522,094766,078172
0000000265,0000264000,077782,092754,078197,073631,094828,081002
0000000266,0000265000,075693,092059,080980,071375,093868,084218
0000000267,0000266000,074332,090534,083867,069975,091981,087505
0000000268,0000267000,073824,088319,086589,069568,089346,090546
0000000269,0000268000,074221,085633,088878,070193,086226,093043
0000000270,0000269000,075481,082750,090501,071786,082927,094747
0000000271,0000270000,077486,079944,091303,074196,079771,095494
0000000272,0000271000,080044,077480,091209,077187,077062,095213
0000000273,0000272000,082893,075612,090228,080460,075070,093930
0000000274,0000273000,085755,074524,088453,083699,073991,091771
0000000275,0000274000,088363,074315,086054,086589,073927,088944
0000000276,0000275000,090456,075006,083270,088845,074885,085730
0000000277,0000276000,091819,076531,080382,090245,076770,082446
0000000278,0000277000,092328,078746,077659,090653,079402,079406
0000000279,0000278000,091935,081431,075366,090031,082520,076910
0000000280,0000279000,090676,084316,073741,088440,085816,075205
0000000281,0000280000,088670,087125,072937,086033,088971,074457
0000000282,0000281000,086113,089590,073028,083046,091678,074737
0000000283,0000282000,083264,091460,074008,079774,093670,076017
0000000284,0000283000,080400,092551,075782,076538,094750,078173
0000000285,0000284000,077789,092763,078181,073649,094815,080997
0000000286,0000285000,075695,092073,080965,071393,093860,084208
0000000287,0000286000,074328,090550,083854,069993,091978,087490
0000000288,0000287000,073816,088336,086580,069583,089349,090528
0000000289,0000288000,074209,085649,088874,070203,086234,093024
0000000290,0000289000,075466,082764,090503,071791,082941,094729
0000000291,0000290000,077469,079954,091309,074195,079788,095478
0000000292,0000291000,080027,077485,091220,077180,077081,095200
0000000293,0000292000,082878,075612,090242,080448,075090,093923
0000000294,0000293000,085743,074519,088470,083682,074009,091770
0000000295,0000294000,088356,074305,086071,086570,073941,088949
0000000296,0000295000,090453,074992,083287,088826,074894,085741
0000000297,0000296000,091822,076515,080396,090226,076774,082461
0000000298,0000297000,092337,078728,077668,090638,079398,079425
0000000299,0000298000,091948,081414,075371,090020,082510,076930
0000000300,0000299000,090692,084301,073739,088435,085801,075225
0000000301,0000300000,088689,087114,072930,086034,088952,074474
