DIgSILENT PowerFactory,21000900,2000
6,06A,00D
1,TTPP_200000_100:Secondary Voltage A,,,V,0.10000000,-8349.684570,0.000000,66874,99998,1,1,P
2,TTPP_200000_100:Secondary Voltage B,,,V,0.10000000,-8320.244141,0.000000,66626,99998,1,1,P
3,TTPP_200000_100:Secondary Voltage C,,,V,0.10000000,-8266.271484,0.000000,61331,99998,1,1,P
4,TTCC_500_5:Secondary Current A,,,A,0.0010000000,-79.414429,0.000000,65529,99998,1,1,P
5,TTCC_500_5:Secondary Current B,,,A,0.0010000000,-84.395302,0.000000,68960,99998,1,1,P
6,TTCC_500_5:Secondary Current C,,,A,0.0010000000,-84.968399,0.000000,69981,99998,1,1,P
50
1
1000.000000,1101
30/06/2023,06:11:16.000000
30/06/2023,06:11:16.000000
ASCII
1.000000
0000000001,0000000000,089009,086843,073510,085330,089075,074373
0000000002,0000001000,086461,089276,073624,082314,091792,074672
0000000003,0000002000,083611,091130,074622,079018,093783,075977
0000000004,0000003000,080760,092197,076405,075759,094856,078163
0000000005,0000004000,078182,092373,078807,072855,094906,081017
0000000006,0000005000,076107,091669,081585,070596,093925,084257
0000000007,0000006000,074761,090139,084461,069202,092012,087563
0000000008,0000007000,074287,087909,087166,068805,089355,090618
0000000009,0000008000,074699,085227,089435,069447,086210,093121
0000000010,0000009000,075963,082364,091036,071067,082887,094824
0000000011,0000010000,077984,079564,091815,073502,079714,095562
0000000012,0000011000,080545,077115,091701,076516,076998,095263
0000000013,0000012000,083375,075283,090704,079816,075004,093958
0000000014,0000013000,086226,074215,088919,083074,073931,091772
0000000015,0000014000,088826,074018,086518,085975,073884,088918
0000000016,0000015000,090884,074737,083740,088235,074864,085679
0000000017,0000016000,092220,076278,080864,089632,076773,082372
0000000018,0000017000,092718,078485,078159,090026,079434,079317
0000000019,0000018000,092300,081172,075890,089383,082581,076814
0000000020,0000019000,091017,084055,074290,087767,085899,075111
0000000021,0000020000,089014,086837,073510,085332,089073,074374
0000000022,0000021000,086460,089277,073624,082313,091793,074672
0000000023,0000022000,083608,091133,074621,079016,093785,075977
0000000024,0000023000,080763,092193,076405,075760,094855,078163
0000000025,0000024000,078182,092373,078807,072855,094906,081017
0000000026,0000025000,076105,091673,081585,070595,093927,084257
0000000027,0000026000,074764,090137,084461,069201,092013,087563
0000000028,0000027000,074287,087908,087167,068805,089355,090618
0000000029,0000028000,074696,085230,089435,069447,086210,093121
0000000030,0000029000,075965,082362,091035,071065,082889,094824
0000000031,0000030000,077985,079562,091815,073501,079715,095562
0000000032,0000031000,080541,077119,091702,076516,076998,095264
0000000033,0000032000,083376,075282,090704,079815,075005,093958
0000000034,0000033000,086230,074212,088920,083073,073932,091773
0000000035,0000034000,088822,074021,086519,085975,073885,088919
0000000036,0000035000,090883,074738,083740,088235,074864,085679
0000000037,0000036000,092225,076273,080864,089631,076774,082373
0000000038,0000037000,092716,078487,078159,090026,079435,079318
0000000039,0000038000,092296,081176,075890,089383,082581,076815
0000000040,0000039000,091022,084050,074290,087767,085900,075112
0000000041,0000040000,089016,086836,073510,085330,089074,074374
0000000042,0000041000,086454,089283,073624,082313,091792,074672
0000000043,0000042000,083610,091131,074621,079017,093784,075978
0000000044,0000043000,080768,092189,076405,075759,094856,078163
0000000045,0000044000,078177,092378,078807,072855,094906,081017
0000000046,0000045000,076103,091674,081585,070596,093926,084257
0000000047,0000046000,074769,090132,084460,069201,092014,087563
0000000048,0000047000,074285,087911,087166,068804,089356,090618
0000000049,0000048000,074691,085235,089435,069447,086210,093121
0000000050,0000049000,075969,082358,091035,071065,082889,094824
0000000051,0000050000,077986,079561,091815,073500,079716,095562
0000000052,0000051000,080536,077124,091702,076516,076999,095263
0000000053,0000052000,083377,075280,090704,079815,075005,093958
0000000054,0000053000,086233,074208,088920,083072,073933,091773
0000000055,0000054000,088818,074025,086519,085973,073886,088919
0000000056,0000055000,090882,074739,083741,088235,074864,085680
0000000057,0000056000,092229,076269,080865,089630,076775,082373
0000000058,0000057000,092715,078488,078160,090024,079435,079319
0000000059,0000058000,092294,081177,075890,089383,082580,076816
0000000060,0000059000,091025,084047,074290,087767,085899,075113
0000000061,0000060000,089016,086835,073510,085330,089073,074375
0000000062,0000061000,086453,089286,073623,082313,091792,074673
0000000063,0000062000,083613,091129,074620,079017,093783,075978
0000000064,0000063000,080769,092188,076405,075759,094856,078163
0000000065,0000064000,078175,092381,078806,072856,094905,081017
0000000066,0000065000,076104,091674,081584,070597,093925,084256
0000000067,0000066000,074771,090131,084460,069201,092014,087562
0000000068,0000067000,074282,087914,087166,068805,089356,090617
0000000069,0000068000,074691,085236,089435,069448,086210,093120
0000000070,0000069000,075970,082357,091036,071065,082890,094823
0000000071,0000070000,077983,079563,091816,073499,079718,095561
0000000072,0000071000,080535,077125,091702,076516,077000,095263
0000000073,0000072000,083379,075278,090705,079814,075006,093958
0000000074,0000073000,086231,074209,088922,083070,073935,091773
0000000075,0000074000,088815,074026,086520,085972,073886,088920
0000000076,0000075000,090885,074735,083742,088233,074864,085681
0000000077,0000076000,092229,076267,080866,089628,076775,082375
0000000078,0000077000,092712,078490,078160,090023,079435,079320
0000000079,0000078000,092297,081175,075890,089382,082579,076817
0000000080,0000079000,091028,084044,074290,087765,085899,075114
0000000081,0000080000,089014,086838,073510,085330,089072,074376
0000000082,0000081000,086454,089285,073623,082314,091790,074674
0000000083,0000082000,083617,091126,074619,079017,093782,075979
0000000084,0000083000,080768,092191,076403,075760,094855,078164
0000000085,0000084000,078174,092384,078805,072858,094904,081017
0000000086,0000085000,076107,091672,081582,070598,093925,084255
0000000087,0000086000,074770,090132,084459,069202,092015,087561
0000000088,0000087000,074279,087918,087165,068806,089356,090616
0000000089,0000088000,074692,085235,089435,069449,086211,093118
0000000090,0000089000,075970,082356,091036,071065,082892,094822
0000000091,0000090000,077979,079567,091816,073499,079720,095560
0000000092,0000091000,080533,077126,091703,076515,077001,095262
0000000093,0000092000,083380,075276,090707,079812,075009,093957
0000000094,0000093000,086228,074211,088923,083068,073937,091773
0000000095,0000094000,088814,074026,086522,085971,073887,088920
0000000096,0000095000,090887,074731,083743,088231,074865,085682
0000000097,0000096000,092229,076266,080867,089626,076776,082376
0000000098,0000097000,092711,078490,078161,090022,079435,079322
0000000099,0000098000,092300,081171,075891,089381,082578,076819
0000000100,0000099000,091030,084042,074290,087764,085898,075116
0000000101,0000100000,089014,086838,073509,085330,089070,074378
0000000102,0000101000,086457,089284,073621,082315,091787,074676
0000000103,0000102000,083619,091125,074618,079019,093780,075980
0000000104,0000103000,080768,092193,076401,075762,094853,078164
0000000105,0000104000,078175,092385,078802,072860,094902,081016
0000000106,0000105000,076109,091672,081581,070600,093924,084254
0000000107,0000106000,074768,090136,084458,069204,092014,087559
0000000108,0000107000,074277,087921,087164,068809,089356,090613
0000000109,0000108000,074692,085235,089434,069450,086212,093116
0000000110,0000109000,075967,082359,091036,071065,082894,094819
0000000111,0000110000,077975,079570,091817,073499,079722,095557
0000000112,0000111000,080533,077125,091705,076514,077004,095260
0000000113,0000112000,083378,075275,090709,079810,075012,093956
0000000114,0000113000,086224,074212,088926,083066,073940,091773
0000000115,0000114000,088814,074024,086524,085968,073889,088921
0000000116,0000115000,090888,074728,083746,088228,074867,085683
0000000117,0000116000,092227,076266,080869,089623,076777,082379
0000000118,0000117000,092713,078487,078162,090019,079434,079325
0000000119,0000118000,092304,081167,075891,089379,082577,076823
0000000120,0000119000,091031,084041,074290,087763,085896,075119
0000000121,0000120000,089016,086838,073508,085330,089067,074381
0000000122,0000121000,086462,089281,073619,082316,091784,074678
0000000123,0000122000,083621,091125,074615,079020,093777,075981
0000000124,0000123000,080768,092196,076398,075765,094850,078164
0000000125,0000124000,078178,092385,078799,072864,094899,081015
0000000126,0000125000,076110,091674,081578,070604,093922,084252
0000000127,0000126000,074766,090141,084455,069208,092014,087557
0000000128,0000127000,074276,087923,087162,068812,089357,090610
0000000129,0000128000,074691,085237,089433,069452,086214,093112
0000000130,0000129000,075962,082363,091036,071066,082897,094815
0000000131,0000130000,077972,079572,091818,073499,079725,095554
0000000132,0000131000,080531,077124,091707,076513,077008,095257
0000000133,0000132000,083374,075276,090712,079807,075016,093955
0000000134,0000133000,086221,074212,088929,083063,073943,091772
0000000135,0000134000,088814,074020,086528,085964,073892,088922
0000000136,0000135000,090887,074726,083749,088223,074869,085686
0000000137,0000136000,092227,076264,080872,089619,076778,082382
0000000138,0000137000,092716,078482,078164,090016,079433,079329
0000000139,0000138000,092307,081163,075892,089376,082575,076827
0000000140,0000139000,091033,084039,074289,087762,085893,075124
0000000141,0000140000,089021,086835,073506,085330,089063,074385
0000000142,0000141000,086467,089278,073617,082318,091779,074681
0000000143,0000142000,083624,091126,074612,079023,093772,075983
0000000144,0000143000,080771,092197,076394,075769,094845,078164
0000000145,0000144000,078181,092386,078795,072868,094896,081014
0000000146,0000145000,076110,091678,081574,070608,093920,084250
0000000147,0000146000,074764,090146,084452,069213,092013,087553
0000000148,0000147000,074276,087926,087160,068816,089357,090605
0000000149,0000148000,074688,085241,089433,069455,086216,093107
0000000150,0000149000,075957,082368,091037,071068,082900,094810
0000000151,0000150000,077968,079574,091820,073499,079730,095549
0000000152,0000151000,080527,077125,091710,076511,077013,095254
0000000153,0000152000,083368,075278,090716,079804,075022,093953
0000000154,0000153000,086218,074210,088933,083058,073948,091772
0000000155,0000154000,088813,074016,086532,085958,073896,088923
0000000156,0000155000,090885,074723,083754,088217,074872,085689
0000000157,0000156000,092227,076259,080876,089613,076779,082386
0000000158,0000157000,092720,078476,078167,090011,079432,079334
0000000159,0000158000,092310,081158,075894,089372,082573,076833
0000000160,0000159000,091037,084036,074289,087760,085888,075130
0000000161,0000160000,089027,086831,073504,085330,089058,074390
0000000162,0000161000,086472,089276,073614,082319,091774,074685
0000000163,0000162000,083627,091128,074607,079027,093766,075985
0000000164,0000163000,080775,092198,076389,075774,094839,078165
0000000165,0000164000,078184,092388,078790,072874,094891,081013
0000000166,0000165000,076109,091684,081569,070615,093917,084246
0000000167,0000166000,074763,090151,084448,069219,092011,087548
0000000168,0000167000,074274,087931,087157,068821,089358,090599
0000000169,0000168000,074683,085248,089431,069458,086219,093100
0000000170,0000169000,075952,082373,091037,071070,082905,094804
0000000171,0000170000,077963,079577,091822,073499,079736,095544
0000000172,0000171000,080521,077127,091714,076508,077020,095249
0000000173,0000172000,083362,075279,090721,079800,075028,093950
0000000174,0000173000,086215,074208,088939,083052,073954,091771
0000000175,0000174000,088811,074012,086539,085951,073902,088925
0000000176,0000175000,090884,074719,083760,088210,074875,085692
0000000177,0000176000,092229,076253,080880,089607,076780,082392
0000000178,0000177000,092723,078469,078170,090005,079432,079341
0000000179,0000178000,092314,081153,075895,089368,082570,076840
0000000180,0000179000,091043,084031,074288,087758,085883,075137
0000000181,0000180000,089034,086826,073502,085331,089051,074396
0000000182,0000181000,086478,089275,073609,082322,091766,074690
0000000183,0000182000,083632,091128,074602,079032,093758,075988
0000000184,0000183000,080781,092199,076382,075780,094832,078166
0000000185,0000184000,078187,092392,078783,072882,094886,081011
0000000186,0000185000,076109,091690,081563,070623,093913,084242
0000000187,0000186000,074763,090157,084442,069227,092010,087542
0000000188,0000187000,074271,087938,087153,068827,089359,090591
0000000189,0000188000,074677,085255,089430,069463,086223,093092
0000000190,0000189000,075945,082379,091038,071072,082911,094795
0000000191,0000190000,077957,079580,091825,073499,079743,095536
0000000192,0000191000,080513,077130,091719,076505,077029,095244
0000000193,0000192000,083356,075279,090727,079795,075037,093947
0000000194,0000193000,086211,074204,088947,083045,073962,091771
0000000195,0000194000,088807,074009,086546,085943,073908,088927
0000000196,0000195000,090882,074713,083766,088201,074880,085697
0000000197,0000196000,092231,076245,080886,089598,076781,082399
0000000198,0000197000,092727,078461,078174,089998,079430,079350
0000000199,0000198000,092319,081146,075897,089363,082566,076849
0000000200,0000199000,091051,084024,074287,087756,085876,075146
0000000201,0000200000,089043,086820,073498,085331,089043,074405
0000000202,0000201000,086485,089273,073604,082325,091757,074696
0000000203,0000202000,083640,091128,074594,079038,093749,075992
0000000204,0000203000,080787,092201,076374,075788,094824,078166
0000000205,0000204000,078190,092398,078775,072891,094879,081008
0000000206,0000205000,076110,091697,081555,070633,093909,084237
0000000207,0000206000,074762,090164,084436,069236,092008,087534
0000000208,0000207000,074266,087947,087149,068835,089361,090582
0000000209,0000208000,074670,085264,089428,069469,086227,093082
0000000210,0000209000,075938,082385,091039,071075,082918,094785
0000000211,0000210000,077948,079585,091829,073498,079752,095528
0000000212,0000211000,080503,077134,091725,076502,077039,095237
0000000213,0000212000,083348,075278,090735,079788,075047,093943
0000000214,0000213000,086205,074201,088956,083036,073972,091770
0000000215,0000214000,088802,074004,086556,085932,073916,088930
0000000216,0000215000,090881,074706,083775,088191,074885,085703
0000000217,0000216000,092234,076235,080893,089588,076783,082407
0000000218,0000217000,092731,078452,078179,089989,079429,079360
0000000219,0000218000,092326,081137,075899,089357,082561,076861
0000000220,0000219000,091061,084015,074286,087753,085869,075157
0000000221,0000220000,089052,086815,073495,085331,089033,074414
0000000222,0000221000,086494,089270,073597,082329,091746,074703
0000000223,0000222000,083649,091127,074586,079045,093737,075996
0000000224,0000223000,080794,092204,076364,075798,094813,078167
0000000225,0000224000,078193,092404,078765,072902,094870,081006
0000000226,0000225000,076112,091705,081545,070645,093903,084231
0000000227,0000226000,074760,090174,084428,069247,092006,087525
0000000228,0000227000,074260,087958,087144,068844,089363,090571
0000000229,0000228000,074662,085274,089425,069476,086233,093070
0000000230,0000229000,075929,082394,091040,071078,082926,094774
0000000231,0000230000,077937,079592,091833,073498,079763,095517
0000000232,0000231000,080493,077138,091732,076498,077051,095229
0000000233,0000232000,083339,075278,090745,079780,075060,093938
0000000234,0000233000,086197,074198,088967,083025,073983,091769
0000000235,0000234000,088797,073998,086567,085920,073925,088933
0000000236,0000235000,090881,074696,083785,088178,074891,085710
0000000237,0000236000,092236,076224,080902,089575,076786,082417
0000000238,0000237000,092736,078441,078185,089979,079427,079372
0000000239,0000238000,092335,081126,075901,089350,082555,076874
0000000240,0000239000,091072,084005,074285,087749,085859,075170
0000000241,0000240000,089064,086808,073490,085331,089021,074425
0000000242,0000241000,086506,089267,073589,082334,091732,074712
0000000243,0000242000,083660,091127,074575,079053,093724,076001
0000000244,0000243000,080802,092208,076353,075809,094801,078168
0000000245,0000244000,078198,092412,078753,072916,094860,081002
0000000246,0000245000,076114,091714,081534,070659,093896,084223
0000000247,0000246000,074757,090186,084419,069260,092004,087514
0000000248,0000247000,074254,087971,087137,068856,089365,090558
0000000249,0000248000,074653,085286,089423,069484,086239,093056
0000000250,0000249000,075917,082404,091041,071082,082936,094760
0000000251,0000250000,077923,079600,091838,073497,079776,095505
0000000252,0000251000,080480,077142,091740,076493,077066,095220
0000000253,0000252000,083329,075278,090756,079771,075074,093933
0000000254,0000253000,086188,074194,088980,083013,073997,091768
0000000255,0000254000,088792,073990,086580,085906,073936,088936
0000000256,0000255000,090880,074685,083797,088163,074898,085718
0000000257,0000256000,092239,076212,080912,089561,076788,082429
0000000258,0000257000,092743,078428,078192,089967,079425,079386
0000000259,0000258000,092345,081113,075904,089341,082548,076889
0000000260,0000259000,091084,083994,074284,087745,085849,075185
0000000261,0000260000,089077,086800,073484,085332,089007,074439
0000000262,0000261000,086520,089262,073580,082339,091717,074722
0000000263,0000262000,083672,091126,074563,079063,093708,076007
0000000264,0000263000,080811,092212,076339,075823,094787,078169
0000000265,0000264000,078204,092420,078738,072931,094849,080998
0000000266,0000265000,076115,091725,081521,070675,093889,084215
0000000267,0000266000,074754,090200,084408,069275,092001,087501
0000000268,0000267000,074246,087985,087130,068868,089367,090542
0000000269,0000268000,074643,085299,089419,069493,086246,093039
0000000270,0000269000,075904,082416,091043,071086,082948,094744
0000000271,0000270000,077908,079610,091844,073496,079791,095491
0000000272,0000271000,080466,077146,091750,076487,077082,095209
0000000273,0000272000,083316,075278,090769,079761,075091,093927
0000000274,0000273000,086177,074190,088994,082999,074012,091767
0000000275,0000274000,088785,073982,086595,085889,073948,088941
0000000276,0000275000,090878,074672,083812,088145,074906,085727
0000000277,0000276000,092241,076197,080923,089545,076791,082442
0000000278,0000277000,092750,078412,078200,089953,079422,079403
0000000279,0000278000,092357,081098,075908,089331,082540,076907
0000000280,0000279000,091098,083982,074282,087740,085836,075202
0000000281,0000280000,089093,086791,073478,085333,088991,074454
0000000282,0000281000,086536,089256,073570,082346,091699,074734
0000000283,0000282000,083686,091126,074550,079074,093690,076014
0000000284,0000283000,080822,092217,076323,075838,094770,078170
0000000285,0000284000,078211,092429,078722,072949,094836,080994
0000000286,0000285000,076117,091739,081506,070693,093881,084205
0000000287,0000286000,074751,090216,084396,069293,091998,087487
0000000288,0000287000,074239,088002,087121,068883,089370,090525
0000000289,0000288000,074631,085315,089416,069503,086255,093020
0000000290,0000289000,075888,082430,091044,071091,082961,094725
0000000291,0000290000,077892,079620,091851,073495,079808,095475
0000000292,0000291000,080449,077151,091761,076480,077101,095197
0000000293,0000292000,083300,075278,090784,079748,075110,093920
0000000294,0000293000,086165,074185,089011,082982,074029,091766
0000000295,0000294000,088778,073971,086612,085870,073962,088946
0000000296,0000295000,090876,074658,083828,088126,074915,085738
0000000297,0000296000,092245,076181,080937,089526,076794,082458
0000000298,0000297000,092759,078394,078209,089938,079419,079421
0000000299,0000298000,092370,081080,075912,089320,082531,076927
0000000300,0000299000,091114,083967,074281,087735,085822,075222
0000000301,0000300000,089111,086780,073471,085334,088973,074471
