DIgSILENT PowerFactory,21000900,2000
6,06A,00D
1,TTPP_200000_100:Secondary Voltage A,,,V,0.10000000,-8058.165039,0.000000,62026,99998,1,1,P
2,TTPP_200000_100:Secondary Voltage B,,,V,0.10000000,-7570.196777,0.000000,54957,99998,1,1,P
3,TTPP_200000_100:Secondary Voltage C,,,V,0.10000000,-7977.989258,0.000000,57256,99998,1,1,P
4,TTCC_300_1:Secondary Current A,,,A,0.00010000000,-4.122048,0.000000,401,99998,1,1,P
5,TTCC_300_1:Secondary Current B,,,A,0.00010000000,-4.998066,0.000000,409,99998,1,1,P
6,TTCC_300_1:Secondary Current C,,,A,0.00010000000,-4.892004,0.000000,-3932,99998,1,1,P
50
1
1000.000000,1101
30/06/2023,06:06:10.000000
30/06/2023,06:06:10.000000
ASCII
1.000000
0000000001,0000000000,087688,077177,071199,020291,035990,083840
0000000002,0000001000,085554,079894,070614,030044,026712,083366
0000000003,0000002000,082913,082225,070926,040883,019716,079523
0000000004,0000003000,080056,083904,072102,051763,015670,072687
0000000005,0000004000,077264,084765,074035,061604,014998,063518
0000000006,0000005000,074776,084757,076532,069455,017748,052918
0000000007,0000006000,072855,083871,079338,074537,023646,041937
0000000008,0000007000,071710,082163,082191,076364,032118,031640
0000000009,0000008000,071424,079825,084813,074736,042363,023023
0000000010,0000009000,072023,077102,086939,069842,053333,016946
0000000011,0000010000,073470,074232,088361,062144,063972,014006
0000000012,0000011000,075624,071494,088946,052388,073253,014479
0000000013,0000012000,078245,069186,088634,041537,080263,018321
0000000014,0000013000,081097,067509,087457,030673,084290,025158
0000000015,0000014000,083910,066629,085525,020828,084968,034326
0000000016,0000015000,086390,066644,083028,012971,082225,044925
0000000017,0000016000,088297,067546,080220,007892,076323,055907
0000000018,0000017000,089460,069235,077369,006073,067843,066205
0000000019,0000018000,089743,071574,074747,007689,057611,074821
0000000020,0000019000,089132,074311,072621,012589,046635,080898
0000000021,0000020000,087694,077171,071198,020291,035992,083839
0000000022,0000021000,085548,079901,070614,030041,026716,083365
0000000023,0000022000,082910,082227,070926,040892,019707,079522
0000000024,0000023000,080065,083896,072102,051762,015672,072686
0000000025,0000024000,077262,084767,074035,061603,015000,063518
0000000026,0000025000,074768,084763,076532,069456,017746,052918
0000000027,0000026000,072860,083865,079339,074545,023639,041937
0000000028,0000027000,071713,082159,082191,076359,032123,031640
0000000029,0000028000,071418,079832,084813,074738,042360,023023
0000000030,0000029000,072023,077101,086939,069846,053329,016946
0000000031,0000030000,073477,074225,088361,062146,063970,014005
0000000032,0000031000,075619,071498,088946,052386,073257,014478
0000000033,0000032000,078242,069188,088634,041543,080258,018321
0000000034,0000033000,081102,067504,087458,030676,084288,025157
0000000035,0000034000,083910,066628,085525,020828,084969,034325
0000000036,0000035000,086386,066649,083028,012974,082224,044924
0000000037,0000036000,088300,067542,080221,007896,076320,055906
0000000038,0000037000,089461,069233,077369,006074,067844,066203
0000000039,0000038000,089741,071576,074747,007690,057611,074819
0000000040,0000039000,089133,074311,072620,012592,046633,080897
0000000041,0000040000,087696,077169,071198,020291,035993,083838
0000000042,0000041000,085546,079904,070614,030042,026716,083364
0000000043,0000042000,082911,082227,070925,040892,019707,079522
0000000044,0000043000,080067,083895,072102,051762,015672,072686
0000000045,0000044000,077259,084770,074035,061602,015000,063518
0000000046,0000045000,074769,084764,076531,069458,017745,052919
0000000047,0000046000,072863,083863,079338,074544,023639,041938
0000000048,0000047000,071710,082162,082191,076358,032123,031640
0000000049,0000048000,071417,079833,084813,074741,042357,023024
0000000050,0000049000,072026,077098,086939,069847,053328,016947
0000000051,0000050000,073475,074227,088362,062146,063969,014006
0000000052,0000051000,075616,071502,088946,052389,073252,014479
0000000053,0000052000,078245,069184,088634,041546,080254,018321
0000000054,0000053000,081103,067503,087458,030676,084288,025156
0000000055,0000054000,083906,066632,085526,020831,084967,034324
0000000056,0000055000,086387,066648,083028,012979,082220,044922
0000000057,0000056000,088304,067538,080221,007897,076321,055903
0000000058,0000057000,089458,069236,077370,006075,067845,066200
0000000059,0000058000,089740,071577,074747,007695,057610,074816
0000000060,0000059000,089138,074306,072620,012593,046634,080894
0000000061,0000060000,087695,077170,071198,020289,035997,083835
0000000062,0000061000,085543,079907,070614,030043,026716,083362
0000000063,0000062000,082915,082223,070925,040893,019708,079520
0000000064,0000063000,080068,083894,072102,051759,015677,072686
0000000065,0000064000,077256,084774,074034,061600,015002,063519
0000000066,0000065000,074770,084763,076531,069458,017743,052920
0000000067,0000066000,072865,083860,079338,074540,023641,041940
0000000068,0000067000,071707,082165,082191,076356,032123,031643
0000000069,0000068000,071415,079835,084813,074741,042353,023027
0000000070,0000069000,072028,077096,086939,069847,053324,016950
0000000071,0000070000,073473,074228,088362,062145,063967,014008
0000000072,0000071000,075613,071504,088947,052393,073247,014481
0000000073,0000072000,078247,069182,088635,041550,080249,018322
0000000074,0000073000,081102,067503,087459,030679,084286,025156
0000000075,0000074000,083903,066634,085526,020836,084963,034322
0000000076,0000075000,086389,066645,083029,012985,082216,044920
0000000077,0000076000,088305,067537,080222,007901,076321,055900
0000000078,0000077000,089456,069238,077370,006080,067845,066196
0000000079,0000078000,089742,071575,074747,007699,057610,074811
0000000080,0000079000,089140,074304,072620,012594,046638,080889
0000000081,0000080000,087694,077172,071198,020289,036002,083831
0000000082,0000081000,085544,079907,070613,030044,026720,083358
0000000083,0000082000,082918,082221,070924,040889,019714,079518
0000000084,0000083000,080067,083896,072101,051754,015682,072685
0000000085,0000084000,077255,084775,074033,061597,015005,063520
0000000086,0000085000,074773,084761,076530,069453,017745,052923
0000000087,0000086000,072864,083862,079337,074534,023643,041944
0000000088,0000087000,071705,082169,082190,076353,032121,031648
0000000089,0000088000,071417,079834,084813,074739,042349,023033
0000000090,0000089000,072028,077096,086940,069844,053321,016956
0000000091,0000090000,073469,074232,088363,062146,063961,014014
0000000092,0000091000,075613,071503,088947,052397,073239,014485
0000000093,0000092000,078248,069180,088636,041553,080243,018324
0000000094,0000093000,081098,067505,087460,030685,084280,025157
0000000095,0000094000,083902,066634,085527,020845,084956,034320
0000000096,0000095000,086392,066642,083030,012993,082213,044916
0000000097,0000096000,088304,067537,080223,007907,076321,055894
0000000098,0000097000,089455,069238,077370,006087,067845,066189
0000000099,0000098000,089745,071572,074747,007705,057613,074804
0000000100,0000099000,089141,074302,072620,012596,046644,080881
0000000101,0000100000,087693,077173,071197,020290,036008,083824
0000000102,0000101000,085547,079905,070612,030042,026726,083353
0000000103,0000102000,082921,082220,070923,040884,019722,079515
0000000104,0000103000,080066,083898,072099,051747,015690,072684
0000000105,0000104000,077256,084776,074031,061590,015009,063521
0000000106,0000105000,074775,084761,076529,069444,017750,052927
0000000107,0000106000,072862,083865,079336,074525,023645,041951
0000000108,0000107000,071703,082171,082189,076347,032118,031657
0000000109,0000108000,071418,079833,084812,074734,042345,023042
0000000110,0000109000,072026,077098,086940,069841,053316,016965
0000000111,0000110000,073466,074234,088363,062147,063952,014022
0000000112,0000111000,075613,071502,088948,052401,073228,014491
0000000113,0000112000,078246,069179,088638,041559,080234,018328
0000000114,0000113000,081096,067506,087462,030694,084270,025157
0000000115,0000114000,083903,066631,085529,020856,084948,034318
0000000116,0000115000,086392,066639,083032,013003,082208,044911
0000000117,0000116000,088302,067536,080225,007917,076318,055885
0000000118,0000117000,089456,069236,077371,006097,067845,066178
0000000119,0000118000,089748,071568,074747,007711,057618,074792
0000000120,0000119000,089142,074302,072620,012599,046652,080870
0000000121,0000120000,087695,077173,071196,020291,036017,083814
0000000122,0000121000,085551,079902,070610,030039,026738,083345
0000000123,0000122000,082922,082220,070921,040876,019735,079510
0000000124,0000123000,080066,083900,072097,051738,015700,072683
0000000125,0000124000,077259,084776,074029,061579,015018,063524
0000000126,0000125000,074775,084762,076527,069431,017757,052934
0000000127,0000126000,072860,083869,079335,074514,023647,041960
0000000128,0000127000,071703,082173,082188,076338,032116,031669
0000000129,0000128000,071417,079834,084812,074726,042340,023056
0000000130,0000129000,072022,077101,086940,069837,053307,016978
0000000131,0000130000,073464,074236,088364,062149,063939,014033
0000000132,0000131000,075613,071501,088950,052405,073215,014500
0000000133,0000132000,078243,069180,088640,041567,080221,018334
0000000134,0000133000,081093,067506,087464,030707,084256,025158
0000000135,0000134000,083903,066628,085532,020870,084937,034315
0000000136,0000135000,086392,066637,083035,013017,082202,044903
0000000137,0000136000,088302,067535,080227,007932,076315,055874
0000000138,0000137000,089459,069232,077373,006110,067846,066164
0000000139,0000138000,089751,071565,074748,007719,057625,074777
0000000140,0000139000,089143,074301,072620,012604,046663,080854
0000000141,0000140000,087698,077170,071195,020292,036030,083800
0000000142,0000141000,085555,079900,070608,030033,026754,083335
0000000143,0000142000,082923,082222,070919,040866,019752,079504
0000000144,0000143000,080068,083902,072094,051726,015714,072681
0000000145,0000144000,077261,084776,074026,061563,015030,063528
0000000146,0000145000,074775,084765,076524,069413,017765,052943
0000000147,0000146000,072859,083873,079332,074498,023650,041973
0000000148,0000147000,071703,082175,082186,076324,032113,031685
0000000149,0000148000,071414,079838,084811,074715,042333,023073
0000000150,0000149000,072018,077105,086940,069832,053294,016995
0000000151,0000150000,073461,074237,088365,062150,063922,014049
0000000152,0000151000,075610,071502,088953,052411,073197,014513
0000000153,0000152000,078239,069182,088643,041579,080202,018341
0000000154,0000153000,081091,067505,087468,030723,084238,025160
0000000155,0000154000,083903,066625,085535,020889,084923,034310
0000000156,0000155000,086390,066635,083038,013036,082193,044893
0000000157,0000156000,088302,067532,080229,007952,076311,055859
0000000158,0000157000,089462,069227,077374,006126,067849,066146
0000000159,0000158000,089753,071562,074749,007730,057634,074756
0000000160,0000159000,089145,074299,072619,012610,046677,080834
0000000161,0000160000,087703,077167,071193,020292,036048,083782
0000000162,0000161000,085558,079899,070606,030026,026775,083321
0000000163,0000162000,082925,082223,070915,040853,019773,079495
0000000164,0000163000,080072,083902,072090,051708,015733,072680
0000000165,0000164000,077264,084778,074022,061541,015047,063533
0000000166,0000165000,074774,084770,076520,069391,017776,052954
0000000167,0000166000,072858,083877,079329,074478,023653,041990
0000000168,0000167000,071702,082178,082184,076305,032110,031706
0000000169,0000168000,071410,079842,084811,074702,042323,023096
0000000170,0000169000,072013,077109,086941,069826,053277,017018
0000000171,0000170000,073458,074238,088367,062150,063901,014069
0000000172,0000171000,075605,071503,088956,052418,073174,014528
0000000173,0000172000,078234,069182,088647,041594,080177,018350
0000000174,0000173000,081089,067502,087472,030744,084216,025162
0000000175,0000174000,083901,066622,085540,020912,084905,034304
0000000176,0000175000,086389,066632,083042,013062,082180,044879
0000000177,0000176000,088304,067527,080232,007976,076305,055840
0000000178,0000177000,089465,069222,077377,006146,067852,066122
0000000179,0000178000,089756,071558,074750,007745,057645,074730
0000000180,0000179000,089150,074295,072619,012619,046694,080809
0000000181,0000180000,087709,077163,071191,020291,036071,083759
0000000182,0000181000,085562,079898,070603,030016,026802,083303
0000000183,0000182000,082929,082223,070911,040838,019799,079485
0000000184,0000183000,080076,083903,072085,051686,015758,072677
0000000185,0000184000,077265,084781,074017,061514,015067,063539
0000000186,0000185000,074774,084775,076515,069363,017789,052968
0000000187,0000186000,072858,083881,079325,074451,023658,042012
0000000188,0000187000,071699,082183,082181,076282,032107,031732
0000000189,0000188000,071405,079848,084810,074686,042311,023125
0000000190,0000189000,072009,077113,086941,069818,053257,017046
0000000191,0000190000,073453,074241,088370,062151,063876,014094
0000000192,0000191000,075599,071506,088959,052428,073145,014547
0000000193,0000192000,078230,069182,088652,041613,080147,018362
0000000194,0000193000,081086,067500,087478,030769,084188,025164
0000000195,0000194000,083898,066619,085546,020941,084883,034297
0000000196,0000195000,086388,066628,083047,013093,082165,044863
0000000197,0000196000,088306,067521,080237,008006,076299,055816
0000000198,0000197000,089468,069216,077380,006171,067857,066093
0000000199,0000198000,089759,071553,074751,007764,057659,074698
0000000200,0000199000,089156,074290,072618,012628,046716,080777
0000000201,0000200000,087715,077159,071189,020290,036101,083731
0000000202,0000201000,085568,079897,070598,030006,026835,083281
0000000203,0000202000,082935,082223,070905,040818,019832,079472
0000000204,0000203000,080081,083904,072079,051658,015788,072675
0000000205,0000204000,077267,084786,074011,061481,015092,063547
0000000206,0000205000,074774,084780,076509,069329,017805,052986
0000000207,0000206000,072857,083886,079320,074419,023664,042038
0000000208,0000207000,071695,082190,082178,076254,032103,031764
0000000209,0000208000,071400,079855,084808,074666,042295,023160
0000000210,0000209000,072003,077118,086942,069808,053232,017081
0000000211,0000210000,073446,074245,088372,062152,063844,014125
0000000212,0000211000,075591,071508,088964,052441,073109,014571
0000000213,0000212000,078224,069182,088658,041635,080110,018376
0000000214,0000213000,081082,067497,087484,030799,084155,025167
0000000215,0000214000,083895,066616,085553,020977,084856,034288
0000000216,0000215000,086387,066622,083054,013131,082147,044843
0000000217,0000216000,088308,067513,080242,008041,076293,055787
0000000218,0000217000,089471,069209,077384,006201,067862,066057
0000000219,0000218000,089765,071547,074752,007786,057675,074660
0000000220,0000219000,089164,074283,072617,012639,046743,080739
0000000221,0000220000,087722,077155,071186,020288,036135,083698
0000000222,0000221000,085575,079895,070593,029993,026873,083256
0000000223,0000222000,082942,082223,070899,040794,019871,079457
0000000224,0000223000,080086,083907,072071,051624,015825,072672
0000000225,0000224000,077270,084791,074003,061443,015121,063557
0000000226,0000225000,074775,084786,076502,069289,017824,053008
0000000227,0000226000,072856,083893,079315,074379,023672,042070
0000000228,0000227000,071691,082198,082174,076221,032097,031803
0000000229,0000228000,071394,079863,084806,074643,042277,023202
0000000230,0000229000,071997,077124,086943,069796,053203,017122
0000000231,0000230000,073438,074250,088376,062153,063807,014161
0000000232,0000231000,075583,071511,088969,052456,073066,014599
0000000233,0000232000,078218,069181,088665,041662,080067,018392
0000000234,0000233000,081076,067495,087493,030835,084116,025170
0000000235,0000234000,083891,066611,085561,021020,084824,034278
0000000236,0000235000,086387,066615,083061,013176,082125,044820
0000000237,0000236000,088310,067505,080248,008083,076285,055753
0000000238,0000237000,089474,069201,077388,006237,067868,066015
0000000239,0000238000,089771,071538,074754,007812,057695,074614
0000000240,0000239000,089172,074276,072616,012652,046775,080695
0000000241,0000240000,087730,077151,071182,020287,036177,083658
0000000242,0000241000,085583,079893,070587,029977,026919,083225
0000000243,0000242000,082950,082222,070891,040765,019918,079439
0000000244,0000243000,080091,083910,072063,051585,015868,072668
0000000245,0000244000,077273,084796,073994,061397,015156,063568
0000000246,0000245000,074777,084793,076494,069240,017847,053033
0000000247,0000246000,072853,083902,079308,074333,023681,042107
0000000248,0000247000,071686,082208,082170,076183,032090,031849
0000000249,0000248000,071388,079871,084804,074615,042255,023252
0000000250,0000249000,071988,077131,086944,069782,053168,017171
0000000251,0000250000,073428,074256,088380,062154,063762,014204
0000000252,0000251000,075574,071514,088976,052473,073016,014632
0000000253,0000252000,078210,069181,088673,041693,080017,018411
0000000254,0000253000,081069,067492,087502,030878,084070,025174
0000000255,0000254000,083887,066606,085571,021070,084786,034265
0000000256,0000255000,086386,066607,083070,013228,082101,044792
0000000257,0000256000,088312,067496,080256,008133,076276,055712
0000000258,0000257000,089479,069192,077393,006279,067875,065966
0000000259,0000258000,089779,071528,074756,007842,057718,074561
0000000260,0000259000,089181,074267,072615,012666,046812,080642
0000000261,0000260000,087740,077145,071178,020285,036224,083612
0000000262,0000261000,085594,079889,070580,029958,026973,083190
0000000263,0000262000,082959,082222,070882,040730,019973,079418
0000000264,0000263000,080098,083913,072052,051539,015918,072664
0000000265,0000264000,077278,084803,073983,061343,015196,063582
0000000266,0000265000,074778,084801,076484,069184,017874,053063
0000000267,0000266000,072851,083913,079300,074280,023691,042150
0000000268,0000267000,071680,082219,082164,076138,032082,031901
0000000269,0000268000,071380,079881,084802,074583,042230,023309
0000000270,0000269000,071978,077140,086946,069766,053128,017227
0000000271,0000270000,073416,074263,088384,062157,063711,014253
0000000272,0000271000,075563,071517,088983,052493,072958,014669
0000000273,0000272000,078200,069181,088683,041729,079958,018433
0000000274,0000273000,081061,067489,087514,030927,084017,025178
0000000275,0000274000,083882,066599,085582,021128,084743,034251
0000000276,0000275000,086385,066597,083081,013288,082073,044760
0000000277,0000276000,088314,067485,080265,008190,076266,055666
0000000278,0000277000,089485,069180,077399,006328,067884,065909
0000000279,0000278000,089788,071517,074759,007876,057745,074500
0000000280,0000279000,089192,074258,072614,012683,046856,080582
0000000281,0000280000,087752,077138,071173,020282,036279,083560
0000000282,0000281000,085606,079885,070572,029937,027035,083150
0000000283,0000282000,082970,082222,070871,040691,020035,079395
0000000284,0000283000,080106,083917,072040,051486,015974,072660
0000000285,0000284000,077283,084809,073971,061282,015241,063598
0000000286,0000285000,074780,084811,076473,069120,017904,053098
0000000287,0000286000,072848,083925,079290,074219,023702,042200
0000000288,0000287000,071674,082232,082157,076087,032072,031962
0000000289,0000288000,071371,079893,084799,074546,042201,023374
0000000290,0000289000,071966,077151,086947,069748,053082,017291
0000000291,0000290000,073404,074271,088389,062160,063652,014309
0000000292,0000291000,075551,071521,088992,052517,072892,014712
0000000293,0000292000,078188,069181,088694,041771,079892,018458
0000000294,0000293000,081052,067485,087526,030984,083956,025182
0000000295,0000294000,083877,066591,085595,021193,084695,034234
0000000296,0000295000,086384,066586,083093,013357,082041,044724
0000000297,0000296000,088316,067472,080275,008254,076254,055612
0000000298,0000297000,089492,069166,077406,006382,067894,065845
0000000299,0000298000,089798,071503,074762,007914,057777,074430
0000000300,0000299000,089204,074247,072612,012702,046905,080514
0000000301,0000300000,087766,077129,071168,020280,036342,083500
