DIgSILENT PowerFactory,21000900,2000
6,06A,00D
1,TTPP_200000_100:Secondary Voltage A,,,V,0.10000000,-8590.671875,0.000000,72469,99998,1,1,P
2,TTPP_200000_100:Secondary Voltage B,,,V,0.10000000,-8488.590820,0.000000,70421,99998,1,1,P
3,TTPP_200000_100:Secondary Voltage C,,,V,0.10000000,-8455.400391,0.000000,66038,99998,1,1,P
4,TTCC_300_1:Secondary Current A,,,A,0.00010000000,-5.425788,0.000000,-11607,99998,1,1,P
5,TTCC_300_1:Secondary Current B,,,A,0.00010000000,-4.862232,0.000000,-3322,99998,1,1,P
6,TTCC_300_1:Secondary Current C,,,A,0.00010000000,-5.008775,0.000000,17,99998,1,1,P
50
1
1000.000000,1101
30/06/2023,06:11:16.000000
30/06/2023,06:11:16.000000
ASCII
1.000000
0000000001,0000000000,093013,086361,075973,033328,034633,085007
0000000002,0000001000,090879,089078,075388,043080,025355,084534
0000000003,0000002000,088238,091410,075700,053920,018357,080691
0000000004,0000003000,085382,093087,076876,064799,014314,073856
0000000005,0000004000,082588,093949,078809,074642,013638,064687
0000000006,0000005000,080101,093941,081306,082490,016391,054087
0000000007,0000006000,078179,093055,084113,087576,022285,043106
0000000008,0000007000,077035,091346,086966,089399,030761,032808
0000000009,0000008000,076750,089009,089587,087775,041002,024192
0000000010,0000009000,077347,086286,091713,082877,051976,018114
0000000011,0000010000,078796,083416,093135,075184,062610,015174
0000000012,0000011000,080949,080677,093720,065425,071896,015646
0000000013,0000012000,083570,078369,093408,054576,078903,019489
0000000014,0000013000,086422,076694,092231,043711,082933,026325
0000000015,0000014000,089236,075812,090299,033867,083608,035493
0000000016,0000015000,091715,075829,087802,026008,080868,046092
0000000017,0000016000,093622,076729,084994,020929,074965,057074
0000000018,0000017000,094785,078419,082143,019111,066485,067372
0000000019,0000018000,095069,080756,079521,020726,056253,075988
0000000020,0000019000,094457,083496,077394,025625,045278,082065
0000000021,0000020000,093019,086356,075972,033327,034634,085007
0000000022,0000021000,090873,089085,075388,043078,025357,084533
0000000023,0000022000,088236,091411,075700,053927,018350,080691
0000000024,0000023000,085390,093081,076876,064799,014314,073855
0000000025,0000024000,082586,093951,078809,074639,013641,064687
0000000026,0000025000,080093,093947,081306,082494,016387,054087
0000000027,0000026000,078186,093048,084113,087581,022281,043106
0000000028,0000027000,077038,091344,086965,089396,030764,032808
0000000029,0000028000,076743,089016,089588,087776,041000,024192
0000000030,0000029000,077348,086285,091713,082884,051970,018114
0000000031,0000030000,078802,083409,093135,075184,062611,015173
0000000032,0000031000,080944,080683,093720,065424,071897,015646
0000000033,0000032000,083567,078371,093408,054581,078899,019488
0000000034,0000033000,086427,076688,092231,043715,082930,026324
0000000035,0000034000,089235,075812,090299,033865,083611,035492
0000000036,0000035000,091711,075834,087802,026012,080865,046091
0000000037,0000036000,093626,076726,084995,020933,074962,057072
0000000038,0000037000,094786,078417,082143,019111,066486,067370
0000000039,0000038000,095066,080760,079520,020727,056255,075986
0000000040,0000039000,094458,083495,077394,025629,045275,082064
0000000041,0000040000,093022,086352,075972,033327,034636,085005
0000000042,0000041000,090871,089088,075388,043078,025359,084532
0000000043,0000042000,088236,091411,075699,053929,018350,080690
0000000044,0000043000,085392,093078,076876,064799,014314,073855
0000000045,0000044000,082585,093953,078809,074638,013643,064687
0000000046,0000045000,080093,093948,081305,082495,016386,054088
0000000047,0000046000,078188,093047,084113,087581,022280,043107
0000000048,0000047000,077036,091345,086965,089396,030763,032809
0000000049,0000048000,076741,089018,089587,087778,040998,024193
0000000050,0000049000,077351,086283,091713,082885,051968,018115
0000000051,0000050000,078801,083410,093136,075184,062610,015174
0000000052,0000051000,080941,080685,093721,065428,071893,015646
0000000053,0000052000,083570,078369,093408,054584,078895,019488
0000000054,0000053000,086427,076687,092232,043715,082929,026323
0000000055,0000054000,089231,075815,090300,033869,083609,035490
0000000056,0000055000,091712,075832,087802,026017,080862,046089
0000000057,0000056000,093629,076723,084995,020935,074963,057070
0000000058,0000057000,094783,078420,082144,019113,066487,067367
0000000059,0000058000,095066,080761,079521,020732,056253,075983
0000000060,0000059000,094462,083490,077394,025630,045277,082061
0000000061,0000060000,093020,086354,075972,033326,034640,085003
0000000062,0000061000,090868,089091,075388,043080,025359,084530
0000000063,0000062000,088240,091408,075699,053929,018351,080689
0000000064,0000063000,085393,093078,076876,064795,014318,073854
0000000065,0000064000,082581,093958,078808,074637,013644,064687
0000000066,0000065000,080095,093947,081305,082494,016384,054089
0000000067,0000066000,078190,093044,084112,087577,022282,043109
0000000068,0000067000,077032,091349,086965,089393,030763,032812
0000000069,0000068000,076741,089018,089587,087779,040993,024196
0000000070,0000069000,077354,086280,091713,082885,051965,018118
0000000071,0000070000,078798,083412,093136,075183,062608,015176
0000000072,0000071000,080939,080688,093721,065431,071888,015649
0000000073,0000072000,083572,078365,093409,054588,078890,019489
0000000074,0000073000,086427,076687,092233,043718,082927,026323
0000000075,0000074000,089228,075818,090300,033875,083605,035489
0000000076,0000075000,091714,075829,087803,026023,080858,046087
0000000077,0000076000,093630,076720,084996,020938,074963,057066
0000000078,0000077000,094781,078422,082144,019117,066488,067363
0000000079,0000078000,095067,080759,079521,020736,056253,075978
0000000080,0000079000,094465,083487,077394,025631,045280,082056
0000000081,0000080000,093019,086356,075972,033326,034644,084998
0000000082,0000081000,090869,089091,075387,043080,025362,084526
0000000083,0000082000,088243,091405,075698,053926,018355,080687
0000000084,0000083000,085392,093079,076875,064790,014324,073853
0000000085,0000084000,082580,093960,078807,074633,013646,064688
0000000086,0000085000,080097,093945,081304,082490,016386,054092
0000000087,0000086000,078190,093046,084112,087571,022284,043113
0000000088,0000087000,077030,091352,086964,089390,030762,032817
0000000089,0000088000,076742,089018,089587,087777,040990,024202
0000000090,0000089000,077353,086280,091714,082882,051962,018124
0000000091,0000090000,078795,083415,093137,075184,062602,015181
0000000092,0000091000,080938,080687,093721,065435,071880,015653
0000000093,0000092000,083573,078364,093410,054592,078884,019492
0000000094,0000093000,086424,076689,092234,043723,082921,026323
0000000095,0000094000,089228,075817,090301,033883,083598,035487
0000000096,0000095000,091716,075826,087804,026031,080855,046083
0000000097,0000096000,093629,076720,084997,020945,074963,057061
0000000098,0000097000,094780,078422,082145,019125,066487,067355
0000000099,0000098000,095070,080756,079521,020742,056255,075971
0000000100,0000099000,094466,083486,077394,025633,045287,082048
0000000101,0000100000,093018,086357,075971,033326,034651,084991
0000000102,0000101000,090872,089089,075386,043079,025369,084521
0000000103,0000102000,088246,091404,075697,053920,018365,080683
0000000104,0000103000,085391,093082,076873,064784,014331,073853
0000000105,0000104000,082581,093960,078806,074627,013651,064690
0000000106,0000105000,080100,093945,081303,082481,016391,054096
0000000107,0000106000,078187,093049,084110,087562,022286,043120
0000000108,0000107000,077028,091355,086963,089384,030759,032825
0000000109,0000108000,076743,089017,089587,087772,040985,024211
0000000110,0000109000,077351,086282,091714,082879,051956,018133
0000000111,0000110000,078791,083418,093137,075186,062593,015189
0000000112,0000111000,080938,080686,093723,065439,071869,015659
0000000113,0000112000,083572,078363,093412,054597,078875,019495
0000000114,0000113000,086421,076690,092236,043732,082912,026324
0000000115,0000114000,089228,075815,090303,033894,083589,035485
0000000116,0000115000,091717,075823,087806,026041,080850,046077
0000000117,0000116000,093628,076720,084999,020955,074961,057052
0000000118,0000117000,094781,078420,082145,019135,066487,067345
0000000119,0000118000,095073,080752,079521,020748,056260,075959
0000000120,0000119000,094467,083486,077394,025636,045295,082037
0000000121,0000120000,093019,086357,075970,033327,034660,084981
0000000122,0000121000,090876,089086,075384,043075,025380,084513
0000000123,0000122000,088247,091404,075695,053912,018377,080678
0000000124,0000123000,085391,093084,076871,064775,014342,073851
0000000125,0000124000,082584,093960,078803,074615,013659,064693
0000000126,0000125000,080100,093946,081301,082467,016398,054103
0000000127,0000126000,078185,093053,084109,087551,022288,043129
0000000128,0000127000,077028,091357,086962,089375,030756,032837
0000000129,0000128000,076742,089018,089586,087764,040980,024224
0000000130,0000129000,077347,086285,091714,082875,051947,018146
0000000131,0000130000,078789,083420,093138,075187,062580,015201
0000000132,0000131000,080937,080685,093724,065444,071856,015668
0000000133,0000132000,083568,078364,093414,054605,078862,019501
0000000134,0000133000,086418,076690,092238,043745,082898,026325
0000000135,0000134000,089228,075812,090306,033909,083578,035481
0000000136,0000135000,091717,075821,087809,026055,080844,046069
0000000137,0000136000,093627,076719,085001,020970,074958,057041
0000000138,0000137000,094784,078416,082147,019148,066489,067331
0000000139,0000138000,095076,080749,079522,020756,056268,075944
0000000140,0000139000,094468,083485,077394,025640,045306,082022
0000000141,0000140000,093023,086355,075969,033328,034673,084967
0000000142,0000141000,090880,089084,075382,043070,025396,084502
0000000143,0000142000,088248,091406,075693,053902,018394,080672
0000000144,0000143000,085393,093086,076868,064762,014356,073850
0000000145,0000144000,082586,093960,078800,074599,013672,064697
0000000146,0000145000,080100,093949,081298,082450,016407,054111
0000000147,0000146000,078184,093057,084106,087535,022291,043142
0000000148,0000147000,077028,091359,086960,089361,030754,032853
0000000149,0000148000,076739,089021,089586,087753,040973,024242
0000000150,0000149000,077343,086289,091715,082870,051934,018164
0000000151,0000150000,078786,083421,093139,075188,062563,015217
0000000152,0000151000,080935,080685,093727,065449,071838,015680
0000000153,0000152000,083564,078365,093417,054617,078843,019508
0000000154,0000153000,086416,076689,092242,043762,082880,026327
0000000155,0000154000,089228,075809,090309,033927,083564,035477
0000000156,0000155000,091715,075819,087812,026074,080835,046059
0000000157,0000156000,093627,076716,085003,020989,074953,057026
0000000158,0000157000,094787,078411,082149,019164,066491,067313
0000000159,0000158000,095078,080746,079523,020767,056277,075923
0000000160,0000159000,094471,083483,077393,025647,045319,082001
0000000161,0000160000,093028,086351,075967,033328,034691,084950
0000000162,0000161000,090883,089083,075380,043062,025418,084488
0000000163,0000162000,088250,091407,075689,053890,018415,080663
0000000164,0000163000,085396,093086,076864,064745,014375,073848
0000000165,0000164000,082589,093962,078796,074578,013688,064702
0000000166,0000165000,080099,093954,081294,082428,016417,054123
0000000167,0000166000,078183,093061,084103,087515,022294,043159
0000000168,0000167000,077027,091362,086958,089343,030751,032874
0000000169,0000168000,076735,089026,089585,087740,040964,024265
0000000170,0000169000,077338,086293,091715,082864,051918,018186
0000000171,0000170000,078783,083422,093141,075189,062542,015237
0000000172,0000171000,080930,080687,093730,065457,071815,015696
0000000173,0000172000,083560,078366,093421,054632,078819,019517
0000000174,0000173000,086414,076686,092246,043782,082857,026329
0000000175,0000174000,089226,075806,090314,033950,083547,035471
0000000176,0000175000,091714,075816,087816,026100,080823,046046
0000000177,0000176000,093629,076711,085006,021014,074948,057006
0000000178,0000177000,094790,078406,082151,019184,066495,067289
0000000179,0000178000,095081,080742,079524,020782,056288,075897
0000000180,0000179000,094475,083479,077393,025655,045337,081976
0000000181,0000180000,093034,086347,075965,033327,034714,084927
0000000182,0000181000,090888,089082,075377,043053,025445,084471
0000000183,0000182000,088254,091407,075685,053874,018441,080653
0000000184,0000183000,085401,093087,076859,064722,014400,073846
0000000185,0000184000,082590,093965,078791,074551,013709,064708
0000000186,0000185000,080099,093959,081290,082400,016431,054137
0000000187,0000186000,078183,093065,084099,087488,022299,043181
0000000188,0000187000,077024,091367,086956,089320,030748,032901
0000000189,0000188000,076730,089032,089584,087723,040952,024293
0000000190,0000189000,077334,086297,091716,082856,051897,018215
0000000191,0000190000,078778,083425,093144,075189,062516,015262
0000000192,0000191000,080924,080689,093734,065467,071786,015715
0000000193,0000192000,083555,078366,093426,054651,078788,019529
0000000194,0000193000,086411,076684,092252,043807,082830,026331
0000000195,0000194000,089223,075803,090320,033979,083525,035464
0000000196,0000195000,091713,075812,087821,026131,080807,046030
0000000197,0000196000,093631,076705,085011,021044,074942,056983
0000000198,0000197000,094793,078400,082154,019209,066499,067260
0000000199,0000198000,095084,080737,079525,020801,056302,075865
0000000200,0000199000,094481,083474,077392,025665,045359,081944
0000000201,0000200000,093040,086343,075963,033326,034743,084899
0000000202,0000201000,090893,089081,075373,043042,025477,084449
0000000203,0000202000,088260,091407,075679,053854,018474,080640
0000000204,0000203000,085406,093088,076853,064695,014430,073843
0000000205,0000204000,082592,093970,078785,074518,013734,064716
0000000206,0000205000,080099,093964,081284,082366,016446,054155
0000000207,0000206000,078182,093070,084094,087456,022305,043207
0000000208,0000207000,077020,091374,086952,089292,030744,032933
0000000209,0000208000,076725,089039,089582,087704,040936,024328
0000000210,0000209000,077328,086302,091716,082846,051873,018249
0000000211,0000210000,078772,083429,093147,075190,062485,015293
0000000212,0000211000,080917,080692,093738,065479,071750,015738
0000000213,0000212000,083549,078366,093432,054674,078751,019543
0000000214,0000213000,086407,076681,092259,043837,082797,026334
0000000215,0000214000,089220,075800,090327,034015,083498,035455
0000000216,0000215000,091712,075806,087828,026169,080789,046010
0000000217,0000216000,093633,076697,085016,021079,074935,056954
0000000218,0000217000,094796,078393,082158,019239,066505,067224
0000000219,0000218000,095090,080731,079526,020823,056318,075827
0000000220,0000219000,094489,083467,077391,025676,045385,081907
0000000221,0000220000,093047,086339,075960,033325,034778,084866
0000000222,0000221000,090900,089079,075367,043029,025516,084424
0000000223,0000222000,088267,091407,075673,053830,018513,080625
0000000224,0000223000,085411,093091,076846,064661,014467,073840
0000000225,0000224000,082595,093975,078777,074479,013763,064725
0000000226,0000225000,080100,093970,081276,082325,016466,054177
0000000227,0000226000,078181,093077,084089,087417,022313,043238
0000000228,0000227000,077016,091382,086949,089259,030738,032972
0000000229,0000228000,076719,089047,089581,087680,040917,024371
0000000230,0000229000,077322,086308,091717,082834,051843,018291
0000000231,0000230000,078763,083434,093150,075191,062448,015329
0000000232,0000231000,080908,080695,093743,065494,071707,015766
0000000233,0000232000,083543,078365,093439,054700,078708,019559
0000000234,0000233000,086401,076678,092267,043873,082758,026337
0000000235,0000234000,089216,075795,090335,034058,083466,035444
0000000236,0000235000,091712,075799,087835,026214,080767,045987
0000000237,0000236000,093635,076689,085022,021121,074927,056919
0000000238,0000237000,094800,078385,082162,019275,066511,067182
0000000239,0000238000,095096,080722,079528,020849,056337,075781
0000000240,0000239000,094497,083460,077390,025689,045418,081862
0000000241,0000240000,093056,086335,075956,033323,034819,084826
0000000242,0000241000,090908,089077,075361,043013,025562,084393
0000000243,0000242000,088275,091406,075665,053801,018560,080607
0000000244,0000243000,085416,093094,076837,064621,014510,073837
0000000245,0000244000,082598,093980,078768,074433,013797,064737
0000000246,0000245000,080102,093977,081268,082277,016488,054202
0000000247,0000246000,078178,093086,084082,087370,022322,043276
0000000248,0000247000,077011,091392,086944,089220,030731,033017
0000000249,0000248000,076713,089055,089579,087653,040896,024420
0000000250,0000249000,077313,086315,091718,082820,051809,018339
0000000251,0000250000,078753,083440,093154,075193,062403,015372
0000000252,0000251000,080899,080698,093750,065512,071657,015799
0000000253,0000252000,083535,078365,093447,054732,078658,019578
0000000254,0000253000,086394,076676,092277,043916,082711,026341
0000000255,0000254000,089212,075790,090345,034108,083428,035432
0000000256,0000255000,091711,075790,087844,026266,080743,045959
0000000257,0000256000,093637,076679,085030,021170,074918,056879
0000000258,0000257000,094804,078375,082167,019317,066518,067133
0000000259,0000258000,095104,080712,079530,020879,056361,075728
0000000260,0000259000,094506,083451,077389,025703,045455,081810
0000000261,0000260000,093065,086329,075952,033321,034867,084780
0000000262,0000261000,090919,089073,075354,042995,025615,084358
0000000263,0000262000,088284,091406,075656,053767,018615,080586
0000000264,0000263000,085423,093097,076826,064575,014560,073833
0000000265,0000264000,082603,093987,078758,074380,013837,064751
0000000266,0000265000,080103,093985,081258,082221,016515,054232
0000000267,0000266000,078176,093097,084074,087317,022332,043319
0000000268,0000267000,077005,091403,086938,089175,030723,033070
0000000269,0000268000,076705,089065,089576,087621,040870,024477
0000000270,0000269000,077303,086324,091720,082804,051769,018395
0000000271,0000270000,078742,083447,093158,075195,062352,015421
0000000272,0000271000,080888,080701,093757,065532,071599,015837
0000000273,0000272000,083525,078365,093457,054768,078600,019600
0000000274,0000273000,086386,076673,092288,043965,082658,026345
0000000275,0000274000,089207,075783,090356,034166,083385,035417
0000000276,0000275000,091710,075781,087855,026326,080715,045927
0000000277,0000276000,093639,076669,085039,021227,074908,056832
0000000278,0000277000,094810,078364,082173,019365,066527,067076
0000000279,0000278000,095113,080701,079533,020913,056388,075667
0000000280,0000279000,094517,083442,077388,025720,045498,081750
0000000281,0000280000,093077,086322,075947,033319,034922,084727
0000000282,0000281000,090931,089069,075346,042973,025677,084318
0000000283,0000282000,088295,091406,075645,053728,018677,080563
0000000284,0000283000,085431,093101,076814,064523,014616,073829
0000000285,0000284000,082608,093993,078745,074318,013883,064766
0000000286,0000285000,080105,093995,081247,082156,016545,054266
0000000287,0000286000,078173,093109,084065,087257,022343,043369
0000000288,0000287000,076999,091416,086932,089124,030713,033131
0000000289,0000288000,076696,089077,089574,087584,040841,024543
0000000290,0000289000,077291,086335,091721,082786,051723,018459
0000000291,0000290000,078729,083455,093163,075198,062292,015477
0000000292,0000291000,080876,080705,093766,065555,071533,015879
0000000293,0000292000,083513,078365,093469,054809,078533,019625
0000000294,0000293000,086377,076669,092300,044022,082597,026349
0000000295,0000294000,089202,075775,090369,034232,083336,035400
0000000296,0000295000,091709,075770,087867,026395,080683,045890
0000000297,0000296000,093642,076656,085049,021292,074897,056779
0000000298,0000297000,094817,078350,082180,019420,066537,067011
0000000299,0000298000,095123,080687,079536,020952,056419,075597
0000000300,0000299000,094529,083431,077386,025739,045548,081682
0000000301,0000300000,093091,086314,075942,033316,034985,084668
