DIgSILENT PowerFactory,21000900,2000
6,06A,00D
1,TTPP_200000_100:Secondary Voltage A,,,V,0.010000000,-67.891678,0.000000,-86352,99998,1,1,P
2,TTPP_200000_100:Secondary Voltage B,,,V,0.010000000,-50.914158,0.000000,-89760,99998,1,1,P
3,TTPP_200000_100:Secondary Voltage C,,,V,0.10000000,-8971.095703,0.000000,79572,99998,1,1,P
4,TTCC_500_5:Secondary Current A,,,A,0.0010000000,-81.959290,0.000000,54464,99998,1,1,P
5,TTCC_500_5:Secondary Current B,,,A,0.0010000000,-84.730476,0.000000,69451,99998,1,1,P
6,TTCC_500_5:Secondary Current C,,,A,0.0010000000,-84.669510,0.000000,69326,99998,1,1,P
50
1
1000.000000,1101
30/06/2023,06:04:59.000000
30/06/2023,06:04:59.000000
ASCII
1.000000
0000000001,0000000000,061933,041470,080559,087877,089408,074075
0000000002,0000001000,036451,065814,080672,084863,092124,074373
0000000003,0000002000,007949,084357,081669,081563,094119,075677
0000000004,0000003000,-20545,095014,083452,078307,095190,077862
0000000005,0000004000,-46324,096795,085853,075405,095238,080716
0000000006,0000005000,-67080,089767,088630,073140,094264,083955
0000000007,0000006000,-80564,074494,091506,071746,092351,087262
0000000008,0000007000,-85344,052212,094212,071353,089689,090318
0000000009,0000008000,-81185,025353,096482,071991,086547,092821
0000000010,0000009000,-68535,-03297,098083,073609,083226,094524
0000000011,0000010000,-48375,-31257,098862,076046,080051,095263
0000000012,0000011000,-22767,-55732,098750,079059,077335,094965
0000000013,0000012000,005541,-74092,097754,082358,075341,093660
0000000014,0000013000,034050,-84761,095971,085618,074266,091475
0000000015,0000014000,060050,-86755,093569,088519,074219,088622
0000000016,0000015000,080678,-79603,090792,090779,075198,085382
0000000017,0000016000,094014,-64171,087915,092175,077108,082076
0000000018,0000017000,098962,-42067,085210,092571,079768,079021
0000000019,0000018000,094827,-15241,082941,091929,082913,076517
0000000020,0000019000,082032,013562,081339,090313,086233,074813
0000000021,0000020000,061991,041413,080559,087878,089406,074075
0000000022,0000021000,036443,065826,080672,084861,092126,074373
0000000023,0000022000,007927,084384,081668,081562,094119,075677
0000000024,0000023000,-20530,095009,083451,078306,095190,077863
0000000025,0000024000,-46340,096806,085853,075403,095240,080716
0000000026,0000025000,-67095,089784,088630,073141,094263,083955
0000000027,0000026000,-80525,074453,091506,071746,092351,087262
0000000028,0000027000,-85325,052196,094212,071350,089691,090317
0000000029,0000028000,-81235,025404,096482,071991,086547,092821
0000000030,0000029000,-68549,-03285,098083,073609,083226,094524
0000000031,0000030000,-48347,-31287,098863,076045,080052,095263
0000000032,0000031000,-22778,-55730,098750,079059,077335,094965
0000000033,0000032000,005545,-74093,097754,082357,075342,093661
0000000034,0000033000,034071,-84787,095970,085616,074267,091476
0000000035,0000034000,060019,-86727,093570,088518,074219,088622
0000000036,0000035000,080646,-79578,090792,090779,075198,085383
0000000037,0000036000,094054,-64213,087915,092175,077108,082076
0000000038,0000037000,098984,-42091,085210,092570,079768,079021
0000000039,0000038000,094799,-15214,082941,091928,082914,076517
0000000040,0000039000,082036,013561,081339,090313,086233,074814
0000000041,0000040000,061999,041400,080559,087878,089406,074075
0000000042,0000041000,036424,065846,080672,084860,092126,074373
0000000043,0000042000,007942,084370,081668,081563,094119,075678
0000000044,0000043000,-20496,094980,083451,078306,095191,077863
0000000045,0000044000,-46366,096832,085852,075402,095241,080716
0000000046,0000045000,-67121,089812,088630,073141,094263,083955
0000000047,0000046000,-80501,074430,091506,071747,092351,087262
0000000048,0000047000,-85320,052190,094212,071350,089692,090317
0000000049,0000048000,-81254,025426,096482,071991,086548,092821
0000000050,0000049000,-68540,-03296,098083,073608,083227,094524
0000000051,0000050000,-48350,-31288,098863,076044,080053,095263
0000000052,0000051000,-22813,-55702,098751,079059,077336,094965
0000000053,0000052000,005553,-74104,097754,082357,075342,093661
0000000054,0000053000,034095,-84816,095971,085615,074269,091476
0000000055,0000054000,059996,-86710,093570,088517,074220,088622
0000000056,0000055000,080631,-79567,090792,090778,075198,085383
0000000057,0000056000,094075,-64241,087916,092174,077108,082077
0000000058,0000057000,098982,-42092,085210,092570,079768,079022
0000000059,0000058000,094790,-15206,082941,091928,082913,076518
0000000060,0000059000,082064,013536,081339,090313,086232,074815
0000000061,0000060000,062004,041396,080559,087877,089406,074076
0000000062,0000061000,036404,065869,080672,084860,092125,074374
0000000063,0000062000,007962,084357,081667,081564,094118,075678
0000000064,0000063000,-20472,094962,083450,078306,095190,077863
0000000065,0000064000,-46382,096856,085852,075403,095241,080716
0000000066,0000065000,-67124,089823,088629,073142,094262,083955
0000000067,0000066000,-80484,074420,091505,071747,092351,087261
0000000068,0000067000,-85337,052209,094211,071350,089693,090316
0000000069,0000068000,-81268,025443,096481,071991,086548,092820
0000000070,0000069000,-68525,-03310,098083,073608,083227,094523
0000000071,0000070000,-48363,-31279,098863,076043,080054,095262
0000000072,0000071000,-22843,-55677,098751,079058,077337,094964
0000000073,0000072000,005560,-74118,097755,082356,075343,093660
0000000074,0000073000,034100,-84831,095972,085613,074270,091476
0000000075,0000074000,059973,-86697,093571,088515,074221,088623
0000000076,0000075000,080633,-79577,090793,090777,075199,085384
0000000077,0000076000,094090,-64266,087917,092173,077109,082078
0000000078,0000077000,098971,-42088,085211,092568,079768,079023
0000000079,0000078000,094795,-15213,082941,091927,082913,076520
0000000080,0000079000,082095,013506,081339,090312,086231,074816
0000000081,0000080000,062008,041396,080558,087877,089405,074077
0000000082,0000081000,036399,065882,080671,084861,092124,074375
0000000083,0000082000,007989,084342,081666,081565,094116,075679
0000000084,0000083000,-20459,094960,083449,078307,095189,077863
0000000085,0000084000,-46392,096880,085850,075404,095240,080716
0000000086,0000085000,-67114,089827,088628,073144,094261,083954
0000000087,0000086000,-80477,074423,091504,071748,092351,087260
0000000088,0000087000,-85361,052240,094211,071351,089693,090315
0000000089,0000088000,-81278,025458,096481,071993,086549,092818
0000000090,0000089000,-68520,-03315,098083,073609,083229,094522
0000000091,0000090000,-48389,-31260,098864,076042,080056,095261
0000000092,0000091000,-22869,-55659,098752,079058,077339,094963
0000000093,0000092000,005560,-74133,097756,082355,075345,093660
0000000094,0000093000,034088,-84835,095974,085611,074272,091476
0000000095,0000094000,059952,-86693,093573,088513,074223,088623
0000000096,0000095000,080643,-79601,090795,090775,075199,085385
0000000097,0000096000,094099,-64289,087918,092170,077109,082080
0000000098,0000097000,098962,-42090,085212,092566,079768,079025
0000000099,0000098000,094812,-15233,082941,091926,082912,076522
0000000100,0000099000,082127,013475,081339,090311,086230,074818
0000000101,0000100000,062015,041395,080558,087876,089403,074079
0000000102,0000101000,036413,065882,080669,084862,092121,074376
0000000103,0000102000,008020,084327,081664,081566,094114,075680
0000000104,0000103000,-20450,094970,083447,078309,095187,077863
0000000105,0000104000,-46393,096903,085848,075406,095238,080715
0000000106,0000105000,-67097,089831,088626,073147,094260,083953
0000000107,0000106000,-80479,074440,091503,071750,092351,087258
0000000108,0000107000,-85387,052277,094210,071353,089694,090312
0000000109,0000108000,-81287,025473,096480,071994,086550,092815
0000000110,0000109000,-68531,-03307,098083,073609,083231,094519
0000000111,0000110000,-48425,-31233,098865,076042,080059,095258
0000000112,0000111000,-22894,-55650,098754,079057,077341,094961
0000000113,0000112000,005551,-74144,097758,082353,075348,093659
0000000114,0000113000,034062,-84835,095976,085609,074275,091476
0000000115,0000114000,059934,-86699,093575,088510,074225,088624
0000000116,0000115000,080653,-79635,090797,090772,075201,085387
0000000117,0000116000,094103,-64313,087920,092167,077110,082082
0000000118,0000117000,098962,-42104,085213,092564,079767,079028
0000000119,0000118000,094841,-15267,082942,091924,082910,076525
0000000120,0000119000,082158,013446,081339,090310,086228,074821
0000000121,0000120000,062031,041390,080557,087876,089401,074082
0000000122,0000121000,036444,065870,080667,084863,092118,074378
0000000123,0000122000,008056,084316,081662,081568,094110,075681
0000000124,0000123000,-20440,094988,083444,078312,095184,077863
0000000125,0000124000,-46383,096924,085845,075410,095235,080714
0000000126,0000125000,-67081,089843,088623,073150,094258,083951
0000000127,0000126000,-80489,074473,091500,071754,092350,087255
0000000128,0000127000,-85411,052319,094208,071356,089694,090309
0000000129,0000128000,-81301,025495,096479,071996,086551,092812
0000000130,0000129000,-68559,-03283,098083,073610,083234,094515
0000000131,0000130000,-48469,-31202,098866,076042,080063,095255
0000000132,0000131000,-22921,-55643,098756,079055,077345,094959
0000000133,0000132000,005528,-74152,097761,082350,075352,093657
0000000134,0000133000,034027,-84835,095980,085605,074279,091475
0000000135,0000134000,059919,-86718,093579,088507,074228,088625
0000000136,0000135000,080659,-79674,090800,090767,075203,085389
0000000137,0000136000,094104,-64343,087923,092163,077111,082085
0000000138,0000137000,098974,-42134,085215,092560,079767,079032
0000000139,0000138000,094878,-15313,082943,091922,082908,076530
0000000140,0000139000,082191,013414,081338,090308,086225,074826
0000000141,0000140000,062061,041376,080555,087876,089397,074086
0000000142,0000141000,036491,065850,080665,084865,092113,074382
0000000143,0000142000,008095,084310,081658,081571,094106,075683
0000000144,0000143000,-20422,095010,083440,078315,095180,077864
0000000145,0000144000,-46364,096947,085841,075415,095231,080713
0000000146,0000145000,-67067,089867,088619,073155,094256,083949
0000000147,0000146000,-80505,074520,091497,071758,092349,087252
0000000148,0000147000,-85435,052366,094206,071360,089695,090304
0000000149,0000148000,-81324,025528,096478,071999,086553,092807
0000000150,0000149000,-68603,-03244,098084,073611,083238,094510
0000000151,0000150000,-48520,-31168,098868,076042,080067,095250
0000000152,0000151000,-22958,-55636,098759,079054,077350,094955
0000000153,0000152000,005489,-74154,097765,082347,075358,093655
0000000154,0000153000,033986,-84840,095984,085600,074284,091475
0000000155,0000154000,059903,-86749,093583,088501,074231,088626
0000000156,0000155000,080660,-79719,090805,090761,075206,085392
0000000157,0000156000,094105,-64382,087927,092157,077112,082090
0000000158,0000157000,098998,-42183,085218,092556,079766,079038
0000000159,0000158000,094923,-15369,082944,091918,082906,076535
0000000160,0000159000,082232,013377,081338,090306,086221,074832
0000000161,0000160000,062108,041350,080553,087877,089391,074091
0000000162,0000161000,036550,065826,080661,084867,092107,074386
0000000163,0000162000,008140,084310,081654,081574,094100,075685
0000000164,0000163000,-20393,095033,083435,078321,095174,077864
0000000165,0000164000,-46335,096973,085836,075421,095227,080712
0000000166,0000165000,-67058,089907,088614,073161,094253,083945
0000000167,0000166000,-80523,074580,091493,071764,092348,087247
0000000168,0000167000,-85460,052422,094203,071366,089695,090298
0000000169,0000168000,-81359,025575,096477,072003,086556,092800
0000000170,0000169000,-68662,-03192,098084,073613,083242,094504
0000000171,0000170000,-48581,-31129,098870,076042,080073,095245
0000000172,0000171000,-23008,-55624,098762,079051,077357,094951
0000000173,0000172000,005435,-74151,097771,082342,075365,093652
0000000174,0000173000,033940,-84852,095990,085595,074290,091474
0000000175,0000174000,059883,-86790,093589,088494,074237,088628
0000000176,0000175000,080654,-79771,090811,090754,075209,085396
0000000177,0000176000,094111,-64434,087932,092150,077114,082095
0000000178,0000177000,099033,-42249,085221,092550,079765,079044
0000000179,0000178000,094974,-15435,082945,091914,082902,076543
0000000180,0000179000,082285,013331,081337,090304,086216,074839
0000000181,0000180000,062173,041312,080550,087877,089384,074098
0000000182,0000181000,036621,065798,080657,084869,092099,074391
0000000183,0000182000,008195,084312,081648,081579,094092,075688
0000000184,0000183000,-20351,095058,083429,078327,095167,077865
0000000185,0000184000,-46300,097007,085829,075429,095221,080710
0000000186,0000185000,-67051,089963,088608,073169,094249,083941
0000000187,0000186000,-80543,074653,091488,071772,092347,087240
0000000188,0000187000,-85491,052489,094199,071372,089696,090291
0000000189,0000188000,-81409,025640,096476,072007,086560,092792
0000000190,0000189000,-68734,-03127,098085,073615,083248,094496
0000000191,0000190000,-48652,-31086,098873,076042,080081,095237
0000000192,0000191000,-23075,-55606,098767,079048,077366,094945
0000000193,0000192000,005365,-74147,097777,082337,075373,093649
0000000194,0000193000,033887,-84872,095997,085587,074298,091474
0000000195,0000194000,059857,-86840,093597,088486,074243,088630
0000000196,0000195000,080643,-79832,090818,090745,075214,085400
0000000197,0000196000,094122,-64504,087937,092142,077115,082102
0000000198,0000197000,099076,-42332,085225,092543,079764,079053
0000000199,0000198000,095034,-15512,082947,091909,082899,076552
0000000200,0000199000,082353,013271,081337,090302,086210,074848
0000000201,0000200000,062256,041261,080547,087877,089376,074106
0000000202,0000201000,036705,065768,080652,084872,092090,074397
0000000203,0000202000,008262,084317,081641,081585,094083,075692
0000000204,0000203000,-20294,095084,083420,078335,095158,077866
0000000205,0000204000,-46260,097050,085820,075438,095214,080708
0000000206,0000205000,-67045,090034,088600,073179,094245,083936
0000000207,0000206000,-80564,074739,091481,071781,092345,087233
0000000208,0000207000,-85528,052571,094194,071380,089698,090281
0000000209,0000208000,-81474,025723,096474,072013,086565,092782
0000000210,0000209000,-68820,-03050,098086,073618,083255,094486
0000000211,0000210000,-48738,-31035,098877,076041,080090,095229
0000000212,0000211000,-23162,-55580,098773,079045,077376,094939
0000000213,0000212000,005281,-74142,097785,082330,075384,093645
0000000214,0000213000,033825,-84901,096006,085579,074308,091473
0000000215,0000214000,059822,-86898,093606,088476,074251,088633
0000000216,0000215000,080629,-79904,090826,090734,075219,085406
0000000217,0000216000,094140,-64592,087944,092132,077117,082110
0000000218,0000217000,099128,-42433,085230,092534,079762,079063
0000000219,0000218000,095103,-15603,082949,091902,082894,076563
0000000220,0000219000,082439,013195,081336,090299,086202,074859
0000000221,0000220000,062359,041199,080543,087878,089366,074115
0000000222,0000221000,036803,065734,080645,084876,092079,074404
0000000223,0000222000,008344,084321,081633,081592,094071,075696
0000000224,0000223000,-20223,095113,083410,078345,095148,077866
0000000225,0000224000,-46214,097106,085810,075449,095206,080705
0000000226,0000225000,-67037,090120,088591,073191,094239,083930
0000000227,0000226000,-80585,074839,091473,071793,092343,087224
0000000228,0000227000,-85576,052672,094189,071390,089700,090270
0000000229,0000228000,-81555,025826,096472,072020,086570,092769
0000000230,0000229000,-68919,-02960,098087,073622,083264,094474
0000000231,0000230000,-48842,-30975,098881,076041,080101,095218
0000000232,0000231000,-23269,-55545,098781,079040,077388,094931
0000000233,0000232000,005182,-74137,097795,082323,075396,093640
0000000234,0000233000,033753,-84937,096017,085568,074319,091472
0000000235,0000234000,059777,-86964,093617,088463,074260,088636
0000000236,0000235000,080612,-79991,090837,090721,075225,085413
0000000237,0000236000,094164,-64700,087953,092120,077119,082120
0000000238,0000237000,099187,-42551,085236,092524,079760,079075
0000000239,0000238000,095185,-15711,082952,091895,082888,076576
0000000240,0000239000,082544,013102,081334,090295,086192,074872
0000000241,0000240000,062479,041125,080538,087878,089354,074127
0000000242,0000241000,036918,065697,080637,084881,092066,074413
0000000243,0000242000,008445,084323,081622,081600,094058,075701
0000000244,0000243000,-20139,095147,083398,078356,095136,077867
0000000245,0000244000,-46163,097175,085798,075462,095196,080701
0000000246,0000245000,-67027,090222,088580,073204,094233,083922
0000000247,0000246000,-80608,074955,091464,071806,092340,087213
0000000248,0000247000,-85634,052794,094183,071401,089702,090257
0000000249,0000248000,-81650,025948,096469,072028,086576,092755
0000000250,0000249000,-69035,-02857,098088,073626,083274,094460
0000000251,0000250000,-48965,-30902,098886,076040,080113,095206
0000000252,0000251000,-23397,-55503,098789,079035,077403,094921
0000000253,0000252000,005068,-74134,097806,082314,075411,093635
0000000254,0000253000,033668,-84979,096030,085556,074332,091471
0000000255,0000254000,059722,-87040,093631,088449,074271,088640
0000000256,0000255000,080595,-80094,090849,090706,075232,085421
0000000257,0000256000,094193,-64829,087963,092105,077122,082132
0000000258,0000257000,099254,-42687,085243,092512,079758,079090
0000000259,0000258000,095282,-15837,082955,091886,082881,076592
0000000260,0000259000,082669,012991,081333,090291,086182,074887
0000000261,0000260000,062619,041039,080533,087879,089340,074140
0000000262,0000261000,037052,065654,080628,084886,092050,074423
0000000263,0000262000,008566,084323,081610,081610,094042,075707
0000000264,0000263000,-20040,095186,083385,078370,095121,077868
0000000265,0000264000,-46104,097257,085784,075478,095184,080697
0000000266,0000265000,-67012,090339,088566,073221,094225,083913
0000000267,0000266000,-80634,075089,091453,071821,092338,087200
0000000268,0000267000,-85704,052938,094175,071413,089704,090242
0000000269,0000268000,-81759,026090,096466,072037,086584,092739
0000000270,0000269000,-69167,-02738,098090,073630,083285,094444
0000000271,0000270000,-49111,-30815,098892,076039,080128,095192
0000000272,0000271000,-23545,-55452,098799,079029,077419,094911
0000000273,0000272000,004937,-74132,097818,082303,075427,093629
0000000274,0000273000,033567,-85026,096045,085542,074347,091470
0000000275,0000274000,059655,-87127,093646,088432,074283,088644
0000000276,0000275000,080575,-80215,090863,090689,075240,085430
0000000277,0000276000,094226,-64978,087974,092089,077125,082146
0000000278,0000277000,099329,-42844,085251,092498,079755,079106
0000000279,0000278000,095394,-15984,082958,091877,082873,076609
0000000280,0000279000,082814,012861,081331,090286,086169,074904
0000000281,0000280000,062778,040942,080527,087880,089324,074155
0000000282,0000281000,037206,065604,080618,084893,092032,074434
0000000283,0000282000,008707,084321,081596,081621,094024,075714
0000000284,0000283000,-19927,095232,083369,078385,095105,077869
0000000285,0000284000,-46036,097352,085768,075496,095171,080693
0000000286,0000285000,-66993,090472,088551,073239,094217,083903
0000000287,0000286000,-80664,075245,091441,071839,092335,087186
0000000288,0000287000,-85786,053106,094167,071428,089707,090224
0000000289,0000288000,-81884,026253,096462,072047,086592,092720
0000000290,0000289000,-69319,-02601,098091,073635,083299,094425
0000000291,0000290000,-49281,-30712,098899,076038,080145,095176
0000000292,0000291000,-23716,-55393,098810,079022,077438,094899
0000000293,0000292000,004787,-74130,097833,082291,075446,093622
0000000294,0000293000,033449,-85079,096062,085525,074365,091469
0000000295,0000294000,059579,-87224,093663,088413,074297,088649
0000000296,0000295000,080554,-80355,090879,090669,075249,085441
0000000297,0000296000,094262,-65148,087988,092071,077128,082161
0000000298,0000297000,099414,-43022,085260,092482,079752,079125
0000000299,0000298000,095524,-16154,082962,091866,082864,076629
0000000300,0000299000,082980,012711,081330,090281,086155,074924
0000000301,0000300000,062959,040831,080520,087881,089306,074172
