DIgSILENT PowerFactory,21000900,2000
6,06A,00D
1,TTPP_200000_100:Secondary Voltage A,,,V,0.10000000,-8217.361328,0.000000,64053,99998,1,1,P
2,TTPP_200000_100:Secondary Voltage B,,,V,0.10000000,-8214.394531,0.000000,62608,99998,1,1,P
3,TTPP_200000_100:Secondary Voltage C,,,V,0.10000000,-8200.739258,0.000000,61590,99998,1,1,P
4,TTCC_500_5:Secondary Current A,,,A,0.0010000000,-79.674110,0.000000,66341,99998,1,1,P
5,TTCC_500_5:Secondary Current B,,,A,0.0010000000,-84.131004,0.000000,67246,99998,1,1,P
6,TTCC_500_5:Secondary Current C,,,A,0.0010000000,-84.967033,0.000000,70255,99998,1,1,P
50
1
1000.000000,1101
30/06/2023,06:10:52.000000
30/06/2023,06:10:52.000000
ASCII
1.000000
0000000001,0000000000,087686,085785,072855,085590,088811,074372
0000000002,0000001000,085137,088218,072969,082575,091527,074671
0000000003,0000002000,082286,090073,073967,079275,093521,075976
0000000004,0000003000,079440,091134,075750,076020,094591,078162
0000000005,0000004000,076856,091317,078152,073116,094641,081016
0000000006,0000005000,074784,090611,080930,070854,093662,084256
0000000007,0000006000,073438,089080,083805,069462,091748,087562
0000000008,0000007000,072965,086850,086511,069065,089090,090617
0000000009,0000008000,073374,084170,088780,069707,085945,093120
0000000010,0000009000,074640,081305,090381,071325,082624,094823
0000000011,0000010000,076662,078504,091159,073763,079449,095561
0000000012,0000011000,079221,076058,091046,076777,076734,095262
0000000013,0000012000,082051,074225,090049,080075,074741,093957
0000000014,0000013000,084903,073156,088264,083334,073667,091771
0000000015,0000014000,087503,072959,085863,086235,073620,088917
0000000016,0000015000,089560,073679,083085,088495,074600,085677
0000000017,0000016000,090897,075219,080209,089892,076510,082371
0000000018,0000017000,091395,077427,077504,090287,079169,079316
0000000019,0000018000,090976,080114,075235,089642,082317,076813
0000000020,0000019000,089694,082996,073635,088026,085636,075110
0000000021,0000020000,087690,085779,072855,085591,088809,074372
0000000022,0000021000,085137,088219,072969,082573,091528,074671
0000000023,0000022000,082284,090075,073966,079275,093521,075976
0000000024,0000023000,079441,091134,075750,076019,094591,078162
0000000025,0000024000,076858,091316,078152,073115,094641,081016
0000000026,0000025000,074782,090614,080929,070854,093663,084256
0000000027,0000026000,073441,089078,083805,069461,091749,087562
0000000028,0000027000,072963,086850,086511,069065,089090,090617
0000000029,0000028000,073372,084172,088780,069707,085945,093120
0000000030,0000029000,074642,081303,090380,071324,082625,094823
0000000031,0000030000,076662,078504,091160,073761,079450,095561
0000000032,0000031000,079217,076061,091046,076776,076734,095262
0000000033,0000032000,082053,074223,090048,080075,074740,093957
0000000034,0000033000,084907,073153,088264,083333,073668,091771
0000000035,0000034000,087498,072963,085863,086235,073620,088917
0000000036,0000035000,089559,073680,083085,088495,074600,085678
0000000037,0000036000,090903,075214,080209,089891,076510,082371
0000000038,0000037000,091393,077429,077504,090285,079171,079316
0000000039,0000038000,090972,080118,075235,089642,082317,076813
0000000040,0000039000,089699,082992,073634,088026,085636,075110
0000000041,0000040000,087693,085777,072855,085590,088810,074373
0000000042,0000041000,085131,088225,072969,082573,091528,074671
0000000043,0000042000,082286,090073,073966,079276,093520,075976
0000000044,0000043000,079445,091130,075750,076018,094592,078162
0000000045,0000044000,076854,091320,078152,073115,094642,081016
0000000046,0000045000,074779,090616,080929,070855,093662,084255
0000000047,0000046000,073446,089073,083805,069461,091749,087562
0000000048,0000047000,072962,086852,086511,069064,089091,090617
0000000049,0000048000,073368,084177,088780,069707,085945,093120
0000000050,0000049000,074645,081300,090380,071325,082624,094823
0000000051,0000050000,076663,078502,091160,073760,079452,095561
0000000052,0000051000,079213,076066,091046,076776,076734,095262
0000000053,0000052000,082054,074222,090049,080075,074741,093957
0000000054,0000053000,084909,073150,088265,083332,073669,091771
0000000055,0000054000,087495,072966,085864,086233,073621,088918
0000000056,0000055000,089559,073680,083086,088495,074599,085678
0000000057,0000056000,090905,075210,080210,089890,076510,082372
0000000058,0000057000,091391,077430,077504,090284,079171,079317
0000000059,0000058000,090971,080119,075235,089642,082316,076814
0000000060,0000059000,089702,082989,073634,088026,085635,075111
0000000061,0000060000,087693,085777,072855,085589,088809,074373
0000000062,0000061000,085130,088227,072968,082573,091527,074672
0000000063,0000062000,082289,090070,073965,079276,093519,075977
0000000064,0000063000,079446,091130,075749,076018,094592,078162
0000000065,0000064000,076852,091323,078151,073115,094641,081016
0000000066,0000065000,074782,090615,080928,070856,093661,084255
0000000067,0000066000,073447,089073,083805,069461,091750,087561
0000000068,0000067000,072958,086856,086511,069065,089091,090616
0000000069,0000068000,073368,084177,088780,069708,085946,093119
0000000070,0000069000,074647,081298,090380,071325,082625,094822
0000000071,0000070000,076659,078505,091160,073759,079453,095560
0000000072,0000071000,079211,076067,091047,076776,076735,095261
0000000073,0000072000,082056,074219,090050,080074,074742,093957
0000000074,0000073000,084907,073151,088266,083330,073670,091771
0000000075,0000074000,087492,072968,085865,086232,073622,088918
0000000076,0000075000,089562,073677,083086,088493,074600,085679
0000000077,0000076000,090906,075209,080210,089888,076511,082373
0000000078,0000077000,091388,077432,077505,090283,079171,079318
0000000079,0000078000,090974,080116,075235,089642,082315,076815
0000000080,0000079000,089705,082985,073634,088025,085635,075112
0000000081,0000080000,087691,085779,072855,085589,088808,074375
0000000082,0000081000,085130,088227,072967,082574,091526,074673
0000000083,0000082000,082294,090067,073964,079277,093518,075977
0000000084,0000083000,079445,091132,075748,076019,094591,078162
0000000085,0000084000,076850,091325,078149,073117,094640,081015
0000000086,0000085000,074784,090614,080927,070858,093660,084254
0000000087,0000086000,073447,089074,083804,069462,091750,087560
0000000088,0000087000,072955,086860,086510,069066,089092,090614
0000000089,0000088000,073369,084177,088779,069709,085946,093117
0000000090,0000089000,074647,081298,090380,071325,082627,094820
0000000091,0000090000,076656,078509,091161,073759,079455,095558
0000000092,0000091000,079210,076067,091048,076775,076737,095260
0000000093,0000092000,082057,074217,090051,080072,074744,093956
0000000094,0000093000,084905,073152,088268,083328,073673,091771
0000000095,0000094000,087491,072968,085866,086231,073623,088918
0000000096,0000095000,089564,073673,083088,088491,074601,085680
0000000097,0000096000,090905,075208,080212,089886,076512,082375
0000000098,0000097000,091388,077431,077506,090281,079170,079320
0000000099,0000098000,090977,080113,075235,089640,082314,076818
0000000100,0000099000,089707,082984,073634,088024,085633,075115
0000000101,0000100000,087691,085780,072854,085589,088806,074377
0000000102,0000101000,085134,088225,072966,082575,091523,074674
0000000103,0000102000,082296,090066,073963,079278,093516,075978
0000000104,0000103000,079444,091135,075746,076021,094589,078163
0000000105,0000104000,076852,091326,078147,073120,094638,081015
0000000106,0000105000,074786,090613,080925,070860,093659,084253
0000000107,0000106000,073445,089078,083802,069464,091750,087558
0000000108,0000107000,072954,086862,086508,069068,089092,090612
0000000109,0000108000,073370,084177,088779,069710,085947,093115
0000000110,0000109000,074644,081301,090381,071325,082629,094818
0000000111,0000110000,076652,078512,091162,073759,079457,095556
0000000112,0000111000,079210,076066,091049,076774,076739,095259
0000000113,0000112000,082055,074217,090053,080070,074747,093955
0000000114,0000113000,084901,073154,088270,083326,073675,091771
0000000115,0000114000,087491,072965,085869,086228,073625,088919
0000000116,0000115000,089564,073670,083091,088488,074603,085682
0000000117,0000116000,090904,075207,080214,089882,076513,082377
0000000118,0000117000,091390,077429,077507,090279,079170,079323
0000000119,0000118000,090981,080108,075236,089638,082313,076821
0000000120,0000119000,089708,082983,073634,088023,085632,075118
0000000121,0000120000,087693,085779,072853,085589,088803,074379
0000000122,0000121000,085139,088222,072964,082576,091520,074677
0000000123,0000122000,082298,090067,073960,079280,093513,075980
0000000124,0000123000,079445,091137,075743,076024,094585,078163
0000000125,0000124000,076855,091326,078144,073123,094635,081014
0000000126,0000125000,074787,090615,080923,070863,093658,084251
0000000127,0000126000,073443,089082,083800,069467,091749,087555
0000000128,0000127000,072953,086865,086507,069071,089092,090609
0000000129,0000128000,073368,084179,088778,069712,085949,093111
0000000130,0000129000,074639,081305,090381,071326,082632,094814
0000000131,0000130000,076649,078514,091163,073759,079461,095553
0000000132,0000131000,079208,076066,091052,076773,076743,095256
0000000133,0000132000,082051,074218,090056,080067,074752,093953
0000000134,0000133000,084898,073153,088274,083322,073679,091771
0000000135,0000134000,087491,072962,085872,086224,073628,088920
0000000136,0000135000,089564,073667,083094,088483,074605,085684
0000000137,0000136000,090903,075205,080217,089878,076514,082380
0000000138,0000137000,091393,077424,077509,090276,079169,079327
0000000139,0000138000,090984,080104,075237,089635,082311,076825
0000000140,0000139000,089710,082981,073634,088021,085628,075122
0000000141,0000140000,087698,085776,072851,085590,088799,074383
0000000142,0000141000,085144,088220,072962,082577,091515,074680
0000000143,0000142000,082300,090068,073957,079282,093508,075982
0000000144,0000143000,079448,091138,075739,076028,094581,078163
0000000145,0000144000,076858,091327,078140,073128,094631,081013
0000000146,0000145000,074787,090620,080919,070868,093656,084249
0000000147,0000146000,073441,089087,083797,069472,091748,087552
0000000148,0000147000,072953,086868,086504,069075,089093,090604
0000000149,0000148000,073365,084183,088777,069715,085952,093106
0000000150,0000149000,074634,081310,090381,071327,082636,094809
0000000151,0000150000,076645,078516,091164,073759,079465,095548
0000000152,0000151000,079204,076066,091055,076771,076749,095253
0000000153,0000152000,082045,074219,090060,080064,074757,093951
0000000154,0000153000,084895,073152,088278,083318,073684,091770
0000000155,0000154000,087490,072958,085877,086218,073632,088922
0000000156,0000155000,089562,073664,083099,088477,074608,085687
0000000157,0000156000,090904,075201,080220,089873,076514,082385
0000000158,0000157000,091396,077417,077511,090271,079168,079333
0000000159,0000158000,090987,080100,075238,089632,082309,076831
0000000160,0000159000,089714,082978,073633,088020,085624,075128
0000000161,0000160000,087704,085772,072849,085590,088794,074389
0000000162,0000161000,085149,088218,072958,082579,091510,074684
0000000163,0000162000,082304,090069,073952,079286,093502,075984
0000000164,0000163000,079452,091139,075734,076033,094575,078164
0000000165,0000164000,076861,091330,078135,073134,094627,081012
0000000166,0000165000,074786,090625,080914,070874,093653,084245
0000000167,0000166000,073440,089092,083792,069479,091747,087547
0000000168,0000167000,072951,086872,086502,069080,089094,090598
0000000169,0000168000,073360,084189,088776,069718,085955,093099
0000000170,0000169000,074628,081315,090382,071329,082640,094802
0000000171,0000170000,076640,078518,091167,073759,079471,095542
0000000172,0000171000,079198,076069,091059,076768,076756,095248
0000000173,0000172000,082039,074220,090065,080060,074764,093949
0000000174,0000173000,084892,073149,088284,083312,073690,091770
0000000175,0000174000,087487,072954,085883,086211,073638,088923
0000000176,0000175000,089560,073660,083104,088470,074611,085691
0000000177,0000176000,090906,075195,080225,089866,076516,082390
0000000178,0000177000,091400,077410,077515,090265,079168,079340
0000000179,0000178000,090991,080095,075240,089628,082306,076839
0000000180,0000179000,089720,082973,073633,088018,085619,075135
0000000181,0000180000,087711,085767,072846,085590,088787,074395
0000000182,0000181000,085154,088216,072954,082581,091502,074689
0000000183,0000182000,082309,090070,073946,079291,093494,075987
0000000184,0000183000,079458,091140,075727,076040,094568,078164
0000000185,0000184000,076863,091334,078128,073141,094621,081010
0000000186,0000185000,074786,090632,080907,070882,093649,084241
0000000187,0000186000,073440,089098,083787,069486,091745,087540
0000000188,0000187000,072947,086879,086498,069087,089095,090590
0000000189,0000188000,073354,084197,088774,069723,085958,093091
0000000190,0000189000,074622,081320,090382,071332,082646,094794
0000000191,0000190000,076634,078522,091170,073758,079479,095535
0000000192,0000191000,079190,076072,091064,076765,076764,095242
0000000193,0000192000,082033,074220,090072,080054,074772,093945
0000000194,0000193000,084888,073146,088291,083305,073698,091769
0000000195,0000194000,087484,072950,085891,086202,073644,088925
0000000196,0000195000,089559,073655,083111,088461,074615,085695
0000000197,0000196000,090908,075186,080231,089858,076517,082397
0000000198,0000197000,091404,077403,077519,090258,079166,079348
0000000199,0000198000,090996,080088,075241,089623,082302,076848
0000000200,0000199000,089728,082965,073632,088015,085612,075145
0000000201,0000200000,087720,085762,072843,085590,088779,074403
0000000202,0000201000,085162,088214,072949,082584,091493,074695
0000000203,0000202000,082317,090069,073939,079297,093484,075991
0000000204,0000203000,079464,091142,075719,076048,094559,078165
0000000205,0000204000,076866,091339,078120,073150,094614,081007
0000000206,0000205000,074787,090639,080900,070892,093644,084236
0000000207,0000206000,073439,089106,083781,069496,091744,087533
0000000208,0000207000,072943,086888,086494,069095,089096,090581
0000000209,0000208000,073347,084206,088772,069729,085963,093081
0000000210,0000209000,074615,081327,090383,071335,082653,094784
0000000211,0000210000,076625,078527,091174,073758,079488,095526
0000000212,0000211000,079180,076075,091070,076762,076775,095236
0000000213,0000212000,082025,074220,090080,080048,074783,093941
0000000214,0000213000,084882,073143,088301,083296,073707,091769
0000000215,0000214000,087479,072945,085900,086192,073652,088928
0000000216,0000215000,089558,073647,083120,088451,074620,085701
0000000217,0000216000,090911,075177,080238,089847,076519,082406
0000000218,0000217000,091408,077394,077524,090249,079165,079358
0000000219,0000218000,091003,080079,075243,089616,082297,076859
0000000220,0000219000,089737,082957,073631,088012,085605,075155
0000000221,0000220000,087729,085756,072839,085590,088769,074413
0000000222,0000221000,085171,088212,072942,082588,091482,074702
0000000223,0000222000,082326,090069,073930,079304,093473,075995
0000000224,0000223000,079471,091145,075709,076057,094549,078166
0000000225,0000224000,076870,091346,078109,073162,094606,081004
0000000226,0000225000,074789,090646,080890,070904,093639,084230
0000000227,0000226000,073437,089115,083773,069507,091742,087524
0000000228,0000227000,072937,086899,086488,069104,089098,090570
0000000229,0000228000,073339,084216,088770,069735,085968,093069
0000000230,0000229000,074606,081335,090384,071338,082662,094772
0000000231,0000230000,076613,078534,091178,073757,079499,095516
0000000232,0000231000,079169,076079,091077,076758,076787,095228
0000000233,0000232000,082016,074219,090089,080040,074795,093937
0000000234,0000233000,084874,073139,088311,083285,073719,091768
0000000235,0000234000,087474,072940,085911,086180,073661,088931
0000000236,0000235000,089557,073638,083130,088438,074626,085708
0000000237,0000236000,090913,075166,080246,089835,076521,082416
0000000238,0000237000,091413,077383,077530,090239,079163,079371
0000000239,0000238000,091011,080068,075246,089609,082291,076872
0000000240,0000239000,089748,082947,073630,088008,085595,075168
0000000241,0000240000,087740,085750,072835,085591,088757,074424
0000000242,0000241000,085183,088208,072934,082593,091468,074711
0000000243,0000242000,082337,090068,073920,079313,093460,076000
0000000244,0000243000,079479,091149,075697,076069,094537,078167
0000000245,0000244000,076875,091353,078097,073175,094596,081001
0000000246,0000245000,074790,090656,080879,070918,093632,084222
0000000247,0000246000,073434,089127,083764,069520,091739,087513
0000000248,0000247000,072930,086912,086482,069115,089100,090557
0000000249,0000248000,073330,084227,088767,069743,085974,093054
0000000250,0000249000,074594,081345,090386,071342,082672,094758
0000000251,0000250000,076600,078542,091183,073757,079512,095504
0000000252,0000251000,079157,076083,091085,076753,076801,095218
0000000253,0000252000,082005,074219,090100,080031,074810,093931
0000000254,0000253000,084864,073136,088324,083273,073732,091767
0000000255,0000254000,087468,072932,085924,086166,073672,088935
0000000256,0000255000,089556,073626,083142,088423,074633,085716
0000000257,0000256000,090915,075153,080256,089821,076524,082427
0000000258,0000257000,091419,077369,077537,090227,079161,079385
0000000259,0000258000,091022,080054,075249,089601,082284,076888
0000000260,0000259000,089761,082936,073628,088004,085585,075183
0000000261,0000260000,087754,085742,072829,085592,088743,074437
0000000262,0000261000,085196,088203,072925,082599,091453,074721
0000000263,0000262000,082349,090068,073908,079322,093444,076006
0000000264,0000263000,079488,091154,075684,076082,094522,078168
0000000265,0000264000,076881,091361,078083,073191,094584,080997
0000000266,0000265000,074792,090667,080866,070934,093625,084213
0000000267,0000266000,073431,089141,083753,069535,091737,087500
0000000268,0000267000,072923,086927,086474,069128,089103,090541
0000000269,0000268000,073320,084241,088764,069752,085982,093038
0000000270,0000269000,074581,081357,090387,071346,082684,094742
0000000271,0000270000,076585,078551,091189,073756,079527,095489
0000000272,0000271000,079143,076088,091095,076747,076818,095208
0000000273,0000272000,081992,074219,090113,080020,074827,093925
0000000274,0000273000,084854,073132,088339,083259,073748,091766
0000000275,0000274000,087462,072923,085939,086149,073684,088939
0000000276,0000275000,089555,073614,083156,088405,074641,085725
0000000277,0000276000,090918,075139,080268,089805,076527,082441
0000000278,0000277000,091427,077354,077545,090213,079158,079401
0000000279,0000278000,091034,080039,075252,089591,082276,076905
0000000280,0000279000,089775,082923,073627,087999,085572,075201
0000000281,0000280000,087769,085732,072823,085593,088727,074452
0000000282,0000281000,085213,088198,072914,082605,091435,074732
0000000283,0000282000,082363,090068,073894,079334,093426,076012
0000000284,0000283000,079499,091159,075668,076097,094506,078169
0000000285,0000284000,076888,091370,078067,073208,094571,080992
0000000286,0000285000,074794,090680,080851,070953,093616,084203
0000000287,0000286000,073427,089157,083740,069553,091734,087486
0000000288,0000287000,072915,086943,086466,069143,089105,090524
0000000289,0000288000,073308,084257,088760,069763,085990,093019
0000000290,0000289000,074565,081371,090389,071351,082697,094724
0000000291,0000290000,076568,078562,091195,073755,079544,095473
0000000292,0000291000,079126,076093,091106,076740,076837,095196
0000000293,0000292000,081977,074220,090128,080008,074846,093918
0000000294,0000293000,084842,073127,088356,083242,073765,091765
0000000295,0000294000,087455,072913,085957,086130,073698,088944
0000000296,0000295000,089552,073600,083172,088385,074650,085736
0000000297,0000296000,090921,075122,080281,089786,076530,082456
0000000298,0000297000,091436,077336,077554,090197,079155,079420
0000000299,0000298000,091047,080022,075257,089580,082267,076925
0000000300,0000299000,089791,082909,073625,087994,085558,075220
0000000301,0000300000,087788,085721,072816,085594,088709,074469
