DIgSILENT PowerFactory,21000900,2000
6,06A,00D
1,TTPP_200000_100:Secondary Voltage A,,,V,0.10000000,-8415.046875,0.000000,67840,99998,1,1,P
2,TTPP_200000_100:Secondary Voltage B,,,V,0.10000000,-8399.511719,0.000000,68869,99998,1,1,P
3,TTPP_200000_100:Secondary Voltage C,,,V,0.10000000,-8435.345703,0.000000,66376,99998,1,1,P
4,TTCC_500_5:Secondary Current A,,,A,0.0010000000,-86.205856,0.000000,66321,99998,1,1,P
5,TTCC_500_5:Secondary Current B,,,A,0.0010000000,-85.033340,0.000000,70084,99998,1,1,P
6,TTCC_500_5:Secondary Current C,,,A,0.0010000000,-84.666611,0.000000,69319,99998,1,1,P
50
1
1000.000000,1101
30/06/2023,06:05:38.000000
30/06/2023,06:05:38.000000
ASCII
1.000000
0000000001,0000000000,089663,087636,075201,092121,089713,074072
0000000002,0000001000,087114,090069,075315,089106,092429,074370
0000000003,0000002000,084263,091924,076313,085807,094424,075676
0000000004,0000003000,081417,092986,078096,082552,095493,077861
0000000005,0000004000,078833,093168,080498,079647,095543,080715
0000000006,0000005000,076761,092462,083276,077387,094564,083955
0000000007,0000006000,075415,090932,086151,075993,092651,087262
0000000008,0000007000,074942,088700,088857,075598,089992,090317
0000000009,0000008000,075350,086022,091126,076239,086847,092820
0000000010,0000009000,076618,083155,092727,077857,083526,094523
0000000011,0000010000,078637,080357,093505,080294,080351,095260
0000000012,0000011000,081199,077908,093392,083308,077636,094962
0000000013,0000012000,084027,076077,092395,086607,075643,093656
0000000014,0000013000,086881,075007,090610,089866,074570,091470
0000000015,0000014000,089479,074811,088209,092768,074521,088616
0000000016,0000015000,091538,075530,085431,095026,075503,085377
0000000017,0000016000,092873,077071,082555,096424,077412,082070
0000000018,0000017000,093372,079278,079850,096818,080072,079015
0000000019,0000018000,092953,081965,077581,096174,083219,076512
0000000020,0000019000,091671,084848,075981,094558,086539,074809
0000000021,0000020000,089668,087630,075201,092124,089710,074072
0000000022,0000021000,087113,090071,075315,089104,092431,074370
0000000023,0000022000,084262,091925,076312,085807,094423,075676
0000000024,0000023000,081417,092986,078096,082550,095494,077862
0000000025,0000024000,078835,093166,080498,079647,095543,080716
0000000026,0000025000,076758,092465,083275,077386,094565,083955
0000000027,0000026000,075418,090929,086151,075993,092651,087262
0000000028,0000027000,074940,088702,088857,075597,089992,090317
0000000029,0000028000,075350,086023,091126,076238,086848,092820
0000000030,0000029000,076619,083155,092726,077856,083527,094523
0000000031,0000030000,078639,080355,093506,080293,080353,095260
0000000032,0000031000,081194,077913,093392,083308,077636,094962
0000000033,0000032000,084030,076074,092394,086607,075643,093656
0000000034,0000033000,086884,075005,090610,089865,074570,091471
0000000035,0000034000,089475,074815,088210,092766,074523,088617
0000000036,0000035000,091536,075531,085431,095027,075502,085377
0000000037,0000036000,092879,077065,082555,096423,077413,082071
0000000038,0000037000,093369,079280,079850,096817,080073,079016
0000000039,0000038000,092949,081969,077581,096174,083219,076513
0000000040,0000039000,091676,084843,075980,094558,086538,074810
0000000041,0000040000,089670,087628,075201,092122,089712,074072
0000000042,0000041000,087108,090076,075315,089104,092431,074371
0000000043,0000042000,084264,091924,076312,085808,094422,075676
0000000044,0000043000,081422,092981,078096,082550,095494,077862
0000000045,0000044000,078831,093171,080498,079646,095544,080716
0000000046,0000045000,076756,092467,083275,077387,094564,083955
0000000047,0000046000,075423,090924,086151,075992,092652,087262
0000000048,0000047000,074939,088703,088857,075596,089993,090316
0000000049,0000048000,075345,086028,091126,076238,086848,092819
0000000050,0000049000,076622,083151,092726,077857,083527,094522
0000000051,0000050000,078640,080354,093506,080292,080354,095260
0000000052,0000051000,081190,077917,093393,083308,077637,094962
0000000053,0000052000,084030,076074,092395,086606,075643,093656
0000000054,0000053000,086886,075001,090611,089864,074571,091471
0000000055,0000054000,089472,074817,088210,092765,074524,088617
0000000056,0000055000,091536,075531,085432,095026,075502,085378
0000000057,0000056000,092882,077062,082556,096422,077413,082071
0000000058,0000057000,093368,079280,079850,096816,080073,079017
0000000059,0000058000,092948,081970,077581,096174,083218,076514
0000000060,0000059000,091679,084840,075981,094558,086537,074811
0000000061,0000060000,089669,087628,075201,092121,089712,074073
0000000062,0000061000,087107,090078,075314,089105,092430,074371
0000000063,0000062000,084266,091922,076311,085808,094421,075676
0000000064,0000063000,081423,092981,078095,082550,095494,077862
0000000065,0000064000,078829,093174,080497,079647,095543,080715
0000000066,0000065000,076759,092466,083274,077388,094563,083955
0000000067,0000066000,075424,090924,086151,075993,092652,087261
0000000068,0000067000,074935,088707,088857,075596,089994,090316
0000000069,0000068000,075345,086028,091125,076239,086848,092818
0000000070,0000069000,076624,083149,092726,077856,083528,094522
0000000071,0000070000,078636,080357,093506,080291,080355,095259
0000000072,0000071000,081188,077918,093393,083307,077638,094961
0000000073,0000072000,084033,076070,092396,086605,075644,093656
0000000074,0000073000,086884,075002,090612,089862,074573,091471
0000000075,0000074000,089469,074819,088211,092764,074524,088618
0000000076,0000075000,091539,075528,085433,095025,075502,085378
0000000077,0000076000,092883,077060,082557,096420,077414,082072
0000000078,0000077000,093365,079283,079851,096815,080073,079018
0000000079,0000078000,092951,081967,077581,096173,083217,076515
0000000080,0000079000,091682,084836,075981,094557,086537,074812
0000000081,0000080000,089668,087630,075201,092121,089711,074074
0000000082,0000081000,087107,090078,075313,089105,092428,074372
0000000083,0000082000,084270,091918,076310,085809,094420,075677
0000000084,0000083000,081422,092983,078094,082551,095493,077862
0000000085,0000084000,078827,093176,080495,079649,095542,080715
0000000086,0000085000,076761,092465,083273,077389,094563,083954
0000000087,0000086000,075424,090925,086150,075994,092652,087260
0000000088,0000087000,074932,088711,088856,075598,089994,090314
0000000089,0000088000,075346,086028,091125,076240,086848,092817
0000000090,0000089000,076624,083149,092726,077856,083530,094520
0000000091,0000090000,078632,080360,093507,080291,080357,095258
0000000092,0000091000,081187,077918,093394,083307,077639,094960
0000000093,0000092000,084033,076068,092397,086604,075646,093655
0000000094,0000093000,086881,075003,090614,089860,074575,091471
0000000095,0000094000,089467,074819,088212,092762,074525,088618
0000000096,0000095000,091540,075524,085434,095023,075503,085380
0000000097,0000096000,092882,077059,082558,096417,077414,082074
0000000098,0000097000,093365,079282,079852,096813,080073,079020
0000000099,0000098000,092954,081964,077582,096172,083216,076517
0000000100,0000099000,091684,084835,075981,094556,086536,074814
0000000101,0000100000,089668,087631,075200,092121,089709,074076
0000000102,0000101000,087111,090076,075312,089106,092425,074374
0000000103,0000102000,084273,091918,076309,085810,094418,075678
0000000104,0000103000,081421,092986,078092,082553,095491,077862
0000000105,0000104000,078829,093177,080493,079651,095540,080715
0000000106,0000105000,076763,092465,083271,077392,094562,083953
0000000107,0000106000,075422,090929,086148,075996,092652,087258
0000000108,0000107000,074931,088714,088854,075600,089994,090312
0000000109,0000108000,075346,086028,091125,076242,086850,092814
0000000110,0000109000,076620,083152,092727,077857,083532,094517
0000000111,0000110000,078629,080363,093508,080291,080360,095256
0000000112,0000111000,081187,077917,093395,083306,077642,094958
0000000113,0000112000,084031,076068,092400,086602,075650,093654
0000000114,0000113000,086878,075005,090616,089857,074578,091471
0000000115,0000114000,089468,074816,088215,092760,074527,088619
0000000116,0000115000,091541,075521,085437,095019,075505,085381
0000000117,0000116000,092881,077059,082560,096414,077415,082077
0000000118,0000117000,093366,079280,079853,096811,080072,079023
0000000119,0000118000,092957,081959,077582,096170,083215,076521
0000000120,0000119000,091685,084834,075980,094554,086534,074818
0000000121,0000120000,089670,087630,075199,092121,089706,074079
0000000122,0000121000,087116,090073,075310,089107,092422,074376
0000000123,0000122000,084275,091918,076306,085811,094415,075679
0000000124,0000123000,081422,092988,078089,082556,095488,077862
0000000125,0000124000,078832,093177,080490,079655,095537,080714
0000000126,0000125000,076764,092467,083269,077395,094560,083951
0000000127,0000126000,075420,090933,086146,075999,092652,087255
0000000128,0000127000,074930,088716,088853,075603,089994,090308
0000000129,0000128000,075345,086030,091124,076244,086852,092810
0000000130,0000129000,076616,083156,092727,077858,083535,094513
0000000131,0000130000,078625,080365,093509,080291,080363,095252
0000000132,0000131000,081185,077917,093398,083305,077646,094956
0000000133,0000132000,084027,076069,092403,086599,075654,093653
0000000134,0000133000,086875,075005,090620,089854,074581,091470
0000000135,0000134000,089468,074813,088218,092755,074530,088620
0000000136,0000135000,091540,075518,085440,095015,075507,085384
0000000137,0000136000,092880,077056,082563,096410,077416,082080
0000000138,0000137000,093370,079275,079855,096807,080071,079027
0000000139,0000138000,092961,081955,077583,096167,083214,076525
0000000140,0000139000,091687,084832,075980,094553,086531,074822
0000000141,0000140000,089675,087627,075197,092121,089701,074083
0000000142,0000141000,087120,090071,075308,089109,092418,074379
0000000143,0000142000,084277,091919,076303,085814,094410,075681
0000000144,0000143000,081425,092990,078085,082560,095483,077863
0000000145,0000144000,078835,093178,080486,079660,095534,080713
0000000146,0000145000,076764,092471,083265,077400,094558,083948
0000000147,0000146000,075418,090938,086142,076004,092651,087251
0000000148,0000147000,074929,088719,088850,075607,089995,090304
0000000149,0000148000,075342,086034,091123,076246,086854,092805
0000000150,0000149000,076611,083161,092727,077859,083538,094508
0000000151,0000150000,078622,080367,093511,080291,080367,095248
0000000152,0000151000,081181,077918,093401,083302,077651,094952
0000000153,0000152000,084022,076071,092407,086596,075659,093651
0000000154,0000153000,086872,075003,090624,089850,074586,091470
0000000155,0000154000,089467,074809,088223,092750,074534,088621
0000000156,0000155000,091539,075516,085445,095009,075510,085387
0000000157,0000156000,092881,077052,082566,096405,077417,082084
0000000158,0000157000,093373,079269,079858,096803,080071,079032
0000000159,0000158000,092964,081951,077585,096164,083211,076531
0000000160,0000159000,091691,084829,075979,094552,086527,074828
0000000161,0000160000,089681,087623,075195,092122,089696,074088
0000000162,0000161000,087126,090069,075304,089111,092412,074383
0000000163,0000162000,084281,091920,076298,085818,094404,075684
0000000164,0000163000,081429,092990,078080,082565,095477,077863
0000000165,0000164000,078838,093181,080481,079665,095529,080711
0000000166,0000165000,076763,092476,083260,077406,094555,083945
0000000167,0000166000,075417,090944,086138,076010,092649,087246
0000000168,0000167000,074928,088724,088848,075612,089996,090297
0000000169,0000168000,075337,086040,091122,076250,086857,092799
0000000170,0000169000,076605,083166,092728,077861,083543,094502
0000000171,0000170000,078617,080369,093513,080291,080373,095242
0000000172,0000171000,081175,077920,093405,083300,077658,094948
0000000173,0000172000,084016,076072,092412,086591,075666,093648
0000000174,0000173000,086869,075000,090630,089844,074592,091470
0000000175,0000174000,089464,074805,088229,092743,074540,088623
0000000176,0000175000,091537,075512,085450,095002,075514,085390
0000000177,0000176000,092883,077046,082571,096398,077418,082090
0000000178,0000177000,093377,079262,079861,096797,080070,079039
0000000179,0000178000,092967,081946,077586,096159,083208,076538
0000000180,0000179000,091697,084824,075979,094550,086521,074835
0000000181,0000180000,089688,087618,075192,092122,089689,074095
0000000182,0000181000,087131,090067,075300,089113,092404,074388
0000000183,0000182000,084286,091921,076292,085823,094396,075686
0000000184,0000183000,081435,092992,078073,082572,095470,077864
0000000185,0000184000,078840,093185,080474,079673,095524,080709
0000000186,0000185000,076763,092483,083253,077414,094551,083941
0000000187,0000186000,075416,090950,086133,076018,092648,087240
0000000188,0000187000,074924,088730,088844,075619,089997,090290
0000000189,0000188000,075330,086048,091120,076255,086861,092790
0000000190,0000189000,076599,083172,092728,077864,083548,094494
0000000191,0000190000,078610,080373,093516,080290,080381,095235
0000000192,0000191000,081167,077923,093410,083297,077667,094942
0000000193,0000192000,084009,076072,092418,086586,075675,093645
0000000194,0000193000,086864,074997,090638,089837,074600,091469
0000000195,0000194000,089460,074801,088237,092734,074546,088625
0000000196,0000195000,091536,075506,085457,094993,075518,085395
0000000197,0000196000,092885,077037,082577,096390,077419,082097
0000000198,0000197000,093381,079254,079865,096789,080069,079048
0000000199,0000198000,092973,081939,077588,096154,083204,076548
0000000200,0000199000,091705,084817,075978,094547,086515,074844
0000000201,0000200000,089697,087613,075189,092122,089681,074103
0000000202,0000201000,087139,090066,075295,089116,092395,074394
0000000203,0000202000,084294,091920,076285,085829,094387,075690
0000000204,0000203000,081441,092993,078065,082580,095462,077865
0000000205,0000204000,078843,093190,080466,079682,095517,080707
0000000206,0000205000,076764,092490,083245,077424,094547,083935
0000000207,0000206000,075415,090957,086126,076027,092646,087232
0000000208,0000207000,074920,088739,088840,075626,089999,090281
0000000209,0000208000,075324,086057,091118,076260,086865,092780
0000000210,0000209000,076592,083178,092729,077867,083555,094484
0000000211,0000210000,078601,080378,093520,080290,080390,095226
0000000212,0000211000,081157,077927,093416,083293,077677,094935
0000000213,0000212000,084002,076071,092426,086580,075685,093641
0000000214,0000213000,086858,074994,090647,089828,074610,091468
0000000215,0000214000,089456,074797,088246,092724,074554,088628
0000000216,0000215000,091535,075498,085466,094982,075523,085401
0000000217,0000216000,092887,077028,082584,096379,077421,082105
0000000218,0000217000,093385,079245,079870,096781,080067,079058
0000000219,0000218000,092980,081930,077590,096148,083199,076559
0000000220,0000219000,091714,084808,075977,094544,086507,074855
0000000221,0000220000,089706,087607,075185,092122,089671,074112
0000000222,0000221000,087148,090063,075288,089120,092384,074402
0000000223,0000222000,084303,091920,076276,085836,094375,075694
0000000224,0000223000,081448,092996,078055,082589,095451,077865
0000000225,0000224000,078847,093197,080455,079694,095508,080704
0000000226,0000225000,076765,092498,083236,077436,094541,083929
0000000227,0000226000,075414,090966,086119,076038,092644,087223
0000000228,0000227000,074914,088751,088834,075636,090000,090269
0000000229,0000228000,075316,086067,091116,076267,086870,092768
0000000230,0000229000,076582,083186,092730,077870,083564,094472
0000000231,0000230000,078590,080385,093524,080289,080401,095215
0000000232,0000231000,081146,077930,093423,083289,077689,094927
0000000233,0000232000,083993,076071,092435,086572,075698,093636
0000000234,0000233000,086851,074991,090658,089817,074621,091467
0000000235,0000234000,089451,074791,088257,092712,074563,088631
0000000236,0000235000,091534,075489,085476,094969,075529,085408
0000000237,0000236000,092890,077017,082593,096367,077424,082115
0000000238,0000237000,093390,079234,079876,096770,080065,079070
0000000239,0000238000,092988,081919,077592,096141,083193,076572
0000000240,0000239000,091725,084798,075976,094540,086498,074868
0000000241,0000240000,089717,087601,075181,092123,089659,074124
0000000242,0000241000,087160,090059,075280,089125,092370,074410
0000000243,0000242000,084314,091919,076266,085844,094362,075700
0000000244,0000243000,081456,093000,078043,082600,095439,077866
0000000245,0000244000,078852,093204,080443,079707,095498,080701
0000000246,0000245000,076767,092507,083225,077450,094534,083922
0000000247,0000246000,075411,090978,086110,076052,092642,087212
0000000248,0000247000,074907,088764,088828,075647,090003,090256
0000000249,0000248000,075307,086079,091113,076275,086877,092754
0000000250,0000249000,076571,083196,092732,077874,083574,094458
0000000251,0000250000,078577,080393,093529,080289,080414,095203
0000000252,0000251000,081134,077934,093431,083284,077704,094918
0000000253,0000252000,083982,076070,092446,086563,075712,093631
0000000254,0000253000,086841,074987,090670,089805,074635,091466
0000000255,0000254000,089445,074783,088270,092697,074574,088634
0000000256,0000255000,091533,075478,085488,094954,075536,085416
0000000257,0000256000,092892,077004,082603,096353,077426,082127
0000000258,0000257000,093396,079221,079883,096758,080063,079084
0000000259,0000258000,092999,081905,077595,096132,083186,076587
0000000260,0000259000,091738,084787,075975,094536,086487,074883
0000000261,0000260000,089731,087593,075175,092123,089645,074137
0000000262,0000261000,087173,090054,075271,089130,092355,074420
0000000263,0000262000,084326,091919,076254,085854,094346,075705
0000000264,0000263000,081465,093005,078030,082614,095425,077867
0000000265,0000264000,078858,093212,080429,079722,095487,080697
0000000266,0000265000,076769,092518,083212,077466,094527,083913
0000000267,0000266000,075408,090992,086099,076067,092639,087200
0000000268,0000267000,074900,088778,088820,075660,090005,090241
0000000269,0000268000,075297,086092,091110,076284,086884,092737
0000000270,0000269000,076557,083209,092733,077878,083586,094442
0000000271,0000270000,078562,080403,093535,080288,080429,095189
0000000272,0000271000,081120,077939,093441,083278,077720,094907
0000000273,0000272000,083969,076071,092459,086552,075729,093625
0000000274,0000273000,086831,074983,090685,089790,074650,091465
0000000275,0000274000,089439,074774,088286,092681,074586,088639
0000000276,0000275000,091531,075465,085502,094937,075544,085425
0000000277,0000276000,092895,076990,082614,096336,077429,082140
0000000278,0000277000,093404,079205,079891,096745,080060,079101
0000000279,0000278000,093010,081890,077599,096123,083178,076605
0000000280,0000279000,091752,084774,075973,094531,086474,074900
0000000281,0000280000,089746,087583,075169,092124,089629,074152
0000000282,0000281000,087189,090049,075261,089137,092337,074432
0000000283,0000282000,084340,091919,076240,085865,094328,075712
0000000284,0000283000,081476,093010,078014,082629,095408,077868
0000000285,0000284000,078865,093221,080413,079740,095474,080692
0000000286,0000285000,076771,092531,083197,077484,094519,083903
0000000287,0000286000,075404,091008,086086,076084,092636,087185
0000000288,0000287000,074892,088795,088812,075675,090008,090223
0000000289,0000288000,075285,086108,091106,076295,086893,092719
0000000290,0000289000,076542,083223,092735,077883,083599,094424
0000000291,0000290000,078545,080413,093541,080287,080446,095173
0000000292,0000291000,081103,077944,093452,083271,077739,094895
0000000293,0000292000,083954,076071,092474,086540,075748,093618
0000000294,0000293000,086819,074978,090702,089774,074667,091464
0000000295,0000294000,089432,074764,088303,092662,074600,088644
0000000296,0000295000,091529,075451,085519,094917,075553,085436
0000000297,0000296000,092898,076973,082628,096318,077432,082156
0000000298,0000297000,093413,079187,079900,096729,080057,079119
0000000299,0000298000,093024,081873,077603,096112,083169,076625
0000000300,0000299000,091768,084760,075971,094526,086460,074920
0000000301,0000300000,089765,087572,075162,092125,089611,074169
