DIgSILENT PowerFactory,21000900,2000
6,06A,00D
1,TTPP_200000_100:Secondary Voltage A,,,V,0.010000000,-67.865501,0.000000,-86352,99998,1,1,P
2,TTPP_200000_100:Secondary Voltage B,,,V,0.010000000,8.688803,0.000000,-98185,99998,1,1,P
3,TTPP_200000_100:Secondary Voltage C,,,V,0.10000000,-8984.750000,0.000000,79605,99998,1,1,P
4,TTCC_500_5:Secondary Current A,,,A,0.0010000000,-79.233582,0.000000,45372,99998,1,1,P
5,TTCC_500_5:Secondary Current B,,,A,0.0010000000,-84.620247,0.000000,69257,99998,1,1,P
6,TTCC_500_5:Secondary Current C,,,A,0.0010000000,-84.747826,0.000000,69512,99998,1,1,P
50
1
1000.000000,1101
30/06/2023,06:05:06.000000
30/06/2023,06:05:06.000000
ASCII
1.000000
0000000001,0000000000,061915,035527,080695,085150,089299,074153
0000000002,0000001000,036427,059870,080809,082135,092014,074451
0000000003,0000002000,007926,078412,081807,078834,094011,075756
0000000004,0000003000,-20551,089049,083589,075581,095079,077942
0000000005,0000004000,-46350,090843,085991,072674,095131,080796
0000000006,0000005000,-67117,083817,088769,070416,094151,084036
0000000007,0000006000,-80566,068502,091645,069020,092240,087342
0000000008,0000007000,-85312,046202,094350,068627,089578,090397
0000000009,0000008000,-81181,019375,096619,069265,086436,092900
0000000010,0000009000,-68571,-09228,098220,070884,083114,094604
0000000011,0000010000,-48361,-37240,099000,073321,079939,095341
0000000012,0000011000,-22732,-61731,098886,076336,077222,095043
0000000013,0000012000,005581,-80077,097889,079633,075231,093738
0000000014,0000013000,034048,-90712,096105,082893,074157,091552
0000000015,0000014000,060054,-92706,093704,085795,074108,088698
0000000016,0000015000,080670,-85546,090926,088054,075089,085459
0000000017,0000016000,094030,-70131,088050,089451,076999,082152
0000000018,0000017000,098964,-48018,085345,089846,079659,079097
0000000019,0000018000,094820,-21185,083076,089203,082805,076594
0000000020,0000019000,082021,007624,081475,087586,086125,074891
0000000021,0000020000,061963,035475,080695,085151,089297,074153
0000000022,0000021000,036403,059898,080809,082133,092017,074452
0000000023,0000022000,007912,078418,081806,078836,094009,075757
0000000024,0000023000,-20518,089021,083589,075579,095081,077942
0000000025,0000024000,-46370,090854,085991,072675,095130,080796
0000000026,0000025000,-67141,083845,088769,070414,094152,084036
0000000027,0000026000,-80528,068475,091645,069021,092238,087342
0000000028,0000027000,-85303,046190,094350,068624,089580,090397
0000000029,0000028000,-81236,019435,096620,069266,086436,092900
0000000030,0000029000,-68546,-09261,098220,070884,083114,094604
0000000031,0000030000,-48333,-37269,099000,073320,079940,095341
0000000032,0000031000,-22771,-61698,098886,076335,077224,095043
0000000033,0000032000,005556,-80057,097889,079633,075230,093738
0000000034,0000033000,034105,-90768,096106,082892,074157,091553
0000000035,0000034000,060032,-92687,093704,085793,074109,088699
0000000036,0000035000,080646,-85516,090926,088054,075089,085459
0000000037,0000036000,094055,-70162,088050,089450,076999,082153
0000000038,0000037000,098979,-48035,085345,089845,079659,079098
0000000039,0000038000,094787,-21152,083076,089202,082805,076594
0000000040,0000039000,082038,007604,081475,087586,086124,074891
0000000041,0000040000,061982,035457,080695,085150,089298,074153
0000000042,0000041000,036376,059924,080809,082133,092017,074452
0000000043,0000042000,007926,078414,081805,078836,094009,075757
0000000044,0000043000,-20494,089000,083589,075579,095081,077942
0000000045,0000044000,-46395,090881,085991,072675,095131,080796
0000000046,0000045000,-67149,083858,088768,070415,094151,084035
0000000047,0000046000,-80492,068439,091644,069021,092239,087342
0000000048,0000047000,-85325,046214,094350,068624,089581,090397
0000000049,0000048000,-81264,019461,096619,069266,086436,092900
0000000050,0000049000,-68516,-09288,098220,070884,083114,094603
0000000051,0000050000,-48328,-37275,099000,073319,079941,095341
0000000052,0000051000,-22816,-61656,098887,076334,077224,095043
0000000053,0000052000,005571,-80073,097890,079633,075230,093738
0000000054,0000053000,034125,-90796,096106,082891,074158,091553
0000000055,0000054000,060002,-92660,093705,085792,074110,088699
0000000056,0000055000,080638,-85514,090927,088053,075089,085460
0000000057,0000056000,094087,-70199,088051,089449,076999,082153
0000000058,0000057000,098967,-48026,085345,089844,079659,079099
0000000059,0000058000,094775,-21140,083076,089202,082805,076595
0000000060,0000059000,082071,007574,081475,087586,086124,074892
0000000061,0000060000,061983,035455,080695,085150,089298,074154
0000000062,0000061000,036363,059945,080808,082133,092016,074452
0000000063,0000062000,007952,078394,081805,078837,094008,075757
0000000064,0000063000,-20482,088992,083588,075579,095081,077942
0000000065,0000064000,-46419,090914,085990,072676,095130,080796
0000000066,0000065000,-67134,083851,088768,070416,094151,084035
0000000067,0000066000,-80473,068428,091644,069021,092239,087341
0000000068,0000067000,-85356,046248,094350,068624,089581,090396
0000000069,0000068000,-81274,019475,096619,069267,086436,092899
0000000070,0000069000,-68494,-09311,098220,070884,083115,094602
0000000071,0000070000,-48353,-37255,099000,073318,079943,095340
0000000072,0000071000,-22844,-61633,098887,076334,077225,095042
0000000073,0000072000,005588,-80100,097890,079632,075232,093738
0000000074,0000073000,034120,-90801,096107,082889,074160,091553
0000000075,0000074000,059971,-92639,093706,085791,074111,088699
0000000076,0000075000,080651,-85536,090928,088052,075089,085461
0000000077,0000076000,094103,-70224,088052,089447,077000,082154
0000000078,0000077000,098948,-48013,085346,089843,079659,079100
0000000079,0000078000,094786,-21152,083076,089201,082804,076597
0000000080,0000079000,082100,007543,081475,087585,086123,074894
0000000081,0000080000,061978,035464,080695,085149,089297,074155
0000000082,0000081000,036368,059949,080807,082134,092014,074453
0000000083,0000082000,007986,078371,081804,078837,094006,075758
0000000084,0000083000,-20483,089004,083587,075580,095080,077943
0000000085,0000084000,-46429,090937,085989,072677,095129,080796
0000000086,0000085000,-67111,083842,088766,070418,094150,084034
0000000087,0000086000,-80474,068437,091643,069022,092240,087340
0000000088,0000087000,-85386,046285,094349,068625,089582,090395
0000000089,0000088000,-81271,019477,096619,069268,086436,092898
0000000090,0000089000,-68493,-09314,098220,070884,083117,094601
0000000091,0000090000,-48390,-37223,099001,073318,079945,095339
0000000092,0000091000,-22860,-61626,098888,076334,077227,095041
0000000093,0000092000,005596,-80121,097892,079631,075234,093737
0000000094,0000093000,034095,-90793,096109,082887,074162,091553
0000000095,0000094000,059952,-92636,093707,085789,074112,088700
0000000096,0000095000,080669,-85570,090929,088050,075090,085462
0000000097,0000096000,094103,-70240,088053,089445,077001,082156
0000000098,0000097000,098940,-48013,085347,089841,079659,079102
0000000099,0000098000,094814,-21183,083076,089200,082803,076599
0000000100,0000099000,082124,007520,081475,087584,086122,074896
0000000101,0000100000,061978,035471,080694,085149,089295,074157
0000000102,0000101000,036394,059936,080806,082135,092012,074455
0000000103,0000102000,008017,078356,081802,078838,094004,075759
0000000104,0000103000,-20486,089026,083585,075581,095078,077943
0000000105,0000104000,-46422,090953,085986,072680,095127,080795
0000000106,0000105000,-67089,083840,088764,070420,094149,084033
0000000107,0000106000,-80489,068467,091641,069024,092240,087338
0000000108,0000107000,-85407,046320,094348,068628,089582,090392
0000000109,0000108000,-81269,019480,096618,069269,086437,092895
0000000110,0000109000,-68514,-09295,098220,070884,083119,094598
0000000111,0000110000,-48431,-37191,099002,073318,079947,095337
0000000112,0000111000,-22871,-61629,098890,076333,077229,095039
0000000113,0000112000,005583,-80131,097894,079629,075237,093736
0000000114,0000113000,034060,-90782,096111,082884,074165,091553
0000000115,0000114000,059944,-92652,093710,085786,074114,088701
0000000116,0000115000,080681,-85606,090932,088047,075091,085463
0000000117,0000116000,094095,-70252,088055,089442,077001,082159
0000000118,0000117000,098947,-48033,085348,089838,079658,079105
0000000119,0000118000,094850,-21225,083077,089198,082801,076602
0000000120,0000119000,082143,007502,081475,087583,086120,074899
0000000121,0000120000,061995,035466,080693,085149,089292,074160
0000000122,0000121000,036436,059913,080804,082136,092008,074457
0000000123,0000122000,008044,078352,081800,078840,094001,075760
0000000124,0000123000,-20480,089050,083583,075584,095075,077943
0000000125,0000124000,-46400,090962,085983,072683,095124,080794
0000000126,0000125000,-67077,083855,088762,070423,094147,084031
0000000127,0000126000,-80510,068511,091639,069027,092239,087335
0000000128,0000127000,-85421,046352,094346,068631,089582,090389
0000000129,0000128000,-81278,019497,096617,069271,086439,092891
0000000130,0000129000,-68555,-09259,098221,070885,083122,094594
0000000131,0000130000,-48471,-37163,099003,073318,079951,095333
0000000132,0000131000,-22890,-61633,098892,076332,077233,095037
0000000133,0000132000,005550,-80128,097897,079626,075241,093735
0000000134,0000133000,034024,-90779,096115,082881,074168,091552
0000000135,0000134000,059940,-92682,093713,085783,074117,088702
0000000136,0000135000,080680,-85640,090935,088042,075094,085466
0000000137,0000136000,094089,-70273,088058,089438,077002,082162
0000000138,0000137000,098970,-48074,085350,089835,079658,079109
0000000139,0000138000,094887,-21272,083078,089195,082800,076607
0000000140,0000139000,082166,007482,081474,087581,086117,074903
0000000141,0000140000,062032,035445,080691,085150,089288,074164
0000000142,0000141000,036488,059888,080802,082137,092004,074460
0000000143,0000142000,008072,078358,081796,078843,093997,075762
0000000144,0000143000,-20460,089070,083578,075588,095070,077943
0000000145,0000144000,-46370,090974,085979,072688,095121,080793
0000000146,0000145000,-67073,083888,088758,070428,094145,084029
0000000147,0000146000,-80529,068563,091636,069032,092238,087332
0000000148,0000147000,-85433,046387,094344,068635,089583,090384
0000000149,0000148000,-81305,019532,096616,069274,086442,092886
0000000150,0000149000,-68607,-09211,098221,070886,083126,094589
0000000151,0000150000,-48513,-37137,099005,073318,079955,095329
0000000152,0000151000,-22925,-61629,098895,076330,077239,095033
0000000153,0000152000,005501,-80119,097901,079623,075247,093732
0000000154,0000153000,033989,-90789,096119,082877,074173,091552
0000000155,0000154000,059931,-92721,093718,085777,074121,088703
0000000156,0000155000,080670,-85676,090940,088036,075097,085469
0000000157,0000156000,094090,-70311,088061,089432,077003,082166
0000000158,0000157000,099004,-48133,085352,089831,079657,079114
0000000159,0000158000,094925,-21322,083079,089192,082797,076613
0000000160,0000159000,082202,007451,081474,087580,086113,074909
0000000161,0000160000,062089,035409,080689,085150,089282,074169
0000000162,0000161000,036545,059864,080798,082139,091998,074464
0000000163,0000162000,008107,078368,081792,078846,093991,075764
0000000164,0000163000,-20422,089087,083573,075594,095064,077944
0000000165,0000164000,-46338,090995,085974,072694,095116,080792
0000000166,0000165000,-67074,083938,088753,070434,094142,084025
0000000167,0000166000,-80545,068622,091631,069038,092237,087327
0000000168,0000167000,-85451,046434,094341,068640,089584,090378
0000000169,0000168000,-81349,019588,096615,069277,086445,092879
0000000170,0000169000,-68668,-09155,098222,070888,083131,094583
0000000171,0000170000,-48563,-37110,099007,073318,079961,095323
0000000172,0000171000,-22980,-61614,098899,076327,077246,095029
0000000173,0000172000,005439,-80109,097906,079618,075254,093730
0000000174,0000173000,033952,-90810,096125,082871,074179,091551
0000000175,0000174000,059912,-92764,093724,085770,074127,088705
0000000176,0000175000,080655,-85717,090945,088029,075100,085472
0000000177,0000176000,094102,-70368,088066,089425,077004,082172
0000000178,0000177000,099044,-48205,085356,089825,079656,079121
0000000179,0000178000,094967,-21379,083081,089187,082794,076620
0000000180,0000179000,082256,007404,081473,087578,086107,074917
0000000181,0000180000,062163,035362,080687,085150,089275,074176
0000000182,0000181000,036609,059842,080794,082142,091991,074469
0000000183,0000182000,008158,078375,081786,078851,093983,075767
0000000184,0000183000,-20370,089102,083566,075600,095057,077945
0000000185,0000184000,-46306,091030,085967,072701,095111,080790
0000000186,0000185000,-67074,084003,088747,070442,094139,084021
0000000187,0000186000,-80557,068687,091626,069046,092235,087320
0000000188,0000187000,-85479,046497,094337,068646,089585,090370
0000000189,0000188000,-81409,019662,096614,069282,086448,092871
0000000190,0000189000,-68736,-09093,098222,070891,083136,094575
0000000191,0000190000,-48628,-37074,099010,073317,079969,095316
0000000192,0000191000,-23056,-61587,098904,076324,077254,095023
0000000193,0000192000,005369,-80102,097913,079613,075262,093727
0000000194,0000193000,033908,-90839,096132,082864,074187,091551
0000000195,0000194000,059881,-92810,093732,085761,074133,088707
0000000196,0000195000,080639,-85772,090952,088020,075104,085477
0000000197,0000196000,094122,-70446,088072,089417,077006,082179
0000000198,0000197000,099086,-48289,085360,089817,079655,079130
0000000199,0000198000,095018,-21448,083082,089182,082790,076629
0000000200,0000199000,082330,007339,081472,087575,086101,074926
0000000201,0000200000,062251,035306,080683,085150,089267,074184
0000000202,0000201000,036684,059821,080789,082145,091981,074475
0000000203,0000202000,008227,078379,081779,078857,093973,075771
0000000204,0000203000,-20307,089120,083558,075608,095048,077945
0000000205,0000204000,-46272,091080,085959,072711,095104,080787
0000000206,0000205000,-67070,084077,088739,070452,094134,084016
0000000207,0000206000,-80568,068764,091620,069055,092233,087313
0000000208,0000207000,-85520,046582,094333,068654,089586,090361
0000000209,0000208000,-81480,019753,096612,069288,086453,092861
0000000210,0000209000,-68814,-09023,098223,070894,083143,094565
0000000211,0000210000,-48713,-37026,099013,073317,079978,095307
0000000212,0000211000,-23150,-61553,098910,076320,077265,095017
0000000213,0000212000,005289,-80100,097920,079607,075273,093723
0000000214,0000213000,033851,-90874,096141,082855,074197,091550
0000000215,0000214000,059838,-92861,093741,085751,074141,088710
0000000216,0000215000,080626,-85843,090961,088009,075109,085483
0000000217,0000216000,094148,-70542,088079,089407,077008,082187
0000000218,0000217000,099133,-48386,085365,089808,079653,079140
0000000219,0000218000,095084,-21534,083084,089176,082785,076640
0000000220,0000219000,082424,007256,081471,087572,086093,074937
0000000221,0000220000,062351,035244,080679,085151,089257,074194
0000000222,0000221000,036776,059795,080782,082149,091970,074483
0000000223,0000222000,008316,078377,081770,078864,093962,075775
0000000224,0000223000,-20233,089146,083548,075618,095038,077946
0000000225,0000224000,-46235,091144,085949,072722,095095,080785
0000000226,0000225000,-67060,084162,088729,070464,094128,084009
0000000227,0000226000,-80584,068857,091612,069067,092231,087304
0000000228,0000227000,-85574,046689,094327,068664,089588,090350
0000000229,0000228000,-81562,019858,096610,069295,086458,092849
0000000230,0000229000,-68907,-08941,098224,070897,083152,094553
0000000231,0000230000,-48820,-36962,099018,073316,079989,095297
0000000232,0000231000,-23262,-61513,098917,076316,077277,095009
0000000233,0000232000,005197,-80102,097930,079599,075285,093718
0000000234,0000233000,033779,-90911,096152,082844,074208,091549
0000000235,0000234000,059786,-92920,093752,085739,074150,088713
0000000236,0000235000,080614,-85934,090971,087997,075115,085490
0000000237,0000236000,094175,-70655,088087,089395,077010,082197
0000000238,0000237000,099185,-48497,085371,089798,079652,079152
0000000239,0000238000,095167,-21642,083087,089169,082779,076654
0000000240,0000239000,082535,007156,081470,087568,086084,074949
0000000241,0000240000,062467,035175,080675,085151,089245,074205
0000000242,0000241000,036888,059761,080774,082153,091957,074491
0000000243,0000242000,008423,078373,081760,078873,093948,075780
0000000244,0000243000,-20151,089180,083537,075629,095026,077947
0000000245,0000244000,-46188,091218,085937,072735,095085,080781
0000000246,0000245000,-67044,084259,088718,070478,094122,084002
0000000247,0000246000,-80606,068971,091603,069080,092229,087293
0000000248,0000247000,-85639,046817,094321,068675,089590,090337
0000000249,0000248000,-81654,019978,096607,069303,086464,092835
0000000250,0000249000,-69018,-08842,098225,070901,083162,094539
0000000251,0000250000,-48950,-36884,099023,073316,080002,095284
0000000252,0000251000,-23390,-61469,098925,076311,077291,094999
0000000253,0000252000,005089,-80106,097941,079590,075299,093712
0000000254,0000253000,033690,-90950,096165,082832,074222,091548
0000000255,0000254000,059727,-92992,093765,085724,074161,088716
0000000256,0000255000,080602,-86042,090983,087982,075122,085498
0000000257,0000256000,094203,-70784,088098,089380,077013,082209
0000000258,0000257000,099247,-48628,085378,089786,079649,079166
0000000259,0000258000,095268,-21771,083090,089160,082773,076669
0000000260,0000259000,082662,007042,081469,087564,086073,074964
0000000261,0000260000,062600,035095,080669,085152,089232,074218
0000000262,0000261000,037023,059718,080765,082159,091941,074501
0000000263,0000262000,008549,078368,081748,078883,093933,075786
0000000264,0000263000,-20057,089223,083523,075642,095011,077948
0000000265,0000264000,-46131,091303,085922,072751,095074,080777
0000000266,0000265000,-67024,084370,088705,070494,094114,083993
0000000267,0000266000,-80634,069107,091592,069095,092226,087280
0000000268,0000267000,-85713,046966,094314,068688,089593,090321
0000000269,0000268000,-81759,020115,096603,069312,086472,092818
0000000270,0000269000,-69150,-08725,098227,070905,083174,094523
0000000271,0000270000,-49101,-36791,099029,073315,080017,095270
0000000272,0000271000,-23536,-61420,098935,076305,077308,094989
0000000273,0000272000,004961,-80107,097954,079579,075316,093706
0000000274,0000273000,033584,-90993,096180,082817,074237,091547
0000000275,0000274000,059662,-93077,093781,085708,074173,088721
0000000276,0000275000,080587,-86169,090997,087964,075130,085507
0000000277,0000276000,094233,-70931,088109,089364,077016,082222
0000000278,0000277000,099320,-48781,085386,089772,079647,079183
0000000279,0000278000,095385,-21924,083093,089151,082765,076687
0000000280,0000279000,082807,006911,081467,087559,086060,074982
0000000281,0000280000,062756,035002,080663,085153,089216,074233
0000000282,0000281000,037181,059664,080754,082165,091923,074513
0000000283,0000282000,008691,078363,081734,078894,093915,075793
0000000284,0000283000,-19949,089274,083507,075658,094995,077949
0000000285,0000284000,-46061,091397,085906,072769,095061,080772
0000000286,0000285000,-67002,084499,088690,070513,094106,083983
0000000287,0000286000,-80669,069266,091579,069112,092223,087266
0000000288,0000287000,-85795,047136,094305,068702,089595,090304
0000000289,0000288000,-81878,020273,096600,069322,086480,092799
0000000290,0000289000,-69305,-08586,098228,070910,083187,094504
0000000291,0000290000,-49273,-36685,099035,073314,080034,095254
0000000292,0000291000,-23702,-61366,098946,076298,077327,094977
0000000293,0000292000,004811,-80106,097969,079567,075335,093699
0000000294,0000293000,033462,-91041,096197,082801,074254,091546
0000000295,0000294000,059588,-93178,093798,085689,074187,088726
0000000296,0000295000,080568,-86312,091014,087945,075139,085518
0000000297,0000296000,094264,-71097,088123,089345,077019,082238
0000000298,0000297000,099405,-48959,085395,089757,079644,079201
0000000299,0000298000,095519,-22098,083097,089140,082755,076707
0000000300,0000299000,082969,006764,081466,087554,086046,075001
0000000301,0000300000,062935,034894,080656,085154,089198,074250
