DIgSILENT PowerFactory,21000900,2000
6,06A,00D
1,TTPP_200000_100:Secondary Voltage A,,,V,0.10000000,-8299.966797,0.000000,67348,99998,1,1,P
2,TTPP_200000_100:Secondary Voltage B,,,V,0.10000000,-8362.017578,0.000000,67774,99998,1,1,P
3,TTPP_200000_100:Secondary Voltage C,,,V,0.10000000,-8199.502930,0.000000,60368,99998,1,1,P
4,TTCC_500_5:Secondary Current A,,,A,0.0010000000,-80.321312,0.000000,66467,99998,1,1,P
5,TTCC_500_5:Secondary Current B,,,A,0.0010000000,-84.369156,0.000000,68944,99998,1,1,P
6,TTCC_500_5:Secondary Current C,,,A,0.0010000000,-84.972610,0.000000,70013,99998,1,1,P
50
1
1000.000000,1101
30/06/2023,06:12:28.000000
30/06/2023,06:12:28.000000
ASCII
1.000000
0000000001,0000000000,088512,087261,072842,086237,089048,074378
0000000002,0000001000,085964,089694,072957,083221,091766,074676
0000000003,0000002000,083113,091548,073955,079925,093757,075981
0000000004,0000003000,080263,092614,075737,076666,094830,078167
0000000005,0000004000,077685,092791,078139,073762,094879,081021
0000000006,0000005000,075609,092088,080918,071503,093899,084261
0000000007,0000006000,074264,090557,083793,070108,091988,087567
0000000008,0000007000,073791,088326,086499,069712,089328,090622
0000000009,0000008000,074201,085646,088768,070355,086182,093126
0000000010,0000009000,075465,082782,090368,071972,082863,094828
0000000011,0000010000,077489,079980,091147,074409,079688,095566
0000000012,0000011000,080048,077534,091033,077425,076971,095268
0000000013,0000012000,082876,075702,090036,080722,074979,093962
0000000014,0000013000,085730,074632,088252,083981,073905,091777
0000000015,0000014000,088329,074436,085850,086883,073857,088923
0000000016,0000015000,090386,075156,083073,089142,074838,085683
0000000017,0000016000,091723,076695,080197,090538,076748,082376
0000000018,0000017000,092222,078903,077492,090934,079407,079322
0000000019,0000018000,091802,081591,075222,090289,082555,076818
0000000020,0000019000,090520,084473,073622,088673,085874,075115
0000000021,0000020000,088518,087254,072843,086239,089046,074378
0000000022,0000021000,085962,089696,072956,083220,091766,074676
0000000023,0000022000,083110,091551,073954,079922,093759,075982
0000000024,0000023000,080267,092610,075738,076667,094829,078167
0000000025,0000024000,077684,092792,078140,073763,094879,081021
0000000026,0000025000,075607,092091,080917,071501,093901,084261
0000000027,0000026000,074267,090554,083793,070108,091987,087568
0000000028,0000027000,073789,088326,086499,069713,089328,090622
0000000029,0000028000,074198,085648,088768,070353,086184,093126
0000000030,0000029000,075468,082780,090368,071972,082863,094829
0000000031,0000030000,077488,079980,091147,074408,079689,095566
0000000032,0000031000,080044,077537,091034,077423,076972,095268
0000000033,0000032000,082879,075700,090036,080722,074979,093962
0000000034,0000033000,085733,074630,088252,083980,073906,091777
0000000035,0000034000,088324,074439,085851,086881,073858,088923
0000000036,0000035000,090386,075156,083073,089142,074838,085683
0000000037,0000036000,091728,076691,080196,090538,076748,082377
0000000038,0000037000,092219,078905,077492,090932,079409,079322
0000000039,0000038000,091799,081594,075223,090290,082555,076819
0000000040,0000039000,090525,084468,073622,088674,085873,075116
0000000041,0000040000,088518,087253,072843,086237,089047,074378
0000000042,0000041000,085957,089701,072956,083220,091766,074677
0000000043,0000042000,083113,091549,073953,079923,093758,075982
0000000044,0000043000,080271,092607,075737,076666,094830,078167
0000000045,0000044000,077680,092796,078139,073762,094880,081021
0000000046,0000045000,075606,092092,080917,071503,093900,084261
0000000047,0000046000,074272,090550,083793,070108,091988,087567
0000000048,0000047000,073788,088328,086499,069711,089329,090622
0000000049,0000048000,074194,085653,088768,070354,086184,093125
0000000050,0000049000,075471,082776,090368,071972,082863,094828
0000000051,0000050000,077489,079979,091148,074407,079690,095566
0000000052,0000051000,080039,077542,091034,077423,076973,095268
0000000053,0000052000,082880,075698,090037,080722,074979,093962
0000000054,0000053000,085736,074626,088253,083979,073907,091777
0000000055,0000054000,088321,074443,085852,086880,073859,088923
0000000056,0000055000,090385,075156,083073,089142,074837,085684
0000000057,0000056000,091732,076686,080197,090537,076748,082378
0000000058,0000057000,092217,078906,077492,090931,079409,079323
0000000059,0000058000,091797,081595,075222,090289,082554,076820
0000000060,0000059000,090528,084465,073622,088673,085873,075117
0000000061,0000060000,088519,087253,072843,086237,089047,074379
0000000062,0000061000,085956,089703,072956,083220,091765,074677
0000000063,0000062000,083115,091547,073953,079924,093757,075982
0000000064,0000063000,080272,092606,075737,076666,094830,078168
0000000065,0000064000,077678,092799,078138,073763,094879,081021
0000000066,0000065000,075607,092092,080916,071503,093899,084260
0000000067,0000066000,074274,090549,083792,070108,091988,087567
0000000068,0000067000,073785,088332,086498,069712,089330,090621
0000000069,0000068000,074194,085653,088767,070355,086184,093124
0000000070,0000069000,075473,082774,090368,071972,082864,094827
0000000071,0000070000,077486,079981,091148,074406,079692,095565
0000000072,0000071000,080037,077543,091035,077423,076974,095267
0000000073,0000072000,082882,075695,090037,080721,074980,093962
0000000074,0000073000,085734,074627,088254,083977,073909,091777
0000000075,0000074000,088318,074444,085852,086879,073860,088924
0000000076,0000075000,090388,075153,083074,089140,074838,085685
0000000077,0000076000,091732,076685,080198,090535,076749,082379
0000000078,0000077000,092215,078908,077493,090930,079409,079324
0000000079,0000078000,091800,081593,075223,090289,082553,076821
0000000080,0000079000,090531,084462,073622,088672,085873,075118
0000000081,0000080000,088517,087255,072842,086236,089046,074380
0000000082,0000081000,085957,089703,072955,083221,091764,074678
0000000083,0000082000,083119,091544,073952,079924,093756,075983
0000000084,0000083000,080271,092608,075736,076667,094829,078168
0000000085,0000084000,077677,092801,078137,073765,094878,081021
0000000086,0000085000,075610,092090,080915,071505,093899,084260
0000000087,0000086000,074273,090550,083792,070109,091988,087566
0000000088,0000087000,073781,088336,086497,069713,089330,090620
0000000089,0000088000,074195,085653,088767,070356,086184,093123
0000000090,0000089000,075473,082774,090368,071972,082866,094826
0000000091,0000090000,077482,079985,091149,074406,079693,095564
0000000092,0000091000,080036,077543,091036,077422,076975,095266
0000000093,0000092000,082883,075693,090039,080719,074982,093962
0000000094,0000093000,085731,074628,088256,083975,073911,091777
0000000095,0000094000,088317,074444,085854,086878,073861,088924
0000000096,0000095000,090390,075149,083076,089138,074839,085686
0000000097,0000096000,091731,076684,080200,090533,076750,082380
0000000098,0000097000,092214,078908,077493,090929,079408,079326
0000000099,0000098000,091803,081589,075223,090288,082552,076823
0000000100,0000099000,090533,084460,073622,088671,085871,075120
0000000101,0000100000,088517,087256,072841,086236,089044,074382
0000000102,0000101000,085960,089701,072954,083222,091761,074680
0000000103,0000102000,083122,091543,073950,079925,093754,075984
0000000104,0000103000,080271,092611,075734,076668,094827,078168
0000000105,0000104000,077678,092802,078135,073767,094876,081020
0000000106,0000105000,075612,092090,080913,071507,093898,084258
0000000107,0000106000,074271,090554,083790,070111,091988,087564
0000000108,0000107000,073780,088339,086496,069715,089330,090617
0000000109,0000108000,074195,085653,088766,070357,086186,093120
0000000110,0000109000,075470,082777,090368,071972,082868,094823
0000000111,0000110000,077478,079988,091149,074406,079696,095561
0000000112,0000111000,080036,077542,091037,077421,076978,095264
0000000113,0000112000,082881,075693,090041,080717,074986,093961
0000000114,0000113000,085727,074630,088258,083973,073913,091777
0000000115,0000114000,088317,074441,085856,086875,073863,088925
0000000116,0000115000,090390,075146,083078,089135,074841,085688
0000000117,0000116000,091730,076683,080202,090530,076751,082383
0000000118,0000117000,092216,078905,077495,090926,079408,079329
0000000119,0000118000,091807,081585,075224,090286,082551,076827
0000000120,0000119000,090534,084459,073622,088670,085869,075124
0000000121,0000120000,088519,087255,072840,086237,089041,074385
0000000122,0000121000,085965,089698,072952,083223,091758,074682
0000000123,0000122000,083124,091543,073948,079927,093751,075985
0000000124,0000123000,080271,092613,075731,076671,094823,078168
0000000125,0000124000,077681,092803,078132,073771,094873,081020
0000000126,0000125000,075613,092092,080910,071510,093896,084257
0000000127,0000126000,074269,090559,083788,070115,091988,087561
0000000128,0000127000,073779,088341,086494,069719,089330,090614
0000000129,0000128000,074194,085655,088766,070359,086188,093116
0000000130,0000129000,075465,082781,090369,071973,082871,094819
0000000131,0000130000,077475,079990,091151,074406,079699,095558
0000000132,0000131000,080034,077542,091039,077420,076982,095262
0000000133,0000132000,082877,075694,090044,080714,074990,093959
0000000134,0000133000,085724,074630,088261,083969,073917,091777
0000000135,0000134000,088317,074438,085860,086871,073866,088926
0000000136,0000135000,090390,075143,083082,089130,074843,085690
0000000137,0000136000,091729,076681,080204,090525,076752,082386
0000000138,0000137000,092219,078900,077496,090923,079407,079333
0000000139,0000138000,091810,081580,075225,090283,082549,076831
0000000140,0000139000,090536,084457,073621,088669,085866,075128
0000000141,0000140000,088524,087253,072838,086237,089037,074389
0000000142,0000141000,085970,089696,072949,083224,091753,074685
0000000143,0000142000,083126,091544,073944,079930,093746,075987
0000000144,0000143000,080274,092615,075727,076676,094819,078169
0000000145,0000144000,077684,092804,078128,073775,094870,081018
0000000146,0000145000,075613,092096,080907,071515,093894,084254
0000000147,0000146000,074267,090563,083784,070120,091986,087557
0000000148,0000147000,073778,088344,086492,069723,089331,090609
0000000149,0000148000,074191,085659,088765,070362,086190,093111
0000000150,0000149000,075460,082786,090369,071975,082874,094814
0000000151,0000150000,077471,079992,091152,074406,079703,095554
0000000152,0000151000,080030,077543,091042,077418,076987,095258
0000000153,0000152000,082871,075695,090048,080711,074995,093957
0000000154,0000153000,085721,074628,088266,083965,073922,091776
0000000155,0000154000,088316,074434,085865,086865,073870,088927
0000000156,0000155000,090388,075140,083086,089124,074846,085693
0000000157,0000156000,091730,076677,080208,090520,076752,082390
0000000158,0000157000,092222,078894,077499,090918,079406,079339
0000000159,0000158000,091813,081576,075226,090279,082547,076837
0000000160,0000159000,090540,084454,073621,088667,085862,075134
0000000161,0000160000,088530,087248,072836,086237,089032,074394
0000000162,0000161000,085975,089694,072946,083226,091748,074689
0000000163,0000162000,083130,091545,073940,079934,093740,075989
0000000164,0000163000,080278,092616,075721,076681,094813,078169
0000000165,0000164000,077687,092806,078122,073781,094865,081017
0000000166,0000165000,075612,092101,080902,071521,093891,084251
0000000167,0000166000,074266,090569,083780,070126,091985,087552
0000000168,0000167000,073777,088349,086489,069728,089332,090603
0000000169,0000168000,074186,085665,088764,070365,086193,093105
0000000170,0000169000,075454,082791,090370,071977,082879,094808
0000000171,0000170000,077466,079994,091155,074406,079709,095548
0000000172,0000171000,080024,077545,091046,077415,076994,095254
0000000173,0000172000,082865,075696,090053,080707,075002,093954
0000000174,0000173000,085718,074625,088272,083959,073928,091776
0000000175,0000174000,088313,074430,085871,086858,073876,088929
0000000176,0000175000,090386,075137,083092,089117,074849,085697
0000000177,0000176000,091732,076671,080212,090513,076754,082396
0000000178,0000177000,092226,078887,077502,090912,079405,079346
0000000179,0000178000,091817,081571,075227,090275,082544,076845
0000000180,0000179000,090546,084449,073620,088665,085857,075141
0000000181,0000180000,088537,087243,072834,086237,089025,074401
0000000182,0000181000,085981,089692,072942,083229,091740,074694
0000000183,0000182000,083135,091546,073934,079939,093732,075992
0000000184,0000183000,080284,092617,075715,076687,094806,078170
0000000185,0000184000,077689,092810,078116,073789,094860,081015
0000000186,0000185000,075612,092108,080895,071530,093887,084246
0000000187,0000186000,074265,090575,083775,070134,091984,087546
0000000188,0000187000,073773,088355,086486,069734,089333,090596
0000000189,0000188000,074180,085673,088762,070370,086197,093096
0000000190,0000189000,075448,082797,090370,071979,082884,094800
0000000191,0000190000,077460,079998,091158,074405,079717,095541
0000000192,0000191000,080016,077548,091051,077412,077003,095248
0000000193,0000192000,082859,075697,090060,080701,075011,093951
0000000194,0000193000,085714,074622,088279,083952,073936,091775
0000000195,0000194000,088310,074426,085879,086850,073882,088931
0000000196,0000195000,090385,075131,083099,089108,074853,085701
0000000197,0000196000,091734,076663,080218,090505,076755,082403
0000000198,0000197000,092230,078879,077506,090905,079404,079354
0000000199,0000198000,091822,081564,075229,090270,082540,076854
0000000200,0000199000,090554,084442,073619,088663,085850,075150
0000000201,0000200000,088546,087238,072831,086238,089017,074409
0000000202,0000201000,085988,089691,072936,083232,091731,074700
0000000203,0000202000,083143,091546,073927,079945,093723,075996
0000000204,0000203000,080290,092619,075706,076695,094797,078170
0000000205,0000204000,077692,092816,078107,073798,094853,081013
0000000206,0000205000,075613,092115,080887,071540,093882,084241
0000000207,0000206000,074264,090582,083768,070143,091982,087538
0000000208,0000207000,073769,088364,086481,069742,089335,090586
0000000209,0000208000,074173,085682,088760,070376,086201,093086
0000000210,0000209000,075441,082803,090371,071982,082891,094790
0000000211,0000210000,077451,080003,091161,074405,079726,095532
0000000212,0000211000,080006,077552,091057,077409,077013,095241
0000000213,0000212000,082851,075696,090067,080695,075021,093947
0000000214,0000213000,085708,074619,088288,083943,073946,091774
0000000215,0000214000,088305,074422,085888,086839,073890,088934
0000000216,0000215000,090384,075123,083107,089098,074858,085707
0000000217,0000216000,091737,076653,080225,090495,076757,082411
0000000218,0000217000,092234,078870,077511,090896,079403,079364
0000000219,0000218000,091829,081555,075231,090264,082535,076865
0000000220,0000219000,090563,084433,073618,088659,085842,075161
0000000221,0000220000,088555,087232,072827,086238,089007,074418
0000000222,0000221000,085997,089688,072930,083236,091719,074708
0000000223,0000222000,083152,091545,073918,079952,093711,076000
0000000224,0000223000,080297,092622,075697,076705,094787,078171
0000000225,0000224000,077696,092822,078097,073809,094844,081010
0000000226,0000225000,075614,092123,080878,071551,093877,084235
0000000227,0000226000,074263,090592,083760,070154,091980,087529
0000000228,0000227000,073763,088376,086476,069751,089336,090575
0000000229,0000228000,074165,085692,088758,070383,086206,093074
0000000230,0000229000,075431,082811,090372,071985,082900,094778
0000000231,0000230000,077439,080010,091166,074404,079737,095521
0000000232,0000231000,079995,077555,091064,077405,077025,095233
0000000233,0000232000,082842,075696,090077,080687,075033,093942
0000000234,0000233000,085700,074616,088299,083932,073957,091774
0000000235,0000234000,088300,074416,085899,086827,073899,088937
0000000236,0000235000,090383,075114,083118,089085,074864,085714
0000000237,0000236000,091739,076642,080234,090482,076759,082421
0000000238,0000237000,092239,078859,077517,090886,079401,079376
0000000239,0000238000,091838,081544,075234,090256,082529,076878
0000000240,0000239000,090574,084423,073617,088656,085833,075174
0000000241,0000240000,088566,087226,072822,086238,088995,074430
0000000242,0000241000,086009,089684,072922,083241,091706,074716
0000000243,0000242000,083163,091544,073908,079960,093698,076005
0000000244,0000243000,080305,092625,075685,076716,094775,078172
0000000245,0000244000,077701,092829,078085,073823,094834,081006
0000000246,0000245000,075616,092132,080866,071565,093870,084227
0000000247,0000246000,074260,090603,083751,070167,091978,087518
0000000248,0000247000,073756,088388,086470,069762,089339,090562
0000000249,0000248000,074156,085704,088755,070391,086213,093060
0000000250,0000249000,075420,082821,090373,071989,082910,094764
0000000251,0000250000,077426,080018,091171,074404,079750,095509
0000000252,0000251000,079983,077559,091073,077400,077040,095224
0000000253,0000252000,082831,075695,090088,080678,075048,093937
0000000254,0000253000,085691,074612,088312,083920,073970,091773
0000000255,0000254000,088294,074408,085912,086813,073910,088941
0000000256,0000255000,090382,075103,083130,089070,074871,085722
0000000257,0000256000,091742,076629,080244,090468,076762,082433
0000000258,0000257000,092245,078846,077524,090874,079399,079391
0000000259,0000258000,091848,081531,075236,090248,082522,076893
0000000260,0000259000,090587,084412,073616,088652,085822,075189
0000000261,0000260000,088580,087218,072817,086239,088981,074443
0000000262,0000261000,086023,089680,072913,083246,091691,074726
0000000263,0000262000,083175,091544,073896,079970,093682,076011
0000000264,0000263000,080314,092630,075671,076729,094761,078173
0000000265,0000264000,077707,092837,078071,073838,094823,081002
0000000266,0000265000,075618,092143,080853,071582,093863,084219
0000000267,0000266000,074257,090617,083740,070182,091975,087506
0000000268,0000267000,073749,088403,086462,069775,089341,090547
0000000269,0000268000,074146,085717,088752,070400,086220,093043
0000000270,0000269000,075407,082833,090375,071993,082922,094748
0000000271,0000270000,077411,080027,091176,074403,079765,095495
0000000272,0000271000,079969,077564,091082,077394,077056,095213
0000000273,0000272000,082818,075695,090101,080667,075065,093931
0000000274,0000273000,085680,074608,088327,083906,073986,091772
0000000275,0000274000,088288,074399,085927,086796,073922,088945
0000000276,0000275000,090381,075090,083144,089052,074879,085731
0000000277,0000276000,091744,076615,080256,090452,076765,082447
0000000278,0000277000,092253,078830,077532,090860,079396,079407
0000000279,0000278000,091860,081515,075240,090238,082514,076911
0000000280,0000279000,090601,084399,073614,088647,085810,075206
0000000281,0000280000,088595,087209,072810,086240,088965,074458
0000000282,0000281000,086039,089674,072902,083252,091673,074738
0000000283,0000282000,083189,091544,073882,079981,093664,076018
0000000284,0000283000,080325,092635,075655,076745,094744,078174
0000000285,0000284000,077714,092847,078054,073856,094810,080998
0000000286,0000285000,075620,092156,080838,071600,093854,084209
0000000287,0000286000,074253,090633,083728,070200,091972,087491
0000000288,0000287000,073741,088420,086453,069790,089344,090529
0000000289,0000288000,074134,085733,088748,070410,086229,093024
0000000290,0000289000,075391,082848,090376,071998,082935,094729
0000000291,0000290000,077394,080038,091183,074402,079782,095479
0000000292,0000291000,079952,077569,091094,077387,077075,095201
0000000293,0000292000,082803,075696,090116,080655,075084,093924
0000000294,0000293000,085668,074603,088344,083889,074003,091770
0000000295,0000294000,088281,074389,085945,086777,073936,088950
0000000296,0000295000,090379,075076,083160,089033,074888,085742
0000000297,0000296000,091747,076598,080269,090433,076768,082462
0000000298,0000297000,092262,078812,077541,090845,079393,079426
0000000299,0000298000,091873,081498,075244,090227,082505,076931
0000000300,0000299000,090617,084385,073613,088642,085796,075226
0000000301,0000300000,088614,087198,072803,086241,088947,074475
