DIgSILENT PowerFactory,21000900,2000
6,06A,00D
1,TTPP_200000_100:Secondary Voltage A,,,V,0.10000000,-8370.351563,0.000000,64768,99998,1,1,P
2,TTPP_200000_100:Secondary Voltage B,,,V,0.10000000,-8189.854980,0.000000,65703,99998,1,1,P
3,TTPP_200000_100:Secondary Voltage C,,,V,0.10000000,-8362.092773,0.000000,63595,99998,1,1,P
4,TTCC_300_1:Secondary Current A,,,A,0.00010000000,-3.497830,0.000000,-9966,99998,1,1,P
5,TTCC_300_1:Secondary Current B,,,A,0.00010000000,-5.022845,0.000000,457,99998,1,1,P
6,TTCC_300_1:Secondary Current C,,,A,0.00010000000,-4.890584,0.000000,-1934,99998,1,1,P
50
1
1000.000000,1101
30/06/2023,06:05:28.000000
30/06/2023,06:05:28.000000
ASCII
1.000000
0000000001,0000000000,090810,083373,075040,014048,036239,083825
0000000002,0000001000,088676,086090,074455,023800,026962,083351
0000000003,0000002000,086035,088421,074767,034641,019963,079510
0000000004,0000003000,083178,090101,075943,045520,015920,072675
0000000005,0000004000,080386,090962,077876,055362,015245,063505
0000000006,0000005000,077898,090954,080373,063210,017998,052905
0000000007,0000006000,075977,090067,083179,068297,023891,041924
0000000008,0000007000,074832,088360,086032,070120,032366,031627
0000000009,0000008000,074547,086021,088654,068495,042608,023010
0000000010,0000009000,075144,083299,090780,063598,053583,016932
0000000011,0000010000,076592,080428,092202,055905,064217,013992
0000000012,0000011000,078745,077691,092787,046146,073502,014465
0000000013,0000012000,081367,075382,092475,035297,080509,018307
0000000014,0000013000,084218,073707,091298,024431,084539,025143
0000000015,0000014000,087032,072824,089367,014587,085214,034311
0000000016,0000015000,089511,072841,086869,006729,082474,044910
0000000017,0000016000,091419,073742,084062,001650,076571,055892
0000000018,0000017000,092581,075432,081210,-00169,068091,066190
0000000019,0000018000,092866,077769,078588,001447,057859,074806
0000000020,0000019000,092254,080508,076462,006346,046883,080883
0000000021,0000020000,090816,083368,075039,014047,036241,083825
0000000022,0000021000,088670,086098,074455,023798,026963,083351
0000000023,0000022000,086033,088423,074767,034648,019956,079509
0000000024,0000023000,083187,090093,075943,045520,015920,072673
0000000025,0000024000,080383,090964,077876,055359,015248,063505
0000000026,0000025000,077891,090960,080373,063214,017993,052905
0000000027,0000026000,075982,090061,083179,068302,023887,041924
0000000028,0000027000,074835,088357,086032,070117,032370,031626
0000000029,0000028000,074540,086029,088654,068497,042607,023010
0000000030,0000029000,075145,083298,090780,063605,053576,016932
0000000031,0000030000,076598,080422,092202,055904,064217,013991
0000000032,0000031000,078741,077696,092787,046145,073503,014464
0000000033,0000032000,081364,075384,092475,035302,080505,018306
0000000034,0000033000,084223,073701,091299,024435,084536,025142
0000000035,0000034000,087032,072825,089367,014586,085217,034310
0000000036,0000035000,089507,072846,086869,006733,082471,044909
0000000037,0000036000,091422,073738,084062,001654,076568,055890
0000000038,0000037000,092583,075430,081210,-00168,068092,066188
0000000039,0000038000,092863,077773,078588,001447,057861,074804
0000000040,0000039000,092255,080507,076462,006350,046881,080882
0000000041,0000040000,090818,083365,075039,014048,036242,083823
0000000042,0000041000,088668,086100,074455,023799,026965,083350
0000000043,0000042000,086033,088424,074766,034649,019956,079508
0000000044,0000043000,083189,090091,075943,045520,015920,072673
0000000045,0000044000,080382,090966,077876,055359,015249,063505
0000000046,0000045000,077890,090961,080372,063215,017992,052906
0000000047,0000046000,075985,090059,083179,068301,023886,041925
0000000048,0000047000,074833,088358,086032,070116,032369,031627
0000000049,0000048000,074538,086030,088654,068498,042604,023011
0000000050,0000049000,075147,083296,090780,063605,053574,016933
0000000051,0000050000,076597,080423,092203,055905,064216,013992
0000000052,0000051000,078738,077698,092787,046148,073500,014465
0000000053,0000052000,081366,075381,092475,035305,080501,018306
0000000054,0000053000,084224,073700,091299,024436,084535,025142
0000000055,0000054000,087028,072828,089367,014590,085215,034309
0000000056,0000055000,089509,072844,086870,006738,082468,044907
0000000057,0000056000,091425,073735,084063,001655,076569,055888
0000000058,0000057000,092580,075433,081211,-00166,068093,066185
0000000059,0000058000,092862,077773,078588,001452,057859,074801
0000000060,0000059000,092259,080502,076461,006351,046883,080879
0000000061,0000060000,090817,083366,075039,014046,036246,083821
0000000062,0000061000,088665,086103,074455,023800,026965,083348
0000000063,0000062000,086037,088420,074766,034649,019957,079507
0000000064,0000063000,083190,090090,075942,045516,015925,072672
0000000065,0000064000,080378,090970,077875,055357,015250,063505
0000000066,0000065000,077892,090959,080371,063215,017990,052907
0000000067,0000066000,075987,090057,083179,068298,023888,041927
0000000068,0000067000,074829,088362,086031,070114,032370,031630
0000000069,0000068000,074537,086031,088654,068499,042600,023014
0000000070,0000069000,075150,083293,090780,063605,053571,016936
0000000071,0000070000,076595,080425,092203,055904,064214,013994
0000000072,0000071000,078735,077701,092788,046152,073494,014467
0000000073,0000072000,081369,075378,092476,035309,080496,018307
0000000074,0000073000,084223,073700,091300,024438,084533,025141
0000000075,0000074000,087025,072830,089368,014595,085211,034307
0000000076,0000075000,089511,072842,086870,006744,082464,044905
0000000077,0000076000,091427,073733,084063,001659,076569,055884
0000000078,0000077000,092578,075434,081211,-00162,068094,066181
0000000079,0000078000,092864,077772,078588,001457,057859,074796
0000000080,0000079000,092262,080500,076462,006352,046886,080874
0000000081,0000080000,090816,083368,075039,014046,036251,083816
0000000082,0000081000,088666,086103,074454,023800,026968,083344
0000000083,0000082000,086040,088418,074765,034647,019962,079505
0000000084,0000083000,083190,090092,075942,045511,015930,072671
0000000085,0000084000,080377,090972,077874,055353,015252,063506
0000000086,0000085000,077895,090958,080371,063210,017992,052910
0000000087,0000086000,075986,090058,083178,068292,023890,041931
0000000088,0000087000,074827,088365,086031,070110,032368,031635
0000000089,0000088000,074539,086031,088653,068497,042596,023020
0000000090,0000089000,075150,083293,090780,063603,053568,016942
0000000091,0000090000,076591,080428,092203,055905,064208,013999
0000000092,0000091000,078735,077700,092788,046155,073486,014471
0000000093,0000092000,081369,075377,092477,035312,080490,018310
0000000094,0000093000,084220,073701,091301,024444,084527,025142
0000000095,0000094000,087024,072830,089369,014604,085204,034305
0000000096,0000095000,089513,072838,086872,006751,082461,044901
0000000097,0000096000,091425,073733,084065,001665,076569,055879
0000000098,0000097000,092577,075435,081212,-00155,068093,066174
0000000099,0000098000,092867,077768,078588,001462,057861,074789
0000000100,0000099000,092263,080499,076462,006353,046893,080866
0000000101,0000100000,090815,083369,075038,014047,036257,083809
0000000102,0000101000,088669,086101,074453,023799,026975,083339
0000000103,0000102000,086043,088416,074764,034641,019971,079501
0000000104,0000103000,083188,090095,075940,045504,015938,072670
0000000105,0000104000,080378,090973,077872,055347,015257,063508
0000000106,0000105000,077897,090957,080369,063201,017997,052914
0000000107,0000106000,075984,090062,083177,068283,023892,041938
0000000108,0000107000,074825,088368,086030,070105,032365,031643
0000000109,0000108000,074539,086030,088653,068492,042592,023029
0000000110,0000109000,075148,083295,090781,063599,053562,016951
0000000111,0000110000,076588,080431,092204,055906,064199,014008
0000000112,0000111000,078735,077699,092789,046160,073475,014477
0000000113,0000112000,081368,075376,092479,035318,080481,018313
0000000114,0000113000,084217,073703,091303,024453,084518,025142
0000000115,0000114000,087024,072828,089370,014615,085195,034303
0000000116,0000115000,089514,072836,086873,006761,082456,044895
0000000117,0000116000,091424,073733,084066,001675,076567,055870
0000000118,0000117000,092578,075433,081213,-00145,068093,066163
0000000119,0000118000,092870,077765,078589,001468,057866,074777
0000000120,0000119000,092264,080498,076461,006356,046901,080855
0000000121,0000120000,090817,083369,075037,014048,036266,083799
0000000122,0000121000,088673,086099,074451,023796,026986,083331
0000000123,0000122000,086044,088417,074762,034633,019983,079496
0000000124,0000123000,083188,090097,075938,045495,015948,072669
0000000125,0000124000,080381,090973,077870,055336,015265,063511
0000000126,0000125000,077897,090959,080367,063188,018004,052921
0000000127,0000126000,075982,090065,083175,068271,023894,041947
0000000128,0000127000,074825,088370,086028,070095,032363,031655
0000000129,0000128000,074539,086031,088653,068484,042587,023042
0000000130,0000129000,075144,083298,090781,063595,053553,016964
0000000131,0000130000,076585,080433,092205,055907,064186,014019
0000000132,0000131000,078734,077698,092791,046164,073462,014486
0000000133,0000132000,081365,075377,092481,035326,080468,018319
0000000134,0000133000,084215,073703,091305,024465,084504,025143
0000000135,0000134000,087025,072825,089373,014629,085184,034300
0000000136,0000135000,089513,072834,086876,006775,082450,044888
0000000137,0000136000,091423,073732,084068,001690,076564,055859
0000000138,0000137000,092580,075429,081214,-00132,068095,066149
0000000139,0000138000,092873,077761,078589,001477,057874,074762
0000000140,0000139000,092265,080497,076461,006361,046912,080840
0000000141,0000140000,090820,083367,075036,014049,036279,083786
0000000142,0000141000,088677,086097,074449,023790,027003,083321
0000000143,0000142000,086045,088418,074760,034623,020000,079490
0000000144,0000143000,083190,090098,075935,045482,015962,072668
0000000145,0000144000,080383,090973,077867,055320,015278,063515
0000000146,0000145000,077897,090962,080365,063170,018013,052929
0000000147,0000146000,075981,090069,083173,068256,023897,041960
0000000148,0000147000,074825,088372,086027,070082,032360,031671
0000000149,0000148000,074536,086034,088652,068474,042580,023060
0000000150,0000149000,075139,083302,090781,063590,053541,016982
0000000151,0000150000,076583,080434,092206,055909,064169,014035
0000000152,0000151000,078731,077698,092794,046170,073444,014498
0000000153,0000152000,081361,075378,092484,035337,080449,018326
0000000154,0000153000,084213,073702,091309,024482,084486,025145
0000000155,0000154000,087024,072822,089377,014647,085171,034295
0000000156,0000155000,089512,072832,086879,006795,082441,044877
0000000157,0000156000,091424,073729,084070,001710,076559,055844
0000000158,0000157000,092584,075424,081216,-00116,068097,066131
0000000159,0000158000,092875,077758,078590,001488,057883,074742
0000000160,0000159000,092268,080495,076460,006368,046926,080819
0000000161,0000160000,090825,083364,075034,014048,036297,083768
0000000162,0000161000,088681,086095,074447,023783,027024,083307
0000000163,0000162000,086048,088419,074756,034610,020021,079481
0000000164,0000163000,083194,090099,075931,045465,015981,072666
0000000165,0000164000,080386,090975,077863,055298,015294,063520
0000000166,0000165000,077896,090966,080361,063148,018024,052941
0000000167,0000166000,075980,090073,083170,068235,023900,041977
0000000168,0000167000,074823,088375,086025,070063,032357,031692
0000000169,0000168000,074532,086039,088651,068460,042570,023083
0000000170,0000169000,075135,083306,090782,063584,053524,017004
0000000171,0000170000,076580,080435,092208,055909,064148,014055
0000000172,0000171000,078727,077700,092797,046177,073421,014514
0000000173,0000172000,081356,075379,092488,035352,080425,018335
0000000174,0000173000,084211,073699,091313,024503,084463,025147
0000000175,0000174000,087023,072819,089381,014671,085153,034289
0000000176,0000175000,089510,072829,086883,006820,082429,044864
0000000177,0000176000,091426,073724,084074,001734,076554,055824
0000000178,0000177000,092587,075418,081218,-00096,068101,066107
0000000179,0000178000,092878,077755,078591,001503,057894,074716
0000000180,0000179000,092272,080491,076460,006376,046943,080794
0000000181,0000180000,090831,083360,075032,014048,036320,083745
0000000182,0000181000,088685,086094,074444,023773,027051,083289
0000000183,0000182000,086051,088420,074752,034594,020047,079471
0000000184,0000183000,083198,090099,075926,045443,016006,072664
0000000185,0000184000,080387,090978,077858,055271,015315,063526
0000000186,0000185000,077896,090971,080356,063120,018037,052955
0000000187,0000186000,075980,090078,083166,068209,023905,041999
0000000188,0000187000,074821,088380,086022,070040,032354,031719
0000000189,0000188000,074527,086045,088650,068444,042558,023111
0000000190,0000189000,075131,083310,090782,063576,053503,017033
0000000191,0000190000,076575,080438,092210,055910,064122,014080
0000000192,0000191000,078720,077702,092800,046187,073392,014533
0000000193,0000192000,081351,075379,092493,035371,080394,018347
0000000194,0000193000,084208,073696,091319,024528,084436,025149
0000000195,0000194000,087020,072816,089387,014700,085131,034282
0000000196,0000195000,089509,072825,086889,006852,082413,044848
0000000197,0000196000,091428,073717,084078,001764,076548,055801
0000000198,0000197000,092589,075412,081221,-00071,068105,066078
0000000199,0000198000,092881,077750,078592,001521,057908,074684
0000000200,0000199000,092278,080486,076459,006385,046965,080762
0000000201,0000200000,090837,083356,075030,014047,036349,083717
0000000202,0000201000,088690,086093,074440,023762,027083,083267
0000000203,0000202000,086057,088420,074746,034575,020080,079458
0000000204,0000203000,083203,090101,075920,045415,016036,072661
0000000205,0000204000,080389,090982,077852,055238,015340,063534
0000000206,0000205000,077896,090977,080350,063087,018053,052973
0000000207,0000206000,075979,090083,083161,068176,023911,042025
0000000208,0000207000,074817,088386,086019,070012,032350,031751
0000000209,0000208000,074522,086052,088649,068424,042542,023147
0000000210,0000209000,075125,083315,090783,063567,053479,017067
0000000211,0000210000,076568,080442,092213,055910,064091,014111
0000000212,0000211000,078713,077705,092805,046199,073356,014557
0000000213,0000212000,081346,075379,092499,035394,080358,018361
0000000214,0000213000,084203,073694,091326,024558,084403,025152
0000000215,0000214000,087016,072812,089394,014736,085104,034273
0000000216,0000215000,089509,072819,086895,006890,082395,044828
0000000217,0000216000,091430,073710,084083,001800,076541,055772
0000000218,0000217000,092593,075406,081225,-00041,068111,066042
0000000219,0000218000,092886,077743,078594,001543,057924,074645
0000000220,0000219000,092286,080479,076458,006396,046991,080725
0000000221,0000220000,090844,083352,075027,014045,036384,083684
0000000222,0000221000,088697,086092,074434,023749,027122,083242
0000000223,0000222000,086064,088419,074739,034550,020119,079443
0000000224,0000223000,083208,090103,075912,045381,016073,072658
0000000225,0000224000,080392,090987,077844,055199,015369,063544
0000000226,0000225000,077897,090983,080343,063046,018072,052995
0000000227,0000226000,075978,090090,083155,068137,023919,042057
0000000228,0000227000,074813,088395,086015,069979,032344,031790
0000000229,0000228000,074516,086059,088647,068401,042524,023189
0000000230,0000229000,075118,083321,090784,063555,053449,017109
0000000231,0000230000,076560,080447,092217,055911,064054,014147
0000000232,0000231000,078705,077708,092810,046214,073313,014584
0000000233,0000232000,081339,075378,092506,035421,080314,018377
0000000234,0000233000,084198,073691,091334,024594,084364,025155
0000000235,0000234000,087013,072808,089402,014778,085072,034263
0000000236,0000235000,089509,072812,086903,006935,082374,044805
0000000237,0000236000,091432,073701,084090,001842,076533,055737
0000000238,0000237000,092596,075398,081229,-00005,068117,066000
0000000239,0000238000,092893,077735,078595,001569,057944,074599
0000000240,0000239000,092294,080472,076457,006409,047024,080680
0000000241,0000240000,090853,083347,075023,014043,036425,083644
0000000242,0000241000,088705,086089,074428,023734,027168,083211
0000000243,0000242000,086072,088419,074732,034521,020166,079425
0000000244,0000243000,083213,090106,075903,045342,016116,072655
0000000245,0000244000,080395,090993,077835,055154,015404,063555
0000000246,0000245000,077899,090990,080335,062997,018095,053020
0000000247,0000246000,075975,090099,083149,068091,023928,042094
0000000248,0000247000,074808,088405,086010,069940,032337,031835
0000000249,0000248000,074509,086068,088645,068373,042502,023238
0000000250,0000249000,075110,083328,090785,063540,053415,017157
0000000251,0000250000,076550,080453,092221,055913,064009,014190
0000000252,0000251000,078696,077711,092817,046232,073263,014617
0000000253,0000252000,081331,075378,092514,035452,080264,018397
0000000254,0000253000,084191,073689,091344,024636,084317,025159
0000000255,0000254000,087008,072802,089412,014829,085034,034250
0000000256,0000255000,089508,072803,086912,006987,082349,044777
0000000257,0000256000,091434,073692,084097,001891,076525,055697
0000000258,0000257000,092601,075388,081234,000037,068124,065951
0000000259,0000258000,092901,077725,078598,001599,057967,074546
0000000260,0000259000,092303,080464,076456,006424,047061,080628
0000000261,0000260000,090862,083341,075019,014042,036473,083598
0000000262,0000261000,088716,086085,074421,023715,027221,083176
0000000263,0000262000,086082,088419,074723,034487,020221,079405
0000000264,0000263000,083220,090110,075893,045296,016166,072651
0000000265,0000264000,080400,090999,077824,055100,015443,063569
0000000266,0000265000,077900,090998,080325,062941,018121,053050
0000000267,0000266000,075973,090110,083141,068038,023938,042137
0000000268,0000267000,074802,088416,086005,069896,032329,031888
0000000269,0000268000,074502,086078,088643,068341,042476,023295
0000000270,0000269000,075099,083337,090786,063524,053375,017213
0000000271,0000270000,076538,080460,092225,055916,063958,014239
0000000272,0000271000,078685,077714,092824,046252,073205,014655
0000000273,0000272000,081321,075378,092524,035488,080206,018419
0000000274,0000273000,084183,073685,091355,024686,084264,025163
0000000275,0000274000,087004,072795,089423,014886,084991,034235
0000000276,0000275000,089507,072794,086922,007047,082321,044745
0000000277,0000276000,091436,073681,084106,001948,076514,055650
0000000278,0000277000,092607,075376,081240,000085,068133,065894
0000000279,0000278000,092910,077713,078600,001634,057994,074485
0000000280,0000279000,092314,080454,076455,006440,047104,080568
0000000281,0000280000,090874,083334,075014,014039,036528,083545
0000000282,0000281000,088728,086081,074413,023694,027283,083136
0000000283,0000282000,086092,088419,074712,034448,020284,079381
0000000284,0000283000,083228,090114,075881,045243,016223,072647
0000000285,0000284000,080405,091006,077812,055039,015489,063585
0000000286,0000285000,077902,091008,080314,062877,018151,053084
0000000287,0000286000,075970,090122,083131,067977,023949,042187
0000000288,0000287000,074796,088428,085998,069845,032319,031949
0000000289,0000288000,074493,086090,088640,068305,042447,023361
0000000290,0000289000,075087,083348,090788,063507,053329,017277
0000000291,0000290000,076525,080468,092230,055919,063899,014295
0000000292,0000291000,078672,077718,092833,046276,073139,014697
0000000293,0000292000,081310,075378,092536,035530,080139,018443
0000000294,0000293000,084174,073682,091368,024742,084203,025167
0000000295,0000294000,086999,072788,089437,014952,084942,034218
0000000296,0000295000,089505,072783,086935,007115,082289,044708
0000000297,0000296000,091438,073669,084116,002013,076503,055597
0000000298,0000297000,092614,075362,081247,000140,068143,065830
0000000299,0000298000,092920,077700,078603,001672,058025,074415
0000000300,0000299000,092326,080443,076454,006459,047154,080500
0000000301,0000300000,090888,083326,075009,014036,036591,083486
