DIgSILENT PowerFactory,21000900,2000
6,06A,00D
1,TTPP_200000_100:Secondary Voltage A,,,V,0.10000000,-8090.107910,0.000000,61847,99998,1,1,P
2,TTPP_200000_100:Secondary Voltage B,,,V,0.10000000,-7606.662598,0.000000,55416,99998,1,1,P
3,TTPP_200000_100:Secondary Voltage C,,,V,0.10000000,-7958.668457,0.000000,58026,99998,1,1,P
4,TTCC_300_1:Secondary Current A,,,A,0.00010000000,-4.122649,0.000000,215,99998,1,1,P
5,TTCC_300_1:Secondary Current B,,,A,0.00010000000,-4.998062,0.000000,454,99998,1,1,P
6,TTCC_300_1:Secondary Current C,,,A,0.00010000000,-4.890863,0.000000,-3617,99998,1,1,P
50
1
1000.000000,1101
30/06/2023,06:05:27.000000
30/06/2023,06:05:27.000000
ASCII
1.000000
0000000001,0000000000,088007,077542,071005,020297,035990,083828
0000000002,0000001000,085873,080259,070421,030050,026712,083354
0000000003,0000002000,083233,082590,070732,040889,019716,079512
0000000004,0000003000,080376,084269,071909,051769,015670,072676
0000000005,0000004000,077583,085130,073842,061610,014998,063507
0000000006,0000005000,075095,085121,076339,069461,017748,052907
0000000007,0000006000,073174,084235,079145,074543,023647,041926
0000000008,0000007000,072030,082527,081998,076370,032118,031628
0000000009,0000008000,071744,080189,084620,074742,042363,023012
0000000010,0000009000,072342,077466,086746,069848,053333,016935
0000000011,0000010000,073789,074597,088168,062150,063972,013994
0000000012,0000011000,075944,071858,088753,052394,073253,014467
0000000013,0000012000,078564,069550,088441,041543,080263,018310
0000000014,0000013000,081417,067873,087264,030679,084290,025147
0000000015,0000014000,084229,066993,085332,020834,084967,034315
0000000016,0000015000,086710,067009,082835,012977,082225,044914
0000000017,0000016000,088616,067910,080027,007898,076322,055895
0000000018,0000017000,089780,069599,077176,006079,067843,066194
0000000019,0000018000,090063,071938,074554,007696,057611,074809
0000000020,0000019000,089452,074676,072427,012594,046635,080886
0000000021,0000020000,088013,077536,071005,020297,035991,083828
0000000022,0000021000,085867,080266,070421,030046,026716,083354
0000000023,0000022000,083230,082592,070732,040898,019707,079511
0000000024,0000023000,080384,084261,071909,051768,015672,072675
0000000025,0000024000,077581,085132,073842,061609,015000,063507
0000000026,0000025000,075088,085128,076339,069462,017746,052907
0000000027,0000026000,073180,084230,079145,074551,023639,041926
0000000028,0000027000,072033,082524,081998,076365,032123,031628
0000000029,0000028000,071737,080197,084620,074744,042360,023012
0000000030,0000029000,072342,077466,086746,069852,053329,016934
0000000031,0000030000,073796,074590,088168,062152,063970,013994
0000000032,0000031000,075939,071863,088753,052392,073256,014467
0000000033,0000032000,078561,069552,088441,041549,080257,018309
0000000034,0000033000,081421,067869,087264,030682,084288,025145
0000000035,0000034000,084230,066993,085332,020834,084969,034313
0000000036,0000035000,086705,067014,082835,012980,082224,044913
0000000037,0000036000,088620,067907,080028,007902,076320,055894
0000000038,0000037000,089781,069598,077176,006080,067844,066192
0000000039,0000038000,090060,071941,074553,007696,057611,074807
0000000040,0000039000,089452,074675,072427,012598,046633,080885
0000000041,0000040000,088015,077534,071005,020297,035993,083826
0000000042,0000041000,085865,080268,070421,030047,026716,083352
0000000043,0000042000,083231,082591,070732,040898,019707,079510
0000000044,0000043000,080386,084259,071909,051768,015672,072675
0000000045,0000044000,077579,085134,073842,061608,015000,063507
0000000046,0000045000,075088,085128,076338,069464,017744,052907
0000000047,0000046000,073182,084227,079145,074550,023639,041927
0000000048,0000047000,072030,082527,081998,076364,032123,031629
0000000049,0000048000,071736,080198,084620,074747,042357,023013
0000000050,0000049000,072345,077463,086746,069853,053327,016936
0000000051,0000050000,073795,074591,088169,062152,063969,013994
0000000052,0000051000,075935,071866,088753,052396,073252,014467
0000000053,0000052000,078565,069549,088441,041552,080254,018309
0000000054,0000053000,081422,067868,087265,030683,084288,025145
0000000055,0000054000,084225,066996,085333,020837,084967,034312
0000000056,0000055000,086707,067012,082835,012986,082220,044911
0000000057,0000056000,088623,067903,080028,007903,076321,055892
0000000058,0000057000,089777,069601,077176,006081,067845,066189
0000000059,0000058000,090060,071942,074553,007701,057610,074805
0000000060,0000059000,089457,074670,072427,012599,046634,080882
0000000061,0000060000,088015,077535,071005,020295,035997,083824
0000000062,0000061000,085862,080272,070420,030049,026716,083350
0000000063,0000062000,083235,082588,070732,040899,019708,079509
0000000064,0000063000,080388,084258,071908,051765,015677,072674
0000000065,0000064000,077575,085138,073841,061606,015002,063507
0000000066,0000065000,075089,085128,076338,069464,017743,052909
0000000067,0000066000,073185,084225,079145,074546,023641,041929
0000000068,0000067000,072027,082530,081997,076362,032123,031632
0000000069,0000068000,071735,080200,084620,074747,042353,023016
0000000070,0000069000,072348,077460,086746,069853,053324,016939
0000000071,0000070000,073793,074593,088169,062151,063967,013997
0000000072,0000071000,075933,071868,088753,052399,073247,014470
0000000073,0000072000,078566,069546,088442,041556,080249,018311
0000000074,0000073000,081421,067868,087266,030686,084286,025145
0000000075,0000074000,084223,066998,085333,020842,084963,034311
0000000076,0000075000,086708,067010,082836,012991,082216,044909
0000000077,0000076000,088624,067901,080029,007907,076321,055888
0000000078,0000077000,089775,069603,077177,006086,067845,066184
0000000079,0000078000,090061,071940,074553,007705,057610,074800
0000000080,0000079000,089459,074668,072427,012600,046638,080877
0000000081,0000080000,088013,077536,071005,020295,036002,083819
0000000082,0000081000,085863,080271,070419,030049,026720,083347
0000000083,0000082000,083238,082586,070731,040895,019714,079507
0000000084,0000083000,080387,084260,071908,051760,015682,072674
0000000085,0000084000,077575,085140,073840,061603,015005,063508
0000000086,0000085000,075092,085126,076337,069459,017745,052912
0000000087,0000086000,073184,084227,079144,074540,023643,041933
0000000088,0000087000,072024,082533,081997,076359,032120,031637
0000000089,0000088000,071736,080198,084619,074745,042349,023022
0000000090,0000089000,072347,077460,086746,069850,053321,016945
0000000091,0000090000,073789,074597,088169,062152,063961,014002
0000000092,0000091000,075933,071868,088754,052403,073239,014474
0000000093,0000092000,078567,069544,088443,041560,080243,018313
0000000094,0000093000,081418,067870,087267,030691,084280,025145
0000000095,0000094000,084222,066998,085334,020851,084956,034309
0000000096,0000095000,086711,067006,082837,012999,082213,044905
0000000097,0000096000,088623,067901,080030,007913,076321,055882
0000000098,0000097000,089774,069603,077177,006093,067845,066177
0000000099,0000098000,090065,071936,074554,007711,057613,074792
0000000100,0000099000,089461,074667,072427,012602,046644,080870
0000000101,0000100000,088012,077538,071004,020296,036008,083812
0000000102,0000101000,085866,080269,070418,030048,026726,083342
0000000103,0000102000,083240,082584,070730,040890,019722,079504
0000000104,0000103000,080385,084263,071906,051753,015690,072673
0000000105,0000104000,077576,085141,073838,061596,015009,063510
0000000106,0000105000,075094,085125,076335,069450,017749,052916
0000000107,0000106000,073182,084230,079143,074531,023645,041940
0000000108,0000107000,072023,082536,081996,076353,032118,031645
0000000109,0000108000,071737,080198,084619,074740,042345,023031
0000000110,0000109000,072345,077462,086747,069847,053315,016954
0000000111,0000110000,073786,074599,088170,062153,063952,014010
0000000112,0000111000,075933,071867,088755,052407,073228,014480
0000000113,0000112000,078566,069544,088445,041565,080234,018317
0000000114,0000113000,081415,067871,087269,030700,084270,025146
0000000115,0000114000,084222,066996,085336,020862,084948,034306
0000000116,0000115000,086712,067004,082839,013009,082208,044899
0000000117,0000116000,088622,067901,080031,007923,076318,055874
0000000118,0000117000,089776,069601,077178,006103,067845,066167
0000000119,0000118000,090068,071933,074554,007717,057618,074781
0000000120,0000119000,089461,074666,072427,012605,046653,080858
0000000121,0000120000,088014,077537,071003,020297,036017,083802
0000000122,0000121000,085870,080267,070417,030045,026738,083334
0000000123,0000122000,083241,082585,070728,040882,019735,079499
0000000124,0000123000,080386,084265,071904,051744,015700,072671
0000000125,0000124000,077578,085140,073836,061585,015018,063513
0000000126,0000125000,075095,085127,076333,069436,017756,052923
0000000127,0000126000,073180,084234,079141,074520,023647,041949
0000000128,0000127000,072023,082537,081994,076344,032115,031657
0000000129,0000128000,071736,080199,084619,074732,042340,023044
0000000130,0000129000,072341,077466,086747,069843,053306,016967
0000000131,0000130000,073783,074601,088171,062155,063939,014022
0000000132,0000131000,075932,071866,088757,052411,073215,014489
0000000133,0000132000,078563,069545,088447,041573,080220,018322
0000000134,0000133000,081412,067871,087271,030713,084256,025147
0000000135,0000134000,084223,066993,085339,020877,084936,034303
0000000136,0000135000,086711,067002,082841,013023,082202,044891
0000000137,0000136000,088621,067900,080033,007938,076315,055862
0000000138,0000137000,089778,069597,077179,006116,067846,066153
0000000139,0000138000,090070,071929,074555,007725,057625,074765
0000000140,0000139000,089462,074666,072427,012610,046663,080843
0000000141,0000140000,088017,077535,071002,020298,036030,083788
0000000142,0000141000,085874,080265,070415,030039,026754,083323
0000000143,0000142000,083243,082586,070725,040872,019752,079492
0000000144,0000143000,080388,084266,071901,051732,015714,072670
0000000145,0000144000,077581,085141,073833,061569,015030,063517
0000000146,0000145000,075094,085130,076331,069419,017765,052931
0000000147,0000146000,073178,084237,079139,074504,023650,041962
0000000148,0000147000,072022,082539,081993,076330,032113,031673
0000000149,0000148000,071734,080202,084618,074721,042333,023062
0000000150,0000149000,072337,077470,086747,069838,053294,016984
0000000151,0000150000,073781,074602,088172,062156,063922,014038
0000000152,0000151000,075929,071866,088759,052417,073197,014501
0000000153,0000152000,078558,069546,088450,041585,080202,018329
0000000154,0000153000,081411,067869,087274,030729,084238,025148
0000000155,0000154000,084222,066990,085342,020895,084923,034299
0000000156,0000155000,086709,067000,082845,013042,082193,044881
0000000157,0000156000,088622,067897,080036,007958,076311,055847
0000000158,0000157000,089781,069592,077181,006132,067849,066134
0000000159,0000158000,090072,071926,074556,007736,057634,074745
0000000160,0000159000,089465,074664,072426,012616,046677,080823
0000000161,0000160000,088022,077532,071000,020297,036048,083771
0000000162,0000161000,085878,080264,070413,030032,026775,083309
0000000163,0000162000,083245,082588,070722,040859,019773,079484
0000000164,0000163000,080391,084267,071897,051714,015733,072668
0000000165,0000164000,077583,085143,073829,061547,015047,063522
0000000166,0000165000,075093,085134,076327,069397,017776,052943
0000000167,0000166000,073178,084241,079136,074484,023653,041979
0000000168,0000167000,072021,082542,081991,076311,032110,031694
0000000169,0000168000,071730,080207,084617,074708,042323,023085
0000000170,0000169000,072333,077474,086748,069832,053277,017007
0000000171,0000170000,073778,074603,088174,062157,063901,014058
0000000172,0000171000,075924,071868,088762,052424,073174,014517
0000000173,0000172000,078554,069547,088454,041600,080177,018339
0000000174,0000173000,081409,067867,087279,030750,084216,025150
0000000175,0000174000,084221,066987,085347,020918,084905,034293
0000000176,0000175000,086708,066997,082849,013068,082180,044868
0000000177,0000176000,088623,067892,080039,007982,076305,055828
0000000178,0000177000,089784,069587,077184,006153,067852,066111
0000000179,0000178000,090075,071923,074557,007751,057645,074719
0000000180,0000179000,089469,074660,072425,012624,046694,080797
0000000181,0000180000,088028,077528,070998,020297,036071,083748
0000000182,0000181000,085882,080263,070409,030022,026802,083292
0000000183,0000182000,083249,082588,070717,040844,019799,079473
0000000184,0000183000,080395,084267,071892,051692,015758,072666
0000000185,0000184000,077585,085146,073824,061520,015067,063528
0000000186,0000185000,075093,085139,076322,069369,017789,052957
0000000187,0000186000,073177,084246,079132,074457,023658,042001
0000000188,0000187000,072019,082547,081988,076288,032107,031721
0000000189,0000188000,071725,080213,084616,074692,042311,023114
0000000190,0000189000,072328,077478,086748,069824,053256,017035
0000000191,0000190000,073773,074606,088176,062157,063876,014083
0000000192,0000191000,075918,071870,088766,052434,073145,014536
0000000193,0000192000,078549,069547,088458,041619,080147,018350
0000000194,0000193000,081406,067864,087284,030775,084188,025153
0000000195,0000194000,084218,066984,085353,020947,084883,034286
0000000196,0000195000,086707,066993,082854,013099,082165,044852
0000000197,0000196000,088625,067885,080044,008012,076299,055804
0000000198,0000197000,089787,069581,077187,006177,067857,066081
0000000199,0000198000,090079,071918,074558,007770,057659,074687
0000000200,0000199000,089476,074654,072425,012634,046716,080766
0000000201,0000200000,088035,077524,070996,020295,036101,083720
0000000202,0000201000,085887,080262,070405,030011,026835,083270
0000000203,0000202000,083254,082588,070712,040824,019832,079460
0000000204,0000203000,080400,084269,071886,051664,015788,072663
0000000205,0000204000,077587,085150,073818,061487,015092,063536
0000000206,0000205000,075094,085145,076316,069335,017805,052975
0000000207,0000206000,073176,084251,079127,074425,023664,042027
0000000208,0000207000,072015,082554,081985,076260,032103,031753
0000000209,0000208000,071719,080220,084615,074672,042295,023149
0000000210,0000209000,072323,077482,086749,069814,053232,017070
0000000211,0000210000,073766,074609,088179,062158,063844,014114
0000000212,0000211000,075911,071873,088771,052447,073109,014560
0000000213,0000212000,078544,069547,088464,041641,080110,018364
0000000214,0000213000,081401,067862,087291,030805,084155,025156
0000000215,0000214000,084214,066980,085360,020983,084856,034277
0000000216,0000215000,086707,066987,082860,013137,082147,044832
0000000217,0000216000,088628,067878,080049,008047,076293,055776
0000000218,0000217000,089790,069574,077190,006207,067862,066046
0000000219,0000218000,090084,071911,074559,007792,057675,074648
0000000220,0000219000,089483,074648,072424,012645,046743,080728
0000000221,0000220000,088042,077520,070993,020294,036136,083687
0000000222,0000221000,085894,080260,070400,029998,026873,083244
0000000223,0000222000,083261,082587,070705,040800,019871,079445
0000000224,0000223000,080405,084271,071878,051630,015825,072660
0000000225,0000224000,077589,085155,073810,061448,015121,063545
0000000226,0000225000,075095,085151,076309,069295,017824,052997
0000000227,0000226000,073175,084258,079121,074385,023672,042058
0000000228,0000227000,072010,082563,081981,076227,032097,031792
0000000229,0000228000,071714,080227,084613,074649,042277,023191
0000000230,0000229000,072316,077488,086750,069802,053203,017111
0000000231,0000230000,073757,074615,088183,062159,063807,014150
0000000232,0000231000,075903,071876,088776,052462,073066,014587
0000000233,0000232000,078537,069546,088472,041668,080067,018381
0000000234,0000233000,081396,067859,087300,030841,084116,025159
0000000235,0000234000,084210,066976,085368,021026,084824,034266
0000000236,0000235000,086706,066980,082868,013182,082125,044809
0000000237,0000236000,088629,067870,080055,008090,076285,055741
0000000238,0000237000,089794,069566,077195,006243,067868,066004
0000000239,0000238000,090091,071903,074561,007818,057695,074603
0000000240,0000239000,089491,074640,072423,012658,046775,080683
0000000241,0000240000,088050,077515,070989,020292,036177,083647
0000000242,0000241000,085903,080257,070394,029983,026919,083214
0000000243,0000242000,083270,082587,070698,040770,019918,079427
0000000244,0000243000,080411,084274,071869,051591,015868,072657
0000000245,0000244000,077593,085161,073801,061403,015156,063557
0000000246,0000245000,075096,085158,076301,069246,017847,053022
0000000247,0000246000,073173,084267,079115,074339,023681,042096
0000000248,0000247000,072005,082573,081976,076189,032090,031837
0000000249,0000248000,071707,080236,084611,074621,042255,023240
0000000250,0000249000,072307,077496,086751,069788,053168,017159
0000000251,0000250000,073747,074621,088186,062161,063762,014193
0000000252,0000251000,075893,071879,088782,052479,073016,014620
0000000253,0000252000,078529,069545,088480,041699,080017,018400
0000000254,0000253000,081389,067857,087309,030884,084070,025162
0000000255,0000254000,084206,066970,085378,021076,084786,034254
0000000256,0000255000,086706,066971,082877,013234,082101,044781
0000000257,0000256000,088631,067860,080063,008139,076276,055701
0000000258,0000257000,089799,069556,077200,006285,067875,065954
0000000259,0000258000,090099,071893,074563,007848,057718,074549
0000000260,0000259000,089501,074632,072422,012672,046812,080631
0000000261,0000260000,088060,077510,070985,020291,036224,083601
0000000262,0000261000,085913,080254,070387,029964,026973,083179
0000000263,0000262000,083279,082587,070689,040736,019973,079407
0000000264,0000263000,080417,084278,071859,051545,015918,072653
0000000265,0000264000,077597,085167,073790,061349,015196,063571
0000000266,0000265000,075098,085166,076291,069190,017873,053052
0000000267,0000266000,073170,084278,079107,074286,023691,042139
0000000268,0000267000,072000,082584,081971,076144,032082,031890
0000000269,0000268000,071699,080246,084609,074589,042229,023298
0000000270,0000269000,072297,077505,086752,069772,053128,017215
0000000271,0000270000,073736,074628,088191,062163,063711,014242
0000000272,0000271000,075883,071882,088790,052500,072958,014658
0000000273,0000272000,078519,069545,088490,041735,079958,018422
0000000274,0000273000,081380,067854,087320,030933,084017,025166
0000000275,0000274000,084202,066963,085389,021134,084743,034239
0000000276,0000275000,086705,066962,082888,013294,082073,044749
0000000277,0000276000,088633,067849,080071,008196,076266,055654
0000000278,0000277000,089805,069544,077206,006334,067884,065898
0000000279,0000278000,090108,071881,074566,007882,057745,074488
0000000280,0000279000,089511,074623,072421,012689,046856,080571
0000000281,0000280000,088072,077503,070980,020288,036279,083548
0000000282,0000281000,085925,080249,070379,029943,027035,083139
0000000283,0000282000,083289,082587,070678,040697,020035,079383
0000000284,0000283000,080425,084282,071847,051492,015974,072649
0000000285,0000284000,077603,085174,073778,061288,015241,063586
0000000286,0000285000,075099,085176,076280,069125,017904,053086
0000000287,0000286000,073167,084290,079097,074225,023702,042189
0000000288,0000287000,071994,082596,081964,076093,032072,031951
0000000289,0000288000,071690,080258,084606,074553,042200,023363
0000000290,0000289000,072285,077516,086754,069754,053082,017279
0000000291,0000290000,073723,074635,088196,062166,063652,014298
0000000292,0000291000,075870,071886,088798,052523,072892,014700
0000000293,0000292000,078508,069546,088501,041777,079892,018447
0000000294,0000293000,081371,067850,087333,030990,083956,025170
0000000295,0000294000,084196,066956,085402,021200,084695,034222
0000000296,0000295000,086703,066951,082900,013363,082041,044712
0000000297,0000296000,088636,067837,080082,008260,076254,055601
0000000298,0000297000,089811,069531,077213,006388,067894,065833
0000000299,0000298000,090118,071868,074569,007920,057777,074418
0000000300,0000299000,089524,074612,072419,012708,046905,080503
0000000301,0000300000,088086,077494,070975,020285,036342,083489
