DIgSILENT PowerFactory,21000900,2000
6,06A,00D
1,TTPP_200000_100:Secondary Voltage A,,,V,0.10000000,-8618.920898,0.000000,73147,99998,1,1,P
2,TTPP_200000_100:Secondary Voltage B,,,V,0.10000000,-8568.143555,0.000000,73188,99998,1,1,P
3,TTPP_200000_100:Secondary Voltage C,,,V,0.10000000,-8623.928711,0.000000,70008,99998,1,1,P
4,TTCC_300_1:Secondary Current A,,,A,0.00010000000,-5.253349,0.000000,-16350,99998,1,1,P
5,TTCC_300_1:Secondary Current B,,,A,0.00010000000,-4.872354,0.000000,-2756,99998,1,1,P
6,TTCC_300_1:Secondary Current C,,,A,0.00010000000,-4.960846,0.000000,-891,99998,1,1,P
50
1
1000.000000,1101
30/06/2023,06:12:36.000000
30/06/2023,06:12:36.000000
ASCII
1.000000
0000000001,0000000000,093295,087157,077658,031604,034734,084528
0000000002,0000001000,091161,089874,077073,041357,025456,084054
0000000003,0000002000,088520,092205,077385,052196,018458,080211
0000000004,0000003000,085665,093883,078562,063075,014415,073376
0000000005,0000004000,082871,094745,080495,072918,013739,064207
0000000006,0000005000,080383,094736,082992,080766,016493,053608
0000000007,0000006000,078462,093850,085798,085852,022387,042626
0000000008,0000007000,077317,092142,088651,087675,030863,032329
0000000009,0000008000,077032,089804,091273,086051,041103,023712
0000000010,0000009000,077630,087081,093398,081153,052078,017634
0000000011,0000010000,079078,084211,094821,073459,062712,014694
0000000012,0000011000,081231,081473,095406,063700,071998,015167
0000000013,0000012000,083853,079164,095094,052852,079004,019010
0000000014,0000013000,086704,077489,093916,041986,083034,025846
0000000015,0000014000,089518,076607,091985,032142,083710,035014
0000000016,0000015000,091997,076624,089487,024284,080969,045613
0000000017,0000016000,093905,077525,086680,019205,075066,056595
0000000018,0000017000,095067,079215,083828,017386,066586,066893
0000000019,0000018000,095352,081552,081206,019002,056354,075509
0000000020,0000019000,094739,084291,079080,023901,045378,081586
0000000021,0000020000,093302,087151,077657,031603,034735,084528
0000000022,0000021000,091155,089881,077074,041354,025458,084054
0000000023,0000022000,088518,092206,077385,052204,018451,080211
0000000024,0000023000,085672,093876,078561,063075,014415,073375
0000000025,0000024000,082869,094747,080495,072915,013743,064207
0000000026,0000025000,080376,094743,082991,080769,016489,053607
0000000027,0000026000,078468,093844,085798,085858,022382,042626
0000000028,0000027000,077320,092139,088650,087672,030866,032329
0000000029,0000028000,077025,089811,091273,086051,041102,023712
0000000030,0000029000,077630,087081,093399,081160,052071,017634
0000000031,0000030000,079084,084205,094821,073459,062713,014693
0000000032,0000031000,081227,081478,095406,063699,071999,015167
0000000033,0000032000,083850,079167,095094,052856,079000,019009
0000000034,0000033000,086709,077484,093917,041990,083031,025845
0000000035,0000034000,089518,076607,091985,032141,083712,035013
0000000036,0000035000,091993,076629,089487,024287,080966,045612
0000000037,0000036000,093908,077521,086680,019209,075063,056593
0000000038,0000037000,095069,079213,083829,017387,066587,066891
0000000039,0000038000,095349,081556,081206,019003,056355,075507
0000000040,0000039000,094740,084290,079080,023905,045376,081585
0000000041,0000040000,093304,087148,077658,031603,034737,084526
0000000042,0000041000,091153,089883,077073,041354,025459,084052
0000000043,0000042000,088519,092207,077385,052205,018451,080211
0000000044,0000043000,085674,093874,078561,063075,014415,073375
0000000045,0000044000,082867,094749,080494,072914,013744,064207
0000000046,0000045000,080376,094743,082991,080771,016487,053608
0000000047,0000046000,078470,093842,085798,085857,022382,042627
0000000048,0000047000,077318,092141,088650,087672,030865,032329
0000000049,0000048000,077024,089813,091273,086053,041099,023713
0000000050,0000049000,077633,087078,093399,081160,052070,017636
0000000051,0000050000,079083,084206,094821,073459,062712,014694
0000000052,0000051000,081224,081481,095406,063703,071995,015167
0000000053,0000052000,083853,079164,095094,052860,078997,019009
0000000054,0000053000,086710,077483,093917,041990,083031,025845
0000000055,0000054000,089514,076611,091985,032145,083710,035012
0000000056,0000055000,091995,076627,089488,024293,080963,045610
0000000057,0000056000,093911,077518,086681,019210,075064,056591
0000000058,0000057000,095065,079216,083829,017389,066588,066888
0000000059,0000058000,095348,081556,081206,019008,056353,075504
0000000060,0000059000,094745,084285,079080,023906,045378,081582
0000000061,0000060000,093303,087150,077658,031602,034741,084524
0000000062,0000061000,091151,089886,077073,041356,025460,084050
0000000063,0000062000,088523,092203,077384,052205,018451,080209
0000000064,0000063000,085676,093873,078561,063071,014420,073374
0000000065,0000064000,082863,094753,080494,072913,013745,064208
0000000066,0000065000,080378,094742,082990,080770,016486,053609
0000000067,0000066000,078473,093840,085797,085853,022383,042629
0000000068,0000067000,077315,092145,088650,087669,030865,032332
0000000069,0000068000,077023,089814,091273,086054,041095,023716
0000000070,0000069000,077636,087075,093399,081160,052067,017639
0000000071,0000070000,079081,084208,094822,073458,062710,014697
0000000072,0000071000,081221,081483,095406,063706,071989,015169
0000000073,0000072000,083855,079161,095094,052864,078992,019010
0000000074,0000073000,086709,077482,093918,041993,083029,025844
0000000075,0000074000,089511,076613,091986,032150,083706,035010
0000000076,0000075000,091997,076625,089488,024299,080959,045608
0000000077,0000076000,093912,077516,086681,019214,075064,056588
0000000078,0000077000,095063,079217,083829,017393,066589,066884
0000000079,0000078000,095349,081555,081206,019012,056354,075499
0000000080,0000079000,094747,084283,079080,023907,045381,081577
0000000081,0000080000,093301,087151,077657,031602,034745,084519
0000000082,0000081000,091151,089886,077072,041356,025463,084047
0000000083,0000082000,088526,092201,077383,052202,018457,080207
0000000084,0000083000,085675,093875,078560,063067,014425,073374
0000000085,0000084000,082863,094755,080492,072909,013748,064208
0000000086,0000085000,080380,094741,082989,080765,016488,053612
0000000087,0000086000,078472,093841,085797,085847,022385,042633
0000000088,0000087000,077312,092148,088649,087666,030863,032337
0000000089,0000088000,077024,089813,091272,086052,041092,023722
0000000090,0000089000,077636,087075,093399,081157,052063,017645
0000000091,0000090000,079077,084211,094822,073459,062704,014702
0000000092,0000091000,081221,081482,095407,063710,071981,015173
0000000093,0000092000,083855,079159,095095,052867,078986,019013
0000000094,0000093000,086706,077484,093920,041998,083023,025845
0000000095,0000094000,089510,076613,091987,032158,083699,035008
0000000096,0000095000,091999,076621,089490,024306,080956,045604
0000000097,0000096000,093911,077516,086683,019220,075064,056582
0000000098,0000097000,095062,079218,083830,017400,066588,066877
0000000099,0000098000,095353,081551,081206,019017,056356,075492
0000000100,0000099000,094749,084282,079080,023908,045388,081569
0000000101,0000100000,093301,087153,077657,031602,034751,084512
0000000102,0000101000,091154,089884,077071,041355,025470,084041
0000000103,0000102000,088528,092199,077382,052196,018466,080204
0000000104,0000103000,085674,093878,078559,063060,014433,073373
0000000105,0000104000,082864,094756,080491,072903,013752,064210
0000000106,0000105000,080382,094740,082988,080757,016492,053616
0000000107,0000106000,078470,093844,085796,085838,022388,042640
0000000108,0000107000,077311,092151,088648,087660,030861,032345
0000000109,0000108000,077025,089813,091272,086048,041087,023731
0000000110,0000109000,077633,087077,093399,081154,052058,017654
0000000111,0000110000,079074,084214,094823,073461,062694,014710
0000000112,0000111000,081221,081481,095408,063714,071971,015180
0000000113,0000112000,083854,079159,095097,052872,078977,019016
0000000114,0000113000,086703,077485,093921,042007,083013,025845
0000000115,0000114000,089510,076611,091988,032169,083691,035006
0000000116,0000115000,092000,076618,089491,024316,080951,045598
0000000117,0000116000,093910,077516,086684,019230,075062,056573
0000000118,0000117000,095064,079216,083831,017410,066588,066866
0000000119,0000118000,095356,081548,081207,019024,056361,075480
0000000120,0000119000,094749,084281,079080,023912,045396,081558
0000000121,0000120000,093302,087152,077656,031603,034760,084502
0000000122,0000121000,091158,089882,077070,041351,025481,084034
0000000123,0000122000,088529,092200,077381,052189,018478,080199
0000000124,0000123000,085674,093880,078556,063051,014443,073372
0000000125,0000124000,082866,094755,080489,072891,013761,064213
0000000126,0000125000,080383,094742,082986,080743,016499,053623
0000000127,0000126000,078468,093848,085794,085827,022390,042649
0000000128,0000127000,077311,092152,088647,087650,030858,032357
0000000129,0000128000,077024,089814,091271,086039,041082,023744
0000000130,0000129000,077629,087081,093400,081150,052049,017667
0000000131,0000130000,079071,084215,094823,073462,062681,014722
0000000132,0000131000,081220,081481,095410,063719,071957,015189
0000000133,0000132000,083851,079160,095100,052881,078963,019022
0000000134,0000133000,086701,077486,093924,042020,082999,025846
0000000135,0000134000,089511,076608,091991,032184,083680,035003
0000000136,0000135000,091999,076616,089494,024330,080945,045591
0000000137,0000136000,093909,077515,086686,019245,075058,056562
0000000138,0000137000,095066,079212,083832,017423,066589,066852
0000000139,0000138000,095358,081544,081207,019032,056368,075465
0000000140,0000139000,094750,084281,079079,023916,045407,081543
0000000141,0000140000,093305,087150,077654,031604,034773,084488
0000000142,0000141000,091162,089880,077068,041346,025497,084023
0000000143,0000142000,088531,092201,077378,052178,018495,080192
0000000144,0000143000,085676,093881,078553,063038,014457,073370
0000000145,0000144000,082869,094756,080486,072875,013773,064217
0000000146,0000145000,080382,094745,082983,080726,016508,053632
0000000147,0000146000,078466,093852,085792,085811,022392,042662
0000000148,0000147000,077310,092154,088645,087637,030855,032374
0000000149,0000148000,077022,089817,091271,086029,041075,023762
0000000150,0000149000,077625,087085,093400,081145,052036,017684
0000000151,0000150000,079069,084216,094825,073463,062665,014737
0000000152,0000151000,081217,081481,095412,063725,071940,015201
0000000153,0000152000,083847,079161,095103,052892,078944,019029
0000000154,0000153000,086699,077484,093927,042037,082981,025848
0000000155,0000154000,089510,076605,091995,032202,083666,034998
0000000156,0000155000,091998,076615,089497,024350,080936,045580
0000000157,0000156000,093910,077512,086688,019265,075054,056547
0000000158,0000157000,095069,079207,083834,017440,066592,066834
0000000159,0000158000,095361,081541,081208,019043,056377,075444
0000000160,0000159000,094753,084278,079079,023923,045420,081522
0000000161,0000160000,093310,087147,077653,031604,034791,084470
0000000162,0000161000,091166,089879,077065,041338,025519,084009
0000000163,0000162000,088533,092202,077374,052166,018516,080184
0000000164,0000163000,085679,093882,078549,063021,014476,073368
0000000165,0000164000,082871,094758,080482,072854,013789,064222
0000000166,0000165000,080381,094749,082980,080703,016519,053643
0000000167,0000166000,078466,093856,085788,085790,022396,042679
0000000168,0000167000,077309,092157,088643,087618,030853,032395
0000000169,0000168000,077018,089822,091270,086015,041066,023785
0000000170,0000169000,077621,087089,093400,081139,052020,017707
0000000171,0000170000,079066,084218,094827,073464,062644,014758
0000000172,0000171000,081213,081483,095415,063732,071917,015217
0000000173,0000172000,083842,079162,095106,052907,078920,019038
0000000174,0000173000,086697,077482,093931,042057,082959,025850
0000000175,0000174000,089509,076602,091999,032225,083648,034992
0000000176,0000175000,091996,076612,089502,024375,080924,045567
0000000177,0000176000,093911,077507,086692,019289,075049,056528
0000000178,0000177000,095072,079201,083836,017460,066595,066810
0000000179,0000178000,095363,081538,081209,019058,056389,075419
0000000180,0000179000,094758,084275,079078,023931,045437,081497
0000000181,0000180000,093316,087143,077651,031603,034815,084448
0000000182,0000181000,091170,089878,077062,041329,025545,083992
0000000183,0000182000,088537,092203,077370,052150,018542,080173
0000000184,0000183000,085683,093882,078544,062999,014501,073366
0000000185,0000184000,082873,094761,080477,072827,013810,064228
0000000186,0000185000,080381,094754,082975,080676,016532,053657
0000000187,0000186000,078465,093860,085784,085764,022401,042701
0000000188,0000187000,077307,092162,088641,087595,030849,032421
0000000189,0000188000,077013,089828,091269,085999,041053,023814
0000000190,0000189000,077616,087093,093401,081131,051999,017735
0000000191,0000190000,079061,084220,094829,073464,062618,014783
0000000192,0000191000,081206,081485,095419,063742,071887,015236
0000000193,0000192000,083837,079162,095111,052926,078890,019050
0000000194,0000193000,086694,077479,093937,042082,082931,025852
0000000195,0000194000,089506,076599,092005,032255,083626,034985
0000000196,0000195000,091995,076608,089507,024406,080908,045551
0000000197,0000196000,093914,077500,086696,019319,075043,056504
0000000198,0000197000,095075,079196,083839,017484,066600,066781
0000000199,0000198000,095367,081533,081210,019076,056402,075386
0000000200,0000199000,094764,084269,079077,023941,045459,081465
0000000201,0000200000,093323,087139,077648,031602,034844,084420
0000000202,0000201000,091175,089877,077058,041318,025578,083970
0000000203,0000202000,088542,092203,077364,052130,018575,080161
0000000204,0000203000,085688,093884,078538,062971,014531,073363
0000000205,0000204000,082875,094765,080470,072794,013835,064236
0000000206,0000205000,080382,094760,082969,080642,016548,053675
0000000207,0000206000,078464,093866,085780,085732,022407,042727
0000000208,0000207000,077303,092169,088638,087567,030845,032453
0000000209,0000208000,077008,089835,091268,085979,041038,023849
0000000210,0000209000,077611,087097,093402,081122,051974,017770
0000000211,0000210000,079054,084224,094832,073465,062587,014813
0000000212,0000211000,081199,081488,095423,063754,071852,015259
0000000213,0000212000,083832,079161,095117,052949,078853,019064
0000000214,0000213000,086690,077477,093944,042112,082898,025855
0000000215,0000214000,089502,076595,092012,032290,083599,034976
0000000216,0000215000,091995,076602,089513,024445,080890,045531
0000000217,0000216000,093916,077493,086701,019355,075036,056475
0000000218,0000217000,095078,079189,083843,017515,066605,066745
0000000219,0000218000,095372,081526,081212,019099,056419,075348
0000000220,0000219000,094771,084263,079076,023952,045486,081428
0000000221,0000220000,093330,087135,077645,031601,034879,084386
0000000222,0000221000,091182,089875,077053,041305,025617,083944
0000000223,0000222000,088549,092202,077358,052106,018614,080145
0000000224,0000223000,085693,093886,078531,062937,014568,073360
0000000225,0000224000,082877,094770,080463,072755,013864,064246
0000000226,0000225000,080383,094766,082962,080601,016567,053697
0000000227,0000226000,078463,093873,085774,085692,022415,042759
0000000228,0000227000,077298,092178,088634,087534,030840,032492
0000000229,0000228000,077002,089842,091266,085956,041019,023891
0000000230,0000229000,077604,087103,093403,081110,051945,017811
0000000231,0000230000,079045,084229,094835,073466,062549,014850
0000000232,0000231000,081191,081491,095429,063769,071809,015287
0000000233,0000232000,083825,079161,095124,052975,078810,019080
0000000234,0000233000,086684,077474,093952,042149,082859,025858
0000000235,0000234000,089499,076591,092020,032333,083567,034966
0000000236,0000235000,091995,076595,089521,024489,080869,045508
0000000237,0000236000,093918,077484,086708,019397,075028,056441
0000000238,0000237000,095082,079181,083847,017551,066612,066703
0000000239,0000238000,095379,081518,081213,019125,056438,075302
0000000240,0000239000,094780,084255,079075,023964,045518,081383
0000000241,0000240000,093338,087130,077642,031599,034920,084347
0000000242,0000241000,091191,089872,077047,041289,025663,083914
0000000243,0000242000,088558,092202,077350,052077,018661,080128
0000000244,0000243000,085699,093889,078522,062897,014611,073357
0000000245,0000244000,082881,094776,080454,072709,013899,064257
0000000246,0000245000,080384,094773,082953,080553,016590,053722
0000000247,0000246000,078461,093882,085767,085646,022423,042796
0000000248,0000247000,077293,092187,088629,087496,030833,032538
0000000249,0000248000,076995,089851,091264,085928,040997,023940
0000000250,0000249000,077596,087111,093404,081095,051911,017860
0000000251,0000250000,079035,084235,094839,073468,062505,014892
0000000252,0000251000,081182,081494,095435,063787,071759,015320
0000000253,0000252000,083817,079160,095133,053007,078759,019099
0000000254,0000253000,086677,077471,093962,042191,082813,025862
0000000255,0000254000,089494,076585,092030,032383,083529,034953
0000000256,0000255000,091994,076586,089530,024542,080844,045480
0000000257,0000256000,093920,077475,086715,019446,075019,056400
0000000258,0000257000,095087,079171,083852,017592,066619,066654
0000000259,0000258000,095387,081508,081216,019155,056461,075249
0000000260,0000259000,094789,084247,079074,023979,045556,081331
0000000261,0000260000,093348,087124,077637,031597,034968,084301
0000000262,0000261000,091201,089869,077040,041271,025716,083879
0000000263,0000262000,088567,092202,077341,052043,018716,080107
0000000264,0000263000,085706,093893,078512,062851,014661,073353
0000000265,0000264000,082885,094782,080443,072656,013938,064271
0000000266,0000265000,080386,094781,082944,080497,016616,053752
0000000267,0000266000,078458,093892,085759,085593,022433,042839
0000000268,0000267000,077288,092199,088623,087451,030824,032590
0000000269,0000268000,076987,089861,091262,085896,040972,023998
0000000270,0000269000,077585,087120,093405,081079,051871,017915
0000000271,0000270000,079024,084242,094844,073470,062453,014942
0000000272,0000271000,081171,081497,095443,063807,071701,015357
0000000273,0000272000,083807,079160,095143,053043,078701,019121
0000000274,0000273000,086669,077468,093973,042241,082759,025866
0000000275,0000274000,089490,076578,092042,032441,083486,034938
0000000276,0000275000,091993,076576,089540,024602,080816,045448
0000000277,0000276000,093922,077464,086724,019503,075009,056354
0000000278,0000277000,095093,079159,083858,017641,066627,066597
0000000279,0000278000,095396,081496,081218,019189,056489,075188
0000000280,0000279000,094800,084237,079073,023996,045599,081271
0000000281,0000280000,093360,087117,077633,031595,035023,084248
0000000282,0000281000,091214,089864,077032,041249,025778,083839
0000000283,0000282000,088577,092202,077331,052004,018778,080084
0000000284,0000283000,085714,093897,078499,062799,014718,073349
0000000285,0000284000,082891,094789,080430,072594,013984,064287
0000000286,0000285000,080387,094791,082932,080432,016646,053787
0000000287,0000286000,078455,093905,085750,085532,022444,042889
0000000288,0000287000,077282,092211,088617,087400,030815,032651
0000000289,0000288000,076978,089873,091259,085860,040943,024063
0000000290,0000289000,077573,087130,093406,081062,051825,017979
0000000291,0000290000,079011,084250,094849,073473,062394,014998
0000000292,0000291000,081158,081501,095451,063830,071635,015400
0000000293,0000292000,083796,079160,095154,053084,078635,019146
0000000294,0000293000,086660,077464,093986,042297,082699,025870
0000000295,0000294000,089485,076570,092055,032507,083438,034921
0000000296,0000295000,091991,076566,089553,024670,080784,045411
0000000297,0000296000,093924,077452,086734,019568,074997,056300
0000000298,0000297000,095100,079145,083865,017695,066637,066532
0000000299,0000298000,095406,081483,081221,019227,056520,075118
0000000300,0000299000,094812,084227,079072,024015,045648,081202
0000000301,0000300000,093374,087109,077627,031592,035085,084188
