DIgSILENT PowerFactory,21000900,2000
6,06A,00D
1,TTPP_200000_100:Secondary Voltage A,,,V,0.010000000,-67.876053,0.000000,-86353,99998,1,1,P
2,TTPP_200000_100:Secondary Voltage B,,,V,0.10000000,-8854.628906,0.000000,79165,99998,1,1,P
3,TTPP_200000_100:Secondary Voltage C,,,V,0.10000000,-8826.642578,0.000000,76862,99998,1,1,P
4,TTCC_500_5:Secondary Current A,,,A,0.0010000000,-80.456245,0.000000,48730,99998,1,1,P
5,TTCC_500_5:Secondary Current B,,,A,0.0010000000,-84.650490,0.000000,69340,99998,1,1,P
6,TTCC_500_5:Secondary Current C,,,A,0.0010000000,-84.708794,0.000000,69425,99998,1,1,P
50
1
1000.000000,1101
30/06/2023,06:02:00.000000
30/06/2023,06:02:00.000000
ASCII
1.000000
0000000001,0000000000,061924,092185,079114,086373,089328,074114
0000000002,0000001000,036427,094621,079228,083359,092044,074412
0000000003,0000002000,007937,096474,080225,080057,094041,075717
0000000004,0000003000,-20547,097538,082008,076805,095109,077902
0000000005,0000004000,-46322,097716,084409,073899,095160,080756
0000000006,0000005000,-67104,097015,087187,071637,094183,083996
0000000007,0000006000,-80578,095486,090063,070244,092269,087302
0000000008,0000007000,-85326,093255,092768,069847,089611,090357
0000000009,0000008000,-81168,090570,095037,070490,086465,092861
0000000010,0000009000,-68548,087708,096638,072105,083147,094564
0000000011,0000010000,-48398,084913,097418,074544,079970,095302
0000000012,0000011000,-22757,082462,097306,077558,077253,095004
0000000013,0000012000,005577,080625,096309,080855,075262,093699
0000000014,0000013000,034076,079559,094525,084115,074187,091514
0000000015,0000014000,060033,079365,092124,087016,074140,088660
0000000016,0000015000,080648,080080,089347,089277,075117,085421
0000000017,0000016000,094030,081619,086470,090673,077029,082114
0000000018,0000017000,098991,083828,083764,091069,079688,079059
0000000019,0000018000,094825,086514,081495,090425,082835,076556
0000000020,0000019000,082000,089397,079894,088809,086154,074852
0000000021,0000020000,061968,092180,079114,086376,089326,074114
0000000022,0000021000,036439,094620,079228,083356,092047,074412
0000000023,0000022000,007926,096475,080224,080059,094039,075717
0000000024,0000023000,-20533,097538,082008,076802,095111,077903
0000000025,0000024000,-46362,097719,084409,073899,095160,080756
0000000026,0000025000,-67111,097016,087187,071638,094182,083996
0000000027,0000026000,-80525,095481,090062,070243,092270,087302
0000000028,0000027000,-85321,093255,092768,069847,089610,090357
0000000029,0000028000,-81234,090577,095038,070488,086467,092861
0000000030,0000029000,-68542,087707,096638,072106,083145,094564
0000000031,0000030000,-48336,084907,097418,074542,079971,095302
0000000032,0000031000,-22788,082465,097305,077557,077255,095004
0000000033,0000032000,005548,080628,096309,080855,075261,093699
0000000034,0000033000,034094,079557,094525,084114,074187,091514
0000000035,0000034000,060034,079364,092124,087016,074139,088660
0000000036,0000035000,080640,080081,089346,089275,075119,085421
0000000037,0000036000,094045,081617,086470,090673,077028,082115
0000000038,0000037000,098983,083829,083765,091068,079688,079060
0000000039,0000038000,094798,086516,081495,090425,082835,076556
0000000040,0000039000,082043,089393,079894,088809,086153,074853
0000000041,0000040000,061986,092178,079114,086373,089327,074115
0000000042,0000041000,036394,094624,079228,083356,092046,074413
0000000043,0000042000,007932,096474,080224,080059,094039,075717
0000000044,0000043000,-20490,097533,082007,076802,095111,077903
0000000045,0000044000,-46376,097721,084409,073898,095161,080756
0000000046,0000045000,-67142,097019,087186,071638,094182,083996
0000000047,0000046000,-80502,095479,090062,070244,092270,087302
0000000048,0000047000,-85319,093255,092768,069847,089612,090357
0000000049,0000048000,-81254,090579,095038,070488,086467,092860
0000000050,0000049000,-68529,087706,096638,072106,083146,094564
0000000051,0000050000,-48344,084907,097419,074541,079972,095302
0000000052,0000051000,-22814,082467,097306,077557,077255,095004
0000000053,0000052000,005565,080626,096309,080855,075261,093699
0000000054,0000053000,034112,079555,094526,084113,074188,091514
0000000055,0000054000,059995,079367,092125,087014,074140,088661
0000000056,0000055000,080633,080081,089347,089276,075118,085421
0000000057,0000056000,094085,081613,086470,090672,077029,082115
0000000058,0000057000,098974,083829,083765,091066,079689,079060
0000000059,0000058000,094778,086518,081496,090425,082834,076557
0000000060,0000059000,082067,089391,079894,088809,086153,074853
0000000061,0000060000,062000,092177,079114,086373,089327,074115
0000000062,0000061000,036383,094626,079227,083356,092046,074413
0000000063,0000062000,007951,096473,080223,080060,094038,075718
0000000064,0000063000,-20478,097533,082007,076802,095110,077903
0000000065,0000064000,-46396,097723,084408,073899,095161,080756
0000000066,0000065000,-67127,097019,087185,071639,094182,083995
0000000067,0000066000,-80482,095478,090062,070244,092270,087301
0000000068,0000067000,-85349,093258,092768,069847,089612,090356
0000000069,0000068000,-81271,090581,095037,070489,086467,092860
0000000070,0000069000,-68506,087704,096638,072106,083146,094563
0000000071,0000070000,-48357,084908,097419,074540,079974,095301
0000000072,0000071000,-22848,082470,097306,077556,077256,095004
0000000073,0000072000,005573,080624,096310,080854,075262,093699
0000000074,0000073000,034113,079553,094527,084111,074190,091514
0000000075,0000074000,059972,079368,092126,087013,074141,088661
0000000076,0000075000,080640,080080,089348,089274,075119,085422
0000000077,0000076000,094097,081611,086471,090670,077029,082116
0000000078,0000077000,098960,083830,083766,091065,079689,079062
0000000079,0000078000,094789,086517,081496,090424,082833,076558
0000000080,0000079000,082099,089388,079894,088808,086152,074855
0000000081,0000080000,061994,092178,079114,086373,089326,074117
0000000082,0000081000,036381,094627,079226,083357,092044,074414
0000000083,0000082000,007987,096471,080222,080061,094036,075718
0000000084,0000083000,-20469,097533,082005,076803,095110,077903
0000000085,0000084000,-46412,097726,084407,073900,095160,080756
0000000086,0000085000,-67114,097019,087184,071641,094181,083994
0000000087,0000086000,-80473,095478,090061,070245,092270,087300
0000000088,0000087000,-85373,093261,092767,069848,089613,090355
0000000089,0000088000,-81277,090582,095037,070490,086468,092858
0000000090,0000089000,-68507,087704,096639,072106,083148,094561
0000000091,0000090000,-48388,084911,097420,074540,079976,095300
0000000092,0000091000,-22865,082471,097307,077555,077258,095002
0000000093,0000092000,005578,080622,096311,080853,075264,093698
0000000094,0000093000,034091,079554,094528,084109,074192,091514
0000000095,0000094000,059950,079369,092127,087011,074143,088662
0000000096,0000095000,080657,080077,089349,089272,075120,085423
0000000097,0000096000,094104,081608,086473,090667,077030,082118
0000000098,0000097000,098948,083830,083767,091063,079689,079064
0000000099,0000098000,094810,086515,081496,090423,082832,076561
0000000100,0000099000,082128,089385,079894,088807,086151,074857
0000000101,0000100000,061998,092178,079113,086373,089324,074119
0000000102,0000101000,036401,094626,079225,083358,092042,074416
0000000103,0000102000,008018,096469,080220,080062,094034,075719
0000000104,0000103000,-20467,097535,082004,076805,095108,077903
0000000105,0000104000,-46409,097728,084405,073903,095158,080755
0000000106,0000105000,-67094,097019,087182,071643,094179,083993
0000000107,0000106000,-80482,095480,090059,070247,092270,087298
0000000108,0000107000,-85398,093265,092766,069850,089613,090352
0000000109,0000108000,-81279,090583,095036,070492,086469,092855
0000000110,0000109000,-68521,087705,096639,072106,083150,094559
0000000111,0000110000,-48429,084914,097421,074540,079978,095298
0000000112,0000111000,-22885,082471,097309,077555,077260,095001
0000000113,0000112000,005569,080621,096313,080851,075267,093697
0000000114,0000113000,034062,079554,094531,084106,074195,091514
0000000115,0000114000,059936,079368,092130,087008,074145,088663
0000000116,0000115000,080667,080073,089352,089269,075121,085425
0000000117,0000116000,094101,081607,086475,090664,077031,082120
0000000118,0000117000,098953,083829,083768,091061,079688,079067
0000000119,0000118000,094844,086511,081497,090421,082831,076564
0000000120,0000119000,082152,089382,079894,088806,086149,074860
0000000121,0000120000,062012,092178,079112,086373,089321,074121
0000000122,0000121000,036439,094625,079223,083359,092038,074418
0000000123,0000122000,008052,096468,080218,080064,094031,075721
0000000124,0000123000,-20460,097537,082001,076808,095105,077903
0000000125,0000124000,-46395,097730,084401,073906,095155,080754
0000000126,0000125000,-67078,097020,087179,071646,094178,083991
0000000127,0000126000,-80497,095484,090057,070250,092270,087296
0000000128,0000127000,-85419,093269,092764,069853,089613,090349
0000000129,0000128000,-81290,090585,095036,070494,086470,092852
0000000130,0000129000,-68555,087708,096639,072107,083153,094555
0000000131,0000130000,-48471,084917,097422,074540,079982,095294
0000000132,0000131000,-22907,082471,097311,077553,077264,094998
0000000133,0000132000,005541,080621,096316,080848,075272,093696
0000000134,0000133000,034025,079554,094534,084103,074199,091514
0000000135,0000134000,059927,079365,092133,087004,074147,088664
0000000136,0000135000,080672,080069,089355,089265,075123,085427
0000000137,0000136000,094097,081604,086478,090660,077032,082124
0000000138,0000137000,098969,083825,083770,091058,079687,079071
0000000139,0000138000,094883,086506,081497,090418,082829,076568
0000000140,0000139000,082181,089380,079894,088805,086146,074865
0000000141,0000140000,062044,092176,079110,086373,089317,074125
0000000142,0000141000,036488,094622,079220,083361,092034,074421
0000000143,0000142000,008086,096468,080215,080066,094026,075723
0000000144,0000143000,-20442,097539,081997,076812,095100,077904
0000000145,0000144000,-46369,097731,084397,073911,095151,080753
0000000146,0000145000,-67068,097023,087176,071651,094176,083989
0000000147,0000146000,-80517,095489,090054,070255,092269,087292
0000000148,0000147000,-85437,093273,092762,069857,089614,090344
0000000149,0000148000,-81313,090588,095035,070496,086473,092846
0000000150,0000149000,-68604,087712,096640,072109,083157,094550
0000000151,0000150000,-48520,084920,097424,074540,079986,095290
0000000152,0000151000,-22941,082472,097314,077552,077270,094995
0000000153,0000152000,005498,080621,096320,080844,075277,093694
0000000154,0000153000,033985,079554,094539,084098,074204,091513
0000000155,0000154000,059915,079362,092138,086999,074151,088665
0000000156,0000155000,080668,080065,089359,089259,075126,085430
0000000157,0000156000,094097,081601,086481,090655,077033,082128
0000000158,0000157000,098998,083820,083772,091053,079687,079076
0000000159,0000158000,094926,086500,081499,090415,082827,076574
0000000160,0000159000,082218,089376,079893,088803,086142,074871
0000000161,0000160000,062095,092173,079108,086373,089312,074130
0000000162,0000161000,036548,094620,079217,083363,092028,074425
0000000163,0000162000,008126,096469,080210,080070,094021,075725
0000000164,0000163000,-20411,097541,081991,076817,095094,077904
0000000165,0000164000,-46337,097734,084392,073917,095147,080752
0000000166,0000165000,-67063,097027,087171,071657,094173,083985
0000000167,0000166000,-80536,095495,090050,070261,092268,087287
0000000168,0000167000,-85458,093278,092759,069863,089615,090338
0000000169,0000168000,-81352,090593,095033,070500,086476,092840
0000000170,0000169000,-68665,087718,096640,072110,083162,094543
0000000171,0000170000,-48575,084924,097426,074540,079992,095284
0000000172,0000171000,-22992,082473,097318,077549,077276,094990
0000000173,0000172000,005438,080622,096326,080840,075284,093691
0000000174,0000173000,033943,079552,094545,084093,074210,091513
0000000175,0000174000,059898,079357,092144,086992,074157,088667
0000000176,0000175000,080657,080060,089365,089251,075130,085434
0000000177,0000176000,094104,081595,086486,090648,077034,082134
0000000178,0000177000,099037,083813,083775,091047,079686,079083
0000000179,0000178000,094973,086494,081500,090411,082823,076582
0000000180,0000179000,082269,089372,079892,088801,086137,074878
0000000181,0000180000,062165,092169,079106,086373,089305,074137
0000000182,0000181000,036617,094617,079213,083365,092020,074430
0000000183,0000182000,008177,096469,080204,080075,094013,075728
0000000184,0000183000,-20364,097543,081985,076823,095087,077905
0000000185,0000184000,-46302,097737,084385,073925,095141,080750
0000000186,0000185000,-67061,097033,087164,071665,094169,083981
0000000187,0000186000,-80553,095502,090044,070269,092266,087281
0000000188,0000187000,-85485,093285,092755,069869,089616,090331
0000000189,0000188000,-81406,090600,095032,070505,086479,092832
0000000190,0000189000,-68737,087724,096641,072113,083167,094535
0000000191,0000190000,-48642,084927,097429,074539,080000,095277
0000000192,0000191000,-23063,082475,097323,077546,077285,094985
0000000193,0000192000,005367,080623,096332,080835,075293,093688
0000000194,0000193000,033894,079550,094552,084085,074218,091512
0000000195,0000194000,059871,079353,092152,086984,074163,088669
0000000196,0000195000,080642,080055,089372,089242,075134,085439
0000000197,0000196000,094119,081588,086492,090639,077036,082141
0000000198,0000197000,099082,083804,083780,091040,079684,079091
0000000199,0000198000,095028,086487,081502,090405,082820,076591
0000000200,0000199000,082339,089366,079892,088798,086130,074887
0000000201,0000200000,062252,092164,079102,086374,089297,074145
0000000202,0000201000,036697,094614,079207,083368,092011,074436
0000000203,0000202000,008243,096470,080197,080081,094003,075731
0000000204,0000203000,-20303,097546,081976,076832,095078,077906
0000000205,0000204000,-46264,097741,084377,073934,095134,080748
0000000206,0000205000,-67057,097041,087157,071675,094164,083976
0000000207,0000206000,-80569,095511,090038,070278,092264,087273
0000000208,0000207000,-85523,093293,092751,069877,089617,090321
0000000209,0000208000,-81476,090609,095030,070510,086484,092821
0000000210,0000209000,-68820,087732,096642,072116,083174,094525
0000000211,0000210000,-48726,084932,097432,074539,080009,095268
0000000212,0000211000,-23154,082478,097329,077542,077295,094978
0000000213,0000212000,005283,080623,096340,080828,075303,093684
0000000214,0000213000,033837,079547,094561,084077,074227,091512
0000000215,0000214000,059833,079347,092161,086973,074171,088671
0000000216,0000215000,080626,080048,089381,089231,075139,085445
0000000217,0000216000,094141,081579,086499,090629,077038,082149
0000000218,0000217000,099132,083794,083784,091031,079683,079102
0000000219,0000218000,095095,086478,081504,090399,082815,076602
0000000220,0000219000,082428,089358,079891,088795,086122,074898
0000000221,0000220000,062356,092157,079098,086374,089287,074155
0000000222,0000221000,036791,094611,079201,083372,092000,074444
0000000223,0000222000,008327,096470,080188,080088,093992,075736
0000000224,0000223000,-20229,097548,081966,076841,095068,077906
0000000225,0000224000,-46222,097747,084367,073945,095126,080745
0000000226,0000225000,-67050,097049,087147,071687,094159,083970
0000000227,0000226000,-80587,095520,090030,070289,092262,087264
0000000228,0000227000,-85573,093303,092745,069886,089619,090310
0000000229,0000228000,-81558,090619,095028,070517,086489,092809
0000000230,0000229000,-68916,087740,096643,072119,083183,094513
0000000231,0000230000,-48830,084938,097437,074538,080020,095257
0000000232,0000231000,-23264,082482,097336,077538,077308,094970
0000000233,0000232000,005187,080623,096349,080821,075316,093679
0000000234,0000233000,033766,079543,094572,084066,074239,091511
0000000235,0000234000,059784,079341,092172,086961,074180,088674
0000000236,0000235000,080611,080039,089391,089219,075145,085451
0000000237,0000236000,094168,081568,086507,090617,077040,082159
0000000238,0000237000,099189,083782,083790,091021,079681,079114
0000000239,0000238000,095175,086468,081507,090392,082809,076615
0000000240,0000239000,082537,089348,079889,088792,086113,074911
0000000241,0000240000,062475,092150,079094,086375,089275,074166
0000000242,0000241000,036903,094608,079193,083377,091986,074452
0000000243,0000242000,008431,096470,080178,080096,093978,075741
0000000244,0000243000,-20144,097551,081955,076853,095056,077907
0000000245,0000244000,-46174,097755,084355,073959,095116,080741
0000000246,0000245000,-67038,097059,087136,071701,094152,083962
0000000247,0000246000,-80608,095532,090021,070303,092260,087253
0000000248,0000247000,-85634,093315,092739,069897,089621,090297
0000000249,0000248000,-81654,090632,095025,070525,086496,092795
0000000250,0000249000,-69028,087750,096644,072123,083193,094500
0000000251,0000250000,-48955,084946,097442,074538,080033,095245
0000000252,0000251000,-23393,082487,097345,077533,077322,094961
0000000253,0000252000,005076,080623,096360,080812,075330,093674
0000000254,0000253000,033680,079539,094585,084054,074252,091510
0000000255,0000254000,059725,079333,092185,086946,074191,088678
0000000256,0000255000,080595,080029,089403,089204,075152,085459
0000000257,0000256000,094198,081555,086517,090603,077042,082171
0000000258,0000257000,099252,083769,083797,091009,079679,079128
0000000259,0000258000,095272,086455,081509,090383,082802,076630
0000000260,0000259000,082664,089337,079888,088787,086102,074926
0000000261,0000260000,062612,092142,079088,086375,089261,074179
0000000262,0000261000,037036,094604,079184,083382,091971,074462
0000000263,0000262000,008555,096470,080166,080106,093963,075747
0000000264,0000263000,-20047,097555,081941,076866,095041,077908
0000000265,0000264000,-46117,097763,084340,073974,095104,080737
0000000266,0000265000,-67021,097071,087123,071717,094145,083954
0000000267,0000266000,-80633,095545,090010,070318,092257,087240
0000000268,0000267000,-85707,093330,092732,069910,089623,090282
0000000269,0000268000,-81762,090646,095022,070534,086503,092779
0000000270,0000269000,-69159,087762,096645,072128,083205,094483
0000000271,0000270000,-49104,084955,097448,074537,080048,095231
0000000272,0000271000,-23542,082492,097354,077527,077339,094950
0000000273,0000272000,004948,080623,096373,080801,075347,093668
0000000274,0000273000,033578,079534,094600,084039,074267,091509
0000000275,0000274000,059658,079325,092200,086930,074203,088682
0000000276,0000275000,080579,080016,089417,089186,075160,085469
0000000277,0000276000,094231,081540,086529,090586,077045,082184
0000000278,0000277000,099325,083754,083805,090995,079676,079144
0000000279,0000278000,095387,086440,081513,090373,082794,076648
0000000280,0000279000,082811,089324,079887,088783,086090,074943
0000000281,0000280000,062769,092132,079082,086376,089245,074194
0000000282,0000281000,037191,094599,079173,083389,091953,074474
0000000283,0000282000,008698,096470,080152,080118,093945,075753
0000000284,0000283000,-19936,097560,081925,076881,095025,077909
0000000285,0000284000,-46050,097773,084324,073992,095091,080733
0000000286,0000285000,-67000,097084,087108,071736,094136,083944
0000000287,0000286000,-80664,095560,089997,070335,092254,087226
0000000288,0000287000,-85791,093347,092723,069925,089626,090264
0000000289,0000288000,-81883,090662,095018,070544,086511,092760
0000000290,0000289000,-69311,087776,096647,072132,083218,094465
0000000291,0000290000,-49276,084965,097454,074536,080065,095215
0000000292,0000291000,-23711,082497,097365,077520,077358,094938
0000000293,0000292000,004799,080623,096388,080789,075366,093661
0000000294,0000293000,033458,079529,094617,084023,074285,091508
0000000295,0000294000,059582,079315,092218,086911,074217,088688
0000000296,0000295000,080559,080002,089433,089167,075169,085480
0000000297,0000296000,094265,081523,086542,090568,077048,082200
0000000298,0000297000,099409,083736,083815,090979,079673,079163
0000000299,0000298000,095519,086423,081517,090363,082785,076668
0000000300,0000299000,082976,089309,079885,088777,086076,074963
0000000301,0000300000,062948,092121,079075,086377,089227,074211
