DIgSILENT PowerFactory,21000900,2000
6,06A,00D
1,TTPP_200000_100:Secondary Voltage A,,,V,0.10000000,-8358.698242,0.000000,64730,99998,1,1,P
2,TTPP_200000_100:Secondary Voltage B,,,V,0.10000000,-8193.590820,0.000000,65685,99998,1,1,P
3,TTPP_200000_100:Secondary Voltage C,,,V,0.10000000,-8365.825195,0.000000,63880,99998,1,1,P
4,TTCC_300_1:Secondary Current A,,,A,0.00010000000,-3.361261,0.000000,-11199,99998,1,1,P
5,TTCC_300_1:Secondary Current B,,,A,0.00010000000,-5.023715,0.000000,479,99998,1,1,P
6,TTCC_300_1:Secondary Current C,,,A,0.00010000000,-4.891619,0.000000,-1920,99998,1,1,P
50
1
1000.000000,1101
30/06/2023,06:06:29.000000
30/06/2023,06:06:29.000000
ASCII
1.000000
0000000001,0000000000,090693,083411,075077,012683,036248,083836
0000000002,0000001000,088559,086128,074492,022435,026971,083361
0000000003,0000002000,085919,088458,074804,033275,019971,079520
0000000004,0000003000,083062,090138,075980,044154,015928,072685
0000000005,0000004000,080269,090999,077913,053997,015254,063515
0000000006,0000005000,077781,090991,080410,061845,018007,052916
0000000007,0000006000,075860,090105,083217,066931,023900,041935
0000000008,0000007000,074715,088397,086070,068754,032375,031637
0000000009,0000008000,074430,086059,088691,067130,042617,023020
0000000010,0000009000,075027,083337,090817,062232,053591,016942
0000000011,0000010000,076476,080466,092240,054539,064225,014002
0000000012,0000011000,078628,077728,092824,044780,073510,014475
0000000013,0000012000,081251,075419,092513,033931,080518,018317
0000000014,0000013000,084101,073744,091335,023065,084548,025153
0000000015,0000014000,086916,072861,089404,013222,085223,034321
0000000016,0000015000,089395,072879,086907,005364,082483,044921
0000000017,0000016000,091302,073779,084099,000284,076580,055902
0000000018,0000017000,092465,075469,081248,-01534,068100,066200
0000000019,0000018000,092750,077806,078625,000081,057868,074816
0000000020,0000019000,092137,080545,076499,004980,046892,080893
0000000021,0000020000,090699,083405,075077,012682,036249,083835
0000000022,0000021000,088553,086135,074493,022433,026972,083361
0000000023,0000022000,085917,088460,074804,033282,019965,079519
0000000024,0000023000,083070,090130,075980,044154,015929,072683
0000000025,0000024000,080267,091001,077913,053994,015256,063516
0000000026,0000025000,077774,090997,080410,061848,018002,052916
0000000027,0000026000,075866,090099,083217,066936,023896,041934
0000000028,0000027000,074718,088394,086069,068751,032379,031637
0000000029,0000028000,074423,086066,088692,067131,042615,023020
0000000030,0000029000,075028,083335,090817,062239,053585,016942
0000000031,0000030000,076482,080460,092240,054539,064226,014001
0000000032,0000031000,078624,077733,092824,044779,073512,014475
0000000033,0000032000,081247,075421,092513,033936,080513,018316
0000000034,0000033000,084107,073738,091336,023069,084545,025152
0000000035,0000034000,086915,072862,089404,013220,085226,034320
0000000036,0000035000,089391,072883,086907,005367,082480,044919
0000000037,0000036000,091306,073776,084100,000288,076577,055901
0000000038,0000037000,092467,075467,081248,-01534,068101,066198
0000000039,0000038000,092746,077810,078625,000082,057869,074814
0000000040,0000039000,092138,080544,076499,004984,046890,080892
0000000041,0000040000,090702,083402,075077,012682,036251,083834
0000000042,0000041000,088551,086138,074492,022433,026973,083360
0000000043,0000042000,085917,088461,074804,033283,019964,079519
0000000044,0000043000,083073,090128,075980,044154,015929,072683
0000000045,0000044000,080265,091003,077913,053993,015257,063515
0000000046,0000045000,077774,090998,080409,061849,018000,052916
0000000047,0000046000,075868,090097,083216,066936,023895,041935
0000000048,0000047000,074716,088396,086069,068751,032378,031637
0000000049,0000048000,074422,086068,088691,067132,042613,023021
0000000050,0000049000,075031,083333,090817,062240,053583,016944
0000000051,0000050000,076480,080461,092240,054539,064225,014002
0000000052,0000051000,078621,077735,092825,044782,073508,014475
0000000053,0000052000,081250,075419,092513,033939,080510,018317
0000000054,0000053000,084107,073737,091337,023070,084544,025152
0000000055,0000054000,086911,072865,089404,013224,085223,034319
0000000056,0000055000,089392,072882,086907,005372,082477,044918
0000000057,0000056000,091309,073772,084100,000289,076578,055898
0000000058,0000057000,092463,075470,081248,-01532,068102,066196
0000000059,0000058000,092746,077810,078625,000087,057867,074812
0000000060,0000059000,092143,080540,076499,004985,046892,080889
0000000061,0000060000,090700,083404,075077,012681,036255,083831
0000000062,0000061000,088549,086140,074492,022435,026974,083358
0000000063,0000062000,085921,088457,074803,033284,019965,079517
0000000064,0000063000,083074,090128,075980,044150,015933,072683
0000000065,0000064000,080262,091007,077912,053991,015258,063516
0000000066,0000065000,077776,090997,080409,061849,017999,052917
0000000067,0000066000,075871,090095,083216,066932,023897,041937
0000000068,0000067000,074713,088400,086069,068748,032378,031640
0000000069,0000068000,074421,086069,088691,067134,042608,023024
0000000070,0000069000,075034,083330,090817,062239,053580,016947
0000000071,0000070000,076478,080463,092240,054538,064223,014005
0000000072,0000071000,078618,077738,092825,044786,073503,014477
0000000073,0000072000,081252,075416,092513,033943,080505,018318
0000000074,0000073000,084107,073737,091337,023072,084542,025152
0000000075,0000074000,086908,072868,089405,013229,085220,034318
0000000076,0000075000,089394,072879,086908,005378,082473,044915
0000000077,0000076000,091310,073770,084101,000293,076578,055895
0000000078,0000077000,092461,075472,081249,-01528,068103,066191
0000000079,0000078000,092747,077809,078625,000091,057868,074807
0000000080,0000079000,092145,080537,076499,004986,046895,080885
0000000081,0000080000,090699,083405,075076,012680,036259,083827
0000000082,0000081000,088549,086140,074491,022435,026977,083355
0000000083,0000082000,085924,088455,074802,033281,019970,079515
0000000084,0000083000,083073,090129,075979,044145,015939,072682
0000000085,0000084000,080261,091009,077911,053988,015261,063517
0000000086,0000085000,077778,090995,080408,061844,018001,052920
0000000087,0000086000,075870,090096,083216,066926,023898,041942
0000000088,0000087000,074710,088403,086068,068745,032376,031645
0000000089,0000088000,074422,086068,088691,067132,042605,023030
0000000090,0000089000,075033,083330,090818,062237,053577,016953
0000000091,0000090000,076475,080466,092241,054539,064217,014010
0000000092,0000091000,078618,077737,092826,044790,073495,014481
0000000093,0000092000,081253,075414,092515,033947,080499,018320
0000000094,0000093000,084104,073739,091339,023078,084536,025152
0000000095,0000094000,086908,072867,089406,013238,085213,034316
0000000096,0000095000,089396,072876,086909,005385,082470,044911
0000000097,0000096000,091309,073770,084102,000299,076578,055889
0000000098,0000097000,092460,075472,081249,-01520,068102,066184
0000000099,0000098000,092750,077805,078625,000096,057870,074799
0000000100,0000099000,092147,080536,076499,004987,046902,080877
0000000101,0000100000,090699,083407,075076,012681,036265,083820
0000000102,0000101000,088552,086138,074490,022433,026984,083349
0000000103,0000102000,085926,088454,074801,033275,019979,079512
0000000104,0000103000,083072,090132,075977,044139,015946,072681
0000000105,0000104000,080262,091010,077910,053981,015266,063519
0000000106,0000105000,077780,090995,080407,061835,018006,052925
0000000107,0000106000,075868,090099,083214,066917,023901,041948
0000000108,0000107000,074709,088405,086067,068739,032374,031654
0000000109,0000108000,074423,086068,088690,067127,042600,023039
0000000110,0000109000,075031,083332,090818,062233,053571,016962
0000000111,0000110000,076471,080469,092241,054540,064207,014018
0000000112,0000111000,078618,077736,092827,044794,073484,014487
0000000113,0000112000,081252,075413,092516,033952,080490,018324
0000000114,0000113000,084101,073740,091340,023087,084527,025153
0000000115,0000114000,086908,072865,089408,013249,085204,034313
0000000116,0000115000,089397,072873,086911,005396,082465,044906
0000000117,0000116000,091308,073770,084103,000310,076576,055881
0000000118,0000117000,092461,075470,081250,-01510,068102,066174
0000000119,0000118000,092754,077802,078626,000103,057875,074788
0000000120,0000119000,092147,080535,076499,004990,046910,080865
0000000121,0000120000,090700,083406,075075,012682,036275,083810
0000000122,0000121000,088556,086136,074489,022430,026995,083342
0000000123,0000122000,085928,088454,074799,033267,019992,079507
0000000124,0000123000,083072,090134,075975,044129,015957,072680
0000000125,0000124000,080264,091010,077907,053970,015274,063521
0000000126,0000125000,077781,090996,080405,061822,018013,052931
0000000127,0000126000,075866,090103,083213,066905,023903,041958
0000000128,0000127000,074708,088407,086066,068729,032371,031666
0000000129,0000128000,074422,086069,088690,067119,042595,023052
0000000130,0000129000,075027,083335,090818,062229,053562,016975
0000000131,0000130000,076469,080470,092242,054542,064194,014030
0000000132,0000131000,078617,077736,092828,044798,073471,014496
0000000133,0000132000,081248,075414,092519,033960,080476,018329
0000000134,0000133000,084098,073740,091343,023100,084513,025154
0000000135,0000134000,086908,072862,089410,013263,085193,034310
0000000136,0000135000,089397,072871,086913,005410,082459,044898
0000000137,0000136000,091307,073769,084105,000324,076572,055869
0000000138,0000137000,092464,075466,081251,-01497,068103,066160
0000000139,0000138000,092756,077799,078627,000111,057882,074772
0000000140,0000139000,092148,080535,076498,004995,046921,080850
0000000141,0000140000,090703,083404,075073,012683,036288,083796
0000000142,0000141000,088560,086134,074487,022424,027011,083331
0000000143,0000142000,085929,088455,074797,033257,020009,079500
0000000144,0000143000,083074,090135,075972,044117,015971,072678
0000000145,0000144000,080267,091010,077904,053954,015286,063525
0000000146,0000145000,077780,090999,080402,061804,018021,052940
0000000147,0000146000,075864,090107,083210,066890,023906,041971
0000000148,0000147000,074708,088409,086064,068716,032369,031682
0000000149,0000148000,074420,086072,088690,067108,042588,023070
0000000150,0000149000,075023,083339,090819,062225,053549,016992
0000000151,0000150000,076466,080471,092244,054543,064178,014045
0000000152,0000151000,078615,077736,092831,044804,073453,014509
0000000153,0000152000,081244,075416,092522,033972,080458,018336
0000000154,0000153000,084096,073739,091346,023116,084495,025155
0000000155,0000154000,086908,072859,089414,013282,085179,034305
0000000156,0000155000,089395,072869,086917,005429,082450,044888
0000000157,0000156000,091307,073766,084108,000344,076568,055854
0000000158,0000157000,092467,075461,081253,-01481,068106,066141
0000000159,0000158000,092758,077795,078628,000122,057892,074752
0000000160,0000159000,092151,080532,076498,005002,046934,080830
0000000161,0000160000,090708,083401,075072,012683,036306,083778
0000000162,0000161000,088564,086133,074484,022417,027033,083317
0000000163,0000162000,085931,088457,074793,033245,020030,079492
0000000164,0000163000,083077,090136,075968,044100,015990,072676
0000000165,0000164000,080269,091012,077900,053932,015303,063530
0000000166,0000165000,077780,091004,080398,061782,018032,052951
0000000167,0000166000,075864,090111,083207,066869,023909,041988
0000000168,0000167000,074707,088412,086062,068698,032366,031703
0000000169,0000168000,074416,086076,088689,067094,042579,023093
0000000170,0000169000,075019,083343,090819,062219,053533,017015
0000000171,0000170000,076463,080473,092245,054543,064157,014065
0000000172,0000171000,078610,077737,092834,044812,073430,014524
0000000173,0000172000,081239,075417,092525,033987,080433,018346
0000000174,0000173000,084094,073737,091351,023137,084472,025157
0000000175,0000174000,086906,072856,089419,013305,085162,034300
0000000176,0000175000,089394,072866,086921,005454,082437,044875
0000000177,0000176000,091309,073761,084111,000369,076563,055835
0000000178,0000177000,092470,075456,081256,-01461,068109,066117
0000000179,0000178000,092761,077792,078629,000137,057903,074726
0000000180,0000179000,092155,080529,076497,005010,046952,080804
0000000181,0000180000,090714,083397,075070,012682,036329,083755
0000000182,0000181000,088568,086132,074481,022408,027059,083299
0000000183,0000182000,085935,088457,074789,033229,020056,079481
0000000184,0000183000,083081,090137,075963,044077,016014,072674
0000000185,0000184000,080271,091015,077895,053905,015324,063536
0000000186,0000185000,077779,091009,080393,061755,018045,052966
0000000187,0000186000,075863,090115,083203,066843,023914,042009
0000000188,0000187000,074704,088417,086059,068674,032363,031729
0000000189,0000188000,074411,086082,088688,067078,042566,023122
0000000190,0000189000,075014,083347,090820,062211,053512,017043
0000000191,0000190000,076458,080475,092248,054544,064131,014091
0000000192,0000191000,078604,077740,092838,044821,073401,014543
0000000193,0000192000,081235,075417,092530,034006,080403,018357
0000000194,0000193000,084091,073734,091356,023162,084445,025160
0000000195,0000194000,086903,072853,089424,013334,085140,034292
0000000196,0000195000,089393,072862,086926,005486,082422,044858
0000000197,0000196000,091311,073755,084115,000398,076557,055811
0000000198,0000197000,092473,075450,081259,-01437,068114,066088
0000000199,0000198000,092765,077787,078630,000155,057916,074694
0000000200,0000199000,092162,080523,076496,005020,046973,080773
0000000201,0000200000,090721,083393,075067,012681,036358,083727
0000000202,0000201000,088573,086131,074477,022397,027092,083278
0000000203,0000202000,085940,088457,074783,033209,020089,079469
0000000204,0000203000,083086,090138,075957,044049,016045,072672
0000000205,0000204000,080273,091019,077889,053873,015348,063544
0000000206,0000205000,077780,091014,080388,061721,018061,052983
0000000207,0000206000,075862,090120,083198,066810,023920,042035
0000000208,0000207000,074701,088424,086056,068646,032358,031761
0000000209,0000208000,074405,086089,088686,067058,042551,023157
0000000210,0000209000,075009,083352,090820,062201,053487,017078
0000000211,0000210000,076452,080479,092251,054545,064100,014121
0000000212,0000211000,078597,077743,092842,044834,073365,014567
0000000213,0000212000,081229,075416,092536,034028,080366,018371
0000000214,0000213000,084087,073731,091363,023192,084412,025163
0000000215,0000214000,086900,072850,089431,013370,085113,034284
0000000216,0000215000,089392,072856,086932,005524,082404,044839
0000000217,0000216000,091313,073747,084121,000434,076550,055782
0000000218,0000217000,092476,075443,081262,-01406,068119,066053
0000000219,0000218000,092770,077780,078631,000178,057933,074655
0000000220,0000219000,092169,080517,076495,005031,047000,080735
0000000221,0000220000,090728,083389,075064,012679,036393,083694
0000000222,0000221000,088580,086129,074472,022384,027131,083252
0000000223,0000222000,085948,088457,074777,033185,020128,079453
0000000224,0000223000,083091,090140,075950,044016,016082,072668
0000000225,0000224000,080275,091025,077881,053834,015378,063554
0000000226,0000225000,077781,091020,080380,061680,018081,053005
0000000227,0000226000,075861,090128,083193,066771,023928,042067
0000000228,0000227000,074696,088432,086052,068613,032353,031800
0000000229,0000228000,074399,086097,088685,067035,042532,023199
0000000230,0000229000,075002,083358,090821,062189,053458,017119
0000000231,0000230000,076443,080484,092254,054546,064062,014158
0000000232,0000231000,078588,077745,092848,044849,073322,014595
0000000233,0000232000,081223,075415,092543,034055,080323,018388
0000000234,0000233000,084081,073729,091371,023228,084372,025166
0000000235,0000234000,086896,072845,089440,013413,085081,034273
0000000236,0000235000,089392,072849,086940,005569,082382,044815
0000000237,0000236000,091315,073739,084127,000476,076542,055748
0000000238,0000237000,092480,075435,081267,-01370,068126,066010
0000000239,0000238000,092777,077772,078633,000204,057952,074610
0000000240,0000239000,092177,080509,076495,005043,047032,080690
0000000241,0000240000,090736,083384,075061,012678,036434,083654
0000000242,0000241000,088589,086126,074466,022368,027177,083222
0000000243,0000242000,085956,088456,074769,033156,020175,079436
0000000244,0000243000,083097,090143,075941,043976,016125,072665
0000000245,0000244000,080279,091030,077872,053788,015412,063565
0000000246,0000245000,077782,091027,080372,061632,018103,053031
0000000247,0000246000,075859,090136,083186,066725,023937,042104
0000000248,0000247000,074691,088442,086048,068575,032346,031846
0000000249,0000248000,074393,086105,088683,067008,042510,023248
0000000250,0000249000,074993,083365,090822,062175,053424,017168
0000000251,0000250000,076433,080490,092258,054548,064018,014200
0000000252,0000251000,078579,077748,092854,044866,073272,014627
0000000253,0000252000,081215,075415,092552,034086,080273,018407
0000000254,0000253000,084074,073726,091381,023271,084326,025169
0000000255,0000254000,086892,072840,089449,013463,085043,034260
0000000256,0000255000,089391,072841,086949,005621,082358,044787
0000000257,0000256000,091317,073729,084135,000525,076533,055707
0000000258,0000257000,092485,075425,081272,-01328,068133,065961
0000000259,0000258000,092785,077762,078635,000234,057976,074556
0000000260,0000259000,092187,080501,076493,005058,047070,080638
0000000261,0000260000,090746,083379,075057,012676,036482,083608
0000000262,0000261000,088599,086123,074459,022349,027230,083187
0000000263,0000262000,085965,088456,074760,033122,020230,079415
0000000264,0000263000,083104,090147,075930,043930,016174,072661
0000000265,0000264000,080283,091037,077862,053734,015452,063579
0000000266,0000265000,077784,091035,080362,061575,018130,053060
0000000267,0000266000,075856,090147,083178,066672,023947,042148
0000000268,0000267000,074686,088453,086042,068530,032338,031899
0000000269,0000268000,074385,086116,088680,066975,042485,023306
0000000270,0000269000,074983,083374,090824,062159,053384,017224
0000000271,0000270000,076422,080497,092262,054550,063966,014249
0000000272,0000271000,078568,077752,092861,044887,073214,014665
0000000273,0000272000,081205,075415,092562,034122,080214,018429
0000000274,0000273000,084066,073723,091392,023320,084273,025173
0000000275,0000274000,086887,072833,089461,013521,085000,034246
0000000276,0000275000,089390,072831,086960,005681,082330,044755
0000000277,0000276000,091319,073719,084143,000582,076523,055661
0000000278,0000277000,092490,075413,081278,-01280,068141,065904
0000000279,0000278000,092794,077750,078637,000268,058003,074495
0000000280,0000279000,092197,080492,076492,005075,047113,080578
0000000281,0000280000,090758,083372,075052,012674,036537,083556
0000000282,0000281000,088612,086118,074451,022328,027292,083147
0000000283,0000282000,085975,088456,074750,033082,020292,079391
0000000284,0000283000,083112,090151,075918,043877,016231,072657
0000000285,0000284000,080289,091043,077849,053673,015498,063595
0000000286,0000285000,077785,091045,080351,061511,018160,053095
0000000287,0000286000,075853,090159,083168,066611,023957,042197
0000000288,0000287000,074680,088466,086036,068479,032328,031959
0000000289,0000288000,074376,086127,088678,066939,042456,023371
0000000290,0000289000,074971,083385,090825,062141,053338,017287
0000000291,0000290000,076409,080505,092267,054553,063907,014306
0000000292,0000291000,078556,077755,092870,044910,073148,014708
0000000293,0000292000,081193,075415,092573,034164,080148,018454
0000000294,0000293000,084057,073719,091405,023377,084212,025177
0000000295,0000294000,086882,072825,089474,013587,084951,034229
0000000296,0000295000,089389,072820,086972,005750,082298,044719
0000000297,0000296000,091322,073706,084153,000647,076511,055608
0000000298,0000297000,092497,075400,081285,-01226,068151,065840
0000000299,0000298000,092804,077737,078641,000306,058034,074425
0000000300,0000299000,092210,080481,076491,005094,047162,080510
0000000301,0000300000,090772,083363,075046,012671,036599,083496
