DIgSILENT PowerFactory,21000900,2000
6,06A,00D
1,TTPP_200000_100:Secondary Voltage A,,,V,0.10000000,-8252.335938,0.000000,66778,99998,1,1,P
2,TTPP_200000_100:Secondary Voltage B,,,V,0.10000000,-8431.051758,0.000000,68194,99998,1,1,P
3,TTPP_200000_100:Secondary Voltage C,,,V,0.10000000,-8121.020996,0.000000,59340,99998,1,1,P
4,TTCC_500_5:Secondary Current A,,,A,0.0010000000,-80.156410,0.000000,66511,99998,1,1,P
5,TTCC_500_5:Secondary Current B,,,A,0.0010000000,-84.314102,0.000000,68669,99998,1,1,P
6,TTCC_500_5:Secondary Current C,,,A,0.0010000000,-84.972908,0.000000,70085,99998,1,1,P
50
1
1000.000000,1101
30/06/2023,06:11:58.000000
30/06/2023,06:11:58.000000
ASCII
1.000000
0000000001,0000000000,088035,087951,072058,086072,088993,074378
0000000002,0000001000,085488,090384,072172,083056,091710,074677
0000000003,0000002000,082636,092240,073170,079759,093703,075982
0000000004,0000003000,079789,093302,074953,076500,094776,078168
0000000005,0000004000,077208,093482,077355,073599,094823,081022
0000000006,0000005000,075131,092780,080133,071337,093846,084261
0000000007,0000006000,073790,091244,083008,069943,091932,087568
0000000008,0000007000,073313,089017,085714,069549,089271,090623
0000000009,0000008000,073724,086337,087983,070188,086129,093126
0000000010,0000009000,074991,083471,089583,071808,082807,094829
0000000011,0000010000,077010,080672,090362,074245,079632,095567
0000000012,0000011000,079572,078224,090249,077258,076917,095268
0000000013,0000012000,082401,076392,089252,080558,074923,093963
0000000014,0000013000,085253,075323,087467,083816,073850,091777
0000000015,0000014000,087853,075125,085066,086718,073803,088923
0000000016,0000015000,089910,075846,082288,088977,074783,085683
0000000017,0000016000,091247,077386,079412,090373,076693,082377
0000000018,0000017000,091745,079593,076707,090770,079352,079322
0000000019,0000018000,091325,082281,074437,090125,082500,076819
0000000020,0000019000,090044,085163,072837,088508,085819,075116
0000000021,0000020000,088041,087945,072058,086074,088991,074378
0000000022,0000021000,085486,090386,072172,083055,091712,074677
0000000023,0000022000,082635,092241,073169,079758,093704,075982
0000000024,0000023000,079790,093301,074953,076502,094774,078168
0000000025,0000024000,077208,093481,077355,073597,094824,081022
0000000026,0000025000,075131,092781,080132,071337,093845,084261
0000000027,0000026000,073790,091245,083008,069943,091932,087568
0000000028,0000027000,073314,089016,085714,069547,089273,090623
0000000029,0000028000,073722,086339,087983,070189,086129,093126
0000000030,0000029000,074992,083470,089583,071807,082808,094829
0000000031,0000030000,077012,080670,090363,074243,079633,095567
0000000032,0000031000,079567,078228,090249,077259,076917,095268
0000000033,0000032000,082403,076390,089251,080557,074924,093963
0000000034,0000033000,085257,075320,087467,083815,073851,091777
0000000035,0000034000,087848,075130,085066,086717,073803,088923
0000000036,0000035000,089910,075846,082288,088977,074783,085684
0000000037,0000036000,091252,077381,079412,090373,076693,082377
0000000038,0000037000,091743,079595,076707,090768,079354,079322
0000000039,0000038000,091322,082284,074438,090125,082499,076819
0000000040,0000039000,090049,085159,072837,088509,085819,075116
0000000041,0000040000,088042,087944,072058,086072,088992,074379
0000000042,0000041000,085481,090392,072172,083055,091711,074677
0000000043,0000042000,082636,092239,073168,079758,093703,075982
0000000044,0000043000,079795,093297,074952,076501,094775,078168
0000000045,0000044000,077203,093487,077355,073597,094825,081022
0000000046,0000045000,075129,092783,080132,071338,093845,084261
0000000047,0000046000,073796,091240,083008,069943,091933,087568
0000000048,0000047000,073311,089019,085714,069546,089274,090623
0000000049,0000048000,073718,086343,087983,070189,086129,093126
0000000050,0000049000,074995,083466,089583,071807,082808,094829
0000000051,0000050000,077013,080669,090363,074242,079635,095566
0000000052,0000051000,079563,078232,090249,077258,076918,095268
0000000053,0000052000,082404,076389,089252,080557,074924,093963
0000000054,0000053000,085259,075316,087468,083814,073852,091777
0000000055,0000054000,087844,075133,085067,086715,073804,088924
0000000056,0000055000,089909,075847,082288,088977,074782,085684
0000000057,0000056000,091255,077377,079412,090372,076693,082378
0000000058,0000057000,091741,079596,076707,090766,079354,079323
0000000059,0000058000,091321,082286,074438,090124,082499,076820
0000000060,0000059000,090052,085155,072837,088509,085818,075117
0000000061,0000060000,088043,087943,072058,086072,088992,074379
0000000062,0000061000,085479,090394,072171,083055,091710,074678
0000000063,0000062000,082639,092237,073168,079759,093702,075983
0000000064,0000063000,079796,093296,074952,076501,094775,078168
0000000065,0000064000,077201,093489,077354,073598,094824,081021
0000000066,0000065000,075131,092782,080131,071338,093844,084261
0000000067,0000066000,073797,091239,083008,069943,091933,087567
0000000068,0000067000,073308,089022,085714,069547,089275,090622
0000000069,0000068000,073718,086344,087982,070190,086129,093125
0000000070,0000069000,074997,083465,089583,071807,082809,094828
0000000071,0000070000,077009,080672,090363,074241,079636,095566
0000000072,0000071000,079561,078233,090250,077258,076918,095267
0000000073,0000072000,082406,076386,089253,080556,074925,093963
0000000074,0000073000,085257,075317,087469,083812,073854,091777
0000000075,0000074000,087842,075134,085068,086714,073805,088924
0000000076,0000075000,089911,075843,082289,088976,074783,085685
0000000077,0000076000,091256,077375,079413,090370,076694,082379
0000000078,0000077000,091739,079598,076708,090765,079354,079324
0000000079,0000078000,091323,082283,074438,090124,082498,076821
0000000080,0000079000,090055,085152,072837,088507,085818,075118
0000000081,0000080000,088041,087946,072057,086072,088991,074380
0000000082,0000081000,085480,090393,072170,083056,091709,074679
0000000083,0000082000,082643,092234,073167,079759,093701,075983
0000000084,0000083000,079795,093299,074951,076502,094774,078168
0000000085,0000084000,077200,093492,077352,073600,094823,081021
0000000086,0000085000,075134,092780,080130,071340,093843,084260
0000000087,0000086000,073797,091240,083007,069944,091933,087566
0000000088,0000087000,073305,089026,085713,069548,089275,090620
0000000089,0000088000,073719,086343,087982,070191,086129,093123
0000000090,0000089000,074997,083464,089583,071807,082810,094826
0000000091,0000090000,077005,080675,090364,074241,079638,095564
0000000092,0000091000,079560,078234,090251,077257,076920,095266
0000000093,0000092000,082406,076384,089254,080554,074927,093962
0000000094,0000093000,085254,075319,087471,083810,073856,091777
0000000095,0000094000,087840,075134,085069,086713,073806,088925
0000000096,0000095000,089913,075840,082291,088973,074784,085686
0000000097,0000096000,091255,077374,079415,090368,076695,082381
0000000098,0000097000,091738,079598,076708,090764,079353,079326
0000000099,0000098000,091327,082279,074438,090123,082497,076824
0000000100,0000099000,090057,085150,072837,088506,085816,075121
0000000101,0000100000,088041,087946,072057,086072,088989,074382
0000000102,0000101000,085484,090392,072169,083057,091706,074680
0000000103,0000102000,082646,092233,073165,079760,093699,075984
0000000104,0000103000,079794,093301,074949,076503,094772,078168
0000000105,0000104000,077202,093493,077350,073602,094821,081021
0000000106,0000105000,075136,092780,080128,071342,093842,084259
0000000107,0000106000,073795,091244,083005,069946,091933,087564
0000000108,0000107000,073304,089029,085711,069551,089275,090618
0000000109,0000108000,073719,086343,087981,070192,086131,093120
0000000110,0000109000,074993,083467,089584,071807,082813,094823
0000000111,0000110000,077002,080678,090365,074241,079641,095562
0000000112,0000111000,079560,078233,090252,077256,076923,095264
0000000113,0000112000,082404,076383,089256,080552,074931,093961
0000000114,0000113000,085251,075320,087473,083808,073858,091777
0000000115,0000114000,087841,075132,085071,086710,073808,088925
0000000116,0000115000,089914,075836,082293,088970,074786,085688
0000000117,0000116000,091254,077374,079417,090365,076696,082383
0000000118,0000117000,091739,079595,076710,090761,079353,079329
0000000119,0000118000,091330,082275,074439,090121,082496,076827
0000000120,0000119000,090058,085149,072837,088505,085814,075124
0000000121,0000120000,088043,087946,072055,086072,088986,074385
0000000122,0000121000,085488,090389,072167,083058,091703,074682
0000000123,0000122000,082648,092233,073163,079762,093696,075986
0000000124,0000123000,079795,093304,074946,076506,094768,078169
0000000125,0000124000,077205,093493,077347,073606,094818,081020
0000000126,0000125000,075137,092782,080125,071346,093841,084257
0000000127,0000126000,073792,091249,083003,069950,091932,087561
0000000128,0000127000,073303,089031,085710,069554,089275,090614
0000000129,0000128000,073718,086345,087981,070194,086133,093117
0000000130,0000129000,074989,083471,089584,071808,082816,094820
0000000131,0000130000,076998,080680,090366,074241,079644,095558
0000000132,0000131000,079558,078232,090254,077255,076927,095262
0000000133,0000132000,082400,076384,089259,080549,074935,093959
0000000134,0000133000,085247,075320,087476,083805,073862,091777
0000000135,0000134000,087841,075128,085075,086706,073811,088926
0000000136,0000135000,089913,075834,082297,088965,074788,085690
0000000137,0000136000,091253,077372,079419,090361,076697,082386
0000000138,0000137000,091742,079590,076712,090758,079352,079333
0000000139,0000138000,091334,082271,074440,090118,082494,076831
0000000140,0000139000,090060,085148,072837,088504,085811,075128
0000000141,0000140000,088047,087943,072054,086072,088982,074389
0000000142,0000141000,085493,090386,072164,083059,091698,074685
0000000143,0000142000,082650,092234,073160,079765,093691,075987
0000000144,0000143000,079797,093305,074942,076511,094764,078169
0000000145,0000144000,077208,093494,077343,073610,094815,081019
0000000146,0000145000,075136,092786,080122,071350,093839,084254
0000000147,0000146000,073791,091254,082999,069955,091931,087557
0000000148,0000147000,073302,089034,085707,069558,089276,090610
0000000149,0000148000,073715,086349,087980,070197,086135,093112
0000000150,0000149000,074984,083476,089584,071810,082819,094815
0000000151,0000150000,076995,080682,090367,074241,079648,095554
0000000152,0000151000,079554,078233,090258,077253,076932,095258
0000000153,0000152000,082395,076386,089263,080546,074940,093957
0000000154,0000153000,085245,075318,087481,083800,073867,091776
0000000155,0000154000,087840,075124,085080,086700,073815,088928
0000000156,0000155000,089912,075831,082301,088959,074791,085693
0000000157,0000156000,091254,077368,079423,090355,076697,082391
0000000158,0000157000,091746,079584,076714,090753,079351,079339
0000000159,0000158000,091337,082266,074441,090114,082492,076837
0000000160,0000159000,090064,085144,072836,088502,085807,075134
0000000161,0000160000,088054,087939,072052,086072,088977,074394
0000000162,0000161000,085498,090384,072161,083061,091693,074689
0000000163,0000162000,082653,092236,073155,079769,093685,075990
0000000164,0000163000,079802,093306,074936,076516,094758,078169
0000000165,0000164000,077211,093496,077338,073616,094810,081017
0000000166,0000165000,075136,092792,080117,071357,093836,084251
0000000167,0000166000,073790,091259,082995,069961,091930,087552
0000000168,0000167000,073300,089039,085704,069563,089277,090604
0000000169,0000168000,073709,086356,087979,070200,086138,093105
0000000170,0000169000,074978,083481,089585,071812,082824,094808
0000000171,0000170000,076990,080685,090370,074241,079654,095548
0000000172,0000171000,079548,078235,090262,077250,076939,095254
0000000173,0000172000,082389,076387,089268,080542,074947,093955
0000000174,0000173000,085242,075316,087487,083794,073873,091776
0000000175,0000174000,087837,075121,085086,086693,073821,088929
0000000176,0000175000,089910,075827,082307,088952,074794,085697
0000000177,0000176000,091256,077361,079428,090349,076699,082396
0000000178,0000177000,091750,079577,076718,090747,079350,079346
0000000179,0000178000,091340,082261,074443,090110,082489,076845
0000000180,0000179000,090070,085139,072835,088500,085802,075141
0000000181,0000180000,088061,087934,072049,086072,088970,074401
0000000182,0000181000,085504,090383,072157,083064,091685,074694
0000000183,0000182000,082659,092236,073149,079774,093677,075993
0000000184,0000183000,079807,093307,074930,076522,094751,078170
0000000185,0000184000,077213,093500,077331,073624,094805,081015
0000000186,0000185000,075136,092798,080110,071365,093832,084247
0000000187,0000186000,073789,091265,082990,069969,091929,087546
0000000188,0000187000,073297,089046,085701,069569,089278,090596
0000000189,0000188000,073703,086363,087977,070205,086142,093097
0000000190,0000189000,074972,083487,089585,071814,082829,094800
0000000191,0000190000,076983,080688,090373,074241,079662,095541
0000000192,0000191000,079540,078238,090266,077247,076948,095248
0000000193,0000192000,082382,076387,089275,080537,074956,093951
0000000194,0000193000,085237,075312,087494,083787,073881,091775
0000000195,0000194000,087833,075117,085094,086685,073827,088931
0000000196,0000195000,089909,075821,082314,088943,074798,085701
0000000197,0000196000,091258,077353,079433,090340,076700,082403
0000000198,0000197000,091754,079569,076722,090740,079349,079354
0000000199,0000198000,091346,082254,074444,090105,082485,076854
0000000200,0000199000,090078,085132,072834,088498,085795,075151
0000000201,0000200000,088069,087928,072046,086073,088962,074409
0000000202,0000201000,085511,090381,072151,083067,091676,074701
0000000203,0000202000,082666,092236,073142,079780,093667,075996
0000000204,0000203000,079814,093309,074922,076530,094742,078171
0000000205,0000204000,077216,093506,077322,073633,094798,081013
0000000206,0000205000,075137,092805,080102,071375,093827,084241
0000000207,0000206000,073788,091272,082983,069978,091927,087539
0000000208,0000207000,073292,089055,085697,069577,089280,090587
0000000209,0000208000,073696,086372,087975,070211,086146,093086
0000000210,0000209000,074964,083494,089586,071817,082836,094790
0000000211,0000210000,076974,080694,090376,074240,079671,095532
0000000212,0000211000,079530,078242,090272,077244,076958,095242
0000000213,0000212000,082375,076387,089283,080530,074966,093947
0000000214,0000213000,085231,075309,087503,083778,073891,091775
0000000215,0000214000,087829,075112,085103,086674,073835,088934
0000000216,0000215000,089908,075814,082322,088933,074803,085707
0000000217,0000216000,091260,077343,079441,090330,076702,082412
0000000218,0000217000,091758,079560,076727,090731,079348,079364
0000000219,0000218000,091353,082245,074446,090099,082480,076865
0000000220,0000219000,090087,085123,072833,088495,085787,075161
0000000221,0000220000,088079,087923,072042,086073,088952,074419
0000000222,0000221000,085521,090378,072145,083071,091664,074708
0000000223,0000222000,082676,092235,073133,079787,093656,076001
0000000224,0000223000,079821,093312,074912,076540,094732,078172
0000000225,0000224000,077220,093512,077312,073644,094789,081010
0000000226,0000225000,075138,092813,080093,071387,093822,084235
0000000227,0000226000,073786,091282,082976,069989,091925,087529
0000000228,0000227000,073287,089066,085691,069586,089281,090575
0000000229,0000228000,073689,086382,087973,070218,086151,093074
0000000230,0000229000,074955,083502,089587,071820,082845,094778
0000000231,0000230000,076963,080700,090381,074240,079682,095522
0000000232,0000231000,079519,078246,090279,077240,076970,095234
0000000233,0000232000,082366,076386,089292,080522,074978,093943
0000000234,0000233000,085224,075306,087514,083767,073902,091774
0000000235,0000234000,087824,075106,085114,086662,073844,088937
0000000236,0000235000,089907,075804,082333,088920,074809,085714
0000000237,0000236000,091263,077332,079449,090317,076704,082422
0000000238,0000237000,091763,079549,076732,090721,079346,079377
0000000239,0000238000,091361,082234,074449,090092,082474,076878
0000000240,0000239000,090098,085114,072832,088491,085778,075174
0000000241,0000240000,088090,087916,072037,086073,088940,074430
0000000242,0000241000,085532,090375,072137,083076,091651,074717
0000000243,0000242000,082687,092235,073123,079795,093643,076006
0000000244,0000243000,079828,093316,074900,076551,094720,078173
0000000245,0000244000,077225,093520,077300,073658,094779,081007
0000000246,0000245000,075140,092822,080082,071400,093815,084228
0000000247,0000246000,073784,091294,082966,070002,091923,087519
0000000248,0000247000,073280,089079,085685,069598,089283,090562
0000000249,0000248000,073680,086394,087970,070226,086158,093060
0000000250,0000249000,074944,083512,089589,071824,082855,094764
0000000251,0000250000,076950,080709,090386,074239,079695,095509
0000000252,0000251000,079507,078250,090288,077235,076985,095224
0000000253,0000252000,082355,076386,089303,080513,074993,093937
0000000254,0000253000,085214,075302,087527,083755,073915,091773
0000000255,0000254000,087818,075099,085127,086648,073855,088941
0000000256,0000255000,089906,075793,082345,088905,074816,085722
0000000257,0000256000,091265,077320,079459,090303,076707,082433
0000000258,0000257000,091769,079536,076739,090709,079344,079391
0000000259,0000258000,091372,082221,074452,090083,082467,076894
0000000260,0000259000,090110,085102,072831,088487,085767,075189
0000000261,0000260000,088103,087908,072032,086074,088926,074443
0000000262,0000261000,085546,090370,072128,083081,091636,074727
0000000263,0000262000,082699,092234,073111,079805,093627,076012
0000000264,0000263000,079838,093320,074886,076564,094706,078173
0000000265,0000264000,077231,093528,077286,073673,094768,081003
0000000266,0000265000,075142,092834,080069,071417,093808,084219
0000000267,0000266000,073781,091308,082956,070017,091920,087506
0000000268,0000267000,073273,089094,085677,069610,089286,090547
0000000269,0000268000,073670,086407,087967,070235,086165,093044
0000000270,0000269000,074930,083524,089590,071828,082867,094748
0000000271,0000270000,076935,080718,090392,074238,079710,095495
0000000272,0000271000,079492,078254,090298,077229,077001,095214
0000000273,0000272000,082342,076386,089316,080503,075010,093931
0000000274,0000273000,085204,075298,087542,083741,073931,091772
0000000275,0000274000,087812,075090,085142,086631,073867,088945
0000000276,0000275000,089904,075780,082359,088887,074824,085732
0000000277,0000276000,091268,077305,079471,090287,076710,082447
0000000278,0000277000,091777,079520,076747,090695,079341,079407
0000000279,0000278000,091383,082206,074455,090073,082459,076911
0000000280,0000279000,090125,085090,072830,088482,085755,075207
0000000281,0000280000,088119,087899,072026,086075,088910,074458
0000000282,0000281000,085562,090364,072117,083088,091618,074738
0000000283,0000282000,082713,092234,073097,079816,093609,076018
0000000284,0000283000,079848,093326,074870,076580,094689,078175
0000000285,0000284000,077238,093537,077270,073691,094755,080998
0000000286,0000285000,075144,092847,080054,071435,093799,084209
0000000287,0000286000,073777,091324,082943,070035,091917,087492
0000000288,0000287000,073265,089110,085669,069625,089289,090530
0000000289,0000288000,073657,086423,087963,070245,086173,093025
0000000290,0000289000,074915,083538,089592,071833,082880,094730
0000000291,0000290000,076918,080728,090398,074237,079727,095479
0000000292,0000291000,079476,078259,090309,077222,077020,095202
0000000293,0000292000,082327,076386,089331,080490,075029,093924
0000000294,0000293000,085192,075293,087559,083725,073948,091771
0000000295,0000294000,087805,075079,085160,086612,073881,088950
0000000296,0000295000,089902,075766,082375,088868,074833,085742
0000000297,0000296000,091271,077289,079484,090268,076713,082462
0000000298,0000297000,091786,079502,076757,090680,079338,079426
0000000299,0000298000,091397,082188,074459,090062,082450,076931
0000000300,0000299000,090141,085075,072828,088477,085741,075226
0000000301,0000300000,088137,087888,072019,086076,088892,074475
