DIgSILENT PowerFactory,21000900,2000
6,06A,00D
1,TTPP_200000_100:Secondary Voltage A,,,V,0.010000000,-67.888718,0.000000,-86352,99998,1,1,P
2,TTPP_200000_100:Secondary Voltage B,,,V,0.10000000,-8915.982422,0.000000,79650,99998,1,1,P
3,TTPP_200000_100:Secondary Voltage C,,,V,0.10000000,-8934.959961,0.000000,78893,99998,1,1,P
4,TTCC_500_5:Secondary Current A,,,A,0.0010000000,-81.324768,0.000000,51472,99998,1,1,P
5,TTCC_500_5:Secondary Current B,,,A,0.0010000000,-84.692215,0.000000,69394,99998,1,1,P
6,TTCC_500_5:Secondary Current C,,,A,0.0010000000,-84.682877,0.000000,69363,99998,1,1,P
50
1
1000.000000,1101
30/06/2023,06:04:40.000000
30/06/2023,06:04:40.000000
ASCII
1.000000
0000000001,0000000000,061930,092798,080197,087242,089370,074088
0000000002,0000001000,036433,095234,080310,084228,092085,074386
0000000003,0000002000,007933,097088,081308,080927,094082,075691
0000000004,0000003000,-20551,098153,083091,077673,095151,077876
0000000005,0000004000,-46313,098329,085492,074770,095200,080730
0000000006,0000005000,-67066,097626,088269,072504,094226,083969
0000000007,0000006000,-80560,096099,091146,071113,092311,087276
0000000008,0000007000,-85333,093871,093851,070717,089652,090331
0000000009,0000008000,-81171,091185,096121,071357,086509,092834
0000000010,0000009000,-68530,088321,097721,072975,083187,094538
0000000011,0000010000,-48375,085525,098501,075409,080014,095276
0000000012,0000011000,-22770,083077,098389,078426,077296,094978
0000000013,0000012000,005548,081241,097392,081724,075302,093674
0000000014,0000013000,034063,080173,095609,084982,074230,091488
0000000015,0000014000,060046,079976,093207,087885,074180,088635
0000000016,0000015000,080654,080693,090430,090144,075161,085395
0000000017,0000016000,094000,082235,087554,091541,077070,082089
0000000018,0000017000,098970,084443,084848,091939,079728,079034
0000000019,0000018000,094839,087126,082579,091294,082876,076530
0000000020,0000019000,082028,090007,080977,089678,086195,074826
0000000021,0000020000,061968,092794,080197,087243,089368,074088
0000000022,0000021000,036425,095235,080311,084225,092088,074386
0000000023,0000022000,007935,097088,081307,080929,094080,075691
0000000024,0000023000,-20509,098149,083090,077672,095152,077876
0000000025,0000024000,-46340,098331,085491,074767,095203,080730
0000000026,0000025000,-67116,097631,088269,072506,094224,083969
0000000027,0000026000,-80540,096097,091145,071112,092312,087276
0000000028,0000027000,-85313,093869,093851,070716,089652,090331
0000000029,0000028000,-81215,091189,096121,071357,086509,092834
0000000030,0000029000,-68544,088322,097721,072973,083188,094538
0000000031,0000030000,-48360,085523,098501,075410,080013,095276
0000000032,0000031000,-22793,083079,098389,078425,077297,094978
0000000033,0000032000,005553,081241,097393,081723,075303,093674
0000000034,0000033000,034093,080170,095609,084982,074229,091489
0000000035,0000034000,060025,079978,093208,087883,074182,088635
0000000036,0000035000,080630,080695,090430,090144,075160,085396
0000000037,0000036000,094043,082230,087554,091541,077070,082089
0000000038,0000037000,098990,084441,084848,091936,079730,079034
0000000039,0000038000,094808,087129,082579,091294,082876,076530
0000000040,0000039000,082040,090007,080977,089678,086195,074827
0000000041,0000040000,061987,092792,080197,087243,089368,074089
0000000042,0000041000,036409,095237,080311,084226,092088,074387
0000000043,0000042000,007942,097087,081307,080928,094080,075691
0000000044,0000043000,-20486,098147,083090,077671,095152,077876
0000000045,0000044000,-46367,098334,085491,074767,095203,080730
0000000046,0000045000,-67133,097633,088269,072507,094224,083969
0000000047,0000046000,-80505,096094,091145,071112,092312,087276
0000000048,0000047000,-85318,093869,093851,070715,089654,090331
0000000049,0000048000,-81248,091193,096120,071356,086509,092834
0000000050,0000049000,-68535,088321,097721,072974,083188,094538
0000000051,0000050000,-48351,085522,098502,075409,080015,095276
0000000052,0000051000,-22817,083081,098389,078425,077297,094978
0000000053,0000052000,005559,081240,097393,081723,075303,093674
0000000054,0000053000,034106,080168,095609,084981,074230,091489
0000000055,0000054000,059997,079980,093208,087882,074182,088635
0000000056,0000055000,080628,080695,090431,090144,075160,085396
0000000057,0000056000,094075,082227,087554,091540,077070,082090
0000000058,0000057000,098982,084442,084849,091935,079730,079035
0000000059,0000058000,094789,087130,082579,091293,082876,076531
0000000060,0000059000,082065,090004,080977,089678,086194,074828
0000000061,0000060000,062000,092791,080197,087242,089368,074089
0000000062,0000061000,036396,095238,080310,084226,092087,074387
0000000063,0000062000,007960,097086,081306,080929,094079,075691
0000000064,0000063000,-20473,098147,083089,077671,095152,077876
0000000065,0000064000,-46388,098337,085491,074768,095202,080730
0000000066,0000065000,-67127,097633,088268,072508,094224,083969
0000000067,0000066000,-80482,096092,091144,071113,092312,087275
0000000068,0000067000,-85339,093871,093850,070715,089654,090330
0000000069,0000068000,-81269,091195,096120,071357,086509,092833
0000000070,0000069000,-68520,088319,097721,072974,083189,094537
0000000071,0000070000,-48361,085522,098502,075409,080016,095275
0000000072,0000071000,-22843,083083,098390,078424,077298,094978
0000000073,0000072000,005565,081238,097393,081722,075304,093673
0000000074,0000073000,034104,080167,095610,084979,074232,091489
0000000075,0000074000,059972,079981,093210,087881,074183,088636
0000000076,0000075000,080637,080693,090432,090142,075160,085397
0000000077,0000076000,094095,082224,087555,091538,077071,082091
0000000078,0000077000,098967,084442,084849,091934,079730,079036
0000000079,0000078000,094791,087130,082579,091293,082875,076533
0000000080,0000079000,082096,090001,080977,089677,086193,074829
0000000081,0000080000,062005,092791,080197,087242,089367,074091
0000000082,0000081000,036394,095239,080309,084226,092086,074388
0000000083,0000082000,007987,097085,081305,080930,094078,075692
0000000084,0000083000,-20464,098147,083088,077672,095151,077877
0000000085,0000084000,-46399,098339,085489,074769,095201,080729
0000000086,0000085000,-67112,097633,088267,072509,094223,083968
0000000087,0000086000,-80474,096092,091143,071114,092312,087274
0000000088,0000087000,-85365,093875,093850,070716,089655,090328
0000000089,0000088000,-81279,091196,096120,071358,086510,092832
0000000090,0000089000,-68515,088318,097721,072974,083190,094535
0000000091,0000090000,-48387,085524,098503,075408,080018,095274
0000000092,0000091000,-22867,083085,098391,078423,077300,094977
0000000093,0000092000,005566,081237,097395,081721,075306,093673
0000000094,0000093000,034088,080167,095612,084977,074234,091489
0000000095,0000094000,059951,079982,093211,087879,074184,088636
0000000096,0000095000,080649,080690,090433,090140,075161,085398
0000000097,0000096000,094103,082222,087556,091536,077071,082093
0000000098,0000097000,098957,084442,084850,091932,079730,079038
0000000099,0000098000,094810,087128,082580,091291,082873,076535
0000000100,0000099000,082127,089998,080977,089676,086192,074831
0000000101,0000100000,062011,092791,080196,087242,089366,074093
0000000102,0000101000,036410,095239,080308,084227,092083,074390
0000000103,0000102000,008019,097083,081303,080931,094076,075693
0000000104,0000103000,-20457,098148,083086,077674,095149,077877
0000000105,0000104000,-46399,098341,085487,074772,095199,080729
0000000106,0000105000,-67095,097633,088265,072512,094221,083967
0000000107,0000106000,-80478,096094,091142,071116,092312,087272
0000000108,0000107000,-85391,093879,093849,070719,089655,090326
0000000109,0000108000,-81286,091198,096119,071360,086511,092829
0000000110,0000109000,-68527,088319,097722,072975,083192,094533
0000000111,0000110000,-48425,085527,098504,075408,080021,095272
0000000112,0000111000,-22890,083085,098392,078423,077303,094975
0000000113,0000112000,005558,081236,097397,081719,075309,093672
0000000114,0000113000,034062,080167,095615,084974,074237,091489
0000000115,0000114000,059935,079981,093214,087876,074186,088637
0000000116,0000115000,080659,080687,090435,090137,075163,085400
0000000117,0000116000,094103,082220,087559,091533,077072,082095
0000000118,0000117000,098958,084441,084852,091929,079729,079041
0000000119,0000118000,094841,087124,082580,091290,082872,076538
0000000120,0000119000,082157,089995,080977,089675,086190,074835
0000000121,0000120000,062025,092790,080195,087242,089363,074096
0000000122,0000121000,036442,095238,080306,084228,092080,074392
0000000123,0000122000,008055,097082,081301,080933,094072,075695
0000000124,0000123000,-20447,098150,083083,077677,095146,077877
0000000125,0000124000,-46388,098343,085484,074775,095197,080728
0000000126,0000125000,-67079,097634,088262,072515,094220,083965
0000000127,0000126000,-80491,096098,091139,071119,092312,087269
0000000128,0000127000,-85414,093883,093847,070722,089656,090323
0000000129,0000128000,-81297,091200,096118,071362,086513,092825
0000000130,0000129000,-68557,088322,097722,072976,083195,094529
0000000131,0000130000,-48470,085531,098505,075408,080024,095268
0000000132,0000131000,-22916,083086,098394,078421,077306,094972
0000000133,0000132000,005534,081235,097400,081716,075314,093670
0000000134,0000133000,034027,080167,095618,084971,074241,091488
0000000135,0000134000,059921,079979,093217,087872,074189,088638
0000000136,0000135000,080664,080683,090439,090133,075165,085402
0000000137,0000136000,094102,082217,087561,091528,077073,082098
0000000138,0000137000,098972,084438,084854,091926,079729,079045
0000000139,0000138000,094880,087119,082581,091287,082870,076543
0000000140,0000139000,082189,089992,080977,089674,086187,074839
0000000141,0000140000,062055,092789,080194,087242,089359,074099
0000000142,0000141000,036490,095236,080303,084230,092075,074395
0000000143,0000142000,008093,097082,081297,080936,094068,075696
0000000144,0000143000,-20429,098152,083079,077681,095142,077877
0000000145,0000144000,-46366,098345,085480,074780,095193,080727
0000000146,0000145000,-67067,097637,088258,072520,094218,083962
0000000147,0000146000,-80508,096103,091136,071124,092311,087265
0000000148,0000147000,-85436,093887,093845,070726,089656,090318
0000000149,0000148000,-81319,091203,096117,071365,086515,092820
0000000150,0000149000,-68602,088326,097723,072977,083199,094524
0000000151,0000150000,-48521,085534,098507,075408,080029,095264
0000000152,0000151000,-22952,083087,098397,078419,077312,094969
0000000153,0000152000,005493,081235,097404,081712,075319,093668
0000000154,0000153000,033986,080167,095623,084966,074246,091488
0000000155,0000154000,059907,079976,093222,087867,074193,088639
0000000156,0000155000,080663,080679,090443,090127,075168,085405
0000000157,0000156000,094102,082213,087565,091523,077074,082103
0000000158,0000157000,098998,084433,084856,091921,079728,079051
0000000159,0000158000,094925,087114,082582,091284,082868,076549
0000000160,0000159000,082228,089989,080977,089672,086183,074845
0000000161,0000160000,062103,092786,080192,087242,089353,074105
0000000162,0000161000,036549,095233,080300,084232,092069,074399
0000000163,0000162000,008136,097082,081293,080939,094062,075699
0000000164,0000163000,-20399,098154,083074,077686,095136,077878
0000000165,0000164000,-46336,098348,085474,074786,095188,080725
0000000166,0000165000,-67059,097641,088253,072526,094215,083959
0000000167,0000166000,-80528,096109,091132,071130,092310,087260
0000000168,0000167000,-85460,093892,093842,070731,089657,090312
0000000169,0000168000,-81356,091208,096116,071368,086518,092814
0000000170,0000169000,-68662,088331,097723,072979,083204,094517
0000000171,0000170000,-48579,085538,098509,075407,080035,095258
0000000172,0000171000,-23002,083088,098401,078417,077319,094964
0000000173,0000172000,005437,081235,097409,081708,075326,093666
0000000174,0000173000,033941,080166,095628,084960,074252,091487
0000000175,0000174000,059888,079972,093228,087860,074198,088641
0000000176,0000175000,080656,080674,090449,090120,075171,085409
0000000177,0000176000,094108,082208,087570,091516,077076,082108
0000000178,0000177000,099034,084426,084859,091916,079727,079057
0000000179,0000178000,094975,087107,082584,091279,082865,076556
0000000180,0000179000,082280,089984,080976,089670,086178,074852
0000000181,0000180000,062170,092782,080189,087242,089346,074111
0000000182,0000181000,036620,095230,080296,084234,092061,074404
0000000183,0000182000,008189,097082,081287,080944,094054,075702
0000000184,0000183000,-20356,098157,083067,077692,095129,077879
0000000185,0000184000,-46301,098351,085468,074794,095183,080724
0000000186,0000185000,-67053,097647,088247,072534,094211,083955
0000000187,0000186000,-80547,096116,091127,071137,092308,087254
0000000188,0000187000,-85489,093899,093838,070738,089658,090304
0000000189,0000188000,-81407,091214,096115,071373,086522,092805
0000000190,0000189000,-68735,088338,097724,072981,083210,094509
0000000191,0000190000,-48649,085542,098512,075407,080042,095251
0000000192,0000191000,-23070,083090,098406,078414,077327,094959
0000000193,0000192000,005366,081236,097416,081703,075335,093662
0000000194,0000193000,033889,080163,095636,084953,074260,091487
0000000195,0000194000,059862,079966,093235,087852,074205,088643
0000000196,0000195000,080643,080668,090456,090111,075176,085414
0000000197,0000196000,094121,082201,087576,091508,077077,082115
0000000198,0000197000,099078,084418,084863,091908,079726,079066
0000000199,0000198000,095033,087100,082585,091274,082861,076565
0000000200,0000199000,082348,089978,080975,089667,086172,074861
0000000201,0000200000,062255,092777,080186,087243,089338,074119
0000000202,0000201000,036703,095228,080290,084237,092052,074410
0000000203,0000202000,008255,097083,081280,080950,094045,075705
0000000204,0000203000,-20298,098159,083059,077701,095120,077879
0000000205,0000204000,-46261,098355,085459,074803,095176,080721
0000000206,0000205000,-67048,097654,088239,072544,094206,083949
0000000207,0000206000,-80566,096124,091120,071147,092306,087247
0000000208,0000207000,-85526,093907,093833,070746,089659,090295
0000000209,0000208000,-81474,091223,096113,071379,086526,092795
0000000210,0000209000,-68820,088346,097725,072984,083217,094499
0000000211,0000210000,-48734,085547,098515,075407,080051,095242
0000000212,0000211000,-23158,083092,098412,078410,077337,094952
0000000213,0000212000,005282,081237,097424,081696,075345,093658
0000000214,0000213000,033829,080161,095645,084945,074269,091486
0000000215,0000214000,059827,079961,093245,087841,074213,088646
0000000216,0000215000,080628,080661,090465,090100,075181,085419
0000000217,0000216000,094140,082192,087583,091497,077079,082124
0000000218,0000217000,099130,084407,084868,091900,079724,079076
0000000219,0000218000,095101,087091,082588,091268,082856,076576
0000000220,0000219000,082435,089971,080974,089664,086164,074872
0000000221,0000220000,062358,092771,080182,087243,089328,074129
0000000222,0000221000,036800,095224,080284,084241,092041,074417
0000000223,0000222000,008338,097083,081271,080957,094033,075710
0000000224,0000223000,-20226,098162,083049,077710,095110,077880
0000000225,0000224000,-46216,098361,085449,074814,095167,080718
0000000226,0000225000,-67041,097663,088230,072556,094201,083943
0000000227,0000226000,-80586,096134,091112,071158,092304,087237
0000000228,0000227000,-85574,093917,093828,070755,089661,090284
0000000229,0000228000,-81555,091233,096111,071385,086531,092783
0000000230,0000229000,-68919,088354,097726,072987,083225,094487
0000000231,0000230000,-48837,085553,098520,075406,080062,095231
0000000232,0000231000,-23266,083096,098419,078406,077350,094944
0000000233,0000232000,005184,081237,097433,081689,075358,093654
0000000234,0000233000,033758,080157,095656,084934,074281,091485
0000000235,0000234000,059780,079954,093256,087829,074222,088649
0000000236,0000235000,080612,080652,090475,090087,075187,085426
0000000237,0000236000,094165,082181,087591,091485,077081,082134
0000000238,0000237000,099188,084396,084874,091889,079722,079088
0000000239,0000238000,095182,087080,082590,091260,082850,076590
0000000240,0000239000,082541,089961,080973,089660,086154,074885
0000000241,0000240000,062478,092763,080177,087244,089316,074140
0000000242,0000241000,036914,095221,080276,084246,092028,074426
0000000243,0000242000,008440,097083,081261,080965,094020,075715
0000000244,0000243000,-20140,098165,083037,077722,095097,077881
0000000245,0000244000,-46166,098368,085437,074828,095157,080715
0000000246,0000245000,-67031,097673,088219,072570,094194,083936
0000000247,0000246000,-80608,096146,091103,071171,092302,087227
0000000248,0000247000,-85633,093930,093822,070766,089663,090271
0000000249,0000248000,-81651,091245,096108,071393,086538,092769
0000000250,0000249000,-69033,088365,097727,072991,083235,094473
0000000251,0000250000,-48961,085560,098525,075406,080075,095219
0000000252,0000251000,-23395,083100,098428,078401,077364,094935
0000000253,0000252000,005070,081237,097444,081679,075372,093648
0000000254,0000253000,033672,080153,095668,084922,074294,091484
0000000255,0000254000,059724,079947,093269,087814,074233,088653
0000000256,0000255000,080594,080642,090487,090072,075194,085434
0000000257,0000256000,094195,082168,087601,091471,077084,082145
0000000258,0000257000,099254,084382,084881,091877,079720,079103
0000000259,0000258000,095278,087068,082593,091252,082843,076605
0000000260,0000259000,082667,089950,080971,089656,086144,074900
0000000261,0000260000,062617,092755,080172,087244,089302,074153
0000000262,0000261000,037046,095217,080267,084251,092012,074436
0000000263,0000262000,008562,097083,081249,080975,094004,075720
0000000264,0000263000,-20042,098169,083024,077735,095083,077882
0000000265,0000264000,-46108,098376,085423,074843,095146,080711
0000000266,0000265000,-67016,097685,088205,072586,094187,083927
0000000267,0000266000,-80633,096159,091092,071187,092299,087214
0000000268,0000267000,-85704,093944,093814,070779,089666,090255
0000000269,0000268000,-81760,091260,096105,071402,086545,092752
0000000270,0000269000,-69165,088377,097728,072996,083247,094457
0000000271,0000270000,-49108,085569,098531,075405,080090,095205
0000000272,0000271000,-23544,083105,098438,078395,077381,094924
0000000273,0000272000,004940,081237,097457,081669,075389,093642
0000000274,0000273000,033571,080148,095683,084907,074309,091483
0000000275,0000274000,059657,079938,093284,087798,074245,088657
0000000276,0000275000,080576,080629,090501,090055,075202,085443
0000000277,0000276000,094228,082153,087613,091455,077086,082159
0000000278,0000277000,099328,084367,084889,091864,079717,079119
0000000279,0000278000,095391,087053,082597,091242,082835,076623
0000000280,0000279000,082813,089937,080970,089652,086131,074917
0000000281,0000280000,062776,092745,080165,087245,089286,074168
0000000282,0000281000,037201,095212,080256,084258,091994,074448
0000000283,0000282000,008704,097083,081235,080987,093986,075727
0000000284,0000283000,-19930,098174,083008,077750,095067,077883
0000000285,0000284000,-46041,098386,085407,074861,095133,080706
0000000286,0000285000,-66996,097698,088190,072605,094178,083917
0000000287,0000286000,-80664,096175,091080,071204,092296,087200
0000000288,0000287000,-85787,093961,093806,070793,089669,090238
0000000289,0000288000,-81884,091276,096101,071413,086554,092733
0000000290,0000289000,-69316,088390,097730,073001,083260,094439
0000000291,0000290000,-49278,085579,098537,075404,080107,095189
0000000292,0000291000,-23714,083111,098449,078388,077400,094912
0000000293,0000292000,004792,081237,097472,081657,075408,093635
0000000294,0000293000,033453,080143,095700,084891,074327,091482
0000000295,0000294000,059580,079928,093302,087779,074259,088662
0000000296,0000295000,080555,080615,090517,090035,075211,085454
0000000297,0000296000,094263,082136,087626,091436,077090,082174
0000000298,0000297000,099412,084349,084898,091848,079714,079138
0000000299,0000298000,095522,087036,082601,091231,082826,076643
0000000300,0000299000,082979,089922,080968,089646,086117,074937
0000000301,0000300000,062956,092734,080158,087246,089268,074186
