DIgSILENT PowerFactory,21000900,2000
6,06A,00D
1,TTPP_200000_100:Secondary Voltage A,,,V,0.10000000,-8368.938477,0.000000,69027,99998,1,1,P
2,TTPP_200000_100:Secondary Voltage B,,,V,0.10000000,-8485.210938,0.000000,70760,99998,1,1,P
3,TTPP_200000_100:Secondary Voltage C,,,V,0.10000000,-8451.568359,0.000000,66229,99998,1,1,P
4,TTCC_300_1:Secondary Current A,,,A,0.00010000000,-5.534050,0.000000,-10092,99998,1,1,P
5,TTCC_300_1:Secondary Current B,,,A,0.00010000000,-4.820697,0.000000,-4321,99998,1,1,P
6,TTCC_300_1:Secondary Current C,,,A,0.00010000000,-5.060537,0.000000,577,99998,1,1,P
50
1
1000.000000,1101
30/06/2023,06:09:53.000000
30/06/2023,06:09:53.000000
ASCII
1.000000
0000000001,0000000000,090796,086327,075934,034411,034217,085525
0000000002,0000001000,088662,089044,075350,044164,024939,085051
0000000003,0000002000,086021,091375,075661,055002,017942,081208
0000000004,0000003000,083164,093054,076838,065883,013898,074373
0000000005,0000004000,080371,093916,078771,075724,013224,065204
0000000006,0000005000,077884,093906,081268,083574,015975,054605
0000000007,0000006000,075961,093022,084074,088658,021871,043623
0000000008,0000007000,074819,091312,086927,090482,030346,033326
0000000009,0000008000,074532,088975,089549,088858,040587,024709
0000000010,0000009000,075130,086252,091675,083960,051562,018631
0000000011,0000010000,076578,083382,093097,076267,062195,015691
0000000012,0000011000,078731,080644,093682,066507,071481,016164
0000000013,0000012000,081353,078335,093370,055659,078488,020007
0000000014,0000013000,084204,076660,092193,044793,082518,026843
0000000015,0000014000,087019,075778,090261,034949,083193,036011
0000000016,0000015000,089498,075795,087764,027091,080452,046610
0000000017,0000016000,091405,076695,084956,022012,074549,057592
0000000018,0000017000,092567,078385,082105,020194,066069,067890
0000000019,0000018000,092851,080723,079483,021809,055838,076506
0000000020,0000019000,092240,083462,077356,026708,044862,082583
0000000021,0000020000,090802,086322,075934,034410,034219,085525
0000000022,0000021000,088656,089051,075350,044160,024942,085050
0000000023,0000022000,086018,091377,075662,055011,017934,081208
0000000024,0000023000,083172,093047,076837,065882,013899,074372
0000000025,0000024000,080369,093918,078771,075722,013226,065204
0000000026,0000025000,077876,093914,081268,083576,015972,054604
0000000027,0000026000,075968,093015,084074,088665,021865,043623
0000000028,0000027000,074821,091310,086927,090479,030349,033326
0000000029,0000028000,074525,088982,089549,088859,040585,024709
0000000030,0000029000,075131,086251,091675,083967,051555,018631
0000000031,0000030000,076584,083375,093097,076266,062196,015690
0000000032,0000031000,078727,080649,093682,066506,071482,016164
0000000033,0000032000,081350,078337,093370,055664,078483,020006
0000000034,0000033000,084210,076654,092193,044797,082515,026842
0000000035,0000034000,087018,075778,090261,034948,083196,036010
0000000036,0000035000,089493,075800,087764,027094,080450,046609
0000000037,0000036000,091409,076692,084957,022016,074546,057590
0000000038,0000037000,092569,078383,082105,020194,066071,067888
0000000039,0000038000,092849,080726,079482,021810,055839,076504
0000000040,0000039000,092240,083461,077356,026712,044859,082582
0000000041,0000040000,090804,086319,075934,034410,034220,085523
0000000042,0000041000,088653,089054,075350,044161,024943,085049
0000000043,0000042000,086019,091377,075661,055012,017934,081208
0000000044,0000043000,083175,093045,076838,065882,013898,074372
0000000045,0000044000,080367,093919,078771,075721,013227,065204
0000000046,0000045000,077876,093914,081267,083577,015970,054605
0000000047,0000046000,075970,093013,084074,088664,021865,043624
0000000048,0000047000,074819,091312,086927,090479,030348,033326
0000000049,0000048000,074524,088984,089549,088860,040583,024710
0000000050,0000049000,075133,086249,091675,083967,051553,018633
0000000051,0000050000,076583,083376,093098,076266,062195,015691
0000000052,0000051000,078724,080651,093682,066510,071478,016164
0000000053,0000052000,081353,078335,093370,055667,078480,020006
0000000054,0000053000,084210,076653,092194,044797,082514,026841
0000000055,0000054000,087014,075782,090262,034951,083193,036008
0000000056,0000055000,089495,075798,087764,027100,080446,046607
0000000057,0000056000,091412,076689,084957,022017,074548,057588
0000000058,0000057000,092566,078386,082105,020196,066072,067885
0000000059,0000058000,092848,080727,079482,021815,055837,076501
0000000060,0000059000,092245,083456,077356,026713,044861,082579
0000000061,0000060000,090803,086320,075934,034409,034224,085520
0000000062,0000061000,088651,089057,075349,044163,024943,085047
0000000063,0000062000,086023,091374,075660,055012,017935,081206
0000000064,0000063000,083176,093044,076837,065878,013903,074371
0000000065,0000064000,080363,093924,078770,075720,013228,065205
0000000066,0000065000,077878,093913,081267,083577,015969,054606
0000000067,0000066000,075973,093010,084074,088660,021867,043626
0000000068,0000067000,074815,091316,086926,090476,030348,033329
0000000069,0000068000,074523,088985,089549,088862,040578,024713
0000000070,0000069000,075136,086246,091675,083967,051550,018636
0000000071,0000070000,076581,083379,093098,076265,062193,015694
0000000072,0000071000,078721,080654,093683,066513,071473,016166
0000000073,0000072000,081355,078332,093371,055671,078475,020007
0000000074,0000073000,084210,076653,092195,044800,082512,026841
0000000075,0000074000,087011,075784,090262,034957,083190,036007
0000000076,0000075000,089497,075795,087765,027106,080443,046605
0000000077,0000076000,091413,076687,084958,022021,074548,057584
0000000078,0000077000,092564,078388,082106,020200,066072,067881
0000000079,0000078000,092849,080726,079482,021819,055837,076496
0000000080,0000079000,092248,083454,077356,026714,044865,082574
0000000081,0000080000,090802,086322,075934,034409,034229,085516
0000000082,0000081000,088651,089057,075348,044163,024947,085044
0000000083,0000082000,086026,091371,075660,055009,017940,081204
0000000084,0000083000,083175,093046,076837,065873,013908,074371
0000000085,0000084000,080363,093926,078769,075716,013231,065205
0000000086,0000085000,077880,093912,081266,083572,015971,054609
0000000087,0000086000,075972,093012,084073,088654,021869,043630
0000000088,0000087000,074813,091319,086926,090472,030347,033334
0000000089,0000088000,074524,088984,089548,088859,040575,024719
0000000090,0000089000,075136,086246,091675,083964,051547,018642
0000000091,0000090000,076577,083382,093098,076267,062187,015699
0000000092,0000091000,078721,080653,093683,066517,071465,016170
0000000093,0000092000,081356,078330,093372,055674,078469,020009
0000000094,0000093000,084206,076655,092196,044806,082506,026841
0000000095,0000094000,087010,075784,090263,034965,083183,036005
0000000096,0000095000,089499,075792,087766,027113,080439,046601
0000000097,0000096000,091411,076687,084959,022027,074547,057579
0000000098,0000097000,092563,078388,082106,020207,066072,067873
0000000099,0000098000,092853,080722,079483,021824,055840,076489
0000000100,0000099000,092249,083452,077356,026715,044871,082566
0000000101,0000100000,090801,086323,075933,034409,034235,085509
0000000102,0000101000,088655,089055,075347,044162,024953,085038
0000000103,0000102000,086028,091370,075659,055003,017949,081201
0000000104,0000103000,083174,093048,076835,065867,013916,074370
0000000105,0000104000,080364,093926,078767,075710,013236,065207
0000000106,0000105000,077882,093911,081264,083563,015976,054613
0000000107,0000106000,075970,093015,084072,088645,021871,043637
0000000108,0000107000,074811,091321,086925,090467,030344,033342
0000000109,0000108000,074525,088983,089548,088855,040570,024728
0000000110,0000109000,075134,086248,091676,083961,051541,018651
0000000111,0000110000,076574,083385,093099,076268,062178,015707
0000000112,0000111000,078721,080652,093684,066522,071454,016177
0000000113,0000112000,081354,078329,093374,055680,078460,020013
0000000114,0000113000,084203,076656,092198,044814,082497,026842
0000000115,0000114000,087010,075782,090265,034977,083174,036003
0000000116,0000115000,089500,075789,087768,027123,080435,046595
0000000117,0000116000,091410,076687,084960,022037,074545,057570
0000000118,0000117000,092564,078386,082107,020217,066072,067863
0000000119,0000118000,092856,080718,079483,021831,055845,076477
0000000120,0000119000,092249,083452,077356,026718,044879,082555
0000000121,0000120000,090802,086323,075932,034410,034244,085499
0000000122,0000121000,088658,089053,075346,044158,024964,085031
0000000123,0000122000,086030,091371,075657,054995,017962,081196
0000000124,0000123000,083174,093050,076833,065858,013926,074369
0000000125,0000124000,080366,093926,078765,075698,013244,065210
0000000126,0000125000,077883,093912,081262,083550,015983,054620
0000000127,0000126000,075968,093019,084070,088634,021873,043646
0000000128,0000127000,074811,091323,086923,090457,030341,033354
0000000129,0000128000,074525,088985,089548,088846,040565,024741
0000000130,0000129000,075130,086251,091676,083957,051532,018664
0000000131,0000130000,076571,083386,093100,076269,062165,015719
0000000132,0000131000,078720,080651,093686,066526,071441,016186
0000000133,0000132000,081351,078330,093376,055688,078447,020018
0000000134,0000133000,084201,076656,092200,044827,082483,026843
0000000135,0000134000,087011,075778,090267,034991,083163,035999
0000000136,0000135000,089499,075787,087770,027137,080428,046588
0000000137,0000136000,091409,076685,084962,022052,074542,057559
0000000138,0000137000,092567,078382,082108,020230,066073,067849
0000000139,0000138000,092859,080715,079484,021839,055852,076462
0000000140,0000139000,092251,083451,077356,026723,044890,082539
0000000141,0000140000,090806,086321,075931,034411,034257,085485
0000000142,0000141000,088662,089050,075344,044153,024981,085020
0000000143,0000142000,086031,091372,075654,054985,017978,081189
0000000144,0000143000,083176,093052,076830,065845,013940,074367
0000000145,0000144000,080369,093926,078762,075682,013256,065214
0000000146,0000145000,077882,093915,081260,083533,015991,054629
0000000147,0000146000,075966,093023,084068,088618,021876,043659
0000000148,0000147000,074810,091325,086922,090444,030339,033371
0000000149,0000148000,074522,088988,089547,088836,040559,024759
0000000150,0000149000,075125,086255,091676,083952,051520,018681
0000000151,0000150000,076569,083387,093101,076270,062148,015734
0000000152,0000151000,078717,080652,093688,066532,071423,016198
0000000153,0000152000,081347,078332,093379,055699,078428,020026
0000000154,0000153000,084199,076655,092203,044844,082464,026845
0000000155,0000154000,087011,075775,090271,035009,083149,035995
0000000156,0000155000,089498,075785,087774,027157,080419,046577
0000000157,0000156000,091410,076682,084965,022072,074537,057544
0000000158,0000157000,092570,078378,082110,020247,066075,067831
0000000159,0000158000,092861,080712,079485,021850,055861,076441
0000000160,0000159000,092253,083449,077355,026730,044904,082519
0000000161,0000160000,090811,086317,075929,034411,034275,085467
0000000162,0000161000,088666,089049,075342,044145,025002,085006
0000000163,0000162000,086033,091373,075651,054973,017999,081181
0000000164,0000163000,083179,093052,076826,065828,013960,074365
0000000165,0000164000,080371,093928,078758,075661,013273,065219
0000000166,0000165000,077882,093920,081256,083510,016002,054640
0000000167,0000166000,075966,093027,084065,088597,021879,043676
0000000168,0000167000,074809,091328,086920,090425,030336,033392
0000000169,0000168000,074518,088992,089547,088822,040549,024782
0000000170,0000169000,075121,086259,091677,083946,051503,018704
0000000171,0000170000,076566,083388,093103,076271,062127,015755
0000000172,0000171000,078713,080653,093691,066539,071400,016213
0000000173,0000172000,081342,078333,093383,055714,078403,020035
0000000174,0000173000,084197,076653,092208,044864,082442,026847
0000000175,0000174000,087009,075772,090276,035032,083132,035989
0000000176,0000175000,089496,075783,087778,027182,080407,046564
0000000177,0000176000,091412,076677,084968,022096,074532,057524
0000000178,0000177000,092573,078372,082113,020267,066079,067807
0000000179,0000178000,092863,080708,079486,021865,055872,076415
0000000180,0000179000,092258,083445,077354,026738,044921,082494
0000000181,0000180000,090816,086314,075927,034410,034298,085445
0000000182,0000181000,088670,089048,075338,044136,025029,084988
0000000183,0000182000,086037,091374,075646,054957,018026,081170
0000000184,0000183000,083183,093053,076821,065805,013984,074363
0000000185,0000184000,080373,093931,078753,075634,013293,065225
0000000186,0000185000,077881,093925,081251,083483,016015,054654
0000000187,0000186000,075965,093031,084061,088571,021884,043698
0000000188,0000187000,074807,091333,086917,090402,030333,033418
0000000189,0000188000,074513,088998,089545,088806,040537,024811
0000000190,0000189000,075117,086263,091677,083939,051482,018732
0000000191,0000190000,076561,083391,093105,076271,062101,015780
0000000192,0000191000,078706,080656,093695,066549,071371,016233
0000000193,0000192000,081337,078333,093387,055733,078373,020047
0000000194,0000193000,084194,076650,092213,044889,082415,026849
0000000195,0000194000,087006,075769,090282,035062,083110,035982
0000000196,0000195000,089496,075778,087783,027214,080392,046548
0000000197,0000196000,091414,076671,084972,022126,074526,057501
0000000198,0000197000,092575,078366,082116,020291,066084,067778
0000000199,0000198000,092867,080704,079487,021883,055886,076383
0000000200,0000199000,092264,083440,077353,026748,044943,082462
0000000201,0000200000,090823,086310,075925,034409,034327,085417
0000000202,0000201000,088675,089047,075334,044125,025061,084967
0000000203,0000202000,086043,091374,075641,054937,018058,081158
0000000204,0000203000,083188,093054,076815,065778,014015,074360
0000000205,0000204000,080375,093936,078747,075601,013318,065233
0000000206,0000205000,077882,093930,081245,083449,016031,054672
0000000207,0000206000,075965,093036,084056,088539,021890,043724
0000000208,0000207000,074803,091340,086914,090374,030329,033450
0000000209,0000208000,074508,089005,089544,088786,040521,024846
0000000210,0000209000,075111,086268,091678,083929,051458,018767
0000000211,0000210000,076554,083395,093108,076272,062070,015810
0000000212,0000211000,078699,080659,093700,066561,071335,016256
0000000213,0000212000,081332,078332,093393,055756,078336,020061
0000000214,0000213000,084190,076647,092220,044920,082382,026852
0000000215,0000214000,087003,075766,090289,035097,083083,035973
0000000216,0000215000,089495,075773,087789,027252,080373,046528
0000000217,0000216000,091416,076663,084978,022162,074519,057472
0000000218,0000217000,092578,078360,082119,020322,066089,067742
0000000219,0000218000,092872,080697,079488,021906,055902,076345
0000000220,0000219000,092271,083433,077353,026759,044970,082424
0000000221,0000220000,090830,086306,075922,034408,034362,085383
0000000222,0000221000,088682,089046,075329,044112,025100,084941
0000000223,0000222000,086050,091373,075634,054913,018098,081142
0000000224,0000223000,083193,093057,076807,065744,014051,074357
0000000225,0000224000,080377,093941,078739,075562,013348,065243
0000000226,0000225000,077883,093936,081238,083408,016050,054694
0000000227,0000226000,075963,093044,084050,088499,021898,043756
0000000228,0000227000,074798,091348,086910,090341,030323,033489
0000000229,0000228000,074502,089013,089542,088763,040502,024888
0000000230,0000229000,075104,086274,091679,083917,051428,018808
0000000231,0000230000,076546,083400,093112,076273,062033,015847
0000000232,0000231000,078691,080661,093705,066576,071292,016284
0000000233,0000232000,081325,078331,093401,055783,078293,020077
0000000234,0000233000,084184,076645,092229,044956,082342,026855
0000000235,0000234000,086999,075761,090297,035140,083050,035962
0000000236,0000235000,089495,075765,087797,027296,080352,046505
0000000237,0000236000,091418,076655,084984,022204,074512,057437
0000000238,0000237000,092582,078351,082124,020358,066095,067700
0000000239,0000238000,092879,080689,079490,021932,055922,076299
0000000240,0000239000,092280,083426,077352,026771,045002,082380
0000000241,0000240000,090838,086301,075918,034406,034403,085344
0000000242,0000241000,088691,089043,075323,044096,025146,084911
0000000243,0000242000,086058,091373,075627,054884,018145,081125
0000000244,0000243000,083199,093060,076798,065704,014094,074354
0000000245,0000244000,080381,093947,078730,075516,013382,065254
0000000246,0000245000,077884,093943,081230,083360,016073,054719
0000000247,0000246000,075961,093052,084044,088453,021907,043793
0000000248,0000247000,074793,091358,086905,090303,030316,033535
0000000249,0000248000,074495,089021,089540,088735,040481,024937
0000000250,0000249000,075096,086281,091680,083902,051394,018856
0000000251,0000250000,076536,083406,093116,076275,061988,015889
0000000252,0000251000,078682,080664,093712,066594,071242,016317
0000000253,0000252000,081317,078331,093409,055814,078243,020096
0000000254,0000253000,084177,076642,092238,044998,082296,026859
0000000255,0000254000,086995,075756,090307,035191,083013,035950
0000000256,0000255000,089494,075757,087806,027349,080327,046477
0000000257,0000256000,091420,076646,084992,022253,074503,057397
0000000258,0000257000,092587,078342,082129,020400,066102,067651
0000000259,0000258000,092887,080678,079492,021962,055945,076246
0000000260,0000259000,092289,083418,077351,026786,045039,082327
0000000261,0000260000,090848,086295,075914,034404,034451,085298
0000000262,0000261000,088702,089039,075316,044078,025200,084876
0000000263,0000262000,086067,091372,075617,054850,018199,081104
0000000264,0000263000,083206,093064,076788,065658,014144,074350
0000000265,0000264000,080385,093953,078719,075463,013422,065268
0000000266,0000265000,077886,093952,081220,083304,016100,054749
0000000267,0000266000,075958,093063,084036,088400,021917,043836
0000000268,0000267000,074788,091369,086900,090258,030308,033587
0000000269,0000268000,074488,089031,089538,088703,040455,024995
0000000270,0000269000,075085,086290,091681,083886,051354,018912
0000000271,0000270000,076524,083413,093120,076277,061937,015938
0000000272,0000271000,078671,080667,093719,066614,071184,016354
0000000273,0000272000,081308,078331,093419,055850,078184,020118
0000000274,0000273000,084169,076639,092249,045048,082243,026863
0000000275,0000274000,086990,075749,090318,035248,082970,035935
0000000276,0000275000,089493,075747,087817,027409,080299,046445
0000000277,0000276000,091422,076635,085000,022310,074493,057350
0000000278,0000277000,092593,078330,082135,020448,066111,067594
0000000279,0000278000,092896,080667,079495,021996,055972,076184
0000000280,0000279000,092300,083408,077349,026803,045083,082267
0000000281,0000280000,090860,086288,075909,034402,034506,085245
0000000282,0000281000,088714,089035,075308,044056,025261,084836
0000000283,0000282000,086077,091372,075607,054811,018262,081081
0000000284,0000283000,083214,093068,076776,065606,014201,074346
0000000285,0000284000,080391,093960,078707,075401,013467,065284
0000000286,0000285000,077887,093962,081209,083239,016130,054784
0000000287,0000286000,075956,093075,084026,088339,021928,043886
0000000288,0000287000,074782,091382,086893,090207,030298,033648
0000000289,0000288000,074478,089043,089535,088667,040426,025060
0000000290,0000289000,075073,086301,091683,083869,051308,018976
0000000291,0000290000,076511,083421,093125,076280,061877,015995
0000000292,0000291000,078659,080671,093727,066637,071118,016397
0000000293,0000292000,081296,078331,093430,055892,078118,020143
0000000294,0000293000,084160,076635,092262,045104,082182,026867
0000000295,0000294000,086985,075741,090331,035314,082921,035918
0000000296,0000295000,089491,075736,087829,027477,080268,046408
0000000297,0000296000,091424,076623,085010,022375,074481,057297
0000000298,0000297000,092600,078316,082142,020502,066121,067529
0000000299,0000298000,092906,080654,079498,022034,056004,076115
0000000300,0000299000,092312,083397,077348,026822,045132,082199
0000000301,0000300000,090874,086280,075904,034399,034569,085185
