DIgSILENT PowerFactory,21000900,2000
6,06A,00D
1,TTPP_200000_100:Secondary Voltage A,,,V,0.010000000,-71.469452,0.000000,-85624,99998,1,1,P
2,TTPP_200000_100:Secondary Voltage B,,,V,0.10000000,-8991.251953,0.000000,79795,99998,1,1,P
3,TTPP_200000_100:Secondary Voltage C,,,V,0.10000000,-8949.155273,0.000000,79229,99998,1,1,P
4,TTCC_300_1:Secondary Current A,,,A,0.00010000000,-2.343352,0.000000,-88382,99998,1,1,P
5,TTCC_300_1:Secondary Current B,,,A,0.00010000000,-5.003668,0.000000,16,99998,1,1,P
6,TTCC_300_1:Secondary Current C,,,A,0.00010000000,-4.885746,0.000000,-2226,99998,1,1,P
50
1
1000.000000,1101
30/06/2023,06:04:31.000000
30/06/2023,06:04:31.000000
ASCII
1.000000
0000000001,0000000000,078209,091388,080910,002504,036047,083777
0000000002,0000001000,056868,094105,080326,012257,026768,083303
0000000003,0000002000,030464,096435,080637,023095,019772,079460
0000000004,0000003000,001892,098115,081814,033976,015727,072625
0000000005,0000004000,-26034,098976,083747,043816,015054,063456
0000000006,0000005000,-50915,098967,086244,051668,017804,052856
0000000007,0000006000,-70120,098081,089050,056750,023703,041875
0000000008,0000007000,-81573,096373,091903,058577,032174,031578
0000000009,0000008000,-84427,094035,094525,056949,042419,022961
0000000010,0000009000,-78440,091312,096651,052055,053389,016883
0000000011,0000010000,-63966,088442,098073,044356,064029,013943
0000000012,0000011000,-42435,085704,098658,034602,073308,014416
0000000013,0000012000,-16220,083396,098346,023750,080320,018259
0000000014,0000013000,012308,081719,097169,012887,084345,025095
0000000015,0000014000,040429,080839,095237,003040,085025,034264
0000000016,0000015000,065229,080855,092740,-04815,082280,044863
0000000017,0000016000,084303,081756,089932,-09896,076379,055844
0000000018,0000017000,095936,083445,087081,-11713,067898,066142
0000000019,0000018000,098759,085784,084458,-10099,057668,074758
0000000020,0000019000,092653,088522,082332,-05197,046690,080835
0000000021,0000020000,078272,091382,080910,002503,036048,083776
0000000022,0000021000,056812,094112,080326,012254,026772,083303
0000000023,0000022000,030426,096438,080637,023104,019764,079460
0000000024,0000023000,001982,098107,081814,033976,015727,072624
0000000025,0000024000,-26050,098978,083747,043815,015056,063456
0000000026,0000025000,-50989,098974,086244,051669,017802,052856
0000000027,0000026000,-70072,098076,089050,056758,023695,041875
0000000028,0000027000,-81534,096370,091902,058572,032179,031577
0000000029,0000028000,-84488,094042,094525,056951,042416,022961
0000000030,0000029000,-78448,091312,096651,052059,053385,016883
0000000031,0000030000,-63905,088436,098073,044360,064025,013942
0000000032,0000031000,-42469,085708,098658,034599,073312,014416
0000000033,0000032000,-16250,083398,098346,023755,080314,018258
0000000034,0000033000,012342,081715,097169,012890,084344,025094
0000000035,0000034000,040436,080838,095237,003041,085025,034262
0000000036,0000035000,065194,080859,092740,-04813,082280,044861
0000000037,0000036000,084329,081753,089933,-09892,076377,055843
0000000038,0000037000,095939,083444,087081,-11712,067899,066140
0000000039,0000038000,098746,085786,084458,-10097,057668,074756
0000000040,0000039000,092661,088521,082332,-05195,046689,080834
0000000041,0000040000,078284,091380,080910,002504,036049,083775
0000000042,0000041000,056790,094114,080326,012255,026772,083301
0000000043,0000042000,030446,096437,080637,023105,019764,079459
0000000044,0000043000,001997,098105,081814,033975,015729,072624
0000000045,0000044000,-26081,098980,083747,043815,015056,063456
0000000046,0000045000,-50980,098974,086243,051671,017800,052856
0000000047,0000046000,-70041,098073,089050,056756,023696,041876
0000000048,0000047000,-81567,096373,091903,058571,032179,031578
0000000049,0000048000,-84506,094044,094525,056954,042412,022962
0000000050,0000049000,-78406,091308,096651,052060,053383,016885
0000000051,0000050000,-63918,088437,098073,044359,064025,013943
0000000052,0000051000,-42514,085712,098658,034603,073308,014416
0000000053,0000052000,-16217,083395,098346,023760,080309,018258
0000000054,0000053000,012360,081713,097170,012890,084345,025094
0000000055,0000054000,040387,080842,095237,003044,085023,034261
0000000056,0000055000,065201,080858,092740,-04807,082276,044860
0000000057,0000056000,084373,081748,089933,-09890,076377,055840
0000000058,0000057000,095910,083447,087081,-11712,067901,066138
0000000059,0000058000,098729,085788,084458,-10092,057666,074753
0000000060,0000059000,092705,088517,082332,-05193,046690,080831
0000000061,0000060000,078286,091380,080910,002502,036054,083773
0000000062,0000061000,056759,094118,080325,012256,026773,083299
0000000063,0000062000,030477,096434,080636,023106,019764,079458
0000000064,0000063000,002015,098104,081813,033972,015732,072623
0000000065,0000064000,-26108,098984,083746,043813,015058,063456
0000000066,0000065000,-50973,098974,086243,051670,017799,052858
0000000067,0000066000,-70020,098071,089050,056754,023696,041878
0000000068,0000067000,-81592,096376,091902,058569,032178,031581
0000000069,0000068000,-84514,094045,094525,056954,042409,022965
0000000070,0000069000,-78390,091307,096651,052060,053380,016888
0000000071,0000070000,-63938,088439,098074,044359,064023,013946
0000000072,0000071000,-42531,085714,098658,034606,073303,014418
0000000073,0000072000,-16201,083392,098347,023763,080305,018259
0000000074,0000073000,012346,081714,097171,012893,084341,025094
0000000075,0000074000,040367,080844,095238,003050,085019,034259
0000000076,0000075000,065222,080856,092741,-04802,082273,044857
0000000077,0000076000,084376,081747,089934,-09886,076377,055837
0000000078,0000077000,095889,083449,087082,-11707,067901,066133
0000000079,0000078000,098752,085786,084458,-10088,057667,074748
0000000080,0000079000,092728,088514,082332,-05193,046694,080826
0000000081,0000080000,078267,091382,080910,002502,036058,083768
0000000082,0000081000,056770,094117,080324,012256,026776,083296
0000000083,0000082000,030513,096432,080636,023102,019770,079456
0000000084,0000083000,002000,098106,081812,033967,015738,072623
0000000085,0000084000,-26118,098986,083745,043810,015060,063457
0000000086,0000085000,-50942,098972,086242,051666,017801,052861
0000000087,0000086000,-70026,098072,089049,056747,023699,041882
0000000088,0000087000,-81624,096379,091902,058566,032177,031586
0000000089,0000088000,-84502,094044,094524,056952,042405,022971
0000000090,0000089000,-78387,091306,096651,052057,053377,016894
0000000091,0000090000,-63977,088442,098074,044359,064017,013951
0000000092,0000091000,-42537,085714,098659,034610,073295,014422
0000000093,0000092000,-16189,083390,098348,023767,080299,018262
0000000094,0000093000,012319,081715,097172,012898,084336,025094
0000000095,0000094000,040354,080844,095239,003058,085012,034258
0000000096,0000095000,065243,080852,092742,-04794,082269,044853
0000000097,0000096000,084370,081747,089935,-09880,076377,055831
0000000098,0000097000,095880,083449,087082,-11700,067901,066126
0000000099,0000098000,098780,085783,084459,-10082,057669,074741
0000000100,0000099000,092743,088513,082332,-05191,046700,080818
0000000101,0000100000,078262,091384,080909,002503,036064,083761
0000000102,0000101000,056797,094116,080323,012255,026783,083290
0000000103,0000102000,030534,096431,080635,023097,019778,079453
0000000104,0000103000,001992,098109,081811,033960,015746,072622
0000000105,0000104000,-26107,098987,083743,043803,015065,063459
0000000106,0000105000,-50926,098971,086240,051657,017805,052865
0000000107,0000106000,-70045,098075,089048,056738,023701,041889
0000000108,0000107000,-81635,096382,091901,058560,032174,031594
0000000109,0000108000,-84495,094044,094524,056947,042401,022980
0000000110,0000109000,-78413,091308,096652,052054,053371,016903
0000000111,0000110000,-64007,088445,098075,044361,064008,013959
0000000112,0000111000,-42535,085712,098660,034614,073284,014429
0000000113,0000112000,-16205,083390,098349,023772,080290,018265
0000000114,0000113000,012287,081717,097173,012907,084326,025094
0000000115,0000114000,040359,080842,095241,003069,085004,034255
0000000116,0000115000,065252,080850,092744,-04784,082264,044848
0000000117,0000116000,084355,081747,089936,-09870,076375,055823
0000000118,0000117000,095892,083447,087083,-11689,067901,066116
0000000119,0000118000,098813,085779,084459,-10076,057674,074730
0000000120,0000119000,092747,088512,082332,-05188,046709,080807
0000000121,0000120000,078275,091383,080908,002504,036073,083751
0000000122,0000121000,056836,094113,080322,012252,026794,083283
0000000123,0000122000,030549,096431,080633,023089,019791,079448
0000000124,0000123000,001992,098111,081809,033951,015756,072620
0000000125,0000124000,-26083,098987,083741,043792,015074,063462
0000000126,0000125000,-50918,098973,086238,051643,017812,052872
0000000127,0000126000,-70067,098079,089046,056727,023703,041898
0000000128,0000127000,-81640,096383,091899,058550,032171,031606
0000000129,0000128000,-84501,094045,094524,056939,042395,022993
0000000130,0000129000,-78449,091312,096652,052050,053362,016915
0000000131,0000130000,-64033,088446,098076,044362,063995,013971
0000000132,0000131000,-42545,085712,098662,034619,073271,014438
0000000133,0000132000,-16236,083391,098352,023780,080276,018271
0000000134,0000133000,012262,081717,097176,012920,084312,025095
0000000135,0000134000,040363,080839,095243,003084,084993,034252
0000000136,0000135000,065247,080848,092746,-04770,082258,044840
0000000137,0000136000,084348,081746,089938,-09855,076371,055811
0000000138,0000137000,095917,083443,087084,-11677,067902,066102
0000000139,0000138000,098838,085775,084460,-10068,057681,074714
0000000140,0000139000,092759,088512,082331,-05183,046719,080792
0000000141,0000140000,078310,091381,080907,002504,036086,083737
0000000142,0000141000,056875,094111,080320,012246,026810,083272
0000000143,0000142000,030561,096432,080630,023079,019808,079441
0000000144,0000143000,002011,098112,081806,033938,015770,072619
0000000145,0000144000,-26057,098987,083738,043775,015086,063466
0000000146,0000145000,-50924,098976,086236,051626,017821,052880
0000000147,0000146000,-70082,098083,089044,056711,023706,041911
0000000148,0000147000,-81643,096385,091898,058537,032169,031622
0000000149,0000148000,-84527,094048,094523,056929,042389,023011
0000000150,0000149000,-78493,091316,096652,052045,053350,016933
0000000151,0000150000,-64056,088448,098077,044363,063978,013986
0000000152,0000151000,-42573,085712,098664,034624,073253,014450
0000000153,0000152000,-16279,083392,098355,023792,080258,018278
0000000154,0000153000,012242,081715,097179,012937,084294,025097
0000000155,0000154000,040359,080836,095247,003102,084979,034247
0000000156,0000155000,065233,080846,092750,-04751,082249,044830
0000000157,0000156000,084353,081743,089941,-09835,076367,055796
0000000158,0000157000,095948,083438,087086,-11660,067905,066083
0000000159,0000158000,098861,085772,084461,-10057,057690,074694
0000000160,0000159000,092786,088509,082331,-05177,046733,080771
0000000161,0000160000,078359,091378,080905,002504,036104,083719
0000000162,0000161000,056914,094110,080318,012238,026832,083258
0000000163,0000162000,030584,096433,080627,023066,019829,079433
0000000164,0000163000,002044,098113,081802,033921,015789,072617
0000000165,0000164000,-26035,098989,083734,043754,015103,063471
0000000166,0000165000,-50931,098980,086232,051604,017832,052892
0000000167,0000166000,-70089,098087,089041,056691,023709,041928
0000000168,0000167000,-81655,096388,091896,058518,032166,031644
0000000169,0000168000,-84567,094053,094522,056915,042379,023034
0000000170,0000169000,-78536,091320,096653,052039,053333,016956
0000000171,0000170000,-64089,088449,098079,044364,063957,014007
0000000172,0000171000,-42620,085714,098667,034632,073230,014466
0000000173,0000172000,-16325,083393,098359,023807,080233,018287
0000000174,0000173000,012222,081713,097184,012957,084272,025099
0000000175,0000174000,040342,080833,095252,003125,084961,034242
0000000176,0000175000,065218,080843,092754,-04725,082237,044817
0000000177,0000176000,084369,081738,089944,-09811,076362,055777
0000000178,0000177000,095978,083433,087089,-11640,067908,066059
0000000179,0000178000,098887,085769,084462,-10042,057702,074668
0000000180,0000179000,092831,088506,082330,-05169,046750,080746
0000000181,0000180000,078417,091374,080903,002504,036128,083697
0000000182,0000181000,056955,094109,080314,012229,026858,083240
0000000183,0000182000,030623,096434,080622,023050,019855,079422
0000000184,0000183000,002087,098113,081797,033899,015814,072615
0000000185,0000184000,-26017,098992,083729,043727,015123,063477
0000000186,0000185000,-50934,098985,086227,051576,017845,052906
0000000187,0000186000,-70094,098091,089037,056664,023714,041950
0000000188,0000187000,-81679,096393,091893,058495,032163,031670
0000000189,0000188000,-84616,094059,094521,056899,042367,023063
0000000190,0000189000,-78582,091324,096653,052031,053312,016984
0000000191,0000190000,-64137,088451,098081,044364,063931,014032
0000000192,0000191000,-42682,085716,098671,034642,073201,014485
0000000193,0000192000,-16374,083393,098363,023826,080203,018299
0000000194,0000193000,012193,081710,097189,012982,084244,025102
0000000195,0000194000,040314,080830,095257,003154,084939,034234
0000000196,0000195000,065209,080839,092759,-04694,082221,044800
0000000197,0000196000,084390,081731,089948,-09781,076356,055753
0000000198,0000197000,096007,083427,087092,-11616,067913,066030
0000000199,0000198000,098924,085764,084463,-10024,057715,074636
0000000200,0000199000,092892,088500,082329,-05159,046772,080714
0000000201,0000200000,078481,091370,080901,002502,036157,083669
0000000202,0000201000,057007,094108,080310,012218,026891,083219
0000000203,0000202000,030679,096434,080617,023031,019888,079409
0000000204,0000203000,002135,098115,081790,033871,015844,072612
0000000205,0000204000,-25998,098996,083723,043694,015148,063485
0000000206,0000205000,-50929,098991,086221,051542,017861,052924
0000000207,0000206000,-70101,098097,089032,056632,023720,041976
0000000208,0000207000,-81716,096400,091890,058467,032159,031702
0000000209,0000208000,-84670,094066,094520,056879,042351,023098
0000000210,0000209000,-78636,091328,096654,052021,053288,017019
0000000211,0000210000,-64205,088455,098084,044365,063900,014062
0000000212,0000211000,-42755,085719,098676,034654,073165,014508
0000000213,0000212000,-16428,083392,098369,023848,080166,018313
0000000214,0000213000,012150,081708,097196,013012,084211,025104
0000000215,0000214000,040279,080826,095264,003190,084912,034226
0000000216,0000215000,065204,080833,092765,-04656,082203,044781
0000000217,0000216000,084412,081724,089954,-09745,076349,055724
0000000218,0000217000,096038,083420,087095,-11585,067918,065994
0000000219,0000218000,098976,085757,084464,-10001,057731,074597
0000000220,0000219000,092966,088494,082329,-05148,046799,080677
0000000221,0000220000,078552,091366,080898,002501,036192,083635
0000000222,0000221000,057076,094106,080305,012205,026930,083193
0000000223,0000222000,030749,096433,080610,023006,019927,079394
0000000224,0000223000,002186,098117,081783,033837,015881,072609
0000000225,0000224000,-25973,099001,083715,043655,015177,063494
0000000226,0000225000,-50918,098997,086214,051501,017880,052946
0000000227,0000226000,-70114,098104,089026,056592,023728,042007
0000000228,0000227000,-81762,096409,091886,058434,032153,031741
0000000229,0000228000,-84728,094073,094518,056856,042333,023140
0000000230,0000229000,-78704,091334,096655,052009,053258,017060
0000000231,0000230000,-64290,088460,098087,044366,063863,014099
0000000232,0000231000,-42837,085722,098681,034669,073122,014536
0000000233,0000232000,-16493,083392,098376,023875,080123,018329
0000000234,0000233000,012093,081705,097204,013048,084172,025108
0000000235,0000234000,040240,080822,095273,003233,084880,034215
0000000236,0000235000,065200,080826,092773,-04611,082182,044757
0000000237,0000236000,084431,081716,089960,-09703,076341,055690
0000000238,0000237000,096076,083412,087099,-11549,067924,065952
0000000239,0000238000,099044,085749,084466,-09975,057751,074551
0000000240,0000239000,093050,088486,082328,-05135,046831,080632
0000000241,0000240000,078635,091361,080894,002499,036233,083596
0000000242,0000241000,057163,094103,080299,012190,026976,083163
0000000243,0000242000,030831,096433,080602,022977,019974,079376
0000000244,0000243000,002243,098120,081774,033798,015924,072606
0000000245,0000244000,-25938,099007,083706,043609,015212,063506
0000000246,0000245000,-50904,099004,086206,051453,017903,052971
0000000247,0000246000,-70135,098113,089020,056546,023737,042045
0000000248,0000247000,-81813,096418,091881,058396,032146,031786
0000000249,0000248000,-84794,094082,094516,056828,042311,023189
0000000250,0000249000,-78790,091342,096656,051995,053224,017108
0000000251,0000250000,-64391,088467,098091,044368,063818,014141
0000000252,0000251000,-42929,085725,098687,034686,073072,014569
0000000253,0000252000,-16573,083391,098385,023906,080072,018349
0000000254,0000253000,012023,081702,097214,013091,084126,025111
0000000255,0000254000,040199,080816,095282,003283,084843,034202
0000000256,0000255000,065194,080817,092782,-04559,082157,044730
0000000257,0000256000,084450,081706,089968,-09654,076332,055649
0000000258,0000257000,096124,083402,087105,-11507,067932,065903
0000000259,0000258000,099123,085739,084468,-09945,057774,074498
0000000260,0000259000,093144,088478,082327,-05121,046869,080580
0000000261,0000260000,078734,091356,080890,002498,036281,083550
0000000262,0000261000,057268,094100,080292,012171,027029,083128
0000000263,0000262000,030924,096433,080593,022943,020029,079356
0000000264,0000263000,002310,098124,081764,033752,015974,072602
0000000265,0000264000,-25892,099013,083695,043556,015252,063520
0000000266,0000265000,-50889,099012,086196,051397,017929,053001
0000000267,0000266000,-70162,098124,089011,056493,023747,042088
0000000268,0000267000,-81868,096430,091876,058351,032138,031839
0000000269,0000268000,-84872,094092,094514,056796,042285,023247
0000000270,0000269000,-78893,091351,096657,051979,053184,017164
0000000271,0000270000,-64505,088474,098096,044370,063767,014191
0000000272,0000271000,-43036,085728,098695,034707,073014,014607
0000000273,0000272000,-16671,083391,098395,023943,080014,018371
0000000274,0000273000,011942,081699,097225,013140,084073,025115
0000000275,0000274000,040153,080809,095294,003341,084799,034188
0000000276,0000275000,065184,080808,092793,-04499,082129,044697
0000000277,0000276000,084471,081695,089976,-09597,076322,055603
0000000278,0000277000,096182,083390,087110,-11459,067940,065846
0000000279,0000278000,099214,085727,084470,-09911,057802,074437
0000000280,0000279000,093250,088469,082325,-05104,046912,080520
0000000281,0000280000,078853,091349,080885,002495,036336,083497
0000000282,0000281000,057390,094095,080284,012149,027091,083088
0000000283,0000282000,031028,096433,080583,022904,020091,079332
0000000284,0000283000,002390,098128,081752,033699,016031,072598
0000000285,0000284000,-25838,099020,083683,043494,015297,063535
0000000286,0000285000,-50875,099022,086185,051332,017960,053035
0000000287,0000286000,-70190,098136,089002,056432,023758,042138
0000000288,0000287000,-81927,096442,091869,058300,032128,031900
0000000289,0000288000,-84963,094104,094511,056760,042256,023312
0000000290,0000289000,-79013,091361,096659,051961,053138,017228
0000000291,0000290000,-64633,088481,098101,044373,063708,014247
0000000292,0000291000,-43160,085732,098703,034730,072948,014649
0000000293,0000292000,-16787,083392,098406,023984,079948,018395
0000000294,0000293000,011852,081696,097238,013197,084012,025119
0000000295,0000294000,040101,080801,095307,003407,084751,034171
0000000296,0000295000,065167,080797,092805,-04430,082097,044661
0000000297,0000296000,084495,081683,089986,-09532,076310,055550
0000000298,0000297000,096250,083376,087117,-11405,067950,065782
0000000299,0000298000,099314,085714,084474,-09873,057833,074367
0000000300,0000299000,093372,088458,082324,-05085,046961,080452
0000000301,0000300000,078991,091340,080879,002492,036398,083437
