DIgSILENT PowerFactory,21000900,2000
6,06A,00D
1,TTPP_200000_100:Secondary Voltage A,,,V,0.010000000,-67.889458,0.000000,-86352,99998,1,1,P
2,TTPP_200000_100:Secondary Voltage B,,,V,0.010000000,56.326729,0.000000,-99874,99998,1,1,P
3,TTPP_200000_100:Secondary Voltage C,,,V,0.10000000,-8968.460938,0.000000,79364,99998,1,1,P
4,TTCC_500_5:Secondary Current A,,,A,0.0010000000,-81.417984,0.000000,51858,99998,1,1,P
5,TTCC_500_5:Secondary Current B,,,A,0.0010000000,-84.697433,0.000000,69401,99998,1,1,P
6,TTCC_500_5:Secondary Current C,,,A,0.0010000000,-84.680595,0.000000,69357,99998,1,1,P
50
1
1000.000000,1101
30/06/2023,06:05:13.000000
30/06/2023,06:05:13.000000
ASCII
1.000000
0000000001,0000000000,061931,030748,080532,087335,089375,074086
0000000002,0000001000,036436,055104,080645,084321,092090,074384
0000000003,0000002000,007936,073646,081643,081021,094087,075689
0000000004,0000003000,-20546,084291,083425,077766,095156,077874
0000000005,0000004000,-46308,086055,085827,074863,095205,080727
0000000006,0000005000,-67062,079024,088604,072598,094232,083967
0000000007,0000006000,-80559,063762,091480,071206,092317,087274
0000000008,0000007000,-85339,041481,094186,070810,089657,090329
0000000009,0000008000,-81180,014624,096456,071450,086514,092832
0000000010,0000009000,-68538,-14016,098057,073068,083192,094536
0000000011,0000010000,-48382,-41974,098836,075503,080019,095274
0000000012,0000011000,-22776,-66452,098724,078519,077301,094976
0000000013,0000012000,005542,-84818,097727,081818,075307,093671
0000000014,0000013000,034059,-95494,095944,085075,074234,091486
0000000015,0000014000,060050,-97475,093542,087978,074185,088633
0000000016,0000015000,080663,-90313,090765,090237,075166,085393
0000000017,0000016000,094008,-74892,087889,091634,077076,082087
0000000018,0000017000,098974,-52807,085183,092032,079733,079031
0000000019,0000018000,094843,-25980,082914,091387,082881,076528
0000000020,0000019000,082034,002837,081312,089771,086201,074824
0000000021,0000020000,061972,030705,080532,087337,089373,074086
0000000022,0000021000,036424,055115,080646,084318,092094,074384
0000000023,0000022000,007929,073650,081642,081022,094085,075689
0000000024,0000023000,-20515,084268,083425,077765,095157,077874
0000000025,0000024000,-46341,086081,085826,074860,095208,080727
0000000026,0000025000,-67116,079079,088604,072600,094230,083967
0000000027,0000026000,-80543,063741,091480,071205,092317,087274
0000000028,0000027000,-85318,041460,094186,070809,089658,090329
0000000029,0000028000,-81216,014660,096456,071450,086514,092832
0000000030,0000029000,-68540,-14017,098056,073067,083194,094536
0000000031,0000030000,-48356,-42002,098836,075503,080019,095274
0000000032,0000031000,-22792,-66442,098724,078518,077302,094976
0000000033,0000032000,005551,-84823,097728,081816,075308,093671
0000000034,0000033000,034093,-95530,095944,085075,074234,091486
0000000035,0000034000,060029,-97456,093543,087976,074187,088633
0000000036,0000035000,080634,-90286,090765,090237,075166,085393
0000000037,0000036000,094041,-74924,087889,091634,077075,082087
0000000038,0000037000,098985,-52816,085183,092030,079735,079032
0000000039,0000038000,094809,-25946,082914,091387,082881,076528
0000000040,0000039000,082043,002834,081312,089771,086200,074825
0000000041,0000040000,061989,030686,080532,087336,089374,074086
0000000042,0000041000,036407,055136,080646,084319,092093,074384
0000000043,0000042000,007939,073644,081642,081022,094085,075689
0000000044,0000043000,-20485,084243,083425,077765,095157,077874
0000000045,0000044000,-46363,086104,085826,074861,095208,080727
0000000046,0000045000,-67131,079095,088604,072600,094230,083967
0000000047,0000046000,-80508,063710,091480,071206,092317,087273
0000000048,0000047000,-85321,041461,094186,070809,089659,090328
0000000049,0000048000,-81246,014693,096455,071450,086514,092832
0000000050,0000049000,-68532,-14027,098056,073067,083193,094535
0000000051,0000050000,-48352,-42009,098837,075502,080020,095274
0000000052,0000051000,-22820,-66419,098724,078518,077302,094976
0000000053,0000052000,005557,-84831,097728,081816,075308,093671
0000000054,0000053000,034107,-95549,095944,085074,074236,091487
0000000055,0000054000,060000,-97435,093543,087975,074187,088633
0000000056,0000055000,080628,-90284,090766,090237,075165,085394
0000000057,0000056000,094072,-74961,087889,091633,077075,082088
0000000058,0000057000,098981,-52814,085184,092028,079735,079033
0000000059,0000058000,094792,-25930,082914,091386,082881,076529
0000000060,0000059000,082067,002810,081312,089771,086199,074826
0000000061,0000060000,061999,030677,080532,087336,089373,074087
0000000062,0000061000,036394,055154,080645,084319,092092,074385
0000000063,0000062000,007960,073633,081641,081022,094084,075689
0000000064,0000063000,-20470,084233,083424,077765,095157,077874
0000000065,0000064000,-46385,086133,085826,074861,095208,080727
0000000066,0000065000,-67128,079100,088603,072601,094229,083966
0000000067,0000066000,-80485,063693,091479,071206,092317,087273
0000000068,0000067000,-85339,041483,094185,070809,089660,090328
0000000069,0000068000,-81267,014716,096455,071450,086515,092831
0000000070,0000069000,-68520,-14040,098056,073067,083194,094535
0000000071,0000070000,-48363,-42004,098837,075502,080021,095273
0000000072,0000071000,-22845,-66399,098725,078517,077304,094975
0000000073,0000072000,005564,-84846,097728,081815,075310,093671
0000000074,0000073000,034105,-95558,095945,085072,074237,091487
0000000075,0000074000,059973,-97419,093545,087974,074188,088634
0000000076,0000075000,080635,-90299,090767,090236,075166,085395
0000000077,0000076000,094093,-74990,087890,091632,077076,082089
0000000078,0000077000,098968,-52808,085184,092027,079735,079034
0000000079,0000078000,094793,-25933,082914,091386,082880,076530
0000000080,0000079000,082097,002781,081312,089770,086199,074827
0000000081,0000080000,062005,030675,080532,087335,089372,074088
0000000082,0000081000,036394,055162,080644,084319,092091,074386
0000000083,0000082000,007988,073617,081640,081023,094083,075690
0000000084,0000083000,-20461,084235,083423,077766,095156,077874
0000000085,0000084000,-46398,086159,085824,074863,095207,080727
0000000086,0000085000,-67114,079100,088602,072603,094228,083966
0000000087,0000086000,-80475,063693,091478,071207,092317,087271
0000000088,0000087000,-85364,041516,094185,070810,089660,090326
0000000089,0000088000,-81278,014732,096455,071451,086515,092829
0000000090,0000089000,-68517,-14045,098056,073068,083196,094533
0000000091,0000090000,-48389,-41985,098838,075501,080023,095272
0000000092,0000091000,-22868,-66385,098726,078517,077305,094974
0000000093,0000092000,005566,-84861,097730,081814,075312,093671
0000000094,0000093000,034089,-95559,095947,085070,074239,091487
0000000095,0000094000,059951,-97413,093546,087972,074190,088634
0000000096,0000095000,080647,-90326,090768,090234,075166,085396
0000000097,0000096000,094102,-75013,087892,091629,077077,082090
0000000098,0000097000,098959,-52808,085185,092025,079735,079036
0000000099,0000098000,094811,-25954,082915,091385,082879,076533
0000000100,0000099000,082126,002752,081312,089770,086197,074829
0000000101,0000100000,062011,030675,080531,087335,089371,074090
0000000102,0000101000,036410,055160,080643,084320,092088,074387
0000000103,0000102000,008020,073601,081638,081024,094081,075691
0000000104,0000103000,-20455,084248,083421,077767,095154,077874
0000000105,0000104000,-46399,086182,085822,074865,095205,080726
0000000106,0000105000,-67096,079102,088600,072605,094227,083964
0000000107,0000106000,-80478,063712,091477,071209,092317,087270
0000000108,0000107000,-85389,041554,094184,070812,089660,090324
0000000109,0000108000,-81286,014746,096454,071453,086516,092827
0000000110,0000109000,-68529,-14036,098057,073068,083198,094530
0000000111,0000110000,-48425,-41958,098839,075501,080026,095269
0000000112,0000111000,-22890,-66376,098727,078516,077308,094973
0000000113,0000112000,005557,-84873,097732,081812,075315,093670
0000000114,0000113000,034062,-95557,095950,085067,074242,091486
0000000115,0000114000,059934,-97420,093549,087969,074192,088635
0000000116,0000115000,080658,-90361,090770,090230,075168,085398
0000000117,0000116000,094104,-75036,087894,091626,077077,082093
0000000118,0000117000,098959,-52822,085187,092023,079735,079039
0000000119,0000118000,094841,-25989,082915,091383,082877,076536
0000000120,0000119000,082156,002723,081312,089768,086195,074832
0000000121,0000120000,062026,030671,080530,087335,089368,074093
0000000122,0000121000,036443,055147,080641,084321,092085,074390
0000000123,0000122000,008055,073590,081636,081026,094078,075692
0000000124,0000123000,-20446,084267,083418,077770,095151,077875
0000000125,0000124000,-46387,086202,085819,074869,095202,080726
0000000126,0000125000,-67079,079114,088597,072609,094225,083962
0000000127,0000126000,-80490,063747,091474,071212,092317,087267
0000000128,0000127000,-85413,041595,094182,070815,089661,090320
0000000129,0000128000,-81298,014767,096453,071455,086518,092823
0000000130,0000129000,-68558,-14011,098057,073069,083201,094527
0000000131,0000130000,-48469,-41926,098840,075501,080029,095266
0000000132,0000131000,-22917,-66371,098729,078514,077312,094970
0000000133,0000132000,005533,-84880,097735,081809,075319,093668
0000000134,0000133000,034027,-95557,095953,085064,074246,091486
0000000135,0000134000,059920,-97441,093552,087966,074194,088636
0000000136,0000135000,080664,-90400,090774,090226,075170,085400
0000000137,0000136000,094102,-75064,087897,091622,077078,082096
0000000138,0000137000,098972,-52854,085189,092019,079734,079043
0000000139,0000138000,094879,-26036,082916,091380,082875,076541
0000000140,0000139000,082189,002693,081312,089767,086192,074837
0000000141,0000140000,062056,030657,080529,087335,089364,074097
0000000142,0000141000,036490,055127,080638,084323,092080,074393
0000000143,0000142000,008093,073586,081632,081029,094073,075694
0000000144,0000143000,-20428,084289,083414,077774,095147,077875
0000000145,0000144000,-46366,086222,085815,074873,095198,080725
0000000146,0000145000,-67067,079139,088593,072613,094223,083960
0000000147,0000146000,-80507,063796,091471,071217,092316,087263
0000000148,0000147000,-85436,041641,094179,070819,089661,090316
0000000149,0000148000,-81320,014798,096452,071458,086520,092818
0000000150,0000149000,-68603,-13970,098058,073070,083204,094522
0000000151,0000150000,-48520,-41892,098842,075501,080034,095261
0000000152,0000151000,-22953,-66365,098732,078513,077317,094967
0000000153,0000152000,005493,-84880,097739,081806,075324,093666
0000000154,0000153000,033986,-95562,095958,085059,074251,091486
0000000155,0000154000,059906,-97473,093557,087960,074198,088637
0000000156,0000155000,080663,-90444,090778,090220,075173,085403
0000000157,0000156000,094103,-75101,087900,091616,077080,082100
0000000158,0000157000,098998,-52904,085191,092015,079733,079048
0000000159,0000158000,094924,-26093,082917,091377,082873,076546
0000000160,0000159000,082229,002657,081312,089765,086188,074843
0000000161,0000160000,062104,030630,080527,087335,089358,074102
0000000162,0000161000,036550,055101,080635,084325,092074,074397
0000000163,0000162000,008137,073587,081628,081032,094067,075696
0000000164,0000163000,-20399,084312,083409,077779,095141,077876
0000000165,0000164000,-46336,086247,085809,074879,095194,080723
0000000166,0000165000,-67058,079180,088588,072620,094220,083957
0000000167,0000166000,-80527,063857,091467,071223,092315,087258
0000000168,0000167000,-85460,041695,094176,070824,089662,090309
0000000169,0000168000,-81356,014846,096451,071462,086523,092811
0000000170,0000169000,-68662,-13917,098058,073072,083209,094515
0000000171,0000170000,-48580,-41855,098844,075501,080040,095256
0000000172,0000171000,-23003,-66353,098736,078510,077324,094962
0000000173,0000172000,005437,-84876,097744,081801,075331,093663
0000000174,0000173000,033940,-95575,095963,085054,074257,091485
0000000175,0000174000,059888,-97515,093563,087953,074204,088639
0000000176,0000175000,080656,-90494,090784,090213,075177,085407
0000000177,0000176000,094109,-75154,087905,091609,077081,082106
0000000178,0000177000,099033,-52971,085194,092009,079732,079055
0000000179,0000178000,094975,-26158,082919,091373,082870,076554
0000000180,0000179000,082281,002611,081311,089763,086183,074850
0000000181,0000180000,062170,030591,080524,087336,089351,074109
0000000182,0000181000,036621,055074,080631,084328,092067,074402
0000000183,0000182000,008190,073591,081622,081037,094059,075699
0000000184,0000183000,-20355,084336,083402,077786,095134,077876
0000000185,0000184000,-46301,086280,085803,074887,095188,080721
0000000186,0000185000,-67053,079237,088582,072628,094216,083952
0000000187,0000186000,-80546,063929,091462,071231,092314,087252
0000000188,0000187000,-85489,041761,094173,070831,089663,090302
0000000189,0000188000,-81407,014912,096450,071466,086527,092803
0000000190,0000189000,-68735,-13852,098059,073074,083215,094507
0000000191,0000190000,-48650,-41813,098847,075500,080047,095248
0000000192,0000191000,-23071,-66335,098741,078507,077332,094957
0000000193,0000192000,005366,-84871,097751,081796,075340,093660
0000000194,0000193000,033889,-95596,095971,085046,074265,091485
0000000195,0000194000,059862,-97566,093570,087945,074210,088641
0000000196,0000195000,080644,-90554,090791,090204,075181,085411
0000000197,0000196000,094121,-75224,087911,091601,077082,082113
0000000198,0000197000,099078,-53056,085198,092002,079731,079064
0000000199,0000198000,095033,-26234,082921,091367,082866,076563
0000000200,0000199000,082349,002552,081310,089760,086177,074859
0000000201,0000200000,062255,030539,080521,087336,089343,074117
0000000202,0000201000,036704,055044,080625,084331,092057,074408
0000000203,0000202000,008256,073596,081615,081043,094050,075703
0000000204,0000203000,-20297,084361,083394,077794,095125,077877
0000000205,0000204000,-46260,086324,085794,074896,095181,080719
0000000206,0000205000,-67048,079310,088574,072637,094212,083947
0000000207,0000206000,-80566,064014,091455,071240,092312,087244
0000000208,0000207000,-85527,041843,094168,070839,089665,090293
0000000209,0000208000,-81474,014997,096448,071472,086531,092793
0000000210,0000209000,-68820,-13775,098060,073077,083222,094497
0000000211,0000210000,-48735,-41763,098850,075500,080056,095240
0000000212,0000211000,-23159,-66307,098747,078504,077343,094950
0000000213,0000212000,005282,-84865,097759,081789,075351,093656
0000000214,0000213000,033828,-95626,095980,085038,074274,091484
0000000215,0000214000,059826,-97624,093580,087934,074218,088644
0000000216,0000215000,080629,-90625,090800,090193,075186,085417
0000000217,0000216000,094140,-75313,087918,091591,077084,082121
0000000218,0000217000,099129,-53156,085203,091993,079729,079074
0000000219,0000218000,095102,-26324,082923,091361,082861,076574
0000000220,0000219000,082435,002476,081309,089757,086169,074870
0000000221,0000220000,062358,030476,080517,087336,089333,074127
0000000222,0000221000,036801,055012,080619,084335,092046,074415
0000000223,0000222000,008339,073600,081606,081050,094039,075707
0000000224,0000223000,-20226,084389,083384,077803,095115,077878
0000000225,0000224000,-46216,086380,085784,074908,095172,080716
0000000226,0000225000,-67041,079397,088565,072649,094206,083941
0000000227,0000226000,-80586,064113,091447,071251,092310,087235
0000000228,0000227000,-85574,041944,094163,070848,089666,090281
0000000229,0000228000,-81555,015100,096446,071478,086537,092781
0000000230,0000229000,-68919,-13686,098061,073081,083231,094485
0000000231,0000230000,-48838,-41703,098855,075500,080067,095229
0000000232,0000231000,-23267,-66272,098754,078499,077355,094942
0000000233,0000232000,005183,-84861,097768,081782,075363,093651
0000000234,0000233000,033757,-95662,095991,085027,074286,091483
0000000235,0000234000,059780,-97689,093591,087922,074227,088647
0000000236,0000235000,080612,-90711,090810,090180,075192,085424
0000000237,0000236000,094165,-75422,087926,091578,077086,082131
0000000238,0000237000,099188,-53274,085209,091983,079727,079086
0000000239,0000238000,095183,-26431,082925,091354,082855,076587
0000000240,0000239000,082541,002382,081308,089754,086160,074883
0000000241,0000240000,062478,030401,080512,087337,089321,074138
0000000242,0000241000,036914,054976,080611,084339,092033,074424
0000000243,0000242000,008441,073602,081596,081059,094025,075712
0000000244,0000243000,-20140,084422,083372,077815,095103,077879
0000000245,0000244000,-46165,086450,085772,074921,095163,080713
0000000246,0000245000,-67030,079498,088553,072663,094200,083933
0000000247,0000246000,-80608,064228,091438,071265,092307,087224
0000000248,0000247000,-85634,042066,094157,070859,089668,090268
0000000249,0000248000,-81651,015223,096443,071486,086543,092766
0000000250,0000249000,-69033,-13583,098062,073084,083240,094471
0000000251,0000250000,-48962,-41630,098860,075499,080080,095217
0000000252,0000251000,-23395,-66228,098763,078494,077369,094933
0000000253,0000252000,005070,-84858,097779,081773,075377,093646
0000000254,0000253000,033672,-95705,096003,085015,074299,091482
0000000255,0000254000,059723,-97764,093604,087908,074238,088651
0000000256,0000255000,080594,-90815,090822,090165,075199,085432
0000000257,0000256000,094194,-75552,087936,091564,077089,082143
0000000258,0000257000,099254,-53410,085216,091971,079725,079100
0000000259,0000258000,095279,-26557,082928,091345,082848,076603
0000000260,0000259000,082667,002269,081306,089749,086149,074898
0000000261,0000260000,062617,030316,080507,087337,089307,074151
0000000262,0000261000,037047,054934,080602,084345,092017,074434
0000000263,0000262000,008562,073601,081584,081068,094009,075718
0000000264,0000263000,-20042,084461,083359,077828,095088,077880
0000000265,0000264000,-46107,086533,085758,074936,095151,080709
0000000266,0000265000,-67015,079615,088540,072679,094192,083925
0000000267,0000266000,-80634,064362,091427,071280,092304,087212
0000000268,0000267000,-85704,042211,094149,070872,089671,090253
0000000269,0000268000,-81760,015365,096440,071496,086550,092750
0000000270,0000269000,-69165,-13465,098063,073089,083252,094455
0000000271,0000270000,-49108,-41542,098866,075498,080095,095203
0000000272,0000271000,-23544,-66177,098773,078488,077386,094922
0000000273,0000272000,004940,-84857,097792,081762,075394,093640
0000000274,0000273000,033571,-95752,096018,085001,074314,091481
0000000275,0000274000,059657,-97850,093619,087891,074250,088655
0000000276,0000275000,080576,-90936,090836,090148,075207,085441
0000000277,0000276000,094227,-75701,087948,091548,077092,082156
0000000278,0000277000,099329,-53565,085224,091957,079723,079117
0000000279,0000278000,095392,-26704,082932,091335,082840,076620
0000000280,0000279000,082813,002138,081305,089745,086136,074915
0000000281,0000280000,062776,030220,080500,087338,089291,074166
0000000282,0000281000,037202,054884,080591,084351,092000,074445
0000000283,0000282000,008704,073598,081570,081080,093991,075725
0000000284,0000283000,-19929,084507,083343,077843,095072,077881
0000000285,0000284000,-46040,086628,085742,074954,095138,080704
0000000286,0000285000,-66995,079747,088525,072698,094184,083915
0000000287,0000286000,-80664,064517,091415,071297,092302,087197
0000000288,0000287000,-85787,042380,094141,070887,089674,090235
0000000289,0000288000,-81884,015527,096436,071506,086559,092731
0000000290,0000289000,-69317,-13329,098065,073094,083265,094437
0000000291,0000290000,-49278,-41439,098872,075497,080112,095187
0000000292,0000291000,-23714,-66119,098784,078481,077405,094910
0000000293,0000292000,004791,-84856,097807,081750,075413,093633
0000000294,0000293000,033453,-95805,096035,084984,074332,091480
0000000295,0000294000,059580,-97947,093637,087872,074264,088660
0000000296,0000295000,080555,-91077,090852,090128,075216,085452
0000000297,0000296000,094263,-75872,087961,091529,077095,082172
0000000298,0000297000,099413,-53743,085233,091941,079720,079135
0000000299,0000298000,095522,-26875,082936,091324,082831,076640
0000000300,0000299000,082980,001988,081303,089740,086122,074935
0000000301,0000300000,062956,030110,080493,087339,089273,074183
