DIgSILENT PowerFactory,21000900,2000
6,06A,00D
1,TTPP_200000_100:Secondary Voltage A,,,V,0.010000000,-67.877327,0.000000,-86353,99998,1,1,P
2,TTPP_200000_100:Secondary Voltage B,,,V,0.010000000,3.507624,0.000000,-95778,99998,1,1,P
3,TTPP_200000_100:Secondary Voltage C,,,V,0.10000000,-8978.750977,0.000000,79539,99998,1,1,P
4,TTCC_500_5:Secondary Current A,,,A,0.0010000000,-78.169083,0.000000,42134,99998,1,1,P
5,TTCC_500_5:Secondary Current B,,,A,0.0010000000,-84.606804,0.000000,69215,99998,1,1,P
6,TTCC_500_5:Secondary Current C,,,A,0.0010000000,-84.781525,0.000000,69582,99998,1,1,P
50
1
1000.000000,1101
30/06/2023,06:02:13.000000
30/06/2023,06:02:13.000000
ASCII
1.000000
0000000001,0000000000,061909,036053,080635,084085,089286,074186
0000000002,0000001000,036424,060391,080749,081070,092002,074485
0000000003,0000002000,007913,078941,081747,077770,093997,075790
0000000004,0000003000,-20545,089557,083530,074515,095066,077976
0000000005,0000004000,-46376,091376,085932,071610,095117,080830
0000000006,0000005000,-67111,084320,088710,069350,094137,084070
0000000007,0000006000,-80567,069015,091585,067956,092225,087376
0000000008,0000007000,-85297,046703,094291,067561,089564,090431
0000000009,0000008000,-81205,019914,096560,068201,086422,092935
0000000010,0000009000,-68548,-08736,098161,069820,083099,094638
0000000011,0000010000,-48345,-36735,098939,072257,079925,095375
0000000012,0000011000,-22724,-61223,098826,075272,077209,095077
0000000013,0000012000,005560,-79535,097829,078569,075217,093771
0000000014,0000013000,034078,-90222,096045,081830,074142,091586
0000000015,0000014000,060073,-92192,093643,084730,074095,088731
0000000016,0000015000,080666,-85010,090865,086990,075076,085492
0000000017,0000016000,094014,-69590,087989,088386,076986,082185
0000000018,0000017000,098992,-47518,085284,088782,079645,079130
0000000019,0000018000,094821,-20662,083015,088137,082793,076627
0000000020,0000019000,081999,008167,081415,086521,086112,074924
0000000021,0000020000,061948,036003,080635,084086,089285,074187
0000000022,0000021000,036417,060401,080749,081068,092004,074485
0000000023,0000022000,007908,078945,081746,077770,093997,075791
0000000024,0000023000,-20541,089556,083530,074514,095067,077976
0000000025,0000024000,-46377,091373,085932,071610,095117,080830
0000000026,0000025000,-67127,084342,088709,069350,094138,084070
0000000027,0000026000,-80529,068988,091585,067955,092225,087377
0000000028,0000027000,-85321,046717,094291,067560,089566,090432
0000000029,0000028000,-81232,019941,096560,068201,086421,092934
0000000030,0000029000,-68517,-08767,098160,069820,083100,094638
0000000031,0000030000,-48330,-36752,098940,072256,079927,095375
0000000032,0000031000,-22781,-61168,098827,075271,077209,095077
0000000033,0000032000,005575,-79553,097829,078570,075216,093771
0000000034,0000033000,034131,-90268,096045,081828,074144,091586
0000000035,0000034000,060025,-92152,093644,084729,074096,088732
0000000036,0000035000,080638,-84985,090866,086990,075075,085492
0000000037,0000036000,094077,-69654,087989,088386,076986,082186
0000000038,0000037000,098987,-47514,085284,088780,079646,079131
0000000039,0000038000,094768,-20606,083015,088137,082792,076628
0000000040,0000039000,082036,008127,081415,086522,086111,074925
0000000041,0000040000,061988,035969,080635,084085,089285,074187
0000000042,0000041000,036366,060455,080749,081067,092004,074486
0000000043,0000042000,007909,078944,081746,077771,093996,075791
0000000044,0000043000,-20493,089511,083530,074514,095067,077976
0000000045,0000044000,-46399,091398,085932,071610,095118,080830
0000000046,0000045000,-67154,084376,088709,069350,094138,084070
0000000047,0000046000,-80493,068952,091585,067956,092225,087376
0000000048,0000047000,-85325,046723,094291,067559,089567,090431
0000000049,0000048000,-81261,019974,096560,068202,086422,092934
0000000050,0000049000,-68505,-08783,098160,069820,083100,094637
0000000051,0000050000,-48324,-36762,098940,072255,079928,095375
0000000052,0000051000,-22810,-61140,098827,075271,077210,095076
0000000053,0000052000,005586,-79565,097829,078569,075217,093771
0000000054,0000053000,034137,-90281,096046,081827,074145,091586
0000000055,0000054000,060000,-92133,093644,084728,074097,088732
0000000056,0000055000,080647,-84994,090866,086989,075075,085493
0000000057,0000056000,094096,-69681,087990,088385,076986,082186
0000000058,0000057000,098962,-47494,085285,088779,079647,079132
0000000059,0000058000,094771,-20609,083015,088137,082792,076629
0000000060,0000059000,082074,008092,081414,086521,086111,074926
0000000061,0000060000,061974,035984,080635,084084,089285,074188
0000000062,0000061000,036351,060474,080748,081068,092003,074486
0000000063,0000062000,007952,078909,081745,077771,093995,075791
0000000064,0000063000,-20489,089511,083529,074513,095067,077977
0000000065,0000064000,-46433,091439,085931,071611,095117,080830
0000000066,0000065000,-67130,084361,088708,069351,094137,084069
0000000067,0000066000,-80470,068934,091585,067956,092226,087376
0000000068,0000067000,-85364,046769,094291,067560,089567,090430
0000000069,0000068000,-81269,019983,096560,068203,086421,092933
0000000070,0000069000,-68477,-08811,098160,069820,083101,094636
0000000071,0000070000,-48352,-36737,098940,072254,079929,095374
0000000072,0000071000,-22842,-61115,098827,075271,077211,095076
0000000073,0000072000,005609,-79596,097830,078569,075218,093771
0000000074,0000073000,034129,-90285,096047,081825,074146,091586
0000000075,0000074000,059969,-92110,093645,084727,074098,088733
0000000076,0000075000,080662,-85020,090867,086988,075076,085494
0000000077,0000076000,094112,-69707,087991,088383,076987,082187
0000000078,0000077000,098942,-47480,085285,088778,079647,079133
0000000079,0000078000,094784,-20625,083015,088137,082791,076630
0000000080,0000079000,082102,008063,081415,086520,086110,074927
0000000081,0000080000,061968,035994,080635,084084,089284,074189
0000000082,0000081000,036360,060476,080747,081069,092001,074487
0000000083,0000082000,007983,078888,081744,077772,093993,075792
0000000084,0000083000,-20493,089526,083528,074514,095066,077977
0000000085,0000084000,-46437,091458,085929,071612,095116,080830
0000000086,0000085000,-67107,084350,088707,069353,094136,084069
0000000087,0000086000,-80478,068951,091584,067957,092226,087375
0000000088,0000087000,-85390,046803,094290,067561,089568,090429
0000000089,0000088000,-81259,019979,096559,068204,086422,092932
0000000090,0000089000,-68484,-08806,098160,069820,083103,094635
0000000091,0000090000,-48393,-36703,098941,072254,079931,095373
0000000092,0000091000,-22847,-61118,098828,075270,077213,095075
0000000093,0000092000,005614,-79615,097831,078567,075220,093770
0000000094,0000093000,034095,-90267,096048,081823,074148,091586
0000000095,0000094000,059957,-92113,093647,084725,074099,088733
0000000096,0000095000,080686,-85059,090868,086986,075077,085495
0000000097,0000096000,094103,-69712,087992,088380,076988,082189
0000000098,0000097000,098933,-47479,085286,088776,079646,079135
0000000099,0000098000,094820,-20665,083016,088135,082790,076632
0000000100,0000099000,082122,008043,081415,086519,086109,074929
0000000101,0000100000,061964,036006,080634,084084,089282,074191
0000000102,0000101000,036391,060457,080746,081070,091999,074489
0000000103,0000102000,008015,078872,081743,077773,093991,075793
0000000104,0000103000,-20500,089553,083526,074516,095065,077977
0000000105,0000104000,-46427,091470,085927,071615,095113,080829
0000000106,0000105000,-67086,084347,088705,069355,094135,084067
0000000107,0000106000,-80495,068984,091582,067959,092226,087373
0000000108,0000107000,-85409,046835,094288,067563,089568,090426
0000000109,0000108000,-81257,019982,096559,068205,086423,092929
0000000110,0000109000,-68511,-08783,098161,069820,083105,094632
0000000111,0000110000,-48430,-36673,098942,072254,079933,095370
0000000112,0000111000,-22855,-61125,098829,075269,077215,095073
0000000113,0000112000,005594,-79619,097834,078565,075223,093769
0000000114,0000113000,034061,-90257,096051,081821,074151,091586
0000000115,0000114000,059956,-92136,093649,084723,074101,088734
0000000116,0000115000,080692,-85091,090871,086983,075078,085496
0000000117,0000116000,094090,-69720,087994,088377,076989,082192
0000000118,0000117000,098948,-47507,085287,088774,079646,079138
0000000119,0000118000,094856,-20708,083017,088133,082789,076636
0000000120,0000119000,082133,008033,081415,086518,086107,074932
0000000121,0000120000,061985,035997,080633,084084,089279,074194
0000000122,0000121000,036438,060429,080744,081071,091996,074491
0000000123,0000122000,008035,078875,081740,077775,093988,075794
0000000124,0000123000,-20494,089577,083523,074519,095061,077977
0000000125,0000124000,-46399,091473,085924,071618,095111,080829
0000000126,0000125000,-67077,084365,088702,069358,094134,084066
0000000127,0000126000,-80519,069032,091580,067962,092225,087370
0000000128,0000127000,-85417,046861,094287,067566,089568,090423
0000000129,0000128000,-81268,019999,096558,068207,086425,092925
0000000130,0000129000,-68556,-08742,098161,069821,083108,094628
0000000131,0000130000,-48465,-36650,098943,072254,079936,095367
0000000132,0000131000,-22872,-61130,098832,075268,077219,095070
0000000133,0000132000,005556,-79611,097837,078562,075228,093768
0000000134,0000133000,034027,-90256,096054,081817,074155,091585
0000000135,0000134000,059955,-92171,093653,084719,074104,088735
0000000136,0000135000,080687,-85120,090874,086978,075081,085499
0000000137,0000136000,094084,-69741,087997,088373,076989,082195
0000000138,0000137000,098976,-47553,085289,088771,079645,079142
0000000139,0000138000,094889,-20751,083018,088131,082787,076640
0000000140,0000139000,082154,008016,081414,086516,086104,074937
0000000141,0000140000,062028,035970,080631,084085,089275,074198
0000000142,0000141000,036487,060405,080742,081072,091991,074494
0000000143,0000142000,008058,078886,081737,077777,093984,075796
0000000144,0000143000,-20468,089593,083519,074523,095057,077978
0000000145,0000144000,-46368,091483,085920,071623,095107,080827
0000000146,0000145000,-67080,084405,088699,069363,094132,084063
0000000147,0000146000,-80536,069082,091576,067967,092224,087366
0000000148,0000147000,-85425,046891,094284,067570,089569,090418
0000000149,0000148000,-81301,020040,096557,068209,086428,092920
0000000150,0000149000,-68609,-08692,098161,069822,083112,094623
0000000151,0000150000,-48501,-36631,098945,072254,079941,095363
0000000152,0000151000,-22911,-61123,098835,075266,077225,095067
0000000153,0000152000,005502,-79597,097841,078559,075233,093766
0000000154,0000153000,033998,-90272,096058,081813,074159,091585
0000000155,0000154000,059946,-92210,093657,084713,074108,088736
0000000156,0000155000,080671,-85149,090879,086972,075084,085502
0000000157,0000156000,094090,-69782,088001,088368,076990,082199
0000000158,0000157000,099013,-47616,085292,088766,079644,079147
0000000159,0000158000,094922,-20795,083019,088127,082785,076646
0000000160,0000159000,082191,007984,081414,086515,086100,074943
0000000161,0000160000,062090,035929,080629,084085,089269,074203
0000000162,0000161000,036540,060385,080738,081074,091985,074498
0000000163,0000162000,008093,078897,081732,077781,093978,075798
0000000164,0000163000,-20426,089604,083514,074528,095051,077978
0000000165,0000164000,-46339,091506,085915,071629,095103,080826
0000000166,0000165000,-67084,084459,088694,069369,094129,084060
0000000167,0000166000,-80546,069135,091572,067974,092223,087361
0000000168,0000167000,-85443,046937,094281,067575,089569,090412
0000000169,0000168000,-81350,020101,096556,068213,086431,092914
0000000170,0000169000,-68665,-08640,098162,069824,083116,094617
0000000171,0000170000,-48548,-36606,098947,072254,079947,095357
0000000172,0000171000,-22972,-61102,098839,075263,077232,095063
0000000173,0000172000,005442,-79588,097846,078554,075240,093763
0000000174,0000173000,033966,-90298,096064,081807,074166,091585
0000000175,0000174000,059923,-92249,093664,084706,074113,088738
0000000176,0000175000,080654,-85188,090885,086965,075087,085505
0000000177,0000176000,094107,-69845,088005,088361,076991,082205
0000000178,0000177000,099050,-47687,085295,088760,079643,079154
0000000179,0000178000,094959,-20847,083020,088123,082781,076653
0000000180,0000179000,082250,007933,081413,086513,086095,074950
0000000181,0000180000,062164,035880,080626,084085,089263,074210
0000000182,0000181000,036599,060369,080734,081076,091978,074503
0000000183,0000182000,008146,078903,081726,077786,093970,075801
0000000184,0000183000,-20370,089615,083507,074535,095044,077979
0000000185,0000184000,-46311,091546,085908,071636,095097,080824
0000000186,0000185000,-67084,084524,088687,069377,094125,084055
0000000187,0000186000,-80553,069196,091567,067981,092221,087355
0000000188,0000187000,-85474,047004,094278,067582,089571,090405
0000000189,0000188000,-81412,020178,096554,068218,086434,092905
0000000190,0000189000,-68729,-08583,098162,069827,083122,094609
0000000191,0000190000,-48615,-36570,098950,072253,079955,095350
0000000192,0000191000,-23052,-61071,098844,075260,077240,095057
0000000193,0000192000,005376,-79585,097852,078549,075248,093760
0000000194,0000193000,033923,-90329,096072,081800,074174,091584
0000000195,0000194000,059887,-92290,093671,084697,074120,088740
0000000196,0000195000,080640,-85244,090892,086956,075091,085510
0000000197,0000196000,094131,-69927,088011,088353,076993,082212
0000000198,0000197000,099089,-47766,085299,088753,079642,079163
0000000199,0000198000,095011,-20915,083022,088118,082777,076663
0000000200,0000199000,082329,007863,081412,086510,086088,074959
0000000201,0000200000,062249,035827,080623,084085,089254,074218
0000000202,0000201000,036672,060351,080729,081080,091969,074509
0000000203,0000202000,008220,078901,081719,077792,093960,075805
0000000204,0000203000,-20307,089633,083499,074543,095035,077979
0000000205,0000204000,-46282,091601,085900,071646,095090,080822
0000000206,0000205000,-67077,084595,088679,069387,094120,084050
0000000207,0000206000,-80563,069270,091560,067991,092219,087347
0000000208,0000207000,-85520,047093,094274,067590,089572,090395
0000000209,0000208000,-81481,020268,096552,068223,086439,092895
0000000210,0000209000,-68803,-08517,098163,069830,083129,094599
0000000211,0000210000,-48703,-36518,098954,072253,079964,095341
0000000212,0000211000,-23147,-61035,098850,075257,077251,095050
0000000213,0000212000,005301,-79588,097860,078543,075259,093756
0000000214,0000213000,033864,-90362,096081,081791,074183,091583
0000000215,0000214000,059841,-92337,093681,084687,074128,088743
0000000216,0000215000,080631,-85320,090900,086945,075096,085516
0000000217,0000216000,094156,-70024,088018,088342,076995,082220
0000000218,0000217000,099131,-47858,085304,088744,079641,079173
0000000219,0000218000,095079,-21004,083024,088111,082772,076674
0000000220,0000219000,082425,007777,081411,086507,086080,074970
0000000221,0000220000,062345,035769,080619,084086,089245,074227
0000000222,0000221000,036764,060325,080722,081083,091957,074517
0000000223,0000222000,008313,078896,081710,077799,093949,075809
0000000224,0000223000,-20238,089662,083489,074552,095025,077980
0000000225,0000224000,-46246,091666,085889,071657,095082,080819
0000000226,0000225000,-67062,084676,088670,069399,094114,084044
0000000227,0000226000,-80581,069365,091553,068002,092217,087338
0000000228,0000227000,-85577,047204,094268,067599,089574,090384
0000000229,0000228000,-81559,020370,096550,068230,086444,092883
0000000230,0000229000,-68895,-08436,098164,069833,083138,094587
0000000231,0000230000,-48815,-36450,098958,072252,079975,095330
0000000232,0000231000,-23256,-60997,098857,075252,077263,095042
0000000233,0000232000,005211,-79593,097869,078535,075271,093751
0000000234,0000233000,033788,-90395,096092,081780,074195,091582
0000000235,0000234000,059790,-92396,093692,084675,074137,088746
0000000236,0000235000,080622,-85414,090910,086933,075102,085523
0000000237,0000236000,094181,-70135,088027,088330,076997,082230
0000000238,0000237000,099182,-47967,085310,088734,079639,079185
0000000239,0000238000,095166,-21115,083026,088104,082767,076687
0000000240,0000239000,082535,007678,081410,086504,086071,074983
0000000241,0000240000,062457,035704,080615,084086,089233,074239
0000000242,0000241000,036879,060288,080714,081088,091944,074525
0000000243,0000242000,008421,078890,081700,077808,093935,075814
0000000244,0000243000,-20159,089700,083477,074564,095013,077981
0000000245,0000244000,-46198,091740,085877,071670,095072,080815
0000000246,0000245000,-67044,084770,088659,069413,094108,084036
0000000247,0000246000,-80606,069482,091543,068015,092215,087327
0000000248,0000247000,-85642,047333,094262,067610,089576,090371
0000000249,0000248000,-81648,020486,096547,068238,086450,092869
0000000250,0000249000,-69008,-08336,098166,069837,083148,094573
0000000251,0000250000,-48946,-36369,098963,072252,079988,095318
0000000252,0000251000,-23381,-60956,098865,075247,077277,095033
0000000253,0000252000,005103,-79596,097881,078526,075286,093746
0000000254,0000253000,033696,-90431,096105,081768,074208,091581
0000000255,0000254000,059733,-92470,093705,084660,074147,088749
0000000256,0000255000,080612,-85525,090922,086918,075109,085531
0000000257,0000256000,094206,-70260,088037,088316,077000,082242
0000000258,0000257000,099244,-48098,085317,088722,079637,079199
0000000259,0000258000,095270,-21248,083029,088096,082760,076702
0000000260,0000259000,082660,007566,081409,086499,086060,074998
0000000261,0000260000,062590,035625,080609,084087,089219,074252
0000000262,0000261000,037018,060241,080705,081094,091928,074535
0000000263,0000262000,008545,078886,081688,077817,093920,075820
0000000264,0000263000,-20067,089746,083463,074577,094998,077982
0000000265,0000264000,-46137,091822,085863,071686,095060,080811
0000000266,0000265000,-67024,084880,088646,069429,094100,084028
0000000267,0000266000,-80638,069621,091533,068030,092213,087315
0000000268,0000267000,-85714,047481,094254,067623,089578,090356
0000000269,0000268000,-81751,020621,096544,068247,086458,092852
0000000270,0000269000,-69144,-08215,098167,069841,083159,094557
0000000271,0000270000,-49097,-36276,098969,072251,080003,095304
0000000272,0000271000,-23524,-60911,098875,075241,077294,095022
0000000273,0000272000,004972,-79596,097894,078515,075302,093740
0000000274,0000273000,033589,-90472,096119,081754,074223,091580
0000000275,0000274000,059671,-92559,093720,084644,074160,088754
0000000276,0000275000,080596,-85651,090937,086900,075117,085540
0000000277,0000276000,094233,-70404,088048,088300,077003,082255
0000000278,0000277000,099320,-48254,085325,088708,079634,079216
0000000279,0000278000,095388,-21401,083033,088086,082752,076720
0000000280,0000279000,082801,007439,081407,086495,086048,075015
0000000281,0000280000,062747,035531,080603,084088,089203,074267
0000000282,0000281000,037178,060186,080695,081100,091910,074547
0000000283,0000282000,008685,078884,081674,077829,093902,075827
0000000284,0000283000,-19959,089798,083448,074592,094982,077983
0000000285,0000284000,-46065,091913,085847,071704,095047,080807
0000000286,0000285000,-67003,085010,088631,069448,094092,084018
0000000287,0000286000,-80673,069782,091520,068048,092210,087300
0000000288,0000287000,-85794,047647,094246,067638,089581,090338
0000000289,0000288000,-81871,020779,096540,068258,086466,092833
0000000290,0000289000,-69300,-08074,098169,069846,083173,094538
0000000291,0000290000,-49267,-36172,098975,072250,080020,095288
0000000292,0000291000,-23689,-60858,098886,075235,077313,095010
0000000293,0000292000,004820,-79592,097908,078503,075322,093733
0000000294,0000293000,033468,-90521,096136,081737,074241,091579
0000000295,0000294000,059599,-92661,093737,084625,074173,088759
0000000296,0000295000,080574,-85791,090953,086880,075126,085551
0000000297,0000296000,094264,-70569,088062,088281,077006,082271
0000000298,0000297000,099408,-48434,085334,088692,079631,079234
0000000299,0000298000,095520,-21575,083037,088075,082743,076740
0000000300,0000299000,082962,007293,081406,086489,086033,075035
0000000301,0000300000,062929,035421,080596,084089,089185,074284
