DIgSILENT PowerFactory,21000900,2000
6,06A,00D
1,TTPP_200000_100:Secondary Voltage A,,,V,0.010000000,-71.429947,0.000000,-85630,99998,1,1,P
2,TTPP_200000_100:Secondary Voltage B,,,V,0.010000000,-23.207495,0.000000,-91375,99998,1,1,P
3,TTPP_200000_100:Secondary Voltage C,,,V,0.10000000,-8976.453125,0.000000,79702,99998,1,1,P
4,TTCC_300_1:Secondary Current A,,,A,0.00010000000,-4.177214,0.000000,-43889,99998,1,1,P
5,TTCC_300_1:Secondary Current B,,,A,0.00010000000,-4.935962,0.000000,-1268,99998,1,1,P
6,TTCC_300_1:Secondary Current C,,,A,0.00010000000,-4.877497,0.000000,-2366,99998,1,1,P
50
1
1000.000000,1101
30/06/2023,06:04:52.000000
30/06/2023,06:04:52.000000
ASCII
1.000000
0000000001,0000000000,078209,017073,081183,020835,035379,083693
0000000002,0000001000,056862,044260,080599,030589,026096,083222
0000000003,0000002000,030493,067519,080910,041426,019098,079382
0000000004,0000003000,001916,084333,082086,052298,015059,072549
0000000005,0000004000,-26069,092995,084020,062146,014376,063384
0000000006,0000005000,-50952,092891,086517,070000,017122,052784
0000000007,0000006000,-70123,084003,089324,075089,023015,041802
0000000008,0000007000,-81554,066908,092175,076914,031490,031504
0000000009,0000008000,-84412,043542,094798,075291,041730,022886
0000000010,0000009000,-78466,016336,096925,070394,052707,016806
0000000011,0000010000,-63977,-12378,098346,062705,063339,013862
0000000012,0000011000,-42452,-39743,098931,052951,072623,014333
0000000013,0000012000,-16223,-62863,098620,042100,079636,018171
0000000014,0000013000,012318,-79627,097442,031236,083666,025005
0000000015,0000014000,040448,-88433,095509,021389,084347,034172
0000000016,0000015000,065220,-88239,093013,013525,081612,044770
0000000017,0000016000,084281,-79230,090206,008448,075708,055752
0000000018,0000017000,095920,-62344,087354,006630,067226,066050
0000000019,0000018000,098802,-39000,084731,008238,057002,074668
0000000020,0000019000,092651,-11588,082604,013133,046026,080748
0000000021,0000020000,078257,017033,081182,020834,035381,083692
0000000022,0000021000,056813,044308,080598,030583,026103,083222
0000000023,0000022000,030426,067582,080910,041431,019094,079382
0000000024,0000023000,001952,084291,082086,052307,015051,072549
0000000025,0000024000,-26038,092955,084019,062147,014377,063382
0000000026,0000025000,-50965,092913,086516,069999,017124,052784
0000000027,0000026000,-70104,083980,089323,075091,023013,041803
0000000028,0000027000,-81570,066922,092176,076912,031491,031504
0000000029,0000028000,-84475,043593,094799,075293,041728,022886
0000000030,0000029000,-78448,016312,096924,070403,052698,016806
0000000031,0000030000,-63928,-12428,098346,062707,063338,013861
0000000032,0000031000,-42459,-39739,098931,052947,072627,014332
0000000033,0000032000,-16249,-62836,098619,042104,079632,018171
0000000034,0000033000,012307,-79624,097442,031239,083664,025004
0000000035,0000034000,040438,-88431,095510,021390,084347,034170
0000000036,0000035000,065217,-88243,093013,013532,081606,044769
0000000037,0000036000,084322,-79267,090205,008450,075707,055750
0000000038,0000037000,095930,-62355,087353,006626,067231,066049
0000000039,0000038000,098756,-38956,084731,008239,057001,074666
0000000040,0000039000,092648,-11585,082605,013138,046023,080746
0000000041,0000040000,078280,017006,081182,020835,035381,083691
0000000042,0000041000,056811,044314,080598,030584,026103,083220
0000000043,0000042000,030443,067571,080909,041431,019094,079381
0000000044,0000043000,001969,084281,082086,052304,015054,072549
0000000045,0000044000,-26073,092990,084019,062145,014378,063383
0000000046,0000045000,-50983,092932,086516,070003,017120,052784
0000000047,0000046000,-70069,083948,089323,075092,023012,041803
0000000048,0000047000,-81557,066912,092175,076910,031492,031505
0000000049,0000048000,-84496,043620,094798,075293,041727,022887
0000000050,0000049000,-78448,016313,096924,070404,052696,016807
0000000051,0000050000,-63930,-12427,098347,062707,063337,013863
0000000052,0000051000,-42489,-39715,098932,052951,072622,014332
0000000053,0000052000,-16234,-62852,098620,042107,079628,018171
0000000054,0000053000,012339,-79657,097443,031239,083664,025004
0000000055,0000054000,040413,-88408,095510,021392,084346,034169
0000000056,0000055000,065196,-88224,093013,013536,081604,044767
0000000057,0000056000,084341,-79291,090206,008454,075705,055748
0000000058,0000057000,095931,-62359,087354,006630,067231,066046
0000000059,0000058000,098752,-38952,084731,008242,057001,074663
0000000060,0000059000,092676,-11609,082604,013139,046025,080744
0000000061,0000060000,078282,017005,081182,020834,035384,083688
0000000062,0000061000,056784,044343,080598,030584,026104,083218
0000000063,0000062000,030455,067562,080909,041433,019094,079380
0000000064,0000063000,001997,084257,082086,052302,015056,072548
0000000065,0000064000,-26082,093006,084019,062143,014381,063383
0000000066,0000065000,-50986,092942,086516,070000,017121,052786
0000000067,0000066000,-70057,083941,089323,075089,023012,041806
0000000068,0000067000,-81578,066933,092175,076908,031491,031508
0000000069,0000068000,-84510,043635,094798,075294,041723,022890
0000000070,0000069000,-78426,016291,096924,070404,052693,016810
0000000071,0000070000,-63935,-12425,098347,062707,063335,013865
0000000072,0000071000,-42518,-39690,098932,052953,072619,014335
0000000073,0000072000,-16233,-62858,098620,042112,079623,018172
0000000074,0000073000,012340,-79668,097444,031244,083660,025004
0000000075,0000074000,040395,-88400,095511,021397,084343,034168
0000000076,0000075000,065205,-88238,093014,013542,081601,044764
0000000077,0000076000,084359,-79314,090206,008457,075705,055744
0000000078,0000077000,095915,-62348,087354,006633,067232,066041
0000000079,0000078000,098747,-38949,084731,008247,057001,074658
0000000080,0000079000,092704,-11636,082604,013141,046027,080739
0000000081,0000080000,078290,016999,081182,020834,035389,083684
0000000082,0000081000,056782,044353,080597,030583,026109,083215
0000000083,0000082000,030476,067550,080908,041430,019099,079378
0000000084,0000083000,002002,084259,082085,052297,015062,072548
0000000085,0000084000,-26097,093030,084018,062138,014384,063384
0000000086,0000085000,-50974,092941,086514,069997,017121,052788
0000000087,0000086000,-70043,083935,089322,075084,023014,041810
0000000088,0000087000,-81598,066958,092175,076903,031491,031513
0000000089,0000088000,-84523,043652,094798,075292,041720,022896
0000000090,0000089000,-78423,016287,096924,070403,052688,016816
0000000091,0000090000,-63955,-12411,098348,062707,063329,013870
0000000092,0000091000,-42536,-39679,098933,052957,072611,014338
0000000093,0000092000,-16226,-62875,098621,042116,079616,018174
0000000094,0000093000,012331,-79671,097445,031248,083655,025004
0000000095,0000094000,040372,-88389,095512,021404,084337,034166
0000000096,0000095000,065212,-88256,093015,013551,081596,044760
0000000097,0000096000,084371,-79338,090207,008464,075704,055738
0000000098,0000097000,095909,-62350,087355,006639,067233,066034
0000000099,0000098000,098760,-38964,084731,008252,057003,074651
0000000100,0000099000,092728,-11659,082604,013143,046032,080731
0000000101,0000100000,078291,017003,081181,020833,035397,083677
0000000102,0000101000,056790,044355,080596,030582,026116,083209
0000000103,0000102000,030506,067534,080907,041426,019107,079375
0000000104,0000103000,002010,084265,082083,052290,015070,072547
0000000105,0000104000,-26103,093052,084016,062131,014389,063386
0000000106,0000105000,-50963,092945,086513,069989,017125,052793
0000000107,0000106000,-70044,083946,089321,075075,023016,041816
0000000108,0000107000,-81619,066987,092174,076897,031489,031521
0000000109,0000108000,-84528,043661,094797,075288,041715,022905
0000000110,0000109000,-78428,016289,096925,070400,052682,016825
0000000111,0000110000,-63985,-12388,098348,062707,063321,013878
0000000112,0000111000,-42557,-39668,098934,052961,072601,014345
0000000113,0000112000,-16229,-62888,098623,042123,079606,018178
0000000114,0000113000,012313,-79672,097447,031257,083646,025005
0000000115,0000114000,040357,-88392,095514,021415,084329,034163
0000000116,0000115000,065222,-88282,093017,013562,081590,044755
0000000117,0000116000,084374,-79356,090209,008474,075703,055730
0000000118,0000117000,095906,-62357,087356,006648,067234,066024
0000000119,0000118000,098783,-38990,084732,008260,057007,074639
0000000120,0000119000,092754,-11684,082604,013146,046040,080720
0000000121,0000120000,078301,017001,081181,020833,035407,083667
0000000122,0000121000,056812,044348,080595,030579,026126,083201
0000000123,0000122000,030534,067524,080905,041419,019118,079370
0000000124,0000123000,002016,084280,082081,052280,015081,072546
0000000125,0000124000,-26098,093069,084014,062120,014398,063389
0000000126,0000125000,-50948,092951,086511,069976,017131,052799
0000000127,0000126000,-70052,083970,089319,075062,023019,041826
0000000128,0000127000,-81641,067021,092173,076887,031487,031533
0000000129,0000128000,-84537,043676,094797,075281,041708,022918
0000000130,0000129000,-78447,016304,096925,070396,052673,016838
0000000131,0000130000,-64020,-12364,098349,062708,063309,013890
0000000132,0000131000,-42577,-39664,098935,052966,072586,014354
0000000133,0000132000,-16243,-62896,098625,042131,079592,018184
0000000134,0000133000,012286,-79671,097449,031268,083633,025006
0000000135,0000134000,040344,-88404,095517,021430,084317,034160
0000000136,0000135000,065230,-88315,093019,013577,081583,044747
0000000137,0000136000,084376,-79379,090211,008488,075700,055719
0000000138,0000137000,095914,-62377,087357,006661,067236,066010
0000000139,0000138000,098813,-39025,084732,008269,057014,074624
0000000140,0000139000,092780,-11708,082604,013151,046052,080704
0000000141,0000140000,078321,016994,081179,020833,035421,083653
0000000142,0000141000,056847,044334,080593,030575,026142,083191
0000000143,0000142000,030566,067518,080902,041408,019135,079363
0000000144,0000143000,002027,084299,082078,052266,015097,072544
0000000145,0000144000,-26085,093088,084011,062104,014409,063392
0000000146,0000145000,-50937,092968,086508,069959,017139,052808
0000000147,0000146000,-70065,084006,089317,075046,023022,041839
0000000148,0000147000,-81660,067058,092171,076873,031485,031549
0000000149,0000148000,-84552,043698,094796,075271,041701,022936
0000000150,0000149000,-78479,016332,096925,070390,052661,016856
0000000151,0000150000,-64062,-12336,098351,062708,063292,013906
0000000152,0000151000,-42603,-39660,098937,052973,072567,014366
0000000153,0000152000,-16270,-62900,098628,042142,079574,018191
0000000154,0000153000,012254,-79674,097453,031284,083616,025007
0000000155,0000154000,040333,-88427,095520,021449,084303,034155
0000000156,0000155000,065233,-88351,093022,013596,081574,044737
0000000157,0000156000,084376,-79407,090214,008507,075697,055703
0000000158,0000157000,095931,-62412,087359,006678,067237,065991
0000000159,0000158000,098849,-39069,084733,008281,057022,074604
0000000160,0000159000,092812,-11735,082603,013156,046066,080684
0000000161,0000160000,078353,016978,081178,020833,035439,083635
0000000162,0000161000,056892,044315,080590,030568,026162,083177
0000000163,0000162000,030600,067517,080899,041395,019157,079355
0000000164,0000163000,002046,084319,082074,052248,015116,072542
0000000165,0000164000,-26064,093108,084007,062084,014425,063397
0000000166,0000165000,-50929,092996,086504,069937,017150,052819
0000000167,0000166000,-70081,084053,089314,075024,023026,041856
0000000168,0000167000,-81681,067100,092169,076856,031481,031570
0000000169,0000168000,-84577,043731,094795,075257,041691,022959
0000000170,0000169000,-78524,016371,096926,070383,052646,016878
0000000171,0000170000,-64108,-12307,098352,062709,063271,013926
0000000172,0000171000,-42639,-39653,098940,052981,072544,014382
0000000173,0000172000,-16309,-62900,098632,042156,079550,018200
0000000174,0000173000,012218,-79682,097457,031305,083593,025009
0000000175,0000174000,040320,-88459,095525,021473,084284,034150
0000000176,0000175000,065231,-88392,093027,013621,081562,044724
0000000177,0000176000,084380,-79445,090217,008531,075692,055684
0000000178,0000177000,095957,-62460,087361,006699,067240,065967
0000000179,0000178000,098890,-39120,084734,008295,057033,074578
0000000180,0000179000,092851,-11769,082603,013164,046084,080659
0000000181,0000180000,078401,016951,081176,020833,035461,083612
0000000182,0000181000,056947,044294,080587,030559,026189,083159
0000000183,0000182000,030640,067520,080895,041379,019184,079345
0000000184,0000183000,002075,084340,082069,052226,015140,072540
0000000185,0000184000,-26038,093133,084002,062058,014445,063404
0000000186,0000185000,-50923,093037,086500,069909,017164,052834
0000000187,0000186000,-70099,084109,089310,074998,023032,041877
0000000188,0000187000,-81705,067151,092166,076833,031477,031597
0000000189,0000188000,-84614,043778,094794,075241,041679,022988
0000000190,0000189000,-78579,016420,096927,070375,052626,016907
0000000191,0000190000,-64163,-12274,098355,062711,063245,013951
0000000192,0000191000,-42688,-39642,098944,052991,072514,014401
0000000193,0000192000,-16361,-62898,098637,042175,079520,018212
0000000194,0000193000,012178,-79697,097463,031330,083565,025012
0000000195,0000194000,040303,-88498,095530,021503,084262,034143
0000000196,0000195000,065225,-88438,093032,013652,081547,044708
0000000197,0000196000,084388,-79496,090222,008560,075686,055660
0000000198,0000197000,095991,-62523,087364,006724,067244,065938
0000000199,0000198000,098937,-39179,084735,008313,057047,074546
0000000200,0000199000,092901,-11812,082602,013173,046106,080627
0000000201,0000200000,078463,016915,081173,020833,035490,083584
0000000202,0000201000,057011,044271,080583,030548,026221,083138
0000000203,0000202000,030689,067525,080889,041358,019217,079332
0000000204,0000203000,002116,084362,082063,052199,015171,072537
0000000205,0000204000,-26007,093166,083995,062025,014470,063412
0000000206,0000205000,-50920,093090,086494,069874,017181,052852
0000000207,0000206000,-70117,084175,089305,074966,023038,041904
0000000208,0000207000,-81734,067212,092163,076806,031472,031629
0000000209,0000208000,-84663,043839,094793,075221,041664,023023
0000000210,0000209000,-78645,016478,096928,070365,052601,016941
0000000211,0000210000,-64227,-12237,098357,062712,063213,013981
0000000212,0000211000,-42751,-39625,098949,053003,072479,014425
0000000213,0000212000,-16424,-62895,098643,042197,079484,018226
0000000214,0000213000,012132,-79718,097469,031361,083532,025014
0000000215,0000214000,040279,-88544,095537,021538,084235,034134
0000000216,0000215000,065215,-88493,093038,013689,081530,044688
0000000217,0000216000,084402,-79561,090227,008596,075679,055631
0000000218,0000217000,096031,-62599,087368,006755,067249,065903
0000000219,0000218000,098990,-39248,084737,008335,057064,074507
0000000220,0000219000,092964,-11867,082601,013184,046133,080589
0000000221,0000220000,078540,016869,081170,020832,035524,083551
0000000222,0000221000,057085,044245,080578,030535,026260,083112
0000000223,0000222000,030749,067530,080883,041334,019257,079316
0000000224,0000223000,002167,084386,082056,052166,015207,072534
0000000225,0000224000,-25972,093207,083988,061986,014499,063421
0000000226,0000225000,-50915,093156,086487,069833,017200,052873
0000000227,0000226000,-70135,084251,089299,074927,023045,041935
0000000228,0000227000,-81769,067287,092159,076773,031467,031668
0000000229,0000228000,-84723,043915,094791,075197,041646,023065
0000000230,0000229000,-78722,016545,096928,070353,052572,016982
0000000231,0000230000,-64305,-12192,098361,062713,063175,014018
0000000232,0000231000,-42830,-39601,098954,053017,072436,014452
0000000233,0000232000,-16499,-62892,098650,042224,079441,018242
0000000234,0000233000,012079,-79746,097478,031397,083492,025018
0000000235,0000234000,040247,-88596,095546,021581,084203,034123
0000000236,0000235000,065204,-88559,093046,013734,081509,044665
0000000237,0000236000,084420,-79642,090233,008639,075671,055597
0000000238,0000237000,096078,-62689,087372,006791,067255,065861
0000000239,0000238000,099053,-39328,084739,008361,057084,074461
0000000240,0000239000,093043,-11935,082600,013197,046165,080544
0000000241,0000240000,078632,016814,081166,020831,035565,083511
0000000242,0000241000,057172,044218,080572,030519,026307,083082
0000000243,0000242000,030824,067534,080875,041305,019304,079298
0000000244,0000243000,002230,084412,082047,052127,015249,072531
0000000245,0000244000,-25934,093259,083979,061940,014534,063433
0000000246,0000245000,-50910,093234,086479,069785,017223,052899
0000000247,0000246000,-70154,084340,089292,074881,023053,041972
0000000248,0000247000,-81813,067378,092154,076734,031460,031713
0000000249,0000248000,-84796,044007,094790,075169,041624,023114
0000000250,0000249000,-78810,016623,096929,070339,052537,017031
0000000251,0000250000,-64397,-12139,098365,062715,063131,014061
0000000252,0000251000,-42926,-39570,098961,053034,072387,014485
0000000253,0000252000,-16585,-62890,098659,042255,079390,018261
0000000254,0000253000,012016,-79779,097487,031440,083446,025021
0000000255,0000254000,040207,-88655,095556,021631,084166,034111
0000000256,0000255000,065190,-88636,093055,013786,081484,044637
0000000257,0000256000,084443,-79739,090240,008689,075661,055557
0000000258,0000257000,096130,-62793,087377,006832,067263,065811
0000000259,0000258000,099126,-39423,084741,008390,057108,074408
0000000260,0000259000,093137,-12017,082599,013213,046202,080492
0000000261,0000260000,078738,016750,081162,020829,035613,083466
0000000262,0000261000,057273,044186,080565,030500,026361,083047
0000000263,0000262000,030913,067536,080866,041271,019358,079278
0000000264,0000263000,002304,084443,082036,052081,015299,072527
0000000265,0000264000,-25890,093321,083968,061886,014574,063446
0000000266,0000265000,-50901,093323,086469,069728,017249,052929
0000000267,0000266000,-70175,084442,089284,074828,023063,042016
0000000268,0000267000,-81866,067486,092149,076689,031452,031766
0000000269,0000268000,-84880,044114,094787,075137,041599,023172
0000000270,0000269000,-78911,016713,096931,070324,052496,017087
0000000271,0000270000,-64507,-12075,098369,062717,063079,014110
0000000272,0000271000,-43038,-39533,098968,053055,072329,014523
0000000273,0000272000,-16684,-62888,098668,042292,079332,018283
0000000274,0000273000,011941,-79816,097498,031489,083392,025025
0000000275,0000274000,040158,-88721,095567,021688,084123,034096
0000000276,0000275000,065176,-88727,093066,013847,081456,044605
0000000277,0000276000,084469,-79852,090249,008746,075651,055510
0000000278,0000277000,096189,-62912,087383,006880,067272,065755
0000000279,0000278000,099210,-39533,084743,008425,057135,074347
0000000280,0000279000,093247,-12114,082598,013229,046245,080432
0000000281,0000280000,078859,016676,081157,020826,035668,083413
0000000282,0000281000,057389,044149,080557,030478,026423,083007
0000000283,0000282000,031018,067536,080855,041232,019420,079254
0000000284,0000283000,002389,084478,082024,052028,015356,072523
0000000285,0000284000,-25839,093393,083956,061824,014620,063462
0000000286,0000285000,-50888,093425,086457,069664,017279,052963
0000000287,0000286000,-70199,084559,089275,074768,023074,042066
0000000288,0000287000,-81928,067612,092142,076638,031443,031827
0000000289,0000288000,-84975,044238,094784,075100,041570,023237
0000000290,0000289000,-79026,016816,096932,070306,052450,017151
0000000291,0000290000,-64634,-11999,098374,062720,063020,014166
0000000292,0000291000,-43167,-39489,098977,053078,072263,014565
0000000293,0000292000,-16797,-62887,098680,042333,079265,018308
0000000294,0000293000,011854,-79858,097511,031546,083332,025029
0000000295,0000294000,040100,-88796,095580,021754,084074,034079
0000000296,0000295000,065160,-88833,093078,013915,081424,044568
0000000297,0000296000,084498,-79981,090259,008810,075639,055457
0000000298,0000297000,096253,-63047,087390,006934,067282,065690
0000000299,0000298000,099308,-39661,084746,008464,057166,074277
0000000300,0000299000,093373,-12227,082596,013248,046294,080364
0000000301,0000300000,078997,016592,081152,020823,035731,083353
