DIgSILENT PowerFactory,21000900,2000
6,06A,00D
1,TTPP_200000_100:Secondary Voltage A,,,V,0.010000000,-67.886223,0.000000,-86353,99998,1,1,P
2,TTPP_200000_100:Secondary Voltage B,,,V,0.010000000,-31.523155,0.000000,-95268,99998,1,1,P
3,TTPP_200000_100:Secondary Voltage C,,,V,0.10000000,-8947.391602,0.000000,79490,99998,1,1,P
4,TTCC_500_5:Secondary Current A,,,A,0.0010000000,-84.689331,0.000000,61717,99998,1,1,P
5,TTCC_500_5:Secondary Current B,,,A,0.0010000000,-84.875816,0.000000,69769,99998,1,1,P
6,TTCC_500_5:Secondary Current C,,,A,0.0010000000,-84.612137,0.000000,69248,99998,1,1,P
50
1
1000.000000,1101
30/06/2023,06:02:26.000000
30/06/2023,06:02:26.000000
ASCII
1.000000
0000000001,0000000000,061930,039534,080322,090607,089553,074017
0000000002,0000001000,036456,063868,080435,087591,092270,074315
0000000003,0000002000,007911,082456,081432,084293,094264,075620
0000000004,0000003000,-20536,093066,083215,081037,095335,077805
0000000005,0000004000,-46322,094854,085616,078134,095384,080659
0000000006,0000005000,-67073,087820,088393,075869,094410,083898
0000000007,0000006000,-80567,072553,091270,074477,092495,087205
0000000008,0000007000,-85358,050283,093976,074082,089835,090260
0000000009,0000008000,-81163,023392,096245,074722,086691,092764
0000000010,0000009000,-68543,-05227,097846,076339,083371,094467
0000000011,0000010000,-48371,-33202,098625,078774,080198,095206
0000000012,0000011000,-22778,-57666,098513,081791,077479,094908
0000000013,0000012000,005546,-76038,097517,085088,075487,093603
0000000014,0000013000,034074,-86725,095733,088348,074412,091418
0000000015,0000014000,060044,-88685,093331,091249,074364,088564
0000000016,0000015000,080666,-81531,090554,093508,075344,085325
0000000017,0000016000,093994,-66094,087678,094906,077253,082018
0000000018,0000017000,098976,-44024,084972,095302,079912,078963
0000000019,0000018000,094843,-17194,082703,094659,083059,076459
0000000020,0000019000,082029,011628,081102,093042,086379,074756
0000000021,0000020000,061970,039492,080322,090608,089552,074018
0000000022,0000021000,036415,063909,080435,087590,092271,074316
0000000023,0000022000,007939,082426,081432,084293,094264,075620
0000000024,0000023000,-20512,093051,083215,081037,095336,077805
0000000025,0000024000,-46339,094863,085616,078132,095387,080659
0000000026,0000025000,-67119,087867,088394,075871,094408,083898
0000000027,0000026000,-80546,072527,091270,074477,092496,087205
0000000028,0000027000,-85310,050237,093976,074081,089836,090260
0000000029,0000028000,-81216,023445,096245,074721,086692,092764
0000000030,0000029000,-68540,-05233,097846,076338,083372,094467
0000000031,0000030000,-48364,-33210,098626,078775,080197,095206
0000000032,0000031000,-22793,-57658,098513,081789,077480,094908
0000000033,0000032000,005556,-76042,097517,085088,075486,093603
0000000034,0000033000,034093,-86746,095733,088346,074413,091418
0000000035,0000034000,060028,-88670,093332,091248,074365,088564
0000000036,0000035000,080627,-81495,090555,093508,075344,085325
0000000037,0000036000,094044,-66144,087678,094906,077253,082018
0000000038,0000037000,098989,-44034,084973,095301,079913,078963
0000000039,0000038000,094809,-17161,082703,094658,083060,076460
0000000040,0000039000,082039,011622,081102,093043,086379,074756
0000000041,0000040000,061983,039476,080322,090607,089552,074018
0000000042,0000041000,036409,063919,080435,087590,092271,074316
0000000043,0000042000,007941,082427,081431,084293,094264,075620
0000000044,0000043000,-20485,093028,083214,081036,095336,077805
0000000045,0000044000,-46369,094894,085616,078132,095387,080659
0000000046,0000045000,-67134,087882,088393,075871,094408,083898
0000000047,0000046000,-80505,072491,091269,074477,092495,087205
0000000048,0000047000,-85318,050244,093975,074080,089837,090260
0000000049,0000048000,-81246,023478,096245,074721,086693,092763
0000000050,0000049000,-68536,-05239,097846,076338,083372,094467
0000000051,0000050000,-48352,-33225,098626,078774,080198,095205
0000000052,0000051000,-22817,-57637,098514,081789,077481,094908
0000000053,0000052000,005560,-76048,097517,085087,075487,093603
0000000054,0000053000,034107,-86764,095733,088345,074414,091418
0000000055,0000054000,059995,-88645,093333,091247,074366,088565
0000000056,0000055000,080628,-81499,090555,093508,075344,085325
0000000057,0000056000,094075,-66179,087678,094905,077254,082019
0000000058,0000057000,098983,-44030,084973,095300,079914,078964
0000000059,0000058000,094789,-17142,082703,094658,083059,076461
0000000060,0000059000,082063,011598,081102,093042,086378,074757
0000000061,0000060000,061999,039461,080322,090607,089552,074019
0000000062,0000061000,036395,063937,080435,087590,092271,074316
0000000063,0000062000,007961,082416,081430,084294,094263,075621
0000000064,0000063000,-20473,093020,083213,081036,095336,077806
0000000065,0000064000,-46388,094921,085615,078132,095386,080659
0000000066,0000065000,-67128,087883,088392,075872,094407,083898
0000000067,0000066000,-80482,072475,091269,074477,092496,087204
0000000068,0000067000,-85339,050268,093975,074080,089838,090259
0000000069,0000068000,-81269,023503,096244,074722,086693,092763
0000000070,0000069000,-68521,-05255,097846,076339,083372,094466
0000000071,0000070000,-48362,-33221,098626,078773,080200,095205
0000000072,0000071000,-22842,-57616,098514,081788,077482,094907
0000000073,0000072000,005565,-76061,097518,085087,075488,093603
0000000074,0000073000,034103,-86771,095735,088344,074415,091418
0000000075,0000074000,059971,-88632,093334,091246,074366,088565
0000000076,0000075000,080636,-81515,090556,093507,075344,085326
0000000077,0000076000,094095,-66207,087679,094903,077254,082020
0000000078,0000077000,098967,-44021,084974,095298,079914,078965
0000000079,0000078000,094790,-17145,082704,094657,083058,076462
0000000080,0000079000,082095,011566,081102,093042,086377,074758
0000000081,0000080000,062005,039460,080321,090606,089551,074020
0000000082,0000081000,036394,063947,080434,087591,092269,074317
0000000083,0000082000,007987,082402,081429,084294,094261,075621
0000000084,0000083000,-20464,093022,083212,081037,095335,077806
0000000085,0000084000,-46399,094945,085614,078134,095385,080659
0000000086,0000085000,-67112,087882,088391,075874,094406,083897
0000000087,0000086000,-80474,072477,091268,074478,092496,087203
0000000088,0000087000,-85366,050302,093974,074081,089838,090258
0000000089,0000088000,-81279,023518,096244,074723,086694,092761
0000000090,0000089000,-68516,-05261,097846,076339,083374,094464
0000000091,0000090000,-48387,-33202,098627,078773,080202,095203
0000000092,0000091000,-22867,-57600,098515,081788,077484,094906
0000000093,0000092000,005566,-76076,097519,085085,075490,093602
0000000094,0000093000,034088,-86773,095736,088342,074417,091418
0000000095,0000094000,059951,-88628,093335,091244,074368,088566
0000000096,0000095000,080649,-81543,090557,093505,075345,085327
0000000097,0000096000,094102,-66228,087681,094900,077255,082022
0000000098,0000097000,098957,-44021,084975,095296,079914,078967
0000000099,0000098000,094809,-17167,082704,094656,083057,076464
0000000100,0000099000,082127,011536,081102,093041,086376,074761
0000000101,0000100000,062011,039460,080321,090606,089549,074022
0000000102,0000101000,036410,063946,080432,087592,092267,074319
0000000103,0000102000,008019,082386,081427,084296,094259,075622
0000000104,0000103000,-20457,093034,083211,081039,095333,077806
0000000105,0000104000,-46399,094966,085612,078136,095383,080658
0000000106,0000105000,-67095,087885,088389,075876,094405,083896
0000000107,0000106000,-80478,072497,091266,074480,092496,087201
0000000108,0000107000,-85392,050340,093973,074083,089839,090255
0000000109,0000108000,-81286,023531,096243,074724,086695,092758
0000000110,0000109000,-68527,-05252,097846,076339,083376,094462
0000000111,0000110000,-48425,-33173,098628,078772,080204,095201
0000000112,0000111000,-22890,-57591,098516,081787,077486,094904
0000000113,0000112000,005557,-76088,097521,085083,075493,093601
0000000114,0000113000,034061,-86772,095739,088339,074420,091418
0000000115,0000114000,059935,-88636,093338,091241,074370,088566
0000000116,0000115000,080659,-81576,090560,093502,075346,085329
0000000117,0000116000,094103,-66250,087683,094897,077256,082024
0000000118,0000117000,098958,-44036,084976,095294,079913,078970
0000000119,0000118000,094840,-17204,082705,094654,083056,076468
0000000120,0000119000,082156,011508,081102,093040,086374,074764
0000000121,0000120000,062025,039457,080320,090606,089546,074025
0000000122,0000121000,036442,063933,080430,087593,092263,074321
0000000123,0000122000,008054,082375,081425,084298,094256,075624
0000000124,0000123000,-20447,093052,083208,081041,095330,077806
0000000125,0000124000,-46388,094986,085608,078140,095380,080657
0000000126,0000125000,-67079,087898,088386,075880,094403,083894
0000000127,0000126000,-80491,072532,091264,074484,092495,087198
0000000128,0000127000,-85415,050380,093971,074086,089839,090252
0000000129,0000128000,-81297,023550,096243,074727,086696,092754
0000000130,0000129000,-68557,-05227,097846,076340,083379,094458
0000000131,0000130000,-48470,-33141,098629,078772,080208,095197
0000000132,0000131000,-22917,-57586,098519,081786,077490,094901
0000000133,0000132000,005533,-76095,097524,085081,075497,093600
0000000134,0000133000,034027,-86772,095742,088335,074424,091418
0000000135,0000134000,059921,-88656,093341,091237,074373,088567
0000000136,0000135000,080664,-81615,090563,093497,075349,085331
0000000137,0000136000,094101,-66277,087686,094893,077257,082028
0000000138,0000137000,098972,-44068,084978,095291,079912,078975
0000000139,0000138000,094879,-17252,082705,094652,083054,076472
0000000140,0000139000,082188,011478,081101,093038,086371,074768
0000000141,0000140000,062055,039443,080318,090606,089542,074029
0000000142,0000141000,036489,063912,080428,087594,092259,074324
0000000143,0000142000,008092,082371,081422,084300,094251,075626
0000000144,0000143000,-20429,093075,083204,081045,095325,077807
0000000145,0000144000,-46366,095006,085604,078145,095377,080656
0000000146,0000145000,-67067,087924,088382,075885,094401,083891
0000000147,0000146000,-80509,072581,091261,074488,092495,087195
0000000148,0000147000,-85436,050425,093969,074090,089840,090247
0000000149,0000148000,-81319,023582,096242,074729,086698,092749
0000000150,0000149000,-68603,-05186,097847,076341,083383,094453
0000000151,0000150000,-48521,-33107,098631,078772,080212,095193
0000000152,0000151000,-22952,-57580,098521,081784,077495,094898
0000000153,0000152000,005493,-76095,097528,085077,075503,093598
0000000154,0000153000,033986,-86777,095747,088331,074429,091417
0000000155,0000154000,059907,-88689,093346,091232,074377,088569
0000000156,0000155000,080663,-81659,090568,093492,075351,085334
0000000157,0000156000,094102,-66315,087689,094887,077258,082032
0000000158,0000157000,098998,-44118,084980,095286,079911,078980
0000000159,0000158000,094924,-17308,082707,094648,083051,076478
0000000160,0000159000,082228,011443,081101,093036,086367,074774
0000000161,0000160000,062103,039416,080316,090607,089537,074034
0000000162,0000161000,036549,063886,080424,087596,092253,074328
0000000163,0000162000,008136,082372,081417,084304,094245,075628
0000000164,0000163000,-20400,093098,083198,081050,095320,077807
0000000165,0000164000,-46336,095031,085599,078151,095372,080655
0000000166,0000165000,-67059,087965,088378,075891,094398,083888
0000000167,0000166000,-80528,072642,091256,074494,092493,087190
0000000168,0000167000,-85460,050479,093966,074096,089840,090241
0000000169,0000168000,-81356,023630,096240,074733,086701,092743
0000000170,0000169000,-68662,-05132,097848,076343,083388,094447
0000000171,0000170000,-48580,-33070,098633,078772,080218,095187
0000000172,0000171000,-23002,-57569,098525,081782,077502,094894
0000000173,0000172000,005437,-76091,097533,085073,075510,093595
0000000174,0000173000,033941,-86790,095753,088325,074435,091417
0000000175,0000174000,059888,-88731,093352,091225,074382,088570
0000000176,0000175000,080655,-81709,090573,093484,075355,085338
0000000177,0000176000,094108,-66368,087694,094881,077259,082038
0000000178,0000177000,099034,-44186,084984,095280,079910,078987
0000000179,0000178000,094974,-17373,082708,094644,083048,076485
0000000180,0000179000,082280,011397,081100,093034,086362,074782
0000000181,0000180000,062169,039376,080313,090607,089530,074040
0000000182,0000181000,036620,063859,080420,087599,092245,074333
0000000183,0000182000,008189,082376,081412,084308,094238,075631
0000000184,0000183000,-20356,093122,083192,081057,095313,077808
0000000185,0000184000,-46301,095064,085592,078158,095366,080653
0000000186,0000185000,-67054,088022,088371,075899,094395,083884
0000000187,0000186000,-80547,072714,091251,074502,092492,087183
0000000188,0000187000,-85489,050545,093962,074102,089842,090233
0000000189,0000188000,-81407,023696,096239,074738,086705,092734
0000000190,0000189000,-68735,-05067,097848,076346,083393,094438
0000000191,0000190000,-48650,-33029,098636,078772,080226,095180
0000000192,0000191000,-23070,-57550,098530,081779,077511,094888
0000000193,0000192000,005366,-76085,097540,085067,075518,093592
0000000194,0000193000,033889,-86811,095760,088318,074443,091416
0000000195,0000194000,059862,-88781,093360,091216,074388,088573
0000000196,0000195000,080643,-81768,090580,093475,075359,085343
0000000197,0000196000,094121,-66438,087700,094872,077261,082044
0000000198,0000197000,099078,-44270,084988,095273,079909,078995
0000000199,0000198000,095032,-17449,082710,094639,083044,076495
0000000200,0000199000,082348,011338,081099,093032,086355,074791
0000000201,0000200000,062254,039324,080310,090607,089521,074048
0000000202,0000201000,036703,063829,080415,087602,092236,074339
0000000203,0000202000,008255,082381,081404,084314,094228,075635
0000000204,0000203000,-20298,093146,083183,081065,095304,077808
0000000205,0000204000,-46261,095108,085584,078168,095359,080650
0000000206,0000205000,-67049,088094,088363,075909,094390,083879
0000000207,0000206000,-80566,072799,091245,074511,092490,087176
0000000208,0000207000,-85527,050627,093958,074110,089843,090224
0000000209,0000208000,-81474,023781,096237,074743,086710,092724
0000000210,0000209000,-68820,-04990,097849,076348,083400,094428
0000000211,0000210000,-48734,-32979,098640,078771,080235,095171
0000000212,0000211000,-23158,-57523,098536,081775,077521,094881
0000000213,0000212000,005282,-76080,097548,085061,075529,093588
0000000214,0000213000,033829,-86841,095769,088309,074453,091415
0000000215,0000214000,059826,-88839,093369,091206,074396,088575
0000000216,0000215000,080628,-81839,090589,093464,075364,085349
0000000217,0000216000,094140,-66528,087707,094862,077263,082053
0000000218,0000217000,099130,-44371,084992,095264,079908,079006
0000000219,0000218000,095100,-17538,082712,094632,083039,076506
0000000220,0000219000,082434,011261,081098,093029,086347,074801
0000000221,0000220000,062357,039261,080306,090608,089511,074058
0000000222,0000221000,036800,063797,080408,087606,092225,074347
0000000223,0000222000,008338,082385,081396,084321,094217,075639
0000000224,0000223000,-20226,093174,083173,081075,095293,077809
0000000225,0000224000,-46216,095165,085573,078179,095351,080648
0000000226,0000225000,-67041,088182,088354,075920,094384,083872
0000000227,0000226000,-80586,072897,091237,074523,092488,087167
0000000228,0000227000,-85575,050728,093952,074120,089845,090213
0000000229,0000228000,-81555,023885,096235,074750,086715,092712
0000000230,0000229000,-68919,-04901,097850,076352,083409,094417
0000000231,0000230000,-48838,-32919,098644,078771,080246,095161
0000000232,0000231000,-23266,-57487,098544,081771,077533,094873
0000000233,0000232000,005183,-76076,097557,085053,075541,093583
0000000234,0000233000,033758,-86878,095780,088299,074464,091415
0000000235,0000234000,059780,-88904,093380,091193,074405,088578
0000000236,0000235000,080612,-81926,090599,093451,075370,085355
0000000237,0000236000,094165,-66637,087715,094850,077265,082063
0000000238,0000237000,099188,-44489,084998,095254,079906,079018
0000000239,0000238000,095182,-17645,082714,094625,083034,076519
0000000240,0000239000,082541,011167,081097,093025,086338,074814
0000000241,0000240000,062478,039187,080301,090608,089500,074069
0000000242,0000241000,036913,063761,080400,087610,092211,074355
0000000243,0000242000,008439,082387,081385,084330,094203,075644
0000000244,0000243000,-20141,093207,083162,081086,095281,077810
0000000245,0000244000,-46166,095235,085561,078192,095341,080644
0000000246,0000245000,-67031,088283,088343,075934,094378,083865
0000000247,0000246000,-80608,073012,091227,074536,092486,087156
0000000248,0000247000,-85634,050850,093946,074131,089847,090200
0000000249,0000248000,-81651,024008,096232,074758,086721,092698
0000000250,0000249000,-69033,-04799,097851,076356,083419,094403
0000000251,0000250000,-48961,-32846,098649,078770,080259,095148
0000000252,0000251000,-23395,-57443,098552,081765,077548,094864
0000000253,0000252000,005070,-76073,097568,085044,075556,093578
0000000254,0000253000,033672,-86920,095793,088286,074477,091414
0000000255,0000254000,059724,-88979,093393,091179,074416,088582
0000000256,0000255000,080594,-82029,090611,093436,075377,085363
0000000257,0000256000,094194,-66767,087725,094836,077267,082075
0000000258,0000257000,099254,-44625,085005,095242,079904,079032
0000000259,0000258000,095278,-17771,082717,094616,083027,076534
0000000260,0000259000,082667,011055,081096,093021,086327,074829
0000000261,0000260000,062617,039102,080296,090609,089486,074083
0000000262,0000261000,037046,063719,080391,087616,092196,074365
0000000263,0000262000,008561,082386,081373,084340,094188,075650
0000000264,0000263000,-20042,093246,083148,081100,095267,077811
0000000265,0000264000,-46108,095318,085547,078208,095330,080640
0000000266,0000265000,-67016,088400,088330,075951,094370,083856
0000000267,0000266000,-80634,073146,091217,074551,092483,087143
0000000268,0000267000,-85705,050996,093939,074143,089849,090184
0000000269,0000268000,-81760,024150,096229,074767,086729,092682
0000000270,0000269000,-69165,-04681,097853,076360,083431,094387
0000000271,0000270000,-49108,-32758,098655,078770,080273,095134
0000000272,0000271000,-23544,-57392,098562,081760,077565,094853
0000000273,0000272000,004940,-76072,097581,085033,075573,093571
0000000274,0000273000,033571,-86968,095807,088272,074493,091413
0000000275,0000274000,059657,-89064,093409,091162,074428,088586
0000000276,0000275000,080576,-82151,090625,093419,075385,085373
0000000277,0000276000,094227,-66916,087737,094819,077270,082088
0000000278,0000277000,099329,-44780,085013,095228,079901,079048
0000000279,0000278000,095391,-17918,082721,094607,083019,076552
0000000280,0000279000,082813,010924,081094,093016,086315,074847
0000000281,0000280000,062775,039005,080290,090610,089470,074098
0000000282,0000281000,037201,063670,080381,087622,092178,074377
0000000283,0000282000,008703,082383,081359,084351,094170,075656
0000000284,0000283000,-19930,093292,083132,081115,095250,077812
0000000285,0000284000,-46041,095413,085531,078225,095317,080635
0000000286,0000285000,-66996,088531,088315,075969,094362,083846
0000000287,0000286000,-80664,073301,091204,074569,092480,087129
0000000288,0000287000,-85787,051164,093930,074158,089852,090167
0000000289,0000288000,-81884,024311,096225,074777,086737,092663
0000000290,0000289000,-69316,-04545,097854,076365,083444,094368
0000000291,0000290000,-49278,-32655,098662,078769,080291,095118
0000000292,0000291000,-23714,-57334,098573,081753,077584,094841
0000000293,0000292000,004791,-76071,097596,085021,075592,093564
0000000294,0000293000,033453,-87020,095825,088255,074510,091412
0000000295,0000294000,059580,-89162,093426,091143,074442,088591
0000000296,0000295000,080555,-82292,090642,093399,075394,085383
0000000297,0000296000,094263,-67086,087750,094801,077273,082103
0000000298,0000297000,099413,-44957,085023,095213,079898,079067
0000000299,0000298000,095521,-18089,082725,094596,083010,076572
0000000300,0000299000,082979,010773,081093,093011,086300,074866
0000000301,0000300000,062955,038895,080283,090611,089452,074115
