DIgSILENT PowerFactory,21000900,2000
6,06A,00D
1,TTPP_200000_100:Secondary Voltage A,,,V,0.10000000,-8360.637695,0.000000,67029,99998,1,1,P
2,TTPP_200000_100:Secondary Voltage B,,,V,0.10000000,-8002.312500,0.000000,62968,99998,1,1,P
3,TTPP_200000_100:Secondary Voltage C,,,V,0.10000000,-8322.833984,0.000000,65539,99998,1,1,P
4,TTCC_500_5:Secondary Current A,,,A,0.0010000000,-87.524994,0.000000,69702,99998,1,1,P
5,TTCC_500_5:Secondary Current B,,,A,0.0010000000,-85.169350,0.000000,70243,99998,1,1,P
6,TTCC_500_5:Secondary Current C,,,A,0.0010000000,-84.717506,0.000000,69336,99998,1,1,P
50
1
1000.000000,1101
30/06/2023,06:08:09.000000
30/06/2023,06:08:09.000000
ASCII
1.000000
0000000001,0000000000,089119,083663,074076,093441,089849,074122
0000000002,0000001000,086570,086097,074190,090426,092565,074421
0000000003,0000002000,083719,087952,075188,087126,094560,075726
0000000004,0000003000,080873,089014,076971,083871,095629,077912
0000000005,0000004000,078289,089196,079372,080966,095679,080766
0000000006,0000005000,076217,088490,082151,078706,094700,084006
0000000007,0000006000,074871,086959,085026,077312,092787,087312
0000000008,0000007000,074398,084729,087732,076917,090128,090367
0000000009,0000008000,074806,082050,090001,077558,086984,092871
0000000010,0000009000,076074,079184,091601,079176,083662,094573
0000000011,0000010000,078093,076385,092380,081613,080488,095311
0000000012,0000011000,080655,073936,092267,084627,077772,095012
0000000013,0000012000,083483,072105,091270,087926,075779,093707
0000000014,0000013000,086337,071034,089485,091185,074705,091521
0000000015,0000014000,088934,070840,087084,094087,074657,088667
0000000016,0000015000,090994,071558,084306,096345,075639,085428
0000000017,0000016000,092329,073099,081430,097743,077547,082121
0000000018,0000017000,092828,075306,078725,098137,080208,079066
0000000019,0000018000,092409,077993,076456,097494,083355,076563
0000000020,0000019000,091127,080875,074856,095877,086675,074860
0000000021,0000020000,089124,083657,074076,093443,089846,074123
0000000022,0000021000,086569,086098,074190,090423,092567,074421
0000000023,0000022000,083718,087954,075187,087126,094559,075727
0000000024,0000023000,080873,089014,076971,083870,095630,077912
0000000025,0000024000,078291,089194,079373,080967,095679,080766
0000000026,0000025000,076214,088493,082150,078705,094701,084006
0000000027,0000026000,074874,086957,085026,077312,092787,087313
0000000028,0000027000,074396,084730,087732,076916,090129,090367
0000000029,0000028000,074805,082051,090001,077558,086984,092870
0000000030,0000029000,076075,079183,091601,079175,083663,094574
0000000031,0000030000,078095,076383,092381,081612,080489,095311
0000000032,0000031000,080650,073941,092267,084627,077772,095013
0000000033,0000032000,083486,072103,091270,087926,075779,093707
0000000034,0000033000,086339,071033,089485,091184,074706,091522
0000000035,0000034000,088931,070842,087085,094085,074658,088668
0000000036,0000035000,090992,071559,084306,096346,075638,085428
0000000037,0000036000,092335,073093,081430,097742,077548,082122
0000000038,0000037000,092825,075308,078725,098136,080209,079067
0000000039,0000038000,092405,077996,076456,097493,083355,076564
0000000040,0000039000,091132,080871,074855,095877,086674,074861
0000000041,0000040000,089126,083656,074076,093441,089848,074123
0000000042,0000041000,086564,086104,074190,090424,092566,074422
0000000043,0000042000,083720,087951,075187,087127,094558,075727
0000000044,0000043000,080878,089010,076970,083869,095630,077912
0000000045,0000044000,078287,089199,079373,080966,095680,080766
0000000046,0000045000,076212,088495,082150,078706,094700,084006
0000000047,0000046000,074879,086952,085026,077312,092788,087312
0000000048,0000047000,074394,084732,087732,076915,090129,090367
0000000049,0000048000,074801,082056,090001,077558,086984,092870
0000000050,0000049000,076078,079179,091601,079176,083663,094573
0000000051,0000050000,078095,076382,092381,081611,080490,095311
0000000052,0000051000,080646,073945,092267,084627,077773,095013
0000000053,0000052000,083486,072101,091270,087925,075779,093707
0000000054,0000053000,086342,071029,089486,091183,074707,091522
0000000055,0000054000,088927,070845,087085,094084,074660,088668
0000000056,0000055000,090992,071559,084307,096345,075638,085429
0000000057,0000056000,092338,073089,081431,097741,077549,082122
0000000058,0000057000,092824,075308,078725,098135,080209,079068
0000000059,0000058000,092404,077998,076456,097493,083354,076565
0000000060,0000059000,091135,080867,074856,095877,086673,074862
0000000061,0000060000,089126,083656,074076,093440,089848,074124
0000000062,0000061000,086563,086106,074189,090424,092566,074422
0000000063,0000062000,083722,087950,075186,087127,094557,075727
0000000064,0000063000,080879,089009,076970,083870,095630,077913
0000000065,0000064000,078285,089202,079372,080966,095679,080766
0000000066,0000065000,076214,088494,082149,078707,094700,084005
0000000067,0000066000,074880,086952,085026,077312,092788,087312
0000000068,0000067000,074391,084735,087731,076916,090130,090366
0000000069,0000068000,074801,082056,090000,077558,086984,092869
0000000070,0000069000,076080,079177,091601,079175,083664,094572
0000000071,0000070000,078092,076385,092381,081610,080492,095310
0000000072,0000071000,080644,073946,092268,084626,077774,095012
0000000073,0000072000,083489,072099,091271,087924,075780,093707
0000000074,0000073000,086340,071030,089487,091181,074709,091522
0000000075,0000074000,088925,070847,087086,094083,074660,088669
0000000076,0000075000,090994,071556,084308,096344,075638,085430
0000000077,0000076000,092339,073088,081432,097739,077550,082124
0000000078,0000077000,092821,075311,078726,098134,080209,079069
0000000079,0000078000,092407,077995,076456,097493,083353,076566
0000000080,0000079000,091138,080864,074855,095876,086673,074863
0000000081,0000080000,089124,083658,074076,093440,089847,074125
0000000082,0000081000,086564,086106,074188,090425,092564,074423
0000000083,0000082000,083726,087946,075185,087128,094556,075728
0000000084,0000083000,080878,089011,076969,083870,095629,077913
0000000085,0000084000,078284,089204,079370,080968,095678,080766
0000000086,0000085000,076217,088493,082148,078709,094699,084005
0000000087,0000086000,074880,086953,085025,077313,092789,087310
0000000088,0000087000,074388,084739,087730,076917,090130,090365
0000000089,0000088000,074802,082056,090000,077560,086985,092868
0000000090,0000089000,076079,079177,091601,079175,083666,094571
0000000091,0000090000,078088,076388,092382,081610,080493,095309
0000000092,0000091000,080643,073947,092269,084626,077775,095011
0000000093,0000092000,083489,072096,091272,087923,075783,093706
0000000094,0000093000,086337,071032,089489,091179,074711,091522
0000000095,0000094000,088923,070847,087087,094081,074661,088669
0000000096,0000095000,090996,071552,084309,096342,075639,085431
0000000097,0000096000,092338,073087,081433,097736,077550,082125
0000000098,0000097000,092821,075310,078727,098132,080209,079071
0000000099,0000098000,092410,077992,076457,097491,083352,076568
0000000100,0000099000,091140,080863,074856,095875,086672,074865
0000000101,0000100000,089124,083659,074075,093440,089845,074127
0000000102,0000101000,086567,086104,074187,090426,092561,074425
0000000103,0000102000,083729,087945,075183,087129,094554,075729
0000000104,0000103000,080878,089014,076967,083872,095627,077913
0000000105,0000104000,078285,089205,079368,080971,095676,080765
0000000106,0000105000,076219,088493,082146,078711,094698,084003
0000000107,0000106000,074878,086957,085023,077315,092788,087309
0000000108,0000107000,074387,084742,087729,076919,090130,090362
0000000109,0000108000,074802,082056,089999,077561,086986,092865
0000000110,0000109000,076076,079180,091602,079176,083668,094568
0000000111,0000110000,078085,076391,092383,081610,080496,095306
0000000112,0000111000,080642,073945,092270,084625,077778,095009
0000000113,0000112000,083487,072096,091274,087921,075786,093705
0000000114,0000113000,086333,071033,089491,091176,074714,091522
0000000115,0000114000,088923,070844,087090,094079,074663,088670
0000000116,0000115000,090997,071549,084312,096338,075641,085432
0000000117,0000116000,092336,073086,081435,097733,077551,082128
0000000118,0000117000,092822,075308,078728,098130,080208,079074
0000000119,0000118000,092413,077987,076457,097489,083351,076572
0000000120,0000119000,091141,080862,074855,095874,086670,074868
0000000121,0000120000,089126,083658,074074,093440,089841,074130
0000000122,0000121000,086572,086101,074185,090427,092558,074427
0000000123,0000122000,083731,087946,075181,087131,094551,075730
0000000124,0000123000,080878,089016,076964,083875,095624,077913
0000000125,0000124000,078288,089205,079365,080974,095673,080764
0000000126,0000125000,076220,088495,082143,078714,094696,084001
0000000127,0000126000,074876,086962,085021,077318,092788,087306
0000000128,0000127000,074386,084744,087727,076922,090130,090359
0000000129,0000128000,074801,082058,089999,077563,086988,092861
0000000130,0000129000,076072,079184,091602,079177,083671,094564
0000000131,0000130000,078081,076393,092384,081610,080499,095303
0000000132,0000131000,080641,073945,092273,084624,077782,095006
0000000133,0000132000,083483,072097,091277,087918,075790,093704
0000000134,0000133000,086330,071033,089495,091173,074717,091521
0000000135,0000134000,088923,070841,087093,094075,074666,088671
0000000136,0000135000,090996,071546,084315,096334,075643,085435
0000000137,0000136000,092336,073084,081438,097729,077552,082131
0000000138,0000137000,092825,075303,078730,098127,080207,079078
0000000139,0000138000,092417,077983,076458,097486,083349,076576
0000000140,0000139000,091143,080860,074855,095872,086667,074873
0000000141,0000140000,089131,083655,074072,093441,089837,074134
0000000142,0000141000,086576,086099,074183,090428,092554,074430
0000000143,0000142000,083733,087947,075178,087133,094546,075732
0000000144,0000143000,080881,089018,076960,083879,095619,077914
0000000145,0000144000,078291,089206,079361,080979,095670,080763
0000000146,0000145000,076220,088499,082140,078719,094694,083999
0000000147,0000146000,074874,086966,085017,077323,092787,087302
0000000148,0000147000,074385,084747,087725,076926,090131,090354
0000000149,0000148000,074798,082062,089998,077565,086990,092856
0000000150,0000149000,076067,079189,091602,079178,083674,094559
0000000151,0000150000,078078,076395,092385,081610,080504,095299
0000000152,0000151000,080637,073946,092276,084622,077787,095003
0000000153,0000152000,083478,072099,091281,087915,075796,093702
0000000154,0000153000,086327,071031,089499,091169,074722,091521
0000000155,0000154000,088922,070837,087098,094069,074670,088672
0000000156,0000155000,090995,071543,084320,096328,075646,085438
0000000157,0000156000,092337,073080,081441,097724,077553,082135
0000000158,0000157000,092829,075296,078733,098122,080207,079083
0000000159,0000158000,092420,077979,076460,097483,083347,076582
0000000160,0000159000,091147,080857,074854,095871,086662,074879
0000000161,0000160000,089137,083651,074070,093441,089832,074139
0000000162,0000161000,086582,086097,074179,090430,092548,074434
0000000163,0000162000,083737,087948,075173,087137,094540,075734
0000000164,0000163000,080885,089018,076954,083884,095613,077914
0000000165,0000164000,078294,089209,079356,080985,095665,080762
0000000166,0000165000,076219,088504,082135,078725,094691,083996
0000000167,0000166000,074873,086972,085013,077330,092785,087297
0000000168,0000167000,074383,084752,087722,076931,090132,090348
0000000169,0000168000,074793,082068,089997,077569,086993,092850
0000000170,0000169000,076061,079194,091603,079180,083679,094553
0000000171,0000170000,078073,076397,092388,081610,080510,095293
0000000172,0000171000,080630,073948,092280,084619,077794,094999
0000000173,0000172000,083472,072100,091287,087910,075802,093699
0000000174,0000173000,086324,071028,089505,091163,074728,091521
0000000175,0000174000,088920,070833,087104,094062,074676,088674
0000000176,0000175000,090993,071540,084325,096321,075650,085441
0000000177,0000176000,092338,073074,081446,097717,077554,082141
0000000178,0000177000,092833,075289,078736,098116,080206,079090
0000000179,0000178000,092423,077974,076461,097479,083344,076589
0000000180,0000179000,091153,080851,074854,095869,086657,074886
0000000181,0000180000,089144,083646,074067,093441,089825,074146
0000000182,0000181000,086587,086095,074175,090432,092540,074439
0000000183,0000182000,083742,087949,075167,087142,094532,075737
0000000184,0000183000,080891,089020,076948,083891,095606,077915
0000000185,0000184000,078296,089213,079349,080992,095660,080760
0000000186,0000185000,076219,088511,082128,078733,094687,083991
0000000187,0000186000,074872,086978,085008,077337,092784,087291
0000000188,0000187000,074380,084759,087719,076938,090133,090341
0000000189,0000188000,074786,082076,089995,077574,086997,092841
0000000190,0000189000,076055,079200,091603,079183,083685,094545
0000000191,0000190000,078066,076401,092391,081609,080517,095286
0000000192,0000191000,080622,073951,092285,084616,077803,094993
0000000193,0000192000,083465,072100,091293,087905,075811,093696
0000000194,0000193000,086320,071025,089512,091156,074736,091520
0000000195,0000194000,088916,070829,087112,094053,074682,088676
0000000196,0000195000,090992,071534,084332,096312,075654,085446
0000000197,0000196000,092341,073065,081452,097709,077555,082148
0000000198,0000197000,092836,075282,078740,098109,080205,079099
0000000199,0000198000,092429,077967,076463,097473,083340,076599
0000000200,0000199000,091161,080844,074853,095866,086650,074895
0000000201,0000200000,089153,083641,074064,093441,089817,074154
0000000202,0000201000,086595,086093,074170,090435,092531,074445
0000000203,0000202000,083750,087948,075160,087148,094523,075741
0000000204,0000203000,080897,089021,076940,083899,095598,077915
0000000205,0000204000,078299,089218,079340,081001,095653,080758
0000000206,0000205000,076220,088518,082120,078743,094683,083986
0000000207,0000206000,074871,086985,085001,077347,092782,087283
0000000208,0000207000,074375,084768,087714,076946,090135,090331
0000000209,0000208000,074779,082085,089993,077579,087001,092831
0000000210,0000209000,076047,079206,091604,079186,083692,094535
0000000211,0000210000,078057,076406,092394,081609,080526,095277
0000000212,0000211000,080613,073955,092290,084612,077813,094986
0000000213,0000212000,083458,072099,091301,087899,075821,093692
0000000214,0000213000,086314,071022,089522,091147,074746,091519
0000000215,0000214000,088912,070825,087121,094043,074690,088679
0000000216,0000215000,090991,071526,084341,096301,075659,085452
0000000217,0000216000,092343,073056,081459,097698,077557,082156
0000000218,0000217000,092841,075272,078745,098100,080203,079109
0000000219,0000218000,092435,077958,076465,097467,083335,076610
0000000220,0000219000,091170,080836,074852,095863,086643,074906
0000000221,0000220000,089162,083635,074060,093441,089807,074163
0000000222,0000221000,086604,086091,074163,090439,092520,074453
0000000223,0000222000,083759,087948,075151,087155,094511,075745
0000000224,0000223000,080904,089024,076930,083908,095587,077916
0000000225,0000224000,078303,089225,079330,081013,095644,080755
0000000226,0000225000,076221,088526,082111,078755,094677,083980
0000000227,0000226000,074870,086995,084993,077358,092780,087274
0000000228,0000227000,074370,084779,087709,076955,090137,090320
0000000229,0000228000,074772,082095,089991,077586,087006,092819
0000000230,0000229000,076038,079214,091605,079189,083700,094523
0000000231,0000230000,078046,076413,092399,081608,080537,095266
0000000232,0000231000,080602,073959,092298,084608,077825,094978
0000000233,0000232000,083449,072099,091310,087891,075834,093687
0000000234,0000233000,086306,071019,089533,091136,074757,091518
0000000235,0000234000,088906,070819,087132,094031,074699,088682
0000000236,0000235000,090990,071517,084351,096288,075665,085459
0000000237,0000236000,092346,073045,081468,097686,077560,082166
0000000238,0000237000,092846,075262,078751,098089,080201,079121
0000000239,0000238000,092444,077947,076467,097460,083329,076623
0000000240,0000239000,091181,080826,074851,095859,086633,074919
0000000241,0000240000,089173,083629,074056,093442,089795,074175
0000000242,0000241000,086616,086087,074155,090444,092506,074461
0000000243,0000242000,083770,087947,075141,087164,094498,075750
0000000244,0000243000,080912,089028,076918,083920,095575,077917
0000000245,0000244000,078308,089232,079318,081026,095634,080751
0000000246,0000245000,076223,088535,082100,078769,094670,083972
0000000247,0000246000,074867,087006,084984,077371,092778,087263
0000000248,0000247000,074363,084792,087703,076966,090139,090307
0000000249,0000248000,074763,082107,089988,077594,087013,092805
0000000250,0000249000,076027,079225,091607,079193,083710,094509
0000000251,0000250000,078033,076421,092404,081608,080550,095254
0000000252,0000251000,080590,073963,092306,084603,077840,094969
0000000253,0000252000,083438,072099,091321,087882,075848,093682
0000000254,0000253000,086297,071015,089545,091124,074771,091517
0000000255,0000254000,088901,070811,087145,094016,074710,088685
0000000256,0000255000,090989,071506,084363,096273,075672,085467
0000000257,0000256000,092348,073032,081478,097672,077562,082178
0000000258,0000257000,092852,075248,078758,098078,080199,079135
0000000259,0000258000,092455,077933,076470,097452,083322,076638
0000000260,0000259000,091194,080815,074849,095855,086623,074934
0000000261,0000260000,089187,083621,074050,093443,089781,074188
0000000262,0000261000,086629,086082,074146,090450,092491,074471
0000000263,0000262000,083782,087947,075129,087173,094482,075756
0000000264,0000263000,080921,089033,076904,083933,095561,077918
0000000265,0000264000,078314,089240,079304,081042,095623,080747
0000000266,0000265000,076225,088546,082087,078785,094663,083964
0000000267,0000266000,074864,087020,084974,077386,092775,087251
0000000268,0000267000,074356,084806,087695,076979,090141,090292
0000000269,0000268000,074753,082120,089985,077603,087020,092788
0000000270,0000269000,076013,079237,091608,079197,083722,094493
0000000271,0000270000,078018,076431,092410,081607,080565,095240
0000000272,0000271000,080575,073967,092316,084597,077856,094958
0000000273,0000272000,083425,072099,091334,087871,075865,093676
0000000274,0000273000,086286,071011,089560,091109,074786,091516
0000000275,0000274000,088895,070802,087161,094000,074722,088690
0000000276,0000275000,090987,071493,084377,096256,075680,085476
0000000277,0000276000,092351,073018,081489,097655,077565,082191
0000000278,0000277000,092860,075233,078766,098064,080196,079152
0000000279,0000278000,092466,077918,076474,097442,083314,076656
0000000280,0000279000,091208,080802,074848,095850,086610,074951
0000000281,0000280000,089202,083611,074044,093444,089765,074203
0000000282,0000281000,086646,086077,074135,090456,092473,074483
0000000283,0000282000,083796,087947,075115,087185,094464,075763
0000000284,0000283000,080932,089038,076888,083948,095544,077919
0000000285,0000284000,078321,089249,079288,081059,095610,080743
0000000286,0000285000,076227,088559,082071,078804,094655,083954
0000000287,0000286000,074860,087036,084961,077403,092772,087236
0000000288,0000287000,074348,084823,087686,076994,090144,090274
0000000289,0000288000,074741,082136,089981,077614,087029,092769
0000000290,0000289000,075997,079251,091610,079202,083735,094474
0000000291,0000290000,078001,076441,092416,081606,080582,095224
0000000292,0000291000,080559,073972,092327,084590,077875,094946
0000000293,0000292000,083409,072099,091349,087859,075884,093669
0000000294,0000293000,086274,071006,089577,091093,074803,091515
0000000295,0000294000,088888,070792,087178,093981,074736,088695
0000000296,0000295000,090985,071479,084394,096236,075689,085487
0000000297,0000296000,092354,073001,081503,097637,077568,082207
0000000298,0000297000,092868,075215,078775,098048,080193,079170
0000000299,0000298000,092480,077901,076478,097431,083305,076676
0000000300,0000299000,091224,080788,074846,095845,086596,074971
0000000301,0000300000,089221,083600,074037,093445,089747,074220
