DIgSILENT PowerFactory,21000900,2000
6,06A,00D
1,TTPP_200000_100:Secondary Voltage A,,,V,0.10000000,-8550.081055,0.000000,72829,99998,1,1,P
2,TTPP_200000_100:Secondary Voltage B,,,V,0.10000000,-8596.282227,0.000000,74085,99998,1,1,P
3,TTPP_200000_100:Secondary Voltage C,,,V,0.10000000,-8538.182617,0.000000,68374,99998,1,1,P
4,TTCC_300_1:Secondary Current A,,,A,0.00010000000,-5.309579,0.000000,-15037,99998,1,1,P
5,TTCC_300_1:Secondary Current B,,,A,0.00010000000,-4.866914,0.000000,-2904,99998,1,1,P
6,TTCC_300_1:Secondary Current C,,,A,0.00010000000,-4.973689,0.000000,-638,99998,1,1,P
50
1
1000.000000,1101
30/06/2023,06:08:59.000000
30/06/2023,06:08:59.000000
ASCII
1.000000
0000000001,0000000000,092607,087438,076800,032166,034680,084656
0000000002,0000001000,090473,090155,076216,041918,025402,084183
0000000003,0000002000,087832,092487,076527,052758,018403,080340
0000000004,0000003000,084976,094164,077704,063637,014361,073505
0000000005,0000004000,082183,095026,079637,073480,013685,064336
0000000006,0000005000,079695,095018,082134,081328,016438,053736
0000000007,0000006000,077773,094132,084940,086414,022332,042755
0000000008,0000007000,076630,092423,087793,088237,030808,032457
0000000009,0000008000,076344,090085,090415,086613,041049,023841
0000000010,0000009000,076941,087363,092541,081715,052023,017763
0000000011,0000010000,078390,084493,093963,074022,062657,014823
0000000012,0000011000,080543,081754,094548,064263,071943,015295
0000000013,0000012000,083165,079446,094236,053414,078950,019138
0000000014,0000013000,086016,077771,093059,042548,082980,025974
0000000015,0000014000,088830,076888,091127,032705,083655,035143
0000000016,0000015000,091309,076906,088630,024846,080915,045741
0000000017,0000016000,093216,077806,085822,019767,075011,056723
0000000018,0000017000,094379,079496,082971,017949,066532,067021
0000000019,0000018000,094663,081833,080349,019564,056300,075637
0000000020,0000019000,094051,084573,078222,024463,045324,081714
0000000021,0000020000,092613,087432,076800,032165,034681,084656
0000000022,0000021000,090467,090162,076216,041916,025404,084182
0000000023,0000022000,087830,092488,076528,052766,018397,080340
0000000024,0000023000,084984,094158,077704,063637,014361,073504
0000000025,0000024000,082181,095028,079637,073477,013688,064336
0000000026,0000025000,079688,095024,082134,081332,016434,053736
0000000027,0000026000,077780,094125,084941,086420,022328,042755
0000000028,0000027000,076632,092421,087793,088234,030811,032457
0000000029,0000028000,076337,090093,090416,086614,041047,023841
0000000030,0000029000,076942,087362,092541,081722,052017,017763
0000000031,0000030000,078396,084486,093963,074022,062658,014822
0000000032,0000031000,080538,081759,094548,064262,071944,015295
0000000033,0000032000,083161,079448,094236,053419,078946,019137
0000000034,0000033000,086021,077765,093059,042552,082977,025973
0000000035,0000034000,088829,076889,091127,032703,083658,035141
0000000036,0000035000,091305,076910,088630,024850,080912,045740
0000000037,0000036000,093220,077803,085823,019771,075009,056721
0000000038,0000037000,094380,079494,082971,017949,066533,067019
0000000039,0000038000,094660,081837,080348,019565,056301,075635
0000000040,0000039000,094052,084572,078222,024467,045322,081713
0000000041,0000040000,092616,087430,076800,032165,034682,084654
0000000042,0000041000,090465,090165,076216,041916,025405,084181
0000000043,0000042000,087830,092488,076527,052767,018396,080339
0000000044,0000043000,084986,094155,077704,063637,014361,073504
0000000045,0000044000,082179,095030,079637,073476,013689,064336
0000000046,0000045000,079687,095025,082133,081333,016432,053737
0000000047,0000046000,077782,094124,084940,086419,022327,042756
0000000048,0000047000,076630,092422,087793,088234,030810,032458
0000000049,0000048000,076336,090094,090415,086616,041045,023842
0000000050,0000049000,076945,087360,092541,081723,052015,017764
0000000051,0000050000,078394,084487,093964,074022,062657,014823
0000000052,0000051000,080535,081762,094548,064265,071940,015296
0000000053,0000052000,083164,079445,094236,053422,078942,019137
0000000054,0000053000,086022,077764,093060,042553,082976,025973
0000000055,0000054000,088825,076892,091128,032707,083655,035140
0000000056,0000055000,091307,076908,088630,024855,080909,045738
0000000057,0000056000,093223,077799,085823,019773,075010,056719
0000000058,0000057000,094377,079497,082971,017951,066534,067017
0000000059,0000058000,094660,081838,080348,019570,056299,075632
0000000060,0000059000,094057,084567,078222,024468,045323,081710
0000000061,0000060000,092614,087431,076800,032164,034686,084652
0000000062,0000061000,090462,090168,076215,041918,025406,084179
0000000063,0000062000,087834,092484,076527,052767,018397,080338
0000000064,0000063000,084987,094155,077703,063633,014365,073503
0000000065,0000064000,082175,095034,079636,073475,013690,064336
0000000066,0000065000,079689,095024,082133,081332,016431,053738
0000000067,0000066000,077784,094121,084940,086415,022329,042758
0000000068,0000067000,076626,092426,087793,088231,030810,032461
0000000069,0000068000,076335,090095,090415,086617,041040,023845
0000000070,0000069000,076948,087357,092541,081722,052012,017767
0000000071,0000070000,078392,084489,093964,074021,062655,014825
0000000072,0000071000,080533,081764,094549,064269,071935,015298
0000000073,0000072000,083166,079442,094237,053426,078937,019138
0000000074,0000073000,086021,077764,093061,042555,082974,025973
0000000075,0000074000,088822,076895,091128,032712,083652,035138
0000000076,0000075000,091308,076906,088631,024861,080905,045736
0000000077,0000076000,093224,077797,085824,019776,075010,056716
0000000078,0000077000,094375,079499,082972,017955,066534,067012
0000000079,0000078000,094661,081836,080348,019574,056300,075628
0000000080,0000079000,094059,084564,078222,024469,045327,081705
0000000081,0000080000,092613,087432,076800,032164,034691,084647
0000000082,0000081000,090463,090168,076215,041918,025409,084175
0000000083,0000082000,087837,092482,076526,052764,018402,080336
0000000084,0000083000,084986,094156,077703,063629,014371,073502
0000000085,0000084000,082174,095036,079635,073471,013693,064337
0000000086,0000085000,079692,095022,082132,081328,016433,053741
0000000087,0000086000,077784,094123,084939,086409,022331,042762
0000000088,0000087000,076624,092429,087792,088228,030809,032466
0000000089,0000088000,076336,090095,090415,086615,041037,023851
0000000090,0000089000,076947,087357,092542,081720,052009,017773
0000000091,0000090000,078389,084492,093965,074022,062649,014830
0000000092,0000091000,080533,081764,094549,064273,071927,015302
0000000093,0000092000,083167,079441,094238,053430,078931,019141
0000000094,0000093000,086018,077766,093062,042561,082968,025973
0000000095,0000094000,088822,076894,091129,032721,083645,035136
0000000096,0000095000,091310,076903,088632,024868,080902,045732
0000000097,0000096000,093223,077797,085825,019782,075009,056710
0000000098,0000097000,094374,079499,082972,017963,066534,067005
0000000099,0000098000,094664,081833,080349,019580,056302,075620
0000000100,0000099000,094060,084563,078222,024471,045334,081698
0000000101,0000100000,092612,087434,076799,032165,034697,084640
0000000102,0000101000,090466,090166,076214,041917,025416,084170
0000000103,0000102000,087840,092481,076525,052758,018411,080332
0000000104,0000103000,084985,094159,077701,063622,014378,073502
0000000105,0000104000,082175,095037,079633,073465,013698,064339
0000000106,0000105000,079694,095022,082130,081319,016438,053745
0000000107,0000106000,077782,094126,084938,086400,022333,042769
0000000108,0000107000,076622,092432,087791,088222,030806,032474
0000000109,0000108000,076337,090094,090414,086610,041032,023860
0000000110,0000109000,076945,087359,092542,081716,052003,017782
0000000111,0000110000,078385,084495,093965,074023,062640,014839
0000000112,0000111000,080532,081763,094550,064277,071916,015308
0000000113,0000112000,083166,079440,094240,053435,078922,019145
0000000114,0000113000,086015,077767,093064,042570,082959,025973
0000000115,0000114000,088822,076892,091131,032732,083636,035134
0000000116,0000115000,091311,076900,088634,024879,080897,045727
0000000117,0000116000,093222,077797,085827,019793,075008,056702
0000000118,0000117000,094375,079497,082973,017973,066534,066995
0000000119,0000118000,094667,081829,080349,019586,056307,075609
0000000120,0000119000,094061,084563,078222,024474,045342,081686
0000000121,0000120000,092614,087434,076798,032165,034706,084630
0000000122,0000121000,090470,090163,076212,041913,025427,084162
0000000123,0000122000,087841,092481,076523,052751,018424,080327
0000000124,0000123000,084985,094161,077699,063613,014389,073500
0000000125,0000124000,082178,095037,079631,073453,013706,064342
0000000126,0000125000,079694,095023,082129,081305,016445,053752
0000000127,0000126000,077779,094130,084937,086389,022335,042778
0000000128,0000127000,076622,092434,087790,088213,030803,032486
0000000129,0000128000,076336,090095,090414,086602,041027,023873
0000000130,0000129000,076941,087362,092542,081713,051994,017795
0000000131,0000130000,078383,084497,093966,074025,062627,014850
0000000132,0000131000,080532,081762,094552,064281,071903,015317
0000000133,0000132000,083162,079441,094242,053443,078909,019150
0000000134,0000133000,086012,077767,093066,042583,082945,025974
0000000135,0000134000,088822,076889,091134,032746,083625,035131
0000000136,0000135000,091311,076898,088637,024893,080891,045719
0000000137,0000136000,093221,077796,085828,019808,075004,056690
0000000138,0000137000,094378,079493,082974,017986,066535,066980
0000000139,0000138000,094670,081826,080350,019594,056314,075593
0000000140,0000139000,094062,084562,078222,024478,045352,081671
0000000141,0000140000,092617,087431,076797,032166,034719,084617
0000000142,0000141000,090474,090161,076210,041908,025443,084152
0000000143,0000142000,087842,092483,076521,052740,018441,080321
0000000144,0000143000,084987,094162,077696,063600,014403,073499
0000000145,0000144000,082180,095037,079628,073437,013718,064346
0000000146,0000145000,079694,095026,082126,081288,016454,053760
0000000147,0000146000,077778,094134,084934,086373,022338,042791
0000000148,0000147000,076622,092436,087788,088199,030801,032502
0000000149,0000148000,076333,090098,090413,086591,041020,023891
0000000150,0000149000,076937,087366,092542,081708,051981,017813
0000000151,0000150000,078380,084498,093967,074026,062610,014866
0000000152,0000151000,080529,081762,094555,064287,071885,015329
0000000153,0000152000,083158,079442,094245,053455,078890,019157
0000000154,0000153000,086010,077766,093069,042599,082927,025976
0000000155,0000154000,088822,076886,091137,032765,083611,035126
0000000156,0000155000,091309,076896,088640,024912,080881,045709
0000000157,0000156000,093221,077793,085831,019827,075000,056675
0000000158,0000157000,094381,079488,082976,018002,066538,066962
0000000159,0000158000,094672,081823,080351,019605,056323,075573
0000000160,0000159000,094065,084560,078221,024485,045366,081651
0000000161,0000160000,092622,087428,076795,032166,034737,084599
0000000162,0000161000,090478,090160,076208,041900,025465,084138
0000000163,0000162000,087845,092484,076517,052728,018462,080312
0000000164,0000163000,084991,094163,077692,063583,014422,073497
0000000165,0000164000,082183,095039,079624,073416,013735,064351
0000000166,0000165000,079693,095031,082122,081266,016464,053772
0000000167,0000166000,077777,094137,084931,086353,022341,042808
0000000168,0000167000,076621,092439,087786,088181,030798,032523
0000000169,0000168000,076329,090103,090413,086578,041011,023914
0000000170,0000169000,076933,087370,092543,081702,051965,017835
0000000171,0000170000,078377,084499,093969,074026,062589,014886
0000000172,0000171000,080524,081764,094558,064295,071862,015345
0000000173,0000172000,083154,079443,094249,053470,078865,019166
0000000174,0000173000,086008,077763,093074,042620,082904,025978
0000000175,0000174000,088820,076883,091142,032788,083594,035121
0000000176,0000175000,091308,076893,088644,024937,080869,045695
0000000177,0000176000,093223,077788,085834,019852,074994,056656
0000000178,0000177000,094384,079483,082979,018022,066541,066938
0000000179,0000178000,094675,081819,080352,019620,056335,075547
0000000180,0000179000,094069,084556,078220,024493,045383,081625
0000000181,0000180000,092628,087424,076793,032165,034761,084576
0000000182,0000181000,090482,090159,076205,041891,025491,084120
0000000183,0000182000,087848,092484,076513,052712,018488,080302
0000000184,0000183000,084995,094164,077687,063561,014446,073495
0000000185,0000184000,082184,095042,079619,073389,013756,064357
0000000186,0000185000,079693,095036,082117,081238,016477,053786
0000000187,0000186000,077777,094142,084927,086326,022346,042830
0000000188,0000187000,076618,092444,087783,088158,030795,032550
0000000189,0000188000,076325,090109,090412,086561,040999,023942
0000000190,0000189000,076928,087374,092543,081694,051944,017864
0000000191,0000190000,078372,084502,093971,074027,062563,014911
0000000192,0000191000,080518,081766,094561,064304,071833,015364
0000000193,0000192000,083149,079443,094254,053489,078835,019178
0000000194,0000193000,086005,077761,093079,042645,082877,025981
0000000195,0000194000,088818,076880,091148,032817,083572,035113
0000000196,0000195000,091307,076889,088649,024969,080854,045679
0000000197,0000196000,093225,077782,085839,019881,074988,056632
0000000198,0000197000,094387,079477,082982,018047,066546,066909
0000000199,0000198000,094679,081814,080353,019639,056348,075515
0000000200,0000199000,094075,084551,078220,024503,045405,081594
0000000201,0000200000,092634,087420,076791,032164,034790,084548
0000000202,0000201000,090487,090158,076200,041880,025524,084098
0000000203,0000202000,087854,092484,076507,052692,018521,080289
0000000204,0000203000,085000,094165,077681,063533,014477,073492
0000000205,0000204000,082186,095046,079613,073356,013780,064365
0000000206,0000205000,079693,095041,082111,081204,016493,053804
0000000207,0000206000,077776,094147,084922,086294,022352,042856
0000000208,0000207000,076615,092450,087780,088130,030791,032582
0000000209,0000208000,076319,090116,090410,086542,040983,023977
0000000210,0000209000,076922,087379,092544,081684,051920,017898
0000000211,0000210000,078366,084506,093974,074028,062532,014942
0000000212,0000211000,080511,081769,094566,064317,071797,015388
0000000213,0000212000,083143,079443,094260,053511,078798,019192
0000000214,0000213000,086001,077758,093086,042675,082844,025983
0000000215,0000214000,088814,076877,091155,032853,083545,035104
0000000216,0000215000,091306,076883,088655,025007,080836,045659
0000000217,0000216000,093227,077774,085844,019917,074982,056603
0000000218,0000217000,094390,079470,082985,018077,066551,066873
0000000219,0000218000,094684,081808,080354,019661,056364,075476
0000000220,0000219000,094083,084544,078219,024514,045432,081556
0000000221,0000220000,092641,087416,076788,032163,034825,084515
0000000222,0000221000,090494,090156,076195,041867,025563,084073
0000000223,0000222000,087861,092484,076500,052668,018560,080274
0000000224,0000223000,085005,094167,077673,063499,014514,073489
0000000225,0000224000,082189,095052,079605,073317,013810,064374
0000000226,0000225000,079694,095047,082104,081163,016513,053826
0000000227,0000226000,077775,094154,084917,086255,022360,042887
0000000228,0000227000,076610,092459,087776,088096,030785,032621
0000000229,0000228000,076313,090123,090408,086518,040964,024020
0000000230,0000229000,076916,087385,092545,081672,051890,017940
0000000231,0000230000,078357,084511,093978,074029,062495,014978
0000000232,0000231000,080502,081772,094571,064332,071754,015416
0000000233,0000232000,083137,079442,094267,053538,078755,019209
0000000234,0000233000,085995,077755,093095,042711,082804,025987
0000000235,0000234000,088810,076872,091163,032896,083513,035094
0000000236,0000235000,091306,076876,088663,025052,080814,045636
0000000237,0000236000,093229,077766,085850,019959,074974,056569
0000000238,0000237000,094394,079462,082990,018113,066557,066831
0000000239,0000238000,094690,081799,080356,019687,056384,075430
0000000240,0000239000,094091,084537,078218,024527,045464,081511
0000000241,0000240000,092650,087412,076784,032161,034866,084475
0000000242,0000241000,090502,090154,076189,041851,025608,084042
0000000243,0000242000,087869,092483,076493,052639,018607,080256
0000000244,0000243000,085010,094171,077664,063459,014557,073486
0000000245,0000244000,082192,095057,079596,073271,013844,064386
0000000246,0000245000,079696,095054,082096,081115,016535,053851
0000000247,0000246000,077773,094163,084910,086208,022369,042925
0000000248,0000247000,076605,092469,087772,088058,030778,032666
0000000249,0000248000,076307,090132,090406,086491,040943,024069
0000000250,0000249000,076907,087392,092546,081658,051856,017988
0000000251,0000250000,078347,084517,093982,074030,062450,015021
0000000252,0000251000,080493,081775,094578,064349,071704,015448
0000000253,0000252000,083129,079442,094275,053569,078705,019228
0000000254,0000253000,085988,077753,093104,042754,082758,025990
0000000255,0000254000,088806,076866,091173,032946,083475,035081
0000000256,0000255000,091306,076867,088672,025104,080790,045608
0000000257,0000256000,093231,077756,085858,020008,074965,056528
0000000258,0000257000,094398,079452,082995,018155,066565,066782
0000000259,0000258000,094698,081789,080358,019717,056407,075377
0000000260,0000259000,094101,084528,078217,024541,045502,081459
0000000261,0000260000,092660,087406,076780,032159,034914,084429
0000000262,0000261000,090513,090150,076182,041833,025662,084007
0000000263,0000262000,087878,092483,076484,052605,018661,080236
0000000264,0000263000,085017,094174,077654,063413,014606,073482
0000000265,0000264000,082197,095063,079585,073218,013884,064400
0000000266,0000265000,079697,095062,082086,081059,016562,053881
0000000267,0000266000,077770,094174,084902,086155,022379,042968
0000000268,0000267000,076599,092480,087766,088013,030770,032719
0000000269,0000268000,076299,090142,090404,086459,040917,024126
0000000270,0000269000,076897,087401,092548,081642,051816,018044
0000000271,0000270000,078336,084524,093986,074033,062399,015070
0000000272,0000271000,080482,081778,094585,064370,071646,015486
0000000273,0000272000,083119,079442,094285,053605,078646,019250
0000000274,0000273000,085980,077750,093116,042803,082705,025994
0000000275,0000274000,088801,076860,091184,033004,083432,035067
0000000276,0000275000,091305,076858,088683,025164,080762,045576
0000000277,0000276000,093233,077746,085867,020065,074955,056482
0000000278,0000277000,094404,079441,083001,018203,066573,066725
0000000279,0000278000,094708,081777,080361,019751,056435,075316
0000000280,0000279000,094111,084519,078216,024558,045545,081399
0000000281,0000280000,092671,087399,076775,032157,034969,084377
0000000282,0000281000,090525,090146,076174,041811,025724,083967
0000000283,0000282000,087889,092483,076473,052566,018724,080212
0000000284,0000283000,085025,094178,077642,063361,014663,073478
0000000285,0000284000,082202,095070,079573,073156,013930,064415
0000000286,0000285000,079699,095072,082075,080994,016592,053915
0000000287,0000286000,077767,094186,084892,086095,022390,043018
0000000288,0000287000,076593,092492,087759,087962,030760,032780
0000000289,0000288000,076290,090154,090401,086422,040888,024192
0000000290,0000289000,076885,087412,092549,081624,051770,018108
0000000291,0000290000,078323,084532,093991,074036,062339,015126
0000000292,0000291000,080470,081782,094594,064393,071580,015529
0000000293,0000292000,083107,079442,094296,053647,078580,019275
0000000294,0000293000,085971,077746,093128,042860,082644,025998
0000000295,0000294000,088796,076852,091197,033070,083383,035050
0000000296,0000295000,091303,076847,088695,025233,080730,045540
0000000297,0000296000,093236,077733,085877,020130,074943,056428
0000000298,0000297000,094411,079427,083008,018257,066583,066661
0000000299,0000298000,094718,081764,080364,019790,056466,075246
0000000300,0000299000,094123,084508,078214,024577,045594,081331
0000000301,0000300000,092685,087390,076770,032154,035031,084317
