DIgSILENT PowerFactory,21000900,2000
6,06A,00D
1,TTPP_200000_100:Secondary Voltage A,,,V,0.10000000,-8596.941406,0.000000,73360,99998,1,1,P
2,TTPP_200000_100:Secondary Voltage B,,,V,0.10000000,-8589.004883,0.000000,73751,99998,1,1,P
3,TTPP_200000_100:Secondary Voltage C,,,V,0.10000000,-8595.497070,0.000000,69671,99998,1,1,P
4,TTCC_300_1:Secondary Current A,,,A,0.00010000000,-5.272966,0.000000,-16011,99998,1,1,P
5,TTCC_300_1:Secondary Current B,,,A,0.00010000000,-4.873642,0.000000,-2778,99998,1,1,P
6,TTCC_300_1:Secondary Current C,,,A,0.00010000000,-4.965126,0.000000,-807,99998,1,1,P
50
1
1000.000000,1101
30/06/2023,06:12:20.000000
30/06/2023,06:12:20.000000
ASCII
1.000000
0000000001,0000000000,093076,087365,077374,031800,034747,084571
0000000002,0000001000,090942,090082,076789,041553,025469,084097
0000000003,0000002000,088300,092414,077100,052392,018471,080254
0000000004,0000003000,085445,094091,078277,063271,014428,073419
0000000005,0000004000,082651,094954,080210,073114,013752,064250
0000000006,0000005000,080163,094945,082707,080962,016506,053650
0000000007,0000006000,078242,094059,085513,086048,022400,042669
0000000008,0000007000,077098,092350,088366,087871,030875,032372
0000000009,0000008000,076812,090013,090988,086247,041116,023755
0000000010,0000009000,077410,087290,093114,081349,052091,017677
0000000011,0000010000,078858,084420,094536,073655,062725,014737
0000000012,0000011000,081011,081682,095121,063896,072010,015210
0000000013,0000012000,083633,079373,094809,053048,079017,019052
0000000014,0000013000,086484,077698,093632,042182,083047,025888
0000000015,0000014000,089298,076816,091700,032338,083722,035057
0000000016,0000015000,091778,076833,089203,024480,080982,045656
0000000017,0000016000,093685,077733,086395,019401,075079,056638
0000000018,0000017000,094847,079424,083544,017583,066599,066935
0000000019,0000018000,095132,081761,080922,019198,056367,075552
0000000020,0000019000,094520,084500,078796,024098,045391,081628
0000000021,0000020000,093082,087359,077373,031799,034748,084570
0000000022,0000021000,090935,090090,076789,041550,025471,084096
0000000023,0000022000,088299,092415,077101,052400,018464,080254
0000000024,0000023000,085452,094085,078277,063271,014428,073418
0000000025,0000024000,082649,094956,080210,073111,013756,064250
0000000026,0000025000,080156,094951,082707,080966,016501,053650
0000000027,0000026000,078248,094053,085514,086054,022395,042669
0000000028,0000027000,077101,092348,088366,087868,030878,032371
0000000029,0000028000,076805,090020,090989,086248,041115,023755
0000000030,0000029000,077411,087289,093114,081356,052084,017677
0000000031,0000030000,078864,084413,094536,073656,062725,014736
0000000032,0000031000,081007,081687,095121,063896,072012,015210
0000000033,0000032000,083630,079375,094809,053053,079013,019052
0000000034,0000033000,086490,077692,093633,042186,083044,025888
0000000035,0000034000,089298,076816,091700,032337,083725,035056
0000000036,0000035000,091773,076837,089203,024484,080979,045655
0000000037,0000036000,093688,077730,086396,019405,075076,056636
0000000038,0000037000,094849,079421,083544,017583,066600,066934
0000000039,0000038000,095129,081764,080922,019199,056368,075550
0000000040,0000039000,094521,084499,078795,024101,045389,081628
0000000041,0000040000,093084,087357,077373,031799,034750,084569
0000000042,0000041000,090933,090092,076789,041550,025472,084095
0000000043,0000042000,088299,092415,077100,052401,018464,080253
0000000044,0000043000,085455,094083,078277,063271,014428,073418
0000000045,0000044000,082647,094957,080210,073110,013757,064250
0000000046,0000045000,080156,094952,082706,080967,016500,053651
0000000047,0000046000,078250,094051,085514,086053,022395,042670
0000000048,0000047000,077099,092350,088366,087868,030878,032372
0000000049,0000048000,076804,090022,090988,086250,041112,023756
0000000050,0000049000,077413,087287,093114,081357,052082,017679
0000000051,0000050000,078863,084414,094537,073655,062725,014737
0000000052,0000051000,081004,081689,095122,063899,072008,015210
0000000053,0000052000,083633,079373,094809,053056,079010,019052
0000000054,0000053000,086490,077691,093633,042187,083044,025887
0000000055,0000054000,089294,076820,091701,032341,083723,035054
0000000056,0000055000,091775,076836,089203,024489,080976,045653
0000000057,0000056000,093692,077727,086396,019406,075077,056634
0000000058,0000057000,094846,079424,083545,017585,066601,066931
0000000059,0000058000,095128,081765,080922,019204,056366,075547
0000000060,0000059000,094525,084494,078795,024102,045391,081625
0000000061,0000060000,093083,087358,077373,031798,034753,084566
0000000062,0000061000,090931,090095,076789,041552,025473,084093
0000000063,0000062000,088303,092412,077100,052401,018464,080252
0000000064,0000063000,085456,094082,078277,063267,014433,073417
0000000065,0000064000,082644,094962,080209,073109,013758,064250
0000000066,0000065000,080158,094951,082706,080967,016498,053652
0000000067,0000066000,078253,094048,085513,086049,022396,042672
0000000068,0000067000,077095,092354,088366,087865,030878,032375
0000000069,0000068000,076803,090023,090988,086251,041108,023759
0000000070,0000069000,077416,087284,093114,081356,052080,017682
0000000071,0000070000,078861,084417,094537,073655,062723,014740
0000000072,0000071000,081001,081692,095122,063903,072002,015212
0000000073,0000072000,083635,079370,094810,053060,079004,019053
0000000074,0000073000,086490,077691,093634,042189,083041,025887
0000000075,0000074000,089291,076822,091701,032346,083719,035053
0000000076,0000075000,091777,076833,089204,024495,080972,045651
0000000077,0000076000,093693,077725,086397,019410,075077,056630
0000000078,0000077000,094844,079426,083545,017589,066602,066926
0000000079,0000078000,095130,081764,080922,019208,056367,075542
0000000080,0000079000,094528,084492,078795,024103,045394,081620
0000000081,0000080000,093082,087360,077373,031798,034758,084562
0000000082,0000081000,090932,090095,076788,041552,025476,084090
0000000083,0000082000,088306,092409,077099,052398,018469,080250
0000000084,0000083000,085455,094084,078276,063263,014438,073417
0000000085,0000084000,082643,094963,080208,073105,013760,064251
0000000086,0000085000,080160,094950,082705,080962,016501,053655
0000000087,0000086000,078252,094050,085513,086043,022398,042676
0000000088,0000087000,077093,092357,088365,087862,030876,032380
0000000089,0000088000,076805,090022,090988,086249,041104,023765
0000000090,0000089000,077416,087284,093115,081354,052076,017688
0000000091,0000090000,078857,084420,094538,073656,062717,014745
0000000092,0000091000,081001,081691,095122,063907,071994,015216
0000000093,0000092000,083636,079368,094811,053063,078999,019055
0000000094,0000093000,086486,077693,093635,042195,083036,025887
0000000095,0000094000,089290,076821,091702,032355,083712,035051
0000000096,0000095000,091779,076830,089205,024502,080969,045647
0000000097,0000096000,093692,077725,086398,019416,075077,056624
0000000098,0000097000,094843,079426,083546,017597,066601,066919
0000000099,0000098000,095133,081760,080922,019214,056369,075534
0000000100,0000099000,094529,084490,078795,024105,045401,081612
0000000101,0000100000,093081,087361,077372,031799,034764,084555
0000000102,0000101000,090935,090093,076787,041551,025483,084084
0000000103,0000102000,088308,092408,077098,052392,018479,080247
0000000104,0000103000,085454,094086,078274,063256,014446,073416
0000000105,0000104000,082644,094964,080207,073099,013765,064253
0000000106,0000105000,080162,094949,082704,080953,016505,053659
0000000107,0000106000,078250,094053,085511,086034,022400,042683
0000000108,0000107000,077091,092359,088364,087856,030873,032388
0000000109,0000108000,076805,090021,090987,086244,041100,023774
0000000110,0000109000,077414,087286,093115,081350,052071,017696
0000000111,0000110000,078854,084422,094538,073657,062707,014753
0000000112,0000111000,081001,081690,095124,063911,071984,015223
0000000113,0000112000,083634,079367,094813,053069,078989,019059
0000000114,0000113000,086483,077694,093637,042204,083026,025888
0000000115,0000114000,089290,076820,091704,032366,083703,035049
0000000116,0000115000,091780,076827,089207,024512,080964,045641
0000000117,0000116000,093690,077724,086400,019426,075075,056616
0000000118,0000117000,094844,079424,083546,017607,066601,066909
0000000119,0000118000,095136,081756,080922,019220,056374,075523
0000000120,0000119000,094530,084490,078795,024108,045409,081601
0000000121,0000120000,093082,087361,077371,031799,034773,084545
0000000122,0000121000,090938,090091,076785,041547,025494,084076
0000000123,0000122000,088310,092408,077096,052385,018491,080242
0000000124,0000123000,085454,094088,078272,063247,014456,073415
0000000125,0000124000,082646,094964,080204,073087,013773,064256
0000000126,0000125000,080163,094950,082702,080939,016512,053666
0000000127,0000126000,078248,094057,085510,086023,022403,042692
0000000128,0000127000,077091,092361,088363,087847,030871,032400
0000000129,0000128000,076805,090022,090987,086236,041095,023787
0000000130,0000129000,077410,087289,093115,081346,052062,017709
0000000131,0000130000,078852,084424,094539,073658,062694,014764
0000000132,0000131000,081000,081689,095125,063915,071970,015232
0000000133,0000132000,083631,079368,094815,053077,078976,019064
0000000134,0000133000,086481,077694,093639,042217,083012,025889
0000000135,0000134000,089291,076816,091707,032380,083692,035045
0000000136,0000135000,091779,076825,089210,024526,080958,045633
0000000137,0000136000,093689,077723,086402,019441,075071,056605
0000000138,0000137000,094847,079420,083548,017620,066602,066895
0000000139,0000138000,095139,081753,080923,019228,056381,075508
0000000140,0000139000,094531,084489,078795,024112,045420,081585
0000000141,0000140000,093086,087359,077370,031800,034786,084531
0000000142,0000141000,090942,090088,076783,041542,025510,084066
0000000143,0000142000,088311,092410,077094,052375,018508,080235
0000000144,0000143000,085456,094090,078269,063234,014470,073413
0000000145,0000144000,082649,094964,080201,073071,013786,064260
0000000146,0000145000,080162,094953,082699,080922,016521,053674
0000000147,0000146000,078246,094061,085507,086007,022405,042705
0000000148,0000147000,077090,092363,088361,087833,030868,032417
0000000149,0000148000,076802,090025,090987,086225,041088,023805
0000000150,0000149000,077405,087293,093116,081342,052049,017727
0000000151,0000150000,078849,084425,094540,073660,062677,014780
0000000152,0000151000,080997,081690,095128,063921,071952,015244
0000000153,0000152000,083627,079370,094818,053088,078957,019072
0000000154,0000153000,086479,077693,093643,042233,082994,025891
0000000155,0000154000,089291,076813,091710,032398,083679,035041
0000000156,0000155000,091778,076823,089213,024546,080949,045623
0000000157,0000156000,093690,077720,086404,019461,075067,056589
0000000158,0000157000,094850,079416,083550,017636,066605,066876
0000000159,0000158000,095141,081750,080924,019239,056390,075487
0000000160,0000159000,094533,084487,078794,024119,045433,081565
0000000161,0000160000,093091,087355,077368,031800,034804,084513
0000000162,0000161000,090946,090087,076781,041534,025532,084052
0000000163,0000162000,088313,092411,077090,052362,018529,080227
0000000164,0000163000,085459,094090,078265,063217,014489,073411
0000000165,0000164000,082651,094966,080197,073050,013802,064265
0000000166,0000165000,080162,094958,082695,080900,016532,053686
0000000167,0000166000,078246,094065,085504,085987,022409,042722
0000000168,0000167000,077089,092366,088359,087815,030866,032438
0000000169,0000168000,076798,090030,090986,086211,041078,023828
0000000170,0000169000,077401,087297,093116,081336,052032,017750
0000000171,0000170000,078846,084426,094542,073660,062656,014800
0000000172,0000171000,080993,081691,095131,063928,071929,015259
0000000173,0000172000,083622,079370,094822,053103,078933,019081
0000000174,0000173000,086477,077690,093647,042254,082971,025893
0000000175,0000174000,089289,076810,091715,032422,083661,035035
0000000176,0000175000,091777,076820,089217,024571,080936,045610
0000000177,0000176000,093692,077715,086407,019485,075062,056570
0000000178,0000177000,094853,079410,083552,017656,066608,066853
0000000179,0000178000,095143,081746,080925,019254,056402,075461
0000000180,0000179000,094538,084483,078794,024127,045450,081540
0000000181,0000180000,093096,087352,077366,031799,034828,084490
0000000182,0000181000,090950,090086,076778,041525,025558,084034
0000000183,0000182000,088317,092412,077086,052346,018555,080216
0000000184,0000183000,085463,094091,078260,063195,014514,073409
0000000185,0000184000,082653,094969,080192,073023,013823,064271
0000000186,0000185000,080161,094963,082690,080872,016545,053700
0000000187,0000186000,078245,094069,085500,085960,022413,042744
0000000188,0000187000,077087,092371,088357,087791,030862,032464
0000000189,0000188000,076793,090036,090985,086195,041066,023857
0000000190,0000189000,077397,087301,093117,081328,052012,017778
0000000191,0000190000,078841,084429,094545,073661,062631,014826
0000000192,0000191000,080987,081694,095135,063938,071900,015279
0000000193,0000192000,083617,079370,094827,053122,078902,019092
0000000194,0000193000,086474,077688,093653,042279,082944,025895
0000000195,0000194000,089286,076807,091721,032451,083639,035028
0000000196,0000195000,091776,076816,089222,024603,080921,045594
0000000197,0000196000,093694,077709,086412,019515,075056,056546
0000000198,0000197000,094855,079404,083555,017681,066613,066823
0000000199,0000198000,095147,081741,080926,019272,056415,075429
0000000200,0000199000,094544,084478,078793,024137,045472,081508
0000000201,0000200000,093103,087348,077364,031798,034857,084463
0000000202,0000201000,090955,090085,076774,041514,025591,084013
0000000203,0000202000,088323,092412,077080,052326,018588,080203
0000000204,0000203000,085468,094092,078254,063167,014544,073406
0000000205,0000204000,082655,094974,080186,072990,013848,064279
0000000206,0000205000,080162,094968,082685,080838,016561,053718
0000000207,0000206000,078245,094074,085495,085928,022420,042770
0000000208,0000207000,077083,092378,088353,087763,030858,032496
0000000209,0000208000,076788,090043,090983,086175,041051,023892
0000000210,0000209000,077391,087306,093117,081318,051987,017813
0000000211,0000210000,078834,084433,094547,073661,062600,014856
0000000212,0000211000,080979,081696,095139,063950,071864,015302
0000000213,0000212000,083612,079370,094833,053145,078866,019106
0000000214,0000213000,086470,077685,093660,042309,082911,025898
0000000215,0000214000,089283,076804,091728,032487,083612,035019
0000000216,0000215000,091775,076810,089229,024641,080903,045574
0000000217,0000216000,093696,077701,086417,019551,075049,056518
0000000218,0000217000,094859,079397,083559,017711,066618,066788
0000000219,0000218000,095152,081735,080927,019295,056432,075391
0000000220,0000219000,094551,084471,078792,024148,045499,081470
0000000221,0000220000,093110,087343,077361,031797,034892,084429
0000000222,0000221000,090962,090083,076768,041501,025630,083987
0000000223,0000222000,088330,092411,077074,052302,018627,080188
0000000224,0000223000,085473,094095,078246,063133,014581,073403
0000000225,0000224000,082657,094979,080178,072951,013877,064289
0000000226,0000225000,080163,094974,082677,080797,016580,053740
0000000227,0000226000,078243,094081,085490,085888,022427,042802
0000000228,0000227000,077079,092386,088350,087730,030852,032535
0000000229,0000228000,076782,090051,090982,086152,041032,023934
0000000230,0000229000,077384,087312,093118,081306,051958,017854
0000000231,0000230000,078826,084438,094551,073662,062562,014893
0000000232,0000231000,080971,081699,095144,063965,071822,015330
0000000233,0000232000,083605,079369,094840,053172,078822,019123
0000000234,0000233000,086464,077683,093668,042345,082872,025901
0000000235,0000234000,089279,076799,091736,032530,083580,035008
0000000236,0000235000,091775,076803,089236,024686,080881,045551
0000000237,0000236000,093698,077693,086423,019593,075041,056483
0000000238,0000237000,094862,079389,083563,017747,066625,066746
0000000239,0000238000,095159,081726,080929,019321,056451,075345
0000000240,0000239000,094560,084464,078791,024161,045531,081425
0000000241,0000240000,093118,087339,077357,031795,034933,084390
0000000242,0000241000,090971,090081,076762,041485,025676,083957
0000000243,0000242000,088338,092411,077066,052273,018674,080170
0000000244,0000243000,085479,094098,078238,063093,014624,073400
0000000245,0000244000,082661,094985,080169,072905,013911,064300
0000000246,0000245000,080164,094981,082669,080749,016603,053765
0000000247,0000246000,078241,094090,085483,085842,022436,042839
0000000248,0000247000,077073,092396,088345,087692,030846,032580
0000000249,0000248000,076775,090059,090980,086124,041010,023983
0000000250,0000249000,077376,087319,093119,081292,051923,017902
0000000251,0000250000,078816,084444,094555,073664,062518,014935
0000000252,0000251000,080962,081702,095151,063983,071771,015363
0000000253,0000252000,083597,079369,094848,053203,078772,019142
0000000254,0000253000,086457,077680,093677,042387,082826,025905
0000000255,0000254000,089275,076794,091746,032580,083542,034996
0000000256,0000255000,091774,076795,089245,024738,080857,045523
0000000257,0000256000,093700,077684,086431,019642,075032,056443
0000000258,0000257000,094867,079380,083568,017789,066632,066697
0000000259,0000258000,095167,081716,080931,019351,056474,075292
0000000260,0000259000,094569,084455,078790,024175,045569,081373
0000000261,0000260000,093128,087333,077353,031793,034981,084344
0000000262,0000261000,090982,090077,076755,041467,025729,083922
0000000263,0000262000,088347,092410,077057,052239,018729,080150
0000000264,0000263000,085486,094101,078227,063047,014674,073396
0000000265,0000264000,082665,094991,080159,072852,013951,064314
0000000266,0000265000,080166,094990,082659,080693,016629,053795
0000000267,0000266000,078239,094101,085475,085789,022446,042882
0000000268,0000267000,077068,092407,088339,087647,030837,032633
0000000269,0000268000,076768,090069,090977,086092,040985,024041
0000000270,0000269000,077365,087328,093121,081276,051883,017958
0000000271,0000270000,078804,084451,094559,073667,062466,014984
0000000272,0000271000,080951,081705,095158,064003,071713,015400
0000000273,0000272000,083588,079369,094858,053239,078714,019164
0000000274,0000273000,086449,077677,093689,042437,082772,025908
0000000275,0000274000,089270,076787,091757,032637,083499,034981
0000000276,0000275000,091773,076785,089256,024798,080829,045491
0000000277,0000276000,093702,077673,086440,019699,075022,056396
0000000278,0000277000,094873,079368,083574,017837,066640,066640
0000000279,0000278000,095176,081705,080934,019385,056502,075230
0000000280,0000279000,094580,084446,078789,024192,045612,081313
0000000281,0000280000,093140,087326,077348,031791,035036,084291
0000000282,0000281000,090994,090073,076747,041445,025791,083882
0000000283,0000282000,088358,092410,077046,052200,018791,080126
0000000284,0000283000,085494,094106,078215,062995,014730,073392
0000000285,0000284000,082671,094998,080146,072790,013997,064330
0000000286,0000285000,080167,094999,082648,080628,016659,053830
0000000287,0000286000,078236,094113,085466,085728,022457,042932
0000000288,0000287000,077062,092420,088333,087596,030828,032694
0000000289,0000288000,076758,090081,090975,086056,040956,024106
0000000290,0000289000,077353,087339,093122,081258,051837,018022
0000000291,0000290000,078791,084459,094564,073670,062407,015041
0000000292,0000291000,080939,081709,095167,064027,071647,015443
0000000293,0000292000,083576,079369,094870,053281,078647,019189
0000000294,0000293000,086440,077673,093701,042493,082711,025913
0000000295,0000294000,089265,076779,091770,032703,083450,034964
0000000296,0000295000,091771,076774,089268,024866,080797,045454
0000000297,0000296000,093704,077660,086450,019764,075010,056343
0000000298,0000297000,094880,079354,083581,017891,066650,066575
0000000299,0000298000,095186,081692,080937,019423,056533,075161
0000000300,0000299000,094592,084435,078787,024211,045661,081245
0000000301,0000300000,093154,087318,077343,031788,035098,084231
