DIgSILENT PowerFactory,21000900,2000
6,06A,00D
1,TTPP_200000_100:Secondary Voltage A,,,V,0.010000000,-71.469772,0.000000,-85624,99998,1,1,P
2,TTPP_200000_100:Secondary Voltage B,,,V,0.010000000,-26.754139,0.000000,-96520,99998,1,1,P
3,TTPP_200000_100:Secondary Voltage C,,,V,0.10000000,-8960.604492,0.000000,79483,99998,1,1,P
4,TTCC_300_1:Secondary Current A,,,A,0.00010000000,-2.399168,0.000000,-86993,99998,1,1,P
5,TTCC_300_1:Secondary Current B,,,A,0.00010000000,-5.002422,0.000000,-11,99998,1,1,P
6,TTCC_300_1:Secondary Current C,,,A,0.00010000000,-4.884403,0.000000,-2241,99998,1,1,P
50
1
1000.000000,1101
30/06/2023,06:02:57.000000
30/06/2023,06:02:57.000000
ASCII
1.000000
0000000001,0000000000,078210,017427,081025,003062,036035,083763
0000000002,0000001000,056868,044601,080440,012815,026756,083290
0000000003,0000002000,030466,067902,080752,023653,019760,079447
0000000004,0000003000,001891,084698,081928,034534,015715,072612
0000000005,0000004000,-26035,093310,083862,044374,015042,063443
0000000006,0000005000,-50916,093223,086358,052227,017791,052843
0000000007,0000006000,-70117,084356,089165,057307,023690,041862
0000000008,0000007000,-81575,067287,092017,059135,032161,031565
0000000009,0000008000,-84427,043903,094640,057507,042406,022948
0000000010,0000009000,-78439,016670,096765,052614,053375,016870
0000000011,0000010000,-63964,-12029,098187,044914,064016,013930
0000000012,0000011000,-42438,-39401,098773,035161,073295,014403
0000000013,0000012000,-16220,-62493,098460,024308,080307,018245
0000000014,0000013000,012310,-79260,097283,013446,084333,025081
0000000015,0000014000,040431,-88058,095351,003598,085013,034250
0000000016,0000015000,065225,-87894,092854,-04256,082267,044849
0000000017,0000016000,084305,-78892,090047,-09337,076367,055830
0000000018,0000017000,095938,-62003,087195,-11155,067886,066128
0000000019,0000018000,098758,-38604,084573,-09541,057656,074744
0000000020,0000019000,092649,-11226,082447,-04639,046677,080821
0000000021,0000020000,078275,017364,081024,003061,036037,083763
0000000022,0000021000,056815,044666,080440,012812,026759,083289
0000000023,0000022000,030423,067938,080752,023661,019752,079447
0000000024,0000023000,001980,084618,081928,034534,015714,072611
0000000025,0000024000,-26045,093322,083861,044373,015044,063443
0000000026,0000025000,-50989,093291,086358,052227,017790,052843
0000000027,0000026000,-70076,084315,089165,057316,023682,041862
0000000028,0000027000,-81534,067244,092017,059131,032165,031564
0000000029,0000028000,-84483,043968,094640,057509,042404,022948
0000000030,0000029000,-78451,016678,096765,052618,053372,016870
0000000031,0000030000,-63908,-12088,098188,044918,064012,013929
0000000032,0000031000,-42465,-39371,098772,035158,073299,014402
0000000033,0000032000,-16248,-62471,098460,024313,080302,018245
0000000034,0000033000,012337,-79290,097284,013449,084331,025080
0000000035,0000034000,040436,-88069,095351,003600,085013,034248
0000000036,0000035000,065199,-87860,092854,-04254,082267,044847
0000000037,0000036000,084329,-78916,090047,-09334,076365,055829
0000000038,0000037000,095935,-62007,087195,-11154,067887,066126
0000000039,0000038000,098749,-38589,084573,-09539,057656,074742
0000000040,0000039000,092664,-11242,082446,-04637,046677,080820
0000000041,0000040000,078282,017356,081024,003061,036038,083762
0000000042,0000041000,056788,044693,080440,012813,026759,083288
0000000043,0000042000,030449,067918,080751,023662,019752,079446
0000000044,0000043000,001999,084605,081928,034533,015716,072611
0000000045,0000044000,-26084,093357,083861,044373,015044,063443
0000000046,0000045000,-50981,093290,086358,052229,017787,052843
0000000047,0000046000,-70038,084278,089164,057314,023683,041863
0000000048,0000047000,-81567,067277,092017,059129,032166,031565
0000000049,0000048000,-84509,043995,094640,057512,042399,022949
0000000050,0000049000,-78406,016633,096765,052619,053370,016871
0000000051,0000050000,-63914,-12081,098188,044917,064013,013930
0000000052,0000051000,-42516,-39325,098773,035161,073296,014403
0000000053,0000052000,-16221,-62500,098461,024319,080297,018244
0000000054,0000053000,012363,-79320,097284,013449,084332,025080
0000000055,0000054000,040390,-88027,095352,003602,085011,034247
0000000056,0000055000,065197,-87862,092855,-04249,082263,044846
0000000057,0000056000,084372,-78964,090047,-09331,076364,055827
0000000058,0000057000,095915,-61986,087196,-11153,067889,066124
0000000059,0000058000,098729,-38570,084573,-09535,057654,074740
0000000060,0000059000,092701,-11281,082446,-04635,046678,080817
0000000061,0000060000,078288,017351,081024,003060,036041,083759
0000000062,0000061000,056762,044722,080440,012813,026761,083286
0000000063,0000062000,030474,067898,080751,023663,019752,079445
0000000064,0000063000,002012,084593,081928,034530,015720,072610
0000000065,0000064000,-26105,093386,083860,044370,015046,063443
0000000066,0000065000,-50973,093289,086357,052228,017787,052845
0000000067,0000066000,-70024,084264,089164,057311,023684,041865
0000000068,0000067000,-81591,067304,092017,059127,032165,031568
0000000069,0000068000,-84512,044001,094639,057512,042396,022952
0000000070,0000069000,-78392,016618,096765,052618,053367,016875
0000000071,0000070000,-63940,-12060,098188,044917,064010,013933
0000000072,0000071000,-42529,-39314,098773,035165,073290,014405
0000000073,0000072000,-16200,-62526,098461,024322,080292,018246
0000000074,0000073000,012345,-79312,097285,013451,084329,025080
0000000075,0000074000,040367,-88010,095352,003608,085006,034246
0000000076,0000075000,065223,-87893,092855,-04243,082260,044843
0000000077,0000076000,084377,-78976,090048,-09328,076365,055823
0000000078,0000077000,095888,-61964,087196,-11149,067889,066119
0000000079,0000078000,098751,-38593,084573,-09530,057654,074735
0000000080,0000079000,092730,-11309,082446,-04635,046682,080813
0000000081,0000080000,078267,017374,081024,003060,036046,083755
0000000082,0000081000,056768,044723,080439,012814,026764,083282
0000000083,0000082000,030513,067867,080750,023660,019757,079443
0000000084,0000083000,002003,084611,081927,034524,015726,072609
0000000085,0000084000,-26119,093412,083859,044367,015048,063444
0000000086,0000085000,-50945,093270,086356,052224,017788,052848
0000000087,0000086000,-70024,084272,089164,057305,023686,041869
0000000088,0000087000,-81622,067342,092016,059124,032164,031573
0000000089,0000088000,-84505,043996,094639,057511,042392,022958
0000000090,0000089000,-78388,016612,096766,052616,053364,016880
0000000091,0000090000,-63974,-12030,098189,044918,064004,013938
0000000092,0000091000,-42538,-39311,098773,035169,073282,014409
0000000093,0000092000,-16192,-62546,098462,024326,080286,018248
0000000094,0000093000,012321,-79301,097286,013457,084323,025080
0000000095,0000094000,040355,-88010,095353,003616,085000,034244
0000000096,0000095000,065241,-87924,092856,-04236,082256,044839
0000000097,0000096000,084371,-78981,090049,-09322,076364,055817
0000000098,0000097000,095882,-61963,087197,-11142,067889,066112
0000000099,0000098000,098779,-38624,084573,-09525,057657,074727
0000000100,0000099000,092742,-11321,082446,-04633,046688,080805
0000000101,0000100000,078263,017384,081023,003061,036052,083747
0000000102,0000101000,056797,044706,080438,012813,026771,083277
0000000103,0000102000,030534,067857,080749,023654,019766,079439
0000000104,0000103000,001992,084636,081925,034518,015733,072609
0000000105,0000104000,-26107,093416,083858,044360,015053,063446
0000000106,0000105000,-50926,093264,086355,052215,017793,052852
0000000107,0000106000,-70045,084304,089163,057296,023688,041876
0000000108,0000107000,-81636,067366,092015,059118,032161,031581
0000000109,0000108000,-84495,043990,094639,057506,042388,022967
0000000110,0000109000,-78412,016633,096766,052612,053358,016889
0000000111,0000110000,-64007,-12002,098189,044919,063995,013946
0000000112,0000111000,-42537,-39324,098775,035173,073271,014415
0000000113,0000112000,-16204,-62551,098464,024331,080277,018252
0000000114,0000113000,012288,-79285,097288,013466,084314,025081
0000000115,0000114000,040357,-88029,095355,003628,084991,034241
0000000116,0000115000,065252,-87954,092858,-04226,082252,044834
0000000117,0000116000,084357,-78982,090051,-09311,076363,055809
0000000118,0000117000,095891,-61981,087197,-11131,067889,066102
0000000119,0000118000,098812,-38661,084574,-09518,057662,074716
0000000120,0000119000,092750,-11328,082446,-04630,046697,080793
0000000121,0000120000,078275,017383,081022,003061,036061,083737
0000000122,0000121000,056834,044682,080436,012809,026782,083269
0000000123,0000122000,030549,067859,080747,023647,019779,079434
0000000124,0000123000,001994,084658,081923,034509,015744,072607
0000000125,0000124000,-26085,093417,083855,044349,015061,063449
0000000126,0000125000,-50919,093277,086353,052201,017800,052859
0000000127,0000126000,-70066,084342,089161,057285,023690,041885
0000000128,0000127000,-81641,067384,092014,059108,032159,031593
0000000129,0000128000,-84502,044001,094638,057498,042383,022980
0000000130,0000129000,-78449,016667,096766,052608,053349,016902
0000000131,0000130000,-64032,-11986,098190,044920,063982,013957
0000000132,0000131000,-42547,-39331,098776,035177,073258,014424
0000000133,0000132000,-16236,-62542,098466,024339,080264,018257
0000000134,0000133000,012263,-79284,097290,013479,084300,025082
0000000135,0000134000,040362,-88060,095358,003642,084980,034238
0000000136,0000135000,065247,-87974,092861,-04211,082246,044826
0000000137,0000136000,084349,-78994,090053,-09297,076359,055797
0000000138,0000137000,095917,-62019,087199,-11118,067890,066088
0000000139,0000138000,098838,-38695,084574,-09510,057669,074700
0000000140,0000139000,092760,-11335,082446,-04626,046707,080778
0000000141,0000140000,078309,017362,081021,003062,036074,083724
0000000142,0000141000,056875,044660,080434,012804,026798,083259
0000000143,0000142000,030562,067871,080745,023637,019796,079428
0000000144,0000143000,002011,084672,081920,034496,015758,072606
0000000145,0000144000,-26058,093421,083852,044333,015074,063453
0000000146,0000145000,-50923,093308,086350,052184,017809,052867
0000000147,0000146000,-70082,084383,089158,057269,023693,041898
0000000148,0000147000,-81644,067404,092012,059095,032156,031609
0000000149,0000148000,-84526,044030,094638,057487,042376,022998
0000000150,0000149000,-78491,016706,096767,052604,053337,016920
0000000151,0000150000,-64058,-11974,098191,044922,063965,013973
0000000152,0000151000,-42573,-39329,098779,035183,073240,014437
0000000153,0000152000,-16277,-62531,098469,024350,080245,018264
0000000154,0000153000,012242,-79296,097294,013495,084282,025083
0000000155,0000154000,040358,-88092,095361,003661,084966,034234
0000000156,0000155000,065234,-87995,092864,-04192,082236,044816
0000000157,0000156000,084354,-79024,090055,-09277,076355,055782
0000000158,0000157000,095947,-62068,087201,-11102,067893,066069
0000000159,0000158000,098861,-38726,084575,-09499,057678,074680
0000000160,0000159000,092787,-11356,082445,-04619,046721,080758
0000000161,0000160000,078358,017330,081019,003062,036092,083706
0000000162,0000161000,056914,044646,080432,012796,026819,083245
0000000163,0000162000,030585,067883,080741,023624,019817,079419
0000000164,0000163000,002044,084679,081916,034479,015777,072604
0000000165,0000164000,-26036,093437,083848,044312,015090,063458
0000000166,0000165000,-50930,093352,086346,052162,017819,052879
0000000167,0000166000,-70090,084422,089155,057248,023697,041915
0000000168,0000167000,-81655,067435,092010,059077,032153,031630
0000000169,0000168000,-84566,044077,094637,057473,042366,023021
0000000170,0000169000,-78536,016746,096767,052597,053320,016942
0000000171,0000170000,-64090,-11959,098193,044922,063944,013993
0000000172,0000171000,-42619,-39313,098782,035190,073217,014452
0000000173,0000172000,-16324,-62522,098473,024366,080221,018274
0000000174,0000173000,012221,-79319,097298,013516,084259,025085
0000000175,0000174000,040342,-88123,095366,003684,084949,034228
0000000176,0000175000,065220,-88022,092868,-04167,082224,044803
0000000177,0000176000,084369,-79072,090059,-09252,076349,055763
0000000178,0000177000,095978,-62124,087203,-11082,067896,066045
0000000179,0000178000,098888,-38763,084576,-09484,057690,074654
0000000180,0000179000,092831,-11393,082445,-04611,046738,080732
0000000181,0000180000,078416,017291,081017,003061,036116,083683
0000000182,0000181000,056956,044636,080429,012787,026846,083227
0000000183,0000182000,030623,067890,080737,023608,019843,079409
0000000184,0000183000,002086,084686,081911,034457,015801,072602
0000000185,0000184000,-26016,093468,083843,044285,015111,063464
0000000186,0000185000,-50933,093402,086342,052134,017833,052893
0000000187,0000186000,-70095,084466,089151,057222,023701,041937
0000000188,0000187000,-81679,067484,092008,059054,032150,031657
0000000189,0000188000,-84615,044137,094636,057457,042354,023049
0000000190,0000189000,-78582,016788,096768,052590,053300,016971
0000000191,0000190000,-64138,-11935,098196,044923,063918,014018
0000000192,0000191000,-42681,-39290,098786,035200,073188,014471
0000000193,0000192000,-16374,-62520,098478,024384,080190,018285
0000000194,0000193000,012192,-79346,097304,013541,084232,025088
0000000195,0000194000,040315,-88153,095372,003713,084927,034221
0000000196,0000195000,065209,-88063,092873,-04135,082209,044786
0000000197,0000196000,084390,-79136,090063,-09223,076343,055739
0000000198,0000197000,096008,-62184,087206,-11057,067901,066016
0000000199,0000198000,098925,-38811,084577,-09465,057703,074622
0000000200,0000199000,092892,-11446,082444,-04601,046760,080701
0000000201,0000200000,078481,017251,081015,003060,036145,083655
0000000202,0000201000,057008,044626,080425,012776,026879,083206
0000000203,0000202000,030678,067890,080731,023588,019876,079396
0000000204,0000203000,002134,084700,081905,034429,015832,072599
0000000205,0000204000,-25997,093511,083837,044252,015136,063472
0000000206,0000205000,-50929,093458,086336,052100,017849,052911
0000000207,0000206000,-70102,084521,089146,057190,023708,041963
0000000208,0000207000,-81715,067552,092004,059026,032146,031689
0000000209,0000208000,-84669,044205,094634,057437,042338,023085
0000000210,0000209000,-78637,016835,096768,052580,053275,017005
0000000211,0000210000,-64205,-11897,098199,044923,063887,014049
0000000212,0000211000,-42754,-39262,098790,035212,073152,014495
0000000213,0000212000,-16428,-62525,098484,024407,080154,018299
0000000214,0000213000,012150,-79373,097311,013571,084199,025091
0000000215,0000214000,040280,-88188,095379,003749,084900,034212
0000000216,0000215000,065203,-88120,092880,-04097,082191,044767
0000000217,0000216000,084411,-79210,090068,-09187,076337,055710
0000000218,0000217000,096039,-62251,087210,-11027,067906,065981
0000000219,0000218000,098977,-38877,084579,-09443,057719,074583
0000000220,0000219000,092966,-11511,082443,-04590,046787,080663
0000000221,0000220000,078552,017209,081012,003059,036180,083622
0000000222,0000221000,057076,044608,080420,012763,026918,083180
0000000223,0000222000,030748,067886,080725,023564,019915,079381
0000000224,0000223000,002186,084722,081898,034395,015869,072596
0000000225,0000224000,-25972,093563,083829,044213,015165,063481
0000000226,0000225000,-50919,093518,086329,052059,017868,052933
0000000227,0000226000,-70115,084591,089141,057150,023715,041994
0000000228,0000227000,-81761,067636,092001,058992,032140,031728
0000000229,0000228000,-84729,044282,094633,057414,042320,023127
0000000230,0000229000,-78705,016893,096769,052568,053245,017047
0000000231,0000230000,-64290,-11846,098202,044925,063850,014085
0000000232,0000231000,-42836,-39233,098796,035227,073109,014523
0000000233,0000232000,-16493,-62531,098491,024434,080110,018316
0000000234,0000233000,012093,-79399,097319,013607,084159,025094
0000000235,0000234000,040241,-88232,095387,003792,084868,034201
0000000236,0000235000,065200,-88193,092887,-04052,082169,044743
0000000237,0000236000,084432,-79295,090075,-09145,076329,055676
0000000238,0000237000,096077,-62332,087214,-10991,067912,065938
0000000239,0000238000,099043,-38960,084580,-09417,057739,074538
0000000240,0000239000,093050,-11586,082442,-04577,046819,080618
0000000241,0000240000,078636,017162,081008,003057,036221,083582
0000000242,0000241000,057163,044582,080414,012747,026963,083150
0000000243,0000242000,030831,067882,080717,023535,019962,079363
0000000244,0000243000,002244,084752,081889,034355,015912,072593
0000000245,0000244000,-25938,093620,083820,044167,015199,063493
0000000246,0000245000,-50905,093588,086320,052011,017890,052958
0000000247,0000246000,-70135,084679,089134,057104,023724,042032
0000000248,0000247000,-81812,067735,091996,058954,032133,031773
0000000249,0000248000,-84795,044368,094631,057386,042298,023176
0000000250,0000249000,-78790,016967,096771,052554,053211,017095
0000000251,0000250000,-64390,-11785,098206,044926,063805,014128
0000000252,0000251000,-42930,-39204,098802,035245,073059,014555
0000000253,0000252000,-16574,-62536,098499,024465,080060,018335
0000000254,0000253000,012024,-79426,097329,013649,084113,025097
0000000255,0000254000,040199,-88288,095397,003842,084830,034189
0000000256,0000255000,065194,-88278,092896,-04000,082145,044716
0000000257,0000256000,084451,-79389,090082,-09096,076320,055636
0000000258,0000257000,096124,-62430,087219,-10949,067920,065889
0000000259,0000258000,099123,-39061,084582,-09387,057762,074484
0000000260,0000259000,093144,-11670,082441,-04563,046857,080566
0000000261,0000260000,078735,017105,081004,003055,036269,083536
0000000262,0000261000,057268,044547,080407,012729,027017,083114
0000000263,0000262000,030924,067879,080708,023501,020017,079343
0000000264,0000263000,002311,084789,081878,034309,015961,072589
0000000265,0000264000,-25893,093682,083810,044114,015239,063507
0000000266,0000265000,-50890,093671,086310,051955,017917,052988
0000000267,0000266000,-70161,084785,089126,057051,023734,042075
0000000268,0000267000,-81868,067846,091990,058909,032125,031826
0000000269,0000268000,-84872,044469,094628,057354,042272,023233
0000000270,0000269000,-78893,017057,096772,052538,053171,017151
0000000271,0000270000,-64504,-11715,098210,044929,063754,014177
0000000272,0000271000,-43037,-39171,098809,035265,073001,014593
0000000273,0000272000,-16671,-62537,098509,024501,080002,018357
0000000274,0000273000,011943,-79457,097340,013699,084060,025101
0000000275,0000274000,040153,-88356,095408,003900,084787,034174
0000000276,0000275000,065184,-88374,092907,-03940,082117,044684
0000000277,0000276000,084472,-79497,090091,-09039,076310,055589
0000000278,0000277000,096182,-62547,087225,-10901,067928,065833
0000000279,0000278000,099213,-39177,084585,-09353,057790,074423
0000000280,0000279000,093251,-11765,082440,-04546,046900,080506
0000000281,0000280000,078853,017035,080999,003053,036324,083484
0000000282,0000281000,057390,044505,080399,012707,027079,083074
0000000283,0000282000,031029,067879,080697,023462,020079,079319
0000000284,0000283000,002391,084830,081866,034257,016018,072585
0000000285,0000284000,-25838,093751,083797,044052,015285,063522
0000000286,0000285000,-50875,093770,086299,051890,017947,053022
0000000287,0000286000,-70190,084908,089117,056990,023745,042125
0000000288,0000287000,-81928,067972,091984,058858,032115,031887
0000000289,0000288000,-84963,044587,094626,057318,042243,023299
0000000290,0000289000,-79013,017164,096773,052520,053125,017215
0000000291,0000290000,-64633,-11637,098215,044932,063695,014233
0000000292,0000291000,-43161,-39132,098818,035289,072935,014636
0000000293,0000292000,-16786,-62535,098521,024543,079935,018382
0000000294,0000293000,011852,-79495,097353,013755,083999,025105
0000000295,0000294000,040100,-88435,095422,003965,084738,034157
0000000296,0000295000,065168,-88481,092919,-03872,082085,044647
0000000297,0000296000,084496,-79622,090101,-08974,076298,055536
0000000298,0000297000,096250,-62684,087232,-10847,067938,065768
0000000299,0000298000,099314,-39309,084588,-09314,057821,074353
0000000300,0000299000,093373,-11874,082439,-04527,046949,080438
0000000301,0000300000,078991,016952,080994,003050,036386,083424
