DIgSILENT PowerFactory,21000900,2000
6,06A,00D
1,TTPP_200000_100:Secondary Voltage A,,,V,0.10000000,-8299.109375,0.000000,67155,99998,1,1,P
2,TTPP_200000_100:Secondary Voltage B,,,V,0.10000000,-7935.487793,0.000000,61064,99998,1,1,P
3,TTPP_200000_100:Secondary Voltage C,,,V,0.10000000,-8215.636719,0.000000,62656,99998,1,1,P
4,TTCC_500_5:Secondary Current A,,,A,0.0010000000,-87.793404,0.000000,69964,99998,1,1,P
5,TTCC_500_5:Secondary Current B,,,A,0.0010000000,-85.170052,0.000000,70188,99998,1,1,P
6,TTCC_500_5:Secondary Current C,,,A,0.0010000000,-84.129990,0.000000,68760,99998,1,1,P
50
1
1000.000000,1101
30/06/2023,06:06:13.000000
30/06/2023,06:06:13.000000
ASCII
1.000000
0000000001,0000000000,088503,082995,073004,093709,089850,073535
0000000002,0000001000,085955,085429,073118,090694,092566,073834
0000000003,0000002000,083103,087284,074116,087394,094560,075139
0000000004,0000003000,080258,088345,075899,084139,095630,077325
0000000005,0000004000,077674,088528,078301,081235,095680,080179
0000000006,0000005000,075601,087822,081079,078974,094701,083419
0000000007,0000006000,074256,086291,083954,077580,092788,086725
0000000008,0000007000,073783,084060,086660,077185,090128,089780
0000000009,0000008000,074191,081382,088929,077826,086984,092283
0000000010,0000009000,075458,078516,090530,079444,083663,093986
0000000011,0000010000,077478,075716,091308,081882,080488,094724
0000000012,0000011000,080039,073268,091195,084896,077772,094425
0000000013,0000012000,082868,071437,090198,088194,075780,093120
0000000014,0000013000,085721,070367,088413,091454,074706,090934
0000000015,0000014000,088320,070171,086012,094355,074659,088080
0000000016,0000015000,090378,070890,083234,096614,075639,084840
0000000017,0000016000,091714,072431,080358,098011,077549,081534
0000000018,0000017000,092213,074637,077653,098406,080209,078479
0000000019,0000018000,091793,077325,075384,097762,083356,075976
0000000020,0000019000,090512,080207,073784,096145,086675,074273
0000000021,0000020000,088508,082990,073004,093711,089847,073535
0000000022,0000021000,085954,085430,073118,090692,092568,073834
0000000023,0000022000,083102,087286,074115,087394,094560,075139
0000000024,0000023000,080258,088345,075899,084138,095630,077325
0000000025,0000024000,077675,088527,078301,081235,095680,080179
0000000026,0000025000,075599,087824,081078,078973,094702,083419
0000000027,0000026000,074259,086289,083954,077580,092788,086725
0000000028,0000027000,073781,084061,086660,077184,090129,089780
0000000029,0000028000,074190,081383,088929,077826,086984,092283
0000000030,0000029000,075460,078514,090529,079444,083664,093986
0000000031,0000030000,077479,075715,091309,081881,080489,094724
0000000032,0000031000,080035,073272,091195,084896,077773,094425
0000000033,0000032000,082870,071434,090197,088194,075779,093120
0000000034,0000033000,085724,070364,088413,091452,074707,090934
0000000035,0000034000,088315,070175,086012,094354,074659,088080
0000000036,0000035000,090377,070891,083234,096614,075639,084841
0000000037,0000036000,091720,072425,080358,098010,077549,081534
0000000038,0000037000,092210,074640,077653,098404,080210,078479
0000000039,0000038000,091790,077329,075384,097762,083356,075976
0000000040,0000039000,090517,080202,073783,096146,086675,074273
0000000041,0000040000,088510,082988,073004,093709,089848,073536
0000000042,0000041000,085948,085436,073118,090692,092567,073834
0000000043,0000042000,083104,087283,074115,087395,094559,075139
0000000044,0000043000,080263,088341,075899,084138,095631,077325
0000000045,0000044000,077671,088531,078301,081234,095681,080179
0000000046,0000045000,075597,087827,081078,078974,094701,083418
0000000047,0000046000,074264,086284,083954,077580,092788,086725
0000000048,0000047000,073779,084063,086660,077183,090130,089780
0000000049,0000048000,074186,081388,088929,077826,086984,092283
0000000050,0000049000,075463,078511,090529,079444,083663,093986
0000000051,0000050000,077481,075713,091309,081879,080491,094724
0000000052,0000051000,080030,073277,091195,084895,077774,094425
0000000053,0000052000,082871,071433,090198,088194,075780,093120
0000000054,0000053000,085727,070361,088414,091451,074708,090934
0000000055,0000054000,088312,070177,086013,094353,074660,088080
0000000056,0000055000,090376,070891,083235,096614,075638,084841
0000000057,0000056000,091723,072421,080359,098009,077549,081535
0000000058,0000057000,092209,074640,077653,098403,080210,078480
0000000059,0000058000,091789,077330,075384,097761,083355,075977
0000000060,0000059000,090519,080199,073783,096145,086674,074274
0000000061,0000060000,088510,082988,073004,093709,089848,073536
0000000062,0000061000,085947,085438,073117,090692,092567,073835
0000000063,0000062000,083107,087281,074114,087396,094558,075140
0000000064,0000063000,080263,088341,075898,084138,095631,077325
0000000065,0000064000,077669,088533,078300,081235,095680,080179
0000000066,0000065000,075599,087826,081077,078975,094700,083418
0000000067,0000066000,074265,086284,083954,077580,092789,086724
0000000068,0000067000,073776,084067,086660,077184,090130,089779
0000000069,0000068000,074186,081388,088928,077827,086985,092282
0000000070,0000069000,075464,078509,090529,079444,083665,093985
0000000071,0000070000,077477,075716,091309,081879,080492,094723
0000000072,0000071000,080029,073278,091196,084895,077774,094424
0000000073,0000072000,082874,071430,090199,088193,075781,093119
0000000074,0000073000,085725,070362,088415,091449,074710,090934
0000000075,0000074000,088309,070179,086014,094352,074661,088081
0000000076,0000075000,090379,070887,083236,096613,075639,084842
0000000077,0000076000,091723,072420,080360,098007,077550,081536
0000000078,0000077000,092206,074643,077654,098402,080210,078481
0000000079,0000078000,091791,077327,075384,097761,083354,075978
0000000080,0000079000,090523,080196,073783,096144,086674,074275
0000000081,0000080000,088508,082990,073004,093708,089848,073538
0000000082,0000081000,085948,085438,073116,090693,092565,073836
0000000083,0000082000,083111,087278,074113,087396,094557,075140
0000000084,0000083000,080263,088343,075897,084138,095630,077325
0000000085,0000084000,077668,088536,078298,081236,095679,080178
0000000086,0000085000,075602,087825,081076,078977,094699,083417
0000000087,0000086000,074265,086285,083953,077581,092789,086723
0000000088,0000087000,073773,084071,086659,077185,090131,089777
0000000089,0000088000,074186,081388,088928,077828,086985,092280
0000000090,0000089000,075464,078509,090529,079444,083666,093983
0000000091,0000090000,077473,075720,091310,081878,080494,094721
0000000092,0000091000,080028,073278,091197,084895,077776,094423
0000000093,0000092000,082874,071428,090200,088191,075783,093119
0000000094,0000093000,085722,070363,088417,091447,074712,090934
0000000095,0000094000,088308,070179,086015,094350,074662,088081
0000000096,0000095000,090381,070884,083237,096610,075640,084843
0000000097,0000096000,091723,072419,080361,098005,077551,081537
0000000098,0000097000,092206,074642,077655,098401,080210,078483
0000000099,0000098000,091794,077324,075385,097760,083353,075981
0000000100,0000099000,090524,080195,073783,096143,086673,074278
0000000101,0000100000,088509,082991,073003,093708,089845,073539
0000000102,0000101000,085952,085436,073115,090694,092562,073837
0000000103,0000102000,083114,087277,074112,087397,094555,075141
0000000104,0000103000,080262,088346,075895,084140,095628,077325
0000000105,0000104000,077670,088537,078296,081239,095677,080178
0000000106,0000105000,075604,087824,081074,078979,094698,083416
0000000107,0000106000,074262,086289,083951,077583,092789,086721
0000000108,0000107000,073771,084073,086657,077188,090131,089775
0000000109,0000108000,074187,081388,088927,077829,086986,092278
0000000110,0000109000,075461,078512,090530,079444,083669,093981
0000000111,0000110000,077469,075723,091311,081878,080496,094719
0000000112,0000111000,080027,073277,091198,084894,077778,094421
0000000113,0000112000,082872,071428,090202,088189,075786,093118
0000000114,0000113000,085718,070365,088419,091445,074714,090934
0000000115,0000114000,088308,070176,086018,094347,074664,088082
0000000116,0000115000,090382,070881,083240,096607,075642,084845
0000000117,0000116000,091721,072418,080363,098002,077552,081540
0000000118,0000117000,092207,074639,077656,098398,080209,078486
0000000119,0000118000,091798,077319,075385,097758,083352,075984
0000000120,0000119000,090525,080194,073783,096142,086671,074281
0000000121,0000120000,088511,082990,073002,093709,089842,073542
0000000122,0000121000,085956,085433,073113,090695,092559,073840
0000000123,0000122000,083116,087278,074109,087399,094552,075143
0000000124,0000123000,080263,088348,075892,084143,095624,077326
0000000125,0000124000,077672,088537,078293,081243,095674,080177
0000000126,0000125000,075605,087826,081072,078982,094697,083414
0000000127,0000126000,074260,086293,083949,077587,092788,086718
0000000128,0000127000,073771,084076,086656,077191,090131,089772
0000000129,0000128000,074186,081390,088927,077831,086988,092274
0000000130,0000129000,075457,078516,090530,079445,083671,093977
0000000131,0000130000,077466,075725,091312,081878,080500,094716
0000000132,0000131000,080025,073277,091201,084892,077783,094419
0000000133,0000132000,082868,071429,090205,088186,075791,093116
0000000134,0000133000,085715,070364,088423,091442,074718,090934
0000000135,0000134000,088308,070173,086021,094343,074667,088083
0000000136,0000135000,090381,070878,083243,096602,075644,084847
0000000137,0000136000,091721,072416,080366,097998,077553,081543
0000000138,0000137000,092210,074635,077658,098395,080208,078490
0000000139,0000138000,091801,077315,075386,097755,083350,075988
0000000140,0000139000,090527,080192,073783,096141,086667,074285
0000000141,0000140000,088515,082987,073000,093709,089838,073546
0000000142,0000141000,085961,085430,073111,090696,092554,073843
0000000143,0000142000,083118,087279,074106,087402,094547,075145
0000000144,0000143000,080265,088349,075888,084147,095620,077326
0000000145,0000144000,077676,088538,078289,081247,095670,080176
0000000146,0000145000,075604,087831,081068,078987,094695,083412
0000000147,0000146000,074259,086298,083945,077592,092787,086715
0000000148,0000147000,073770,084079,086653,077195,090132,089767
0000000149,0000148000,074182,081394,088926,077834,086991,092269
0000000150,0000149000,075451,078521,090530,079447,083675,093972
0000000151,0000150000,077463,075727,091313,081878,080504,094711
0000000152,0000151000,080021,073277,091204,084890,077788,094415
0000000153,0000152000,082862,071430,090209,088183,075796,093114
0000000154,0000153000,085712,070363,088427,091437,074723,090933
0000000155,0000154000,088307,070169,086026,094338,074671,088085
0000000156,0000155000,090379,070875,083248,096597,075647,084850
0000000157,0000156000,091721,072412,080369,097992,077553,081548
0000000158,0000157000,092214,074628,077660,098390,080207,078496
0000000159,0000158000,091804,077311,075388,097751,083348,075994
0000000160,0000159000,090531,080189,073782,096139,086663,074291
0000000161,0000160000,088521,082983,072998,093709,089833,073552
0000000162,0000161000,085966,085429,073107,090698,092549,073847
0000000163,0000162000,083121,087280,074101,087405,094541,075147
0000000164,0000163000,080270,088350,075883,084153,095614,077327
0000000165,0000164000,077678,088540,078284,081253,095666,080175
0000000166,0000165000,075604,087836,081063,078993,094692,083408
0000000167,0000166000,074258,086303,083941,077598,092786,086710
0000000168,0000167000,073768,084083,086650,077200,090133,089761
0000000169,0000168000,074177,081400,088925,077837,086994,092262
0000000170,0000169000,075446,078526,090531,079449,083679,093965
0000000171,0000170000,077458,075729,091316,081878,080510,094705
0000000172,0000171000,080015,073280,091208,084888,077795,094411
0000000173,0000172000,082857,071431,090214,088179,075803,093112
0000000174,0000173000,085709,070360,088433,091432,074729,090933
0000000175,0000174000,088305,070165,086032,094330,074677,088086
0000000176,0000175000,090378,070871,083253,096589,075650,084854
0000000177,0000176000,091723,072405,080374,097986,077555,081553
0000000178,0000177000,092217,074621,077664,098384,080207,078503
0000000179,0000178000,091808,077306,075389,097747,083345,076002
0000000180,0000179000,090537,080183,073782,096137,086658,074298
0000000181,0000180000,088529,082978,072995,093709,089826,073558
0000000182,0000181000,085972,085427,073103,090701,092541,073852
0000000183,0000182000,083127,087280,074095,087410,094533,075150
0000000184,0000183000,080275,088351,075876,084159,095607,077327
0000000185,0000184000,077681,088545,078277,081260,095660,080173
0000000186,0000185000,075604,087842,081056,079002,094688,083404
0000000187,0000186000,074257,086309,083936,077606,092784,086703
0000000188,0000187000,073765,084090,086647,077206,090134,089753
0000000189,0000188000,074171,081408,088923,077842,086997,092254
0000000190,0000189000,075440,078531,090531,079451,083685,093957
0000000191,0000190000,077451,075733,091319,081878,080518,094698
0000000192,0000191000,080007,073283,091213,084885,077804,094405
0000000193,0000192000,082850,071431,090221,088174,075811,093108
0000000194,0000193000,085705,070357,088440,091424,074737,090932
0000000195,0000194000,088301,070161,086040,094322,074683,088088
0000000196,0000195000,090376,070866,083260,096581,075654,084858
0000000197,0000196000,091726,072397,080380,097977,077556,081560
0000000198,0000197000,092221,074613,077668,098377,080205,078511
0000000199,0000198000,091813,077299,075391,097742,083341,076011
0000000200,0000199000,090545,080176,073781,096135,086651,074308
0000000201,0000200000,088537,082973,072992,093709,089818,073566
0000000202,0000201000,085979,085425,073098,090704,092532,073858
0000000203,0000202000,083134,087280,074088,087416,094524,075154
0000000204,0000203000,080282,088353,075868,084167,095598,077328
0000000205,0000204000,077684,088550,078269,081270,095653,080170
0000000206,0000205000,075605,087849,081048,079012,094683,083399
0000000207,0000206000,074256,086317,083929,077615,092783,086696
0000000208,0000207000,073760,084099,086643,077214,090135,089744
0000000209,0000208000,074164,081417,088921,077848,087002,092244
0000000210,0000209000,075432,078538,090532,079454,083692,093947
0000000211,0000210000,077442,075738,091322,081877,080527,094689
0000000212,0000211000,079998,073287,091218,084881,077814,094399
0000000213,0000212000,082843,071431,090229,088167,075822,093104
0000000214,0000213000,085699,070354,088450,091415,074747,090932
0000000215,0000214000,088296,070156,086049,094311,074691,088091
0000000216,0000215000,090376,070858,083269,096570,075659,084864
0000000217,0000216000,091728,072388,080387,097967,077558,081569
0000000218,0000217000,092225,074604,077673,098368,080204,078521
0000000219,0000218000,091820,077290,075393,097736,083336,076022
0000000220,0000219000,090555,080168,073780,096131,086644,074318
0000000221,0000220000,088547,082967,072988,093710,089808,073576
0000000222,0000221000,085988,085423,073091,090708,092521,073865
0000000223,0000222000,083144,087279,074079,087423,094512,075158
0000000224,0000223000,080288,088356,075858,084177,095588,077329
0000000225,0000224000,077687,088557,078258,081281,095645,080167
0000000226,0000225000,075606,087857,081039,079023,094678,083392
0000000227,0000226000,074254,086326,083922,077626,092781,086687
0000000228,0000227000,073754,084110,086637,077223,090137,089733
0000000229,0000228000,074156,081427,088919,077855,087007,092232
0000000230,0000229000,075423,078546,090533,079457,083701,093935
0000000231,0000230000,077431,075745,091327,081877,080538,094679
0000000232,0000231000,079987,073290,091226,084877,077826,094391
0000000233,0000232000,082834,071430,090238,088160,075834,093100
0000000234,0000233000,085691,070350,088460,091405,074758,090931
0000000235,0000234000,088291,070150,086060,094299,074700,088094
0000000236,0000235000,090375,070848,083279,096557,075665,084871
0000000237,0000236000,091730,072377,080395,097955,077560,081578
0000000238,0000237000,092230,074594,077679,098358,080202,078534
0000000239,0000238000,091829,077279,075395,097728,083330,076035
0000000240,0000239000,090566,080158,073779,096128,086634,074331
0000000241,0000240000,088558,082961,072984,093710,089796,073587
0000000242,0000241000,086000,085419,073083,090712,092507,073874
0000000243,0000242000,083154,087279,074069,087432,094499,075163
0000000244,0000243000,080296,088360,075846,084188,095576,077330
0000000245,0000244000,077692,088564,078246,081294,095635,080164
0000000246,0000245000,075608,087867,081028,079037,094671,083385
0000000247,0000246000,074252,086338,083913,077639,092778,086676
0000000248,0000247000,073748,084123,086631,077235,090139,089720
0000000249,0000248000,074148,081438,088916,077863,087013,092217
0000000250,0000249000,075412,078556,090535,079461,083711,093921
0000000251,0000250000,077418,075753,091332,081876,080551,094667
0000000252,0000251000,079974,073294,091234,084872,077840,094381
0000000253,0000252000,082823,071430,090249,088150,075849,093094
0000000254,0000253000,085682,070347,088473,091392,074771,090930
0000000255,0000254000,088286,070143,086073,094285,074711,088098
0000000256,0000255000,090374,070837,083291,096542,075672,084879
0000000257,0000256000,091733,072364,080406,097940,077563,081590
0000000258,0000257000,092237,074580,077686,098346,080200,078548
0000000259,0000258000,091839,077265,075398,097720,083323,076051
0000000260,0000259000,090578,080147,073777,096124,086624,074346
0000000261,0000260000,088571,082953,072978,093711,089782,073600
0000000262,0000261000,086014,085414,073074,090718,092492,073884
0000000263,0000262000,083167,087279,074057,087442,094483,075169
0000000264,0000263000,080305,088365,075832,084201,095562,077331
0000000265,0000264000,077698,088572,078232,081310,095624,080160
0000000266,0000265000,075610,087878,081015,079053,094664,083376
0000000267,0000266000,074248,086352,083902,077654,092776,086663
0000000268,0000267000,073741,084138,086623,077247,090142,089704
0000000269,0000268000,074137,081452,088913,077872,087021,092201
0000000270,0000269000,075398,078568,090536,079466,083723,093905
0000000271,0000270000,077403,075762,091338,081875,080566,094652
0000000272,0000271000,079960,073299,091244,084866,077857,094371
0000000273,0000272000,082810,071430,090262,088140,075866,093088
0000000274,0000273000,085671,070343,088488,091378,074787,090929
0000000275,0000274000,088280,070134,086088,094268,074723,088102
0000000276,0000275000,090372,070825,083305,096525,075680,084888
0000000277,0000276000,091736,072350,080417,097924,077566,081604
0000000278,0000277000,092244,074565,077694,098332,080197,078564
0000000279,0000278000,091851,077250,075402,097710,083315,076068
0000000280,0000279000,090592,080134,073776,096119,086611,074364
0000000281,0000280000,088587,082943,072972,093712,089766,073615
0000000282,0000281000,086030,085409,073063,090724,092474,073895
0000000283,0000282000,083181,087278,074043,087453,094465,075175
0000000284,0000283000,080316,088370,075817,084217,095545,077332
0000000285,0000284000,077706,088581,078216,081328,095610,080155
0000000286,0000285000,075612,087891,081000,079072,094655,083366
0000000287,0000286000,074245,086368,083889,077672,092773,086649
0000000288,0000287000,073733,084154,086615,077262,090144,089687
0000000289,0000288000,074125,081468,088909,077882,087029,092182
0000000290,0000289000,075382,078582,090538,079470,083736,093887
0000000291,0000290000,077386,075773,091344,081875,080583,094636
0000000292,0000291000,079944,073304,091255,084859,077876,094359
0000000293,0000292000,082794,071431,090277,088128,075885,093081
0000000294,0000293000,085659,070338,088505,091362,074804,090928
0000000295,0000294000,088272,070124,086106,094249,074737,088107
0000000296,0000295000,090370,070811,083322,096505,075689,084899
0000000297,0000296000,091739,072333,080431,097905,077569,081619
0000000298,0000297000,092253,074547,077703,098317,080194,078583
0000000299,0000298000,091864,077233,075406,097699,083306,076088
0000000300,0000299000,090608,080120,073774,096114,086597,074383
0000000301,0000300000,088605,082932,072965,093713,089748,073632
