DIgSILENT PowerFactory,21000900,2000
6,06A,00D
1,TTPP_200000_100:Secondary Voltage A,,,V,0.10000000,-8503.267578,0.000000,70950,99998,1,1,P
2,TTPP_200000_100:Secondary Voltage B,,,V,0.10000000,-8349.788086,0.000000,67924,99998,1,1,P
3,TTPP_200000_100:Secondary Voltage C,,,V,0.10000000,-8605.205078,0.000000,68614,99998,1,1,P
4,TTCC_500_5:Secondary Current A,,,A,0.0010000000,-79.459633,0.000000,64841,99998,1,1,P
5,TTCC_500_5:Secondary Current B,,,A,0.0010000000,-84.580902,0.000000,69181,99998,1,1,P
6,TTCC_500_5:Secondary Current C,,,A,0.0010000000,-84.800430,0.000000,69620,99998,1,1,P
50
1
1000.000000,1101
30/06/2023,06:09:19.000000
30/06/2023,06:09:19.000000
ASCII
1.000000
0000000001,0000000000,090545,087138,076900,085375,089260,074205
0000000002,0000001000,087996,089572,077014,082360,091977,074504
0000000003,0000002000,085145,091428,078012,079061,093971,075809
0000000004,0000003000,082300,092488,079795,075805,095041,077995
0000000005,0000004000,079716,092671,082196,072902,095090,080849
0000000006,0000005000,077643,091965,084975,070640,094112,084089
0000000007,0000006000,076298,090434,087850,069247,092198,087395
0000000008,0000007000,075823,088204,090556,068851,089540,090451
0000000009,0000008000,076234,085524,092825,069493,086394,092954
0000000010,0000009000,077499,082660,094425,071110,083074,094656
0000000011,0000010000,079521,079858,095204,073548,079899,095394
0000000012,0000011000,082080,077412,095090,076562,077183,095095
0000000013,0000012000,084911,075579,094093,079860,075191,093790
0000000014,0000013000,087762,074511,092309,083120,074116,091604
0000000015,0000014000,090362,074313,089908,086021,074070,088750
0000000016,0000015000,092420,075033,087130,088281,075050,085511
0000000017,0000016000,093756,076574,084254,089677,076960,082204
0000000018,0000017000,094254,078781,081549,090073,079619,079149
0000000019,0000018000,093835,081468,079279,089428,082767,076646
0000000020,0000019000,092553,084350,077679,087812,086086,074943
0000000021,0000020000,090549,087133,076900,085377,089258,074206
0000000022,0000021000,087996,089573,077014,082358,091979,074504
0000000023,0000022000,085143,091429,078011,079061,093971,075810
0000000024,0000023000,082300,092488,079795,075804,095041,077995
0000000025,0000024000,079717,092669,082197,072901,095090,080849
0000000026,0000025000,077640,091968,084974,070639,094113,084089
0000000027,0000026000,076301,090432,087850,069246,092199,087396
0000000028,0000027000,075822,088204,090556,068850,089540,090451
0000000029,0000028000,076232,085526,092825,069492,086395,092954
0000000030,0000029000,077501,082657,094425,071110,083074,094657
0000000031,0000030000,079521,079857,095204,073547,079900,095394
0000000032,0000031000,082076,077416,095091,076562,077183,095096
0000000033,0000032000,084912,075577,094093,079860,075190,093790
0000000034,0000033000,087766,074507,092309,083119,074118,091605
0000000035,0000034000,090357,074318,089908,086020,074070,088751
0000000036,0000035000,092419,075034,087130,088281,075049,085511
0000000037,0000036000,093762,076568,084254,089676,076960,082204
0000000038,0000037000,094252,078782,081549,090071,079621,079150
0000000039,0000038000,093831,081472,079280,089428,082767,076647
0000000040,0000039000,092558,084345,077679,087812,086085,074944
0000000041,0000040000,090552,087131,076900,085375,089259,074206
0000000042,0000041000,087990,089579,077014,082358,091978,074505
0000000043,0000042000,085145,091427,078010,079062,093970,075810
0000000044,0000043000,082305,092484,079794,075804,095042,077996
0000000045,0000044000,079713,092674,082196,072900,095092,080849
0000000046,0000045000,077638,091970,084974,070641,094112,084089
0000000047,0000046000,076306,090427,087850,069246,092199,087395
0000000048,0000047000,075821,088206,090556,068850,089541,090450
0000000049,0000048000,076227,085531,092825,069492,086395,092953
0000000050,0000049000,077504,082654,094425,071111,083074,094656
0000000051,0000050000,079522,079856,095205,073545,079902,095394
0000000052,0000051000,082072,077420,095091,076561,077184,095095
0000000053,0000052000,084913,075576,094093,079860,075191,093790
0000000054,0000053000,087769,074504,092310,083118,074119,091605
0000000055,0000054000,090354,074320,089908,086019,074071,088751
0000000056,0000055000,092418,075034,087130,088280,075049,085511
0000000057,0000056000,093764,076565,084254,089675,076960,082205
0000000058,0000057000,094250,078783,081549,090070,079621,079150
0000000059,0000058000,093831,081473,079280,089428,082766,076647
0000000060,0000059000,092561,084343,077679,087811,086085,074944
0000000061,0000060000,090552,087131,076900,085375,089259,074207
0000000062,0000061000,087989,089581,077013,082358,091977,074505
0000000063,0000062000,085149,091424,078010,079062,093969,075810
0000000064,0000063000,082305,092484,079794,075804,095042,077996
0000000065,0000064000,079711,092676,082196,072901,095091,080849
0000000066,0000065000,077641,091969,084973,070642,094111,084089
0000000067,0000066000,076306,090426,087849,069246,092200,087395
0000000068,0000067000,075817,088210,090555,068850,089541,090449
0000000069,0000068000,076228,085531,092824,069493,086395,092952
0000000070,0000069000,077506,082652,094425,071110,083075,094655
0000000071,0000070000,079518,079859,095205,073545,079903,095393
0000000072,0000071000,082070,077421,095092,076561,077185,095095
0000000073,0000072000,084915,075573,094094,079859,075192,093790
0000000074,0000073000,087767,074505,092311,083116,074120,091605
0000000075,0000074000,090351,074322,089909,086018,074072,088751
0000000076,0000075000,092421,075030,087131,088279,075050,085512
0000000077,0000076000,093765,076563,084255,089673,076961,082206
0000000078,0000077000,094248,078786,081550,090069,079621,079152
0000000079,0000078000,093833,081470,079280,089427,082765,076649
0000000080,0000079000,092564,084339,077679,087811,086085,074946
0000000081,0000080000,090550,087133,076899,085374,089258,074208
0000000082,0000081000,087989,089581,077012,082359,091976,074506
0000000083,0000082000,085153,091421,078009,079062,093968,075811
0000000084,0000083000,082304,092486,079793,075805,095041,077996
0000000085,0000084000,079710,092679,082194,072903,095090,080849
0000000086,0000085000,077643,091968,084972,070643,094110,084088
0000000087,0000086000,076306,090428,087849,069247,092200,087394
0000000088,0000087000,075814,088213,090554,068851,089541,090448
0000000089,0000088000,076228,085531,092824,069494,086396,092951
0000000090,0000089000,077506,082652,094425,071110,083077,094654
0000000091,0000090000,079515,079863,095206,073545,079905,095392
0000000092,0000091000,082069,077421,095092,076561,077187,095094
0000000093,0000092000,084916,075571,094096,079858,075194,093789
0000000094,0000093000,087764,074506,092313,083114,074122,091605
0000000095,0000094000,090350,074322,089911,086016,074073,088752
0000000096,0000095000,092423,075027,087133,088277,075051,085513
0000000097,0000096000,093764,076562,084257,089671,076962,082208
0000000098,0000097000,094247,078785,081550,090067,079620,079154
0000000099,0000098000,093836,081467,079280,089426,082764,076651
0000000100,0000099000,092566,084338,077679,087809,086083,074948
0000000101,0000100000,090550,087134,076899,085375,089256,074210
0000000102,0000101000,087993,089579,077011,082360,091973,074508
0000000103,0000102000,085155,091420,078007,079063,093966,075812
0000000104,0000103000,082303,092489,079791,075806,095039,077996
0000000105,0000104000,079711,092680,082192,072905,095087,080848
0000000106,0000105000,077645,091967,084970,070645,094109,084087
0000000107,0000106000,076304,090432,087847,069250,092200,087392
0000000108,0000107000,075813,088216,090553,068854,089542,090446
0000000109,0000108000,076229,085531,092823,069496,086397,092948
0000000110,0000109000,077503,082655,094425,071111,083079,094651
0000000111,0000110000,079511,079866,095206,073545,079907,095389
0000000112,0000111000,082069,077420,095094,076560,077189,095092
0000000113,0000112000,084914,075571,094098,079855,075197,093788
0000000114,0000113000,087760,074508,092315,083111,074125,091604
0000000115,0000114000,090350,074319,089913,086013,074075,088753
0000000116,0000115000,092424,075024,087135,088273,075053,085515
0000000117,0000116000,093763,076561,084259,089668,076963,082210
0000000118,0000117000,094249,078783,081552,090065,079620,079157
0000000119,0000118000,093840,081462,079281,089424,082763,076654
0000000120,0000119000,092567,084337,077679,087808,086082,074951
0000000121,0000120000,090552,087133,076897,085375,089253,074213
0000000122,0000121000,087998,089576,077009,082361,091970,074510
0000000123,0000122000,085157,091421,078005,079065,093963,075813
0000000124,0000123000,082304,092491,079788,075809,095035,077996
0000000125,0000124000,079714,092680,082189,072909,095085,080848
0000000126,0000125000,077646,091969,084967,070649,094108,084085
0000000127,0000126000,076302,090436,087845,069253,092199,087389
0000000128,0000127000,075812,088219,090551,068857,089542,090442
0000000129,0000128000,076227,085533,092823,069497,086399,092944
0000000130,0000129000,077498,082659,094426,071111,083082,094647
0000000131,0000130000,079508,079868,095207,073545,079910,095386
0000000132,0000131000,082067,077420,095096,076558,077193,095089
0000000133,0000132000,084910,075572,094101,079853,075202,093787
0000000134,0000133000,087757,074507,092318,083108,074129,091604
0000000135,0000134000,090350,074316,089917,086009,074078,088754
0000000136,0000135000,092423,075021,087139,088269,075055,085517
0000000137,0000136000,093762,076559,084261,089664,076963,082214
0000000138,0000137000,094252,078778,081553,090061,079619,079161
0000000139,0000138000,093843,081458,079282,089421,082761,076659
0000000140,0000139000,092569,084335,077679,087807,086078,074956
0000000141,0000140000,090557,087130,076896,085375,089249,074217
0000000142,0000141000,088003,089573,077006,082362,091965,074513
0000000143,0000142000,085159,091422,078002,079068,093958,075815
0000000144,0000143000,082307,092492,079784,075814,095031,077997
0000000145,0000144000,079717,092681,082185,072913,095081,080847
0000000146,0000145000,077646,091973,084964,070653,094106,084082
0000000147,0000146000,076300,090441,087841,069258,092198,087385
0000000148,0000147000,075812,088222,090549,068861,089542,090437
0000000149,0000148000,076224,085537,092822,069500,086402,092939
0000000150,0000149000,077493,082664,094426,071113,083086,094642
0000000151,0000150000,079504,079870,095209,073545,079915,095382
0000000152,0000151000,082063,077420,095099,076556,077199,095086
0000000153,0000152000,084904,075573,094105,079849,075207,093785
0000000154,0000153000,087754,074506,092323,083104,074133,091604
0000000155,0000154000,090349,074312,089922,086004,074082,088755
0000000156,0000155000,092421,075018,087143,088263,075058,085520
0000000157,0000156000,093763,076555,084265,089659,076964,082218
0000000158,0000157000,094255,078771,081556,090057,079618,079166
0000000159,0000158000,093846,081454,079283,089417,082759,076665
0000000160,0000159000,092573,084332,077678,087805,086074,074961
0000000161,0000160000,090563,087126,076894,085375,089244,074222
0000000162,0000161000,088008,089572,077003,082364,091960,074517
0000000163,0000162000,085163,091423,077997,079072,093952,075817
0000000164,0000163000,082311,092493,079778,075819,095025,077997
0000000165,0000164000,079720,092683,082180,072919,095077,080845
0000000166,0000165000,077645,091979,084959,070660,094103,084079
0000000167,0000166000,076299,090446,087837,069264,092197,087380
0000000168,0000167000,075810,088226,090546,068866,089543,090431
0000000169,0000168000,076219,085543,092821,069504,086405,092933
0000000170,0000169000,077487,082669,094426,071115,083090,094636
0000000171,0000170000,079500,079872,095211,073544,079921,095376
0000000172,0000171000,082057,077423,095103,076554,077206,095081
0000000173,0000172000,084898,075574,094110,079845,075214,093782
0000000174,0000173000,087751,074503,092329,083098,074140,091603
0000000175,0000174000,090346,074308,089928,085997,074087,088757
0000000176,0000175000,092419,075014,087149,088256,075061,085524
0000000177,0000176000,093765,076549,084269,089652,076966,082224
0000000178,0000177000,094259,078764,081559,090051,079617,079173
0000000179,0000178000,093850,081449,079285,089413,082756,076672
0000000180,0000179000,092579,084327,077677,087803,086069,074969
0000000181,0000180000,090570,087121,076891,085375,089237,074228
0000000182,0000181000,088013,089570,076999,082367,091952,074522
0000000183,0000182000,085168,091423,077991,079077,093944,075820
0000000184,0000183000,082317,092494,079772,075825,095018,077998
0000000185,0000184000,079722,092688,082173,072927,095071,080843
0000000186,0000185000,077645,091985,084952,070668,094099,084074
0000000187,0000186000,076299,090452,087832,069272,092195,087374
0000000188,0000187000,075806,088233,090543,068872,089545,090424
0000000189,0000188000,076213,085551,092819,069508,086408,092924
0000000190,0000189000,077481,082674,094427,071118,083096,094628
0000000191,0000190000,079493,079876,095214,073544,079929,095369
0000000192,0000191000,082049,077426,095108,076551,077214,095076
0000000193,0000192000,084892,075574,094116,079840,075222,093779
0000000194,0000193000,087747,074500,092336,083091,074148,091603
0000000195,0000194000,090343,074304,089936,085988,074094,088759
0000000196,0000195000,092418,075009,087156,088247,075065,085529
0000000197,0000196000,093767,076540,084275,089643,076967,082231
0000000198,0000197000,094263,078757,081564,090043,079616,079182
0000000199,0000198000,093855,081442,079286,089408,082752,076681
0000000200,0000199000,092587,084319,077676,087801,086062,074978
0000000201,0000200000,090579,087116,076888,085376,089229,074237
0000000202,0000201000,088021,089568,076993,082370,091943,074528
0000000203,0000202000,085176,091423,077984,079083,093934,075824
0000000204,0000203000,082323,092496,079764,075833,095009,077999
0000000205,0000204000,079725,092693,082164,072936,095064,080841
0000000206,0000205000,077646,091992,084944,070678,094094,084069
0000000207,0000206000,076298,090460,087825,069281,092193,087366
0000000208,0000207000,075802,088242,090538,068880,089546,090414
0000000209,0000208000,076206,085560,092817,069514,086413,092914
0000000210,0000209000,077474,082681,094428,071120,083103,094618
0000000211,0000210000,079484,079881,095218,073544,079938,095360
0000000212,0000211000,082039,077429,095114,076547,077225,095069
0000000213,0000212000,084884,075574,094124,079834,075233,093775
0000000214,0000213000,087741,074497,092345,083082,074157,091602
0000000215,0000214000,090338,074299,089945,085978,074102,088761
0000000216,0000215000,092417,075001,087164,088236,075070,085535
0000000217,0000216000,093770,076531,084282,089633,076969,082239
0000000218,0000217000,094267,078747,081569,090034,079615,079192
0000000219,0000218000,093862,081433,079288,089402,082747,076692
0000000220,0000219000,092596,084311,077675,087798,086054,074989
0000000221,0000220000,090588,087110,076884,085376,089219,074246
0000000222,0000221000,088030,089566,076987,082374,091931,074535
0000000223,0000222000,085185,091423,077975,079090,093923,075828
0000000224,0000223000,082330,092499,079754,075843,094999,077999
0000000225,0000224000,079729,092700,082154,072947,095056,080838
0000000226,0000225000,077648,092000,084935,070690,094088,084063
0000000227,0000226000,076296,090469,087817,069292,092191,087357
0000000228,0000227000,075796,088253,090533,068890,089548,090403
0000000229,0000228000,076198,085570,092815,069521,086418,092902
0000000230,0000229000,077465,082689,094429,071124,083111,094606
0000000231,0000230000,079473,079888,095223,073543,079949,095349
0000000232,0000231000,082028,077433,095121,076543,077237,095061
0000000233,0000232000,084875,075573,094134,079826,075245,093770
0000000234,0000233000,087733,074493,092356,083071,074169,091601
0000000235,0000234000,090333,074294,089956,085965,074111,088764
0000000236,0000235000,092416,074991,087175,088223,075076,085541
0000000237,0000236000,093772,076520,084291,089621,076971,082249
0000000238,0000237000,094272,078737,081574,090024,079613,079204
0000000239,0000238000,093871,081422,079291,089395,082741,076706
0000000240,0000239000,092607,084301,077674,087794,086045,075002
0000000241,0000240000,090599,087104,076879,085376,089207,074257
0000000242,0000241000,088042,089562,076979,082379,091918,074544
0000000243,0000242000,085196,091422,077965,079098,093909,075833
0000000244,0000243000,082338,092503,079742,075854,094987,078000
0000000245,0000244000,079734,092707,082142,072961,095046,080835
0000000246,0000245000,077649,092010,084923,070704,094082,084056
0000000247,0000246000,076293,090481,087808,069305,092189,087346
0000000248,0000247000,075790,088266,090527,068901,089550,090390
0000000249,0000248000,076189,085581,092812,069529,086424,092888
0000000250,0000249000,077453,082699,094430,071127,083122,094592
0000000251,0000250000,079459,079896,095228,073542,079962,095337
0000000252,0000251000,082016,077437,095130,076538,077251,095052
0000000253,0000252000,084865,075573,094145,079817,075260,093765
0000000254,0000253000,087724,074490,092369,083059,074182,091600
0000000255,0000254000,090327,074286,089969,085951,074121,088768
0000000256,0000255000,092415,074980,087187,088208,075083,085549
0000000257,0000256000,093774,076507,084301,089606,076974,082261
0000000258,0000257000,094278,078723,081581,090012,079611,079218
0000000259,0000258000,093881,081408,079294,089386,082734,076721
0000000260,0000259000,092620,084290,077673,087790,086035,075017
0000000261,0000260000,090613,087096,076874,085377,089193,074271
0000000262,0000261000,088056,089557,076970,082384,091903,074554
0000000263,0000262000,085208,091422,077953,079108,093894,075839
0000000264,0000263000,082347,092508,079728,075867,094972,078001
0000000265,0000264000,079740,092715,082128,072976,095034,080831
0000000266,0000265000,077651,092021,084910,070720,094075,084047
0000000267,0000266000,076290,090495,087798,069321,092187,087334
0000000268,0000267000,075782,088281,090519,068914,089552,090375
0000000269,0000268000,076179,085595,092809,069538,086431,092871
0000000270,0000269000,077440,082711,094432,071132,083133,094576
0000000271,0000270000,079444,079905,095233,073542,079977,095323
0000000272,0000271000,082002,077442,095139,076532,077268,095041
0000000273,0000272000,084851,075573,094158,079806,075277,093758
0000000274,0000273000,087713,074486,092384,083044,074197,091599
0000000275,0000274000,090321,074277,089984,085935,074134,088773
0000000276,0000275000,092414,074968,087201,088191,075091,085559
0000000277,0000276000,093777,076493,084313,089590,076977,082274
0000000278,0000277000,094286,078708,081589,089999,079608,079235
0000000279,0000278000,093893,081393,079297,089376,082726,076739
0000000280,0000279000,092634,084277,077672,087785,086022,075034
0000000281,0000280000,090628,087086,076868,085378,089177,074286
0000000282,0000281000,088072,089552,076959,082391,091885,074566
0000000283,0000282000,085222,091422,077939,079119,093876,075846
0000000284,0000283000,082358,092513,079712,075883,094956,078002
0000000285,0000284000,079747,092724,082111,072994,095021,080826
0000000286,0000285000,077653,092034,084895,070738,094066,084037
0000000287,0000286000,076286,090511,087785,069338,092184,087319
0000000288,0000287000,075775,088297,090510,068928,089555,090357
0000000289,0000288000,076167,085611,092805,069548,086440,092853
0000000290,0000289000,077424,082725,094433,071137,083147,094557
0000000291,0000290000,079427,079915,095240,073541,079993,095307
0000000292,0000291000,081985,077447,095151,076525,077287,095029
0000000293,0000292000,084836,075574,094173,079794,075296,093751
0000000294,0000293000,087701,074481,092401,083028,074215,091598
0000000295,0000294000,090314,074267,090001,085916,074148,088778
0000000296,0000295000,092411,074954,087217,088171,075100,085569
0000000297,0000296000,093780,076476,084326,089572,076980,082289
0000000298,0000297000,094295,078690,081598,089983,079605,079253
0000000299,0000298000,093906,081376,079301,089365,082717,076759
0000000300,0000299000,092650,084263,077670,087780,086008,075053
0000000301,0000300000,090647,087075,076860,085379,089159,074303
