DIgSILENT PowerFactory,21000900,2000
6,06A,00D
1,TTPP_200000_100:Secondary Voltage A,,,V,0.10000000,-8323.704102,0.000000,64727,99998,1,1,P
2,TTPP_200000_100:Secondary Voltage B,,,V,0.10000000,-8201.510742,0.000000,65451,99998,1,1,P
3,TTPP_200000_100:Secondary Voltage C,,,V,0.10000000,-8378.282227,0.000000,64616,99998,1,1,P
4,TTCC_300_1:Secondary Current A,,,A,0.00010000000,-3.547702,0.000000,-8914,99998,1,1,P
5,TTCC_300_1:Secondary Current B,,,A,0.00010000000,-5.025821,0.000000,536,99998,1,1,P
6,TTCC_300_1:Secondary Current C,,,A,0.00010000000,-4.895500,0.000000,-1868,99998,1,1,P
50
1
1000.000000,1101
30/06/2023,06:08:01.000000
30/06/2023,06:08:01.000000
ASCII
1.000000
0000000001,0000000000,090344,083490,075202,014547,036269,083874
0000000002,0000001000,088210,086207,074616,024299,026991,083400
0000000003,0000002000,085569,088537,074928,035139,019992,079558
0000000004,0000003000,082712,090217,076105,046018,015949,072723
0000000005,0000004000,079919,091078,078038,055861,015274,063554
0000000006,0000005000,077431,091070,080535,063709,018027,052954
0000000007,0000006000,075510,090184,083341,068796,023921,041973
0000000008,0000007000,074365,088476,086194,070619,032396,031676
0000000009,0000008000,074080,086138,088816,068994,042638,023059
0000000010,0000009000,074677,083416,090941,064096,053612,016981
0000000011,0000010000,076126,080545,092364,056403,064246,014041
0000000012,0000011000,078278,077807,092949,046644,073531,014514
0000000013,0000012000,080901,075498,092637,035795,080539,018356
0000000014,0000013000,083751,073823,091460,024930,084569,025192
0000000015,0000014000,086566,072941,089529,015086,085244,034360
0000000016,0000015000,089045,072958,087031,007228,082504,044960
0000000017,0000016000,090952,073858,084224,002148,076601,055941
0000000018,0000017000,092115,075548,081372,000330,068121,066239
0000000019,0000018000,092400,077885,078750,001946,057889,074855
0000000020,0000019000,091787,080625,076624,006845,046913,080932
0000000021,0000020000,090349,083485,075201,014546,036271,083874
0000000022,0000021000,088203,086214,074617,024297,026993,083400
0000000023,0000022000,085567,088540,074929,035147,019986,079558
0000000024,0000023000,082720,090210,076104,046018,015950,072722
0000000025,0000024000,079917,091081,078038,055858,015277,063554
0000000026,0000025000,077424,091076,080535,063713,018023,052954
0000000027,0000026000,075516,090178,083341,068801,023917,041973
0000000028,0000027000,074368,088474,086193,070616,032400,031676
0000000029,0000028000,074073,086145,088816,068995,042636,023059
0000000030,0000029000,074678,083415,090942,064103,053606,016981
0000000031,0000030000,076132,080539,092364,056403,064247,014040
0000000032,0000031000,078274,077812,092949,046644,073533,014513
0000000033,0000032000,080897,075501,092637,035801,080534,018355
0000000034,0000033000,083757,073817,091461,024934,084566,025191
0000000035,0000034000,086565,072941,089528,015085,085247,034359
0000000036,0000035000,089041,072963,087031,007231,082501,044958
0000000037,0000036000,090956,073855,084224,002153,076598,055939
0000000038,0000037000,092117,075546,081372,000331,068122,066237
0000000039,0000038000,092396,077889,078750,001946,057890,074853
0000000040,0000039000,091788,080623,076624,006848,046911,080931
0000000041,0000040000,090352,083481,075201,014546,036272,083873
0000000042,0000041000,088201,086217,074617,024297,026994,083399
0000000043,0000042000,085567,088540,074928,035148,019985,079557
0000000044,0000043000,082723,090207,076105,046018,015950,072722
0000000045,0000044000,079915,091082,078037,055857,015279,063554
0000000046,0000045000,077424,091077,080534,063714,018021,052955
0000000047,0000046000,075518,090176,083341,068800,023916,041974
0000000048,0000047000,074367,088475,086194,070615,032399,031676
0000000049,0000048000,074072,086147,088816,068997,042634,023060
0000000050,0000049000,074681,083412,090942,064104,053604,016983
0000000051,0000050000,076131,080540,092365,056403,064246,014041
0000000052,0000051000,078271,077815,092949,046647,073529,014514
0000000053,0000052000,080900,075498,092637,035804,080531,018355
0000000054,0000053000,083757,073816,091461,024935,084565,025191
0000000055,0000054000,086561,072945,089529,015089,085244,034358
0000000056,0000055000,089042,072961,087032,007236,082498,044956
0000000057,0000056000,090959,073852,084225,002154,076599,055937
0000000058,0000057000,092113,075549,081373,000332,068123,066234
0000000059,0000058000,092396,077889,078750,001951,057889,074850
0000000060,0000059000,091793,080619,076623,006849,046913,080928
0000000061,0000060000,090351,083483,075201,014545,036276,083870
0000000062,0000061000,088199,086219,074616,024299,026995,083397
0000000063,0000062000,085571,088536,074928,035148,019987,079556
0000000064,0000063000,082724,090207,076104,046014,015954,072721
0000000065,0000064000,079912,091087,078037,055856,015279,063555
0000000066,0000065000,077426,091076,080533,063713,018020,052956
0000000067,0000066000,075521,090174,083341,068796,023918,041976
0000000068,0000067000,074363,088479,086193,070612,032399,031679
0000000069,0000068000,074071,086148,088816,068998,042629,023063
0000000070,0000069000,074684,083409,090942,064104,053601,016986
0000000071,0000070000,076128,080542,092365,056403,064244,014044
0000000072,0000071000,078269,077817,092950,046650,073524,014516
0000000073,0000072000,080902,075495,092638,035808,080526,018356
0000000074,0000073000,083757,073816,091462,024937,084563,025191
0000000075,0000074000,086558,072947,089529,015094,085241,034356
0000000076,0000075000,089044,072958,087032,007243,082494,044954
0000000077,0000076000,090960,073849,084225,002158,076599,055933
0000000078,0000077000,092111,075551,081373,000336,068124,066230
0000000079,0000078000,092397,077888,078750,001956,057889,074845
0000000080,0000079000,091795,080616,076623,006851,046916,080923
0000000081,0000080000,090350,083484,075201,014545,036280,083865
0000000082,0000081000,088199,086220,074616,024299,026998,083394
0000000083,0000082000,085574,088534,074927,035145,019991,079554
0000000084,0000083000,082723,090208,076103,046010,015960,072721
0000000085,0000084000,079911,091089,078036,055852,015282,063556
0000000086,0000085000,077428,091075,080532,063709,018022,052959
0000000087,0000086000,075520,090175,083340,068790,023919,041980
0000000088,0000087000,074360,088482,086192,070609,032397,031684
0000000089,0000088000,074072,086147,088815,068996,042626,023069
0000000090,0000089000,074683,083409,090942,064101,053597,016991
0000000091,0000090000,076125,080545,092365,056403,064238,014049
0000000092,0000091000,078268,077817,092950,046654,073516,014520
0000000093,0000092000,080903,075493,092639,035811,080520,018359
0000000094,0000093000,083754,073818,091463,024943,084557,025191
0000000095,0000094000,086558,072947,089531,015102,085234,034354
0000000096,0000095000,089046,072955,087033,007250,082491,044950
0000000097,0000096000,090959,073849,084226,002164,076599,055928
0000000098,0000097000,092110,075551,081374,000344,068123,066223
0000000099,0000098000,092401,077885,078750,001961,057891,074838
0000000100,0000099000,091797,080615,076623,006852,046923,080916
0000000101,0000100000,090349,083486,075200,014546,036287,083858
0000000102,0000101000,088202,086218,074615,024298,027005,083388
0000000103,0000102000,085576,088533,074926,035139,020001,079551
0000000104,0000103000,082722,090211,076102,046003,015967,072720
0000000105,0000104000,079912,091089,078034,055846,015287,063557
0000000106,0000105000,077430,091074,080531,063700,018027,052964
0000000107,0000106000,075518,090178,083339,068782,023922,041987
0000000108,0000107000,074359,088485,086191,070603,032395,031692
0000000109,0000108000,074073,086147,088815,068991,042621,023078
0000000110,0000109000,074681,083411,090943,064098,053592,017001
0000000111,0000110000,076121,080548,092366,056405,064228,014057
0000000112,0000111000,078268,077815,092951,046659,073505,014526
0000000113,0000112000,080902,075493,092641,035817,080511,018363
0000000114,0000113000,083751,073819,091465,024951,084548,025191
0000000115,0000114000,086558,072945,089532,015114,085225,034352
0000000116,0000115000,089047,072952,087035,007260,082486,044944
0000000117,0000116000,090958,073849,084228,002174,076597,055919
0000000118,0000117000,092111,075549,081375,000354,068123,066212
0000000119,0000118000,092404,077881,078751,001967,057896,074827
0000000120,0000119000,091797,080614,076623,006855,046931,080904
0000000121,0000120000,090350,083485,075199,014546,036296,083848
0000000122,0000121000,088206,086215,074613,024294,027016,083380
0000000123,0000122000,085578,088533,074924,035132,020013,079546
0000000124,0000123000,082722,090213,076100,045994,015978,072719
0000000125,0000124000,079914,091089,078032,055834,015295,063560
0000000126,0000125000,077431,091075,080529,063686,018034,052970
0000000127,0000126000,075516,090182,083337,068770,023924,041996
0000000128,0000127000,074358,088486,086190,070594,032392,031704
0000000129,0000128000,074072,086148,088815,068983,042616,023091
0000000130,0000129000,074677,083415,090943,064094,053583,017013
0000000131,0000130000,076119,080549,092367,056406,064215,014068
0000000132,0000131000,078267,077815,092953,046663,073492,014535
0000000133,0000132000,080898,075494,092643,035825,080497,018368
0000000134,0000133000,083748,073819,091467,024964,084534,025192
0000000135,0000134000,086558,072942,089535,015128,085214,034349
0000000136,0000135000,089047,072950,087038,007274,082480,044937
0000000137,0000136000,090957,073848,084230,002189,076593,055908
0000000138,0000137000,092114,075545,081376,000367,068125,066198
0000000139,0000138000,092406,077878,078751,001975,057903,074811
0000000140,0000139000,091798,080614,076623,006860,046942,080889
0000000141,0000140000,090354,083483,075198,014547,036309,083835
0000000142,0000141000,088210,086213,074611,024289,027032,083370
0000000143,0000142000,085579,088535,074921,035121,020030,079539
0000000144,0000143000,082724,090215,076097,045981,015992,072717
0000000145,0000144000,079917,091089,078029,055818,015308,063564
0000000146,0000145000,077430,091078,080526,063669,018042,052979
0000000147,0000146000,075514,090186,083335,068754,023927,042009
0000000148,0000147000,074358,088488,086189,070580,032390,031721
0000000149,0000148000,074070,086151,088814,068972,042609,023109
0000000150,0000149000,074673,083419,090943,064089,053570,017031
0000000151,0000150000,076116,080551,092368,056407,064199,014084
0000000152,0000151000,078265,077815,092955,046669,073474,014547
0000000153,0000152000,080894,075495,092646,035836,080479,018375
0000000154,0000153000,083746,073818,091471,024981,084516,025194
0000000155,0000154000,086558,072938,089539,015146,085200,034344
0000000156,0000155000,089045,072948,087041,007294,082471,044926
0000000157,0000156000,090957,073845,084232,002208,076589,055893
0000000158,0000157000,092117,075540,081378,000383,068127,066180
0000000159,0000158000,092408,077875,078752,001987,057913,074791
0000000160,0000159000,091801,080612,076622,006866,046955,080869
0000000161,0000160000,090358,083480,075196,014547,036327,083817
0000000162,0000161000,088214,086212,074609,024281,027054,083356
0000000163,0000162000,085581,088536,074918,035109,020051,079531
0000000164,0000163000,082727,090215,076093,045964,016011,072715
0000000165,0000164000,079919,091091,078025,055797,015324,063569
0000000166,0000165000,077430,091083,080523,063647,018053,052990
0000000167,0000166000,075514,090190,083331,068734,023930,042026
0000000168,0000167000,074357,088491,086187,070562,032387,031742
0000000169,0000168000,074066,086156,088813,068959,042600,023132
0000000170,0000169000,074669,083423,090944,064083,053554,017054
0000000171,0000170000,076113,080552,092370,056408,064178,014104
0000000172,0000171000,078260,077817,092959,046676,073451,014563
0000000173,0000172000,080889,075496,092650,035851,080454,018384
0000000174,0000173000,083744,073816,091475,025001,084493,025196
0000000175,0000174000,086556,072935,089543,015169,085183,034338
0000000176,0000175000,089044,072945,087045,007319,082458,044913
0000000177,0000176000,090959,073840,084236,002233,076584,055873
0000000178,0000177000,092120,075535,081380,000403,068131,066156
0000000179,0000178000,092411,077871,078753,002001,057924,074765
0000000180,0000179000,091806,080608,076622,006874,046973,080843
0000000181,0000180000,090364,083476,075194,014546,036350,083794
0000000182,0000181000,088218,086211,074606,024272,027081,083338
0000000183,0000182000,085585,088536,074913,035093,020077,079520
0000000184,0000183000,082731,090216,076088,045942,016035,072713
0000000185,0000184000,079921,091094,078020,055770,015345,063575
0000000186,0000185000,077429,091088,080518,063619,018066,053005
0000000187,0000186000,075513,090194,083328,068707,023935,042048
0000000188,0000187000,074355,088496,086184,070539,032384,031768
0000000189,0000188000,074061,086162,088812,068943,042587,023161
0000000190,0000189000,074664,083427,090944,064075,053533,017082
0000000191,0000190000,076108,080554,092372,056408,064152,014129
0000000192,0000191000,078254,077819,092962,046686,073422,014582
0000000193,0000192000,080885,075496,092655,035870,080424,018396
0000000194,0000193000,083741,073813,091481,025026,084466,025199
0000000195,0000194000,086553,072932,089549,015199,085161,034331
0000000196,0000195000,089043,072941,087051,007350,082443,044897
0000000197,0000196000,090961,073834,084240,002263,076578,055850
0000000198,0000197000,092123,075529,081383,000428,068135,066127
0000000199,0000198000,092415,077866,078754,002020,057937,074733
0000000200,0000199000,091812,080603,076621,006884,046995,080812
0000000201,0000200000,090371,083472,075192,014545,036379,083766
0000000202,0000201000,088223,086210,074601,024261,027113,083317
0000000203,0000202000,085591,088536,074908,035073,020110,079507
0000000204,0000203000,082736,090217,076081,045914,016066,072710
0000000205,0000204000,079923,091099,078014,055737,015369,063583
0000000206,0000205000,077430,091093,080512,063585,018082,053022
0000000207,0000206000,075512,090200,083323,068675,023941,042074
0000000208,0000207000,074351,088503,086181,070511,032379,031800
0000000209,0000208000,074055,086168,088811,068923,042572,023196
0000000210,0000209000,074659,083431,090945,064065,053508,017117
0000000211,0000210000,076102,080558,092375,056409,064121,014160
0000000212,0000211000,078247,077822,092967,046698,073386,014606
0000000213,0000212000,080879,075495,092661,035893,080387,018410
0000000214,0000213000,083737,073810,091488,025057,084433,025201
0000000215,0000214000,086550,072929,089556,015234,085134,034322
0000000216,0000215000,089042,072936,087057,007388,082425,044877
0000000217,0000216000,090963,073826,084245,002298,076571,055821
0000000218,0000217000,092126,075522,081387,000458,068140,066091
0000000219,0000218000,092420,077860,078756,002042,057954,074694
0000000220,0000219000,091819,080596,076620,006895,047021,080774
0000000221,0000220000,090378,083468,075189,014544,036414,083733
0000000222,0000221000,088230,086208,074596,024248,027152,083291
0000000223,0000222000,085598,088536,074901,035049,020149,079492
0000000224,0000223000,082741,090220,076074,045880,016103,072707
0000000225,0000224000,079925,091104,078006,055698,015399,063593
0000000226,0000225000,077431,091099,080505,063544,018102,053044
0000000227,0000226000,075511,090207,083317,068636,023949,042106
0000000228,0000227000,074346,088512,086177,070478,032374,031839
0000000229,0000228000,074049,086176,088809,068900,042553,023238
0000000230,0000229000,074652,083437,090946,064053,053479,017158
0000000231,0000230000,076093,080563,092379,056410,064083,014196
0000000232,0000231000,078238,077825,092972,046713,073343,014634
0000000233,0000232000,080873,075495,092668,035919,080344,018427
0000000234,0000233000,083731,073808,091496,025093,084393,025205
0000000235,0000234000,086546,072924,089564,015277,085102,034312
0000000236,0000235000,089042,072928,087064,007433,082403,044854
0000000237,0000236000,090965,073818,084252,002340,076563,055786
0000000238,0000237000,092130,075514,081391,000494,068147,066049
0000000239,0000238000,092427,077851,078757,002068,057973,074648
0000000240,0000239000,091827,080589,076619,006908,047053,080729
0000000241,0000240000,090386,083463,075185,014542,036455,083693
0000000242,0000241000,088239,086205,074590,024232,027198,083261
0000000243,0000242000,085606,088535,074894,035020,020196,079474
0000000244,0000243000,082747,090223,076065,045840,016146,072704
0000000245,0000244000,079929,091110,077997,055652,015433,063604
0000000246,0000245000,077432,091106,080497,063496,018124,053070
0000000247,0000246000,075509,090216,083310,068590,023958,042143
0000000248,0000247000,074341,088521,086172,070439,032367,031885
0000000249,0000248000,074043,086185,088807,068872,042531,023287
0000000250,0000249000,074643,083445,090947,064039,053445,017206
0000000251,0000250000,076083,080569,092383,056412,064039,014239
0000000252,0000251000,078229,077828,092979,046731,073293,014666
0000000253,0000252000,080865,075494,092676,035951,080294,018446
0000000254,0000253000,083724,073805,091506,025135,084347,025208
0000000255,0000254000,086542,072919,089574,015327,085064,034299
0000000256,0000255000,089041,072920,087074,007486,082379,044826
0000000257,0000256000,090967,073809,084259,002390,076554,055746
0000000258,0000257000,092135,075504,081396,000536,068154,066000
0000000259,0000258000,092435,077841,078759,002098,057997,074595
0000000260,0000259000,091837,080580,076618,006922,047091,080677
0000000261,0000260000,090396,083458,075181,014540,036503,083647
0000000262,0000261000,088249,086202,074583,024214,027251,083226
0000000263,0000262000,085615,088535,074885,034986,020251,079454
0000000264,0000263000,082754,090226,076055,045794,016196,072700
0000000265,0000264000,079933,091116,077986,055599,015473,063618
0000000266,0000265000,077434,091115,080487,063440,018151,053099
0000000267,0000266000,075506,090226,083302,068536,023968,042186
0000000268,0000267000,074336,088533,086167,070395,032359,031937
0000000269,0000268000,074035,086195,088805,068840,042506,023345
0000000270,0000269000,074633,083454,090948,064023,053405,017262
0000000271,0000270000,076072,080576,092387,056414,063987,014288
0000000272,0000271000,078218,077831,092986,046751,073235,014704
0000000273,0000272000,080855,075494,092686,035987,080235,018468
0000000274,0000273000,083716,073802,091517,025185,084294,025212
0000000275,0000274000,086537,072912,089585,015385,085021,034284
0000000276,0000275000,089040,072910,087084,007546,082351,044794
0000000277,0000276000,090969,073798,084268,002447,076544,055700
0000000278,0000277000,092140,075493,081402,000584,068162,065943
0000000279,0000278000,092444,077829,078762,002132,058024,074534
0000000280,0000279000,091848,080571,076617,006939,047134,080617
0000000281,0000280000,090408,083451,075176,014538,036558,083595
0000000282,0000281000,088262,086198,074575,024192,027313,083185
0000000283,0000282000,085626,088535,074874,034947,020313,079430
0000000284,0000283000,082762,090230,076043,045742,016252,072696
0000000285,0000284000,079939,091123,077974,055537,015519,063634
0000000286,0000285000,077435,091125,080475,063375,018181,053134
0000000287,0000286000,075504,090239,083293,068476,023978,042236
0000000288,0000287000,074330,088545,086160,070344,032349,031998
0000000289,0000288000,074026,086207,088802,068803,042477,023410
0000000290,0000289000,074621,083464,090950,064005,053359,017326
0000000291,0000290000,076059,080584,092392,056417,063928,014344
0000000292,0000291000,078206,077835,092995,046774,073169,014747
0000000293,0000292000,080843,075494,092697,036029,080169,018493
0000000294,0000293000,083707,073798,091530,025241,084233,025216
0000000295,0000294000,086532,072904,089599,015451,084972,034267
0000000296,0000295000,089039,072899,087097,007614,082319,044757
0000000297,0000296000,090972,073785,084278,002511,076533,055646
0000000298,0000297000,092147,075479,081409,000639,068173,065879
0000000299,0000298000,092454,077816,078765,002171,058055,074464
0000000300,0000299000,091860,080560,076616,006958,047184,080549
0000000301,0000300000,090422,083442,075171,014535,036621,083535
