DIgSILENT PowerFactory,21000900,2000
6,06A,00D
1,TTPP_200000_100:Secondary Voltage A,,,V,0.10000000,-8212.783203,0.000000,61425,99998,1,1,P
2,TTPP_200000_100:Secondary Voltage B,,,V,0.10000000,-7772.283691,0.000000,58881,99998,1,1,P
3,TTPP_200000_100:Secondary Voltage C,,,V,0.10000000,-8088.802246,0.000000,61526,99998,1,1,P
4,TTCC_300_1:Secondary Current A,,,A,0.00010000000,-3.891207,0.000000,-3264,99998,1,1,P
5,TTCC_300_1:Secondary Current B,,,A,0.00010000000,-5.019507,0.000000,663,99998,1,1,P
6,TTCC_300_1:Secondary Current C,,,A,0.00010000000,-4.887174,0.000000,-1733,99998,1,1,P
50
1
1000.000000,1101
30/06/2023,06:07:00.000000
30/06/2023,06:07:00.000000
ASCII
1.000000
0000000001,0000000000,089234,079198,072307,017982,036206,083791
0000000002,0000001000,087100,081915,071722,027735,026927,083317
0000000003,0000002000,084459,084246,072034,038573,019930,079475
0000000004,0000003000,081603,085925,073210,049454,015886,072639
0000000005,0000004000,078810,086786,075144,059295,015212,063471
0000000006,0000005000,076323,086778,077640,067145,017963,052871
0000000007,0000006000,074400,085892,080447,072231,023859,041890
0000000008,0000007000,073257,084184,083299,074054,032334,031593
0000000009,0000008000,072971,081846,085921,072430,042574,022976
0000000010,0000009000,073568,079123,088047,067531,053550,016898
0000000011,0000010000,075016,076253,089469,059839,064183,013957
0000000012,0000011000,077169,073515,090054,050079,073469,014431
0000000013,0000012000,079791,071206,089742,039230,080476,018273
0000000014,0000013000,082642,069531,088565,028365,084506,025109
0000000015,0000014000,085457,068649,086634,018521,085181,034277
0000000016,0000015000,087936,068666,084136,010663,082440,044876
0000000017,0000016000,089843,069566,081329,005583,076537,055858
0000000018,0000017000,091006,071256,078477,003765,068058,066156
0000000019,0000018000,091290,073593,075855,005381,057826,074772
0000000020,0000019000,090678,076332,073729,010279,046850,080849
0000000021,0000020000,089240,079192,072306,017982,036207,083791
0000000022,0000021000,087094,081922,071722,027732,026930,083317
0000000023,0000022000,084457,084248,072034,038582,019922,079475
0000000024,0000023000,081611,085917,073210,049453,015887,072639
0000000025,0000024000,078808,086788,075143,059293,015214,063471
0000000026,0000025000,076315,086784,077640,067148,017960,052871
0000000027,0000026000,074407,085886,080446,072236,023853,041889
0000000028,0000027000,073259,084181,083299,074050,032337,031592
0000000029,0000028000,072964,081853,085921,072430,042573,022976
0000000030,0000029000,073569,079122,088047,067538,053543,016898
0000000031,0000030000,075023,076246,089469,059838,064184,013957
0000000032,0000031000,077165,073520,090054,050078,073470,014430
0000000033,0000032000,079788,071208,089742,039236,080471,018272
0000000034,0000033000,082648,069525,088566,028369,084503,025108
0000000035,0000034000,085456,068649,086634,018520,085184,034276
0000000036,0000035000,087932,068670,084137,010666,082438,044875
0000000037,0000036000,089847,069562,081329,005588,076535,055856
0000000038,0000037000,091007,071254,078478,003766,068059,066154
0000000039,0000038000,091287,073597,075855,005381,057827,074770
0000000040,0000039000,090679,076331,073729,010283,046847,080848
0000000041,0000040000,089243,079189,072306,017982,036208,083789
0000000042,0000041000,087092,081925,071722,027733,026931,083316
0000000043,0000042000,084457,084248,072033,038583,019922,079474
0000000044,0000043000,081613,085915,073210,049454,015886,072638
0000000045,0000044000,078806,086790,075143,059293,015215,063471
0000000046,0000045000,076315,086785,077639,067149,017958,052871
0000000047,0000046000,074409,085884,080446,072235,023853,041891
0000000048,0000047000,073257,084183,083299,074050,032336,031593
0000000049,0000048000,072963,081855,085921,072432,042571,022976
0000000050,0000049000,073572,079120,088047,067539,053541,016899
0000000051,0000050000,075021,076247,089470,059838,064183,013958
0000000052,0000051000,077162,073522,090054,050082,073466,014431
0000000053,0000052000,079791,071206,089742,039238,080468,018272
0000000054,0000053000,082648,069524,088566,028369,084502,025108
0000000055,0000054000,085452,068652,086634,018523,085181,034275
0000000056,0000055000,087933,068668,084137,010671,082434,044873
0000000057,0000056000,089850,069559,081330,005589,076536,055854
0000000058,0000057000,091004,071257,078478,003767,068060,066151
0000000059,0000058000,091287,073597,075855,005386,057825,074767
0000000060,0000059000,090684,076327,073728,010284,046849,080845
0000000061,0000060000,089241,079191,072306,017980,036212,083787
0000000062,0000061000,087090,081927,071722,027734,026931,083314
0000000063,0000062000,084462,084244,072033,038583,019923,079473
0000000064,0000063000,081615,085915,073210,049449,015891,072638
0000000065,0000064000,078802,086795,075142,059291,015216,063471
0000000066,0000065000,076317,086784,077639,067149,017957,052873
0000000067,0000066000,074411,085881,080446,072231,023855,041893
0000000068,0000067000,073253,084187,083298,074047,032336,031596
0000000069,0000068000,072962,081856,085921,072433,042566,022980
0000000070,0000069000,073575,079117,088047,067539,053538,016902
0000000071,0000070000,075019,076250,089470,059837,064181,013960
0000000072,0000071000,077159,073525,090055,050085,073461,014433
0000000073,0000072000,079793,071203,089743,039243,080463,018273
0000000074,0000073000,082648,069524,088567,028372,084500,025107
0000000075,0000074000,085449,068655,086635,018529,085178,034273
0000000076,0000075000,087935,068666,084137,010677,082431,044871
0000000077,0000076000,089851,069557,081330,005593,076536,055851
0000000078,0000077000,091002,071259,078478,003771,068060,066147
0000000079,0000078000,091288,073596,075855,005391,057825,074762
0000000080,0000079000,090686,076324,073729,010286,046853,080840
0000000081,0000080000,089240,079192,072306,017980,036217,083782
0000000082,0000081000,087090,081927,071721,027734,026935,083310
0000000083,0000082000,084464,084242,072032,038580,019928,079471
0000000084,0000083000,081614,085916,073209,049445,015897,072637
0000000085,0000084000,078802,086796,075141,059287,015219,063472
0000000086,0000085000,076319,086782,077638,067144,017959,052875
0000000087,0000086000,074411,085883,080445,072226,023857,041897
0000000088,0000087000,073251,084190,083298,074044,032335,031601
0000000089,0000088000,072963,081855,085921,072431,042563,022986
0000000090,0000089000,073574,079117,088048,067536,053535,016908
0000000091,0000090000,075015,076253,089471,059838,064175,013965
0000000092,0000091000,077159,073524,090055,050089,073453,014437
0000000093,0000092000,079794,071201,089744,039246,080457,018276
0000000094,0000093000,082645,069526,088568,028377,084494,025108
0000000095,0000094000,085449,068654,086636,018537,085171,034271
0000000096,0000095000,087937,068663,084139,010685,082427,044867
0000000097,0000096000,089850,069557,081332,005599,076535,055845
0000000098,0000097000,091001,071259,078479,003779,068060,066140
0000000099,0000098000,091291,073592,075855,005396,057828,074755
0000000100,0000099000,090687,076323,073729,010287,046859,080832
0000000101,0000100000,089239,079194,072305,017981,036223,083775
0000000102,0000101000,087093,081925,071720,027733,026941,083305
0000000103,0000102000,084467,084241,072031,038575,019937,079467
0000000104,0000103000,081612,085919,073207,049438,015904,072636
0000000105,0000104000,078803,086797,075139,059281,015224,063474
0000000106,0000105000,076321,086781,077636,067135,017964,052880
0000000107,0000106000,074409,085886,080444,072217,023859,041903
0000000108,0000107000,073250,084192,083297,074038,032332,031609
0000000109,0000108000,072964,081854,085920,072426,042558,022995
0000000110,0000109000,073572,079119,088048,067533,053529,016917
0000000111,0000110000,075012,076255,089471,059840,064166,013973
0000000112,0000111000,077159,073523,090057,050093,073442,014443
0000000113,0000112000,079793,071200,089746,039251,080448,018279
0000000114,0000113000,082642,069527,088570,028386,084485,025108
0000000115,0000114000,085449,068652,086637,018548,085162,034269
0000000116,0000115000,087938,068660,084140,010695,082423,044862
0000000117,0000116000,089849,069557,081333,005609,076534,055836
0000000118,0000117000,091002,071257,078480,003789,068060,066129
0000000119,0000118000,091294,073589,075856,005402,057833,074744
0000000120,0000119000,090688,076322,073728,010290,046868,080821
0000000121,0000120000,089241,079193,072304,017982,036232,083765
0000000122,0000121000,087097,081923,071718,027730,026953,083297
0000000123,0000122000,084468,084241,072029,038567,019950,079462
0000000124,0000123000,081613,085921,073205,049429,015915,072635
0000000125,0000124000,078805,086797,075137,059270,015232,063477
0000000126,0000125000,076321,086783,077634,067122,017971,052886
0000000127,0000126000,074407,085890,080442,072205,023861,041913
0000000128,0000127000,073249,084194,083295,074029,032329,031621
0000000129,0000128000,072963,081856,085920,072418,042553,023008
0000000130,0000129000,073568,079122,088048,067529,053520,016930
0000000131,0000130000,075010,076257,089472,059841,064153,013985
0000000132,0000131000,077158,073522,090058,050098,073429,014452
0000000133,0000132000,079789,071201,089748,039259,080434,018285
0000000134,0000133000,082639,069527,088573,028399,084471,025109
0000000135,0000134000,085449,068649,086640,018563,085151,034266
0000000136,0000135000,087938,068658,084143,010709,082416,044854
0000000137,0000136000,089848,069556,081335,005624,076530,055825
0000000138,0000137000,091005,071253,078481,003802,068061,066115
0000000139,0000138000,091297,073586,075856,005410,057840,074728
0000000140,0000139000,090689,076322,073728,010295,046878,080806
0000000141,0000140000,089244,079191,072303,017983,036245,083751
0000000142,0000141000,087101,081921,071717,027724,026969,083286
0000000143,0000142000,084469,084242,072027,038557,019967,079456
0000000144,0000143000,081614,085922,073202,049416,015929,072634
0000000145,0000144000,078808,086797,075134,059254,015244,063480
0000000146,0000145000,076321,086786,077632,067104,017980,052895
0000000147,0000146000,074405,085894,080440,072189,023864,041926
0000000148,0000147000,073249,084196,083294,074015,032327,031637
0000000149,0000148000,072961,081859,085919,072407,042546,023026
0000000150,0000149000,073564,079126,088048,067524,053507,016947
0000000151,0000150000,075007,076258,089473,059842,064136,014001
0000000152,0000151000,077156,073523,090061,050103,073411,014464
0000000153,0000152000,079785,071203,089751,039271,080416,018292
0000000154,0000153000,082637,069526,088576,028416,084453,025111
0000000155,0000154000,085449,068646,086644,018581,085137,034261
0000000156,0000155000,087936,068656,084146,010728,082407,044843
0000000157,0000156000,089848,069553,081337,005643,076526,055810
0000000158,0000157000,091008,071248,078483,003818,068064,066097
0000000159,0000158000,091299,073582,075857,005422,057849,074708
0000000160,0000159000,090692,076319,073728,010301,046892,080785
0000000161,0000160000,089249,079188,072302,017982,036263,083734
0000000162,0000161000,087105,081920,071714,027717,026990,083272
0000000163,0000162000,084472,084244,072023,038544,019988,079447
0000000164,0000163000,081618,085923,073198,049399,015948,072632
0000000165,0000164000,078810,086799,075130,059232,015261,063486
0000000166,0000165000,076320,086791,077628,067082,017990,052906
0000000167,0000166000,074404,085898,080437,072169,023867,041943
0000000168,0000167000,073248,084199,083292,073997,032324,031658
0000000169,0000168000,072956,081863,085919,072394,042537,023049
0000000170,0000169000,073559,079130,088049,067518,053491,016970
0000000171,0000170000,075004,076259,089475,059843,064115,014021
0000000172,0000171000,077151,073524,090064,050111,073388,014480
0000000173,0000172000,079780,071203,089755,039286,080391,018301
0000000174,0000173000,082635,069523,088580,028436,084430,025113
0000000175,0000174000,085447,068643,086648,018604,085120,034255
0000000176,0000175000,087935,068653,084151,010754,082395,044830
0000000177,0000176000,089850,069548,081341,005668,076520,055791
0000000178,0000177000,091011,071243,078485,003838,068067,066073
0000000179,0000178000,091302,073579,075858,005436,057861,074682
0000000180,0000179000,090696,076316,073727,010310,046909,080760
0000000181,0000180000,089255,079184,072300,017982,036287,083711
0000000182,0000181000,087109,081919,071711,027707,027017,083255
0000000183,0000182000,084476,084244,072019,038528,020014,079437
0000000184,0000183000,081622,085924,073193,049377,015972,072630
0000000185,0000184000,078812,086802,075125,059205,015281,063492
0000000186,0000185000,076320,086796,077623,067054,018003,052921
0000000187,0000186000,074404,085902,080433,072143,023872,041964
0000000188,0000187000,073245,084204,083289,073974,032321,031685
0000000189,0000188000,072952,081869,085918,072378,042525,023077
0000000190,0000189000,073555,079134,088049,067510,053470,016999
0000000191,0000190000,074999,076262,089478,059843,064089,014046
0000000192,0000191000,077145,073527,090068,050121,073359,014499
0000000193,0000192000,079776,071203,089760,039305,080361,018313
0000000194,0000193000,082632,069521,088586,028461,084403,025115
0000000195,0000194000,085444,068640,086654,018633,085098,034248
0000000196,0000195000,087934,068649,084156,010785,082380,044814
0000000197,0000196000,089852,069541,081345,005698,076514,055767
0000000198,0000197000,091014,071237,078488,003863,068072,066044
0000000199,0000198000,091306,073574,075859,005455,057874,074650
0000000200,0000199000,090702,076310,073726,010319,046931,080729
0000000201,0000200000,089261,079180,072297,017980,036316,083683
0000000202,0000201000,087114,081918,071707,027696,027050,083233
0000000203,0000202000,084481,084244,072013,038509,020046,079424
0000000204,0000203000,081627,085925,073187,049349,016003,072627
0000000205,0000204000,078814,086806,075119,059172,015306,063500
0000000206,0000205000,076320,086801,077617,067020,018019,052939
0000000207,0000206000,074403,085907,080428,072110,023878,041991
0000000208,0000207000,073242,084211,083286,073946,032317,031717
0000000209,0000208000,072946,081876,085916,072358,042509,023112
0000000210,0000209000,073549,079139,088050,067500,053446,017033
0000000211,0000210000,074992,076266,089480,059844,064058,014077
0000000212,0000211000,077137,073530,090072,050133,073323,014523
0000000213,0000212000,079770,071203,089766,039328,080324,018327
0000000214,0000213000,082628,069518,088593,028491,084370,025118
0000000215,0000214000,085441,068637,086661,018669,085071,034239
0000000216,0000215000,087933,068643,084162,010823,082361,044794
0000000217,0000216000,089854,069534,081350,005733,076508,055738
0000000218,0000217000,091017,071230,078492,003893,068077,066008
0000000219,0000218000,091311,073567,075861,005477,057890,074611
0000000220,0000219000,090710,076304,073725,010330,046958,080691
0000000221,0000220000,089268,079176,072294,017979,036351,083650
0000000222,0000221000,087121,081916,071702,027683,027088,083208
0000000223,0000222000,084488,084244,072007,038484,020086,079409
0000000224,0000223000,081632,085927,073179,049315,016040,072624
0000000225,0000224000,078816,086812,075111,059133,015336,063509
0000000226,0000225000,076322,086807,077610,066980,018039,052960
0000000227,0000226000,074402,085914,080423,072071,023886,042022
0000000228,0000227000,073237,084219,083282,073913,032311,031755
0000000229,0000228000,072940,081884,085914,072335,042490,023154
0000000230,0000229000,073543,079145,088051,067488,053416,017074
0000000231,0000230000,074984,076271,089484,059845,064021,014113
0000000232,0000231000,077129,073532,090077,050148,073280,014550
0000000233,0000232000,079764,071202,089773,039354,080281,018343
0000000234,0000233000,082622,069516,088601,028527,084330,025121
0000000235,0000234000,085437,068632,086669,018712,085039,034229
0000000236,0000235000,087933,068636,084170,010868,082340,044771
0000000237,0000236000,089856,069526,081357,005775,076500,055703
0000000238,0000237000,091021,071222,078496,003929,068083,065966
0000000239,0000238000,091318,073559,075862,005503,057910,074565
0000000240,0000239000,090718,076296,073724,010343,046990,080646
0000000241,0000240000,089277,079171,072291,017977,036392,083610
0000000242,0000241000,087130,081913,071696,027668,027134,083177
0000000243,0000242000,084497,084243,071999,038455,020133,079391
0000000244,0000243000,081638,085930,073171,049276,016083,072620
0000000245,0000244000,078820,086817,075102,059088,015370,063521
0000000246,0000245000,076323,086814,077602,066931,018061,052986
0000000247,0000246000,074400,085923,080416,072025,023895,042060
0000000248,0000247000,073232,084229,083278,073874,032304,031801
0000000249,0000248000,072934,081892,085912,072307,042468,023204
0000000250,0000249000,073534,079152,088052,067474,053382,017123
0000000251,0000250000,074974,076277,089488,059847,063976,014156
0000000252,0000251000,077120,073535,090084,050165,073230,014583
0000000253,0000252000,079756,071202,089781,039386,080231,018363
0000000254,0000253000,082615,069513,088611,028570,084284,025125
0000000255,0000254000,085433,068627,086679,018762,085001,034216
0000000256,0000255000,087932,068627,084179,010920,082316,044743
0000000257,0000256000,089858,069516,081364,005825,076491,055663
0000000258,0000257000,091025,071212,078501,003971,068090,065917
0000000259,0000258000,091326,073549,075865,005533,057933,074512
0000000260,0000259000,090728,076288,073723,010358,047028,080594
0000000261,0000260000,089287,079166,072286,017976,036440,083564
0000000262,0000261000,087140,081910,071689,027649,027188,083142
0000000263,0000262000,084506,084243,071990,038421,020187,079370
0000000264,0000263000,081644,085934,073160,049230,016132,072617
0000000265,0000264000,078824,086823,075091,059034,015410,063534
0000000266,0000265000,076324,086822,077592,066875,018088,053016
0000000267,0000266000,074397,085934,080408,071971,023905,042103
0000000268,0000267000,073226,084240,083272,073830,032296,031854
0000000269,0000268000,072926,081902,085910,072275,042443,023261
0000000270,0000269000,073524,079161,088054,067458,053342,017179
0000000271,0000270000,074962,076284,089492,059849,063924,014205
0000000272,0000271000,077109,073538,090091,050186,073172,014621
0000000273,0000272000,079746,071202,089791,039422,080172,018385
0000000274,0000273000,082607,069510,088622,028619,084231,025129
0000000275,0000274000,085428,068620,086691,018820,084958,034201
0000000276,0000275000,087931,068618,084189,010980,082288,044711
0000000277,0000276000,089860,069506,081373,005881,076481,055617
0000000278,0000277000,091031,071200,078507,004019,068099,065860
0000000279,0000278000,091335,073537,075867,005567,057961,074451
0000000280,0000279000,090738,076279,073722,010374,047071,080534
0000000281,0000280000,089299,079159,072281,017973,036494,083511
0000000282,0000281000,087152,081905,071681,027628,027250,083102
0000000283,0000282000,084516,084243,071979,038382,020250,079347
0000000284,0000283000,081652,085938,073148,049177,016189,072612
0000000285,0000284000,078830,086830,075079,058973,015456,063550
0000000286,0000285000,076326,086832,077581,066811,018118,053050
0000000287,0000286000,074394,085946,080398,071911,023915,042153
0000000288,0000287000,073220,084253,083265,073779,032286,031915
0000000289,0000288000,072917,081914,085907,072238,042414,023327
0000000290,0000289000,073512,079172,088055,067440,053296,017243
0000000291,0000290000,074950,076292,089497,059852,063865,014261
0000000292,0000291000,077097,073542,090100,050209,073106,014663
0000000293,0000292000,079734,071202,089803,039463,080106,018409
0000000294,0000293000,082598,069506,088635,028676,084170,025133
0000000295,0000294000,085423,068612,086704,018886,084909,034184
0000000296,0000295000,087930,068607,084202,011049,082256,044674
0000000297,0000296000,089862,069493,081383,005946,076469,055563
0000000298,0000297000,091038,071187,078514,004074,068109,065796
0000000299,0000298000,091345,073524,075870,005606,057992,074381
0000000300,0000299000,090750,076268,073721,010393,047120,080466
0000000301,0000300000,089312,079150,072276,017970,036557,083452
