DIgSILENT PowerFactory,21000900,2000
6,06A,00D
1,TTPP_200000_100:Secondary Voltage A,,,V,0.010000000,-71.424767,0.000000,-85630,99998,1,1,P
2,TTPP_200000_100:Secondary Voltage B,,,V,0.010000000,-60.037342,0.000000,-87643,99998,1,1,P
3,TTPP_200000_100:Secondary Voltage C,,,V,0.10000000,-8862.168945,0.000000,78636,99998,1,1,P
4,TTCC_300_1:Secondary Current A,,,A,0.00010000000,-4.637264,0.000000,-32864,99998,1,1,P
5,TTCC_300_1:Secondary Current B,,,A,0.00010000000,-4.908946,0.000000,-1781,99998,1,1,P
6,TTCC_300_1:Secondary Current C,,,A,0.00010000000,-4.892984,0.000000,-2138,99998,1,1,P
50
1
1000.000000,1101
30/06/2023,06:02:14.000000
30/06/2023,06:02:14.000000
ASCII
1.000000
0000000001,0000000000,078208,020756,080040,025436,035108,083848
0000000002,0000001000,056859,047941,079456,035190,025826,083377
0000000003,0000002000,030487,071211,079767,046027,018828,079537
0000000004,0000003000,001913,088011,080943,056901,014788,072704
0000000005,0000004000,-26070,096672,082877,066749,014105,063537
0000000006,0000005000,-50960,096579,085374,074601,016854,052938
0000000007,0000006000,-70113,087667,088181,079691,022745,041956
0000000008,0000007000,-81548,070583,091032,081514,031221,031658
0000000009,0000008000,-84436,047241,093655,079888,041464,023040
0000000010,0000009000,-78479,020024,095781,074997,052434,016961
0000000011,0000010000,-63977,-08702,097203,067308,063067,014017
0000000012,0000011000,-42434,-36085,097788,057547,072357,014487
0000000013,0000012000,-16214,-59190,097476,046700,079365,018327
0000000014,0000013000,012293,-75922,096299,035834,083398,025161
0000000015,0000014000,040433,-84743,094366,025986,084079,034328
0000000016,0000015000,065214,-84560,091870,018130,081336,044926
0000000017,0000016000,084291,-75560,089063,013049,075436,055907
0000000018,0000017000,095942,-58685,086210,011227,066959,066205
0000000019,0000018000,098793,-35309,083588,012838,056731,074824
0000000020,0000019000,092624,-07881,081462,017734,045755,080903
0000000021,0000020000,078243,020723,080040,025436,035108,083847
0000000022,0000021000,056824,047976,079456,035188,025829,083376
0000000023,0000022000,030450,071241,079767,046032,018824,079536
0000000024,0000023000,001955,087973,080943,056905,014784,072703
0000000025,0000024000,-26059,096658,082876,066747,014107,063537
0000000026,0000025000,-50983,096611,085374,074602,016852,052938
0000000027,0000026000,-70100,087655,088181,079693,022742,041956
0000000028,0000027000,-81547,070583,091033,081513,031221,031658
0000000029,0000028000,-84465,047269,093655,079892,041461,023040
0000000030,0000029000,-78459,020008,095781,075001,052431,016960
0000000031,0000030000,-63945,-08728,097204,067307,063069,014016
0000000032,0000031000,-42467,-36051,097789,057549,072356,014487
0000000033,0000032000,-16234,-59166,097477,046704,079362,018326
0000000034,0000033000,012327,-75958,096299,035837,083396,025160
0000000035,0000034000,040434,-84741,094367,025988,084078,034326
0000000036,0000035000,065198,-84540,091870,018132,081336,044925
0000000037,0000036000,084315,-75578,089063,013051,075435,055906
0000000038,0000037000,095938,-58681,086211,011229,066959,066204
0000000039,0000038000,098768,-35283,083588,012840,056730,074822
0000000040,0000039000,092653,-07903,081462,017737,045753,080902
0000000041,0000040000,078270,020698,080039,025436,035110,083846
0000000042,0000041000,056797,048009,079456,035186,025831,083375
0000000043,0000042000,030442,071251,079767,046034,018822,079536
0000000044,0000043000,001984,087949,080943,056906,014783,072703
0000000045,0000044000,-26067,096669,082876,066746,014109,063537
0000000046,0000045000,-50990,096624,085373,074603,016851,052938
0000000047,0000046000,-70075,087637,088180,079693,022742,041957
0000000048,0000047000,-81560,070595,091033,081512,031222,031659
0000000049,0000048000,-84492,047299,093656,079894,041458,023041
0000000050,0000049000,-78439,019987,095781,075003,052427,016961
0000000051,0000050000,-63930,-08743,097204,067306,063068,014017
0000000052,0000051000,-42498,-36024,097789,057550,072354,014488
0000000053,0000052000,-16237,-59165,097477,046708,079358,018326
0000000054,0000053000,012342,-75978,096300,035839,083393,025159
0000000055,0000054000,040415,-84728,094367,025991,084076,034325
0000000056,0000055000,065196,-84540,091870,018136,081333,044923
0000000057,0000056000,084340,-75607,089063,013053,075435,055904
0000000058,0000057000,095926,-58672,086211,011230,066960,066202
0000000059,0000058000,098749,-35267,083588,012843,056729,074819
0000000060,0000059000,092680,-07930,081462,017740,045753,080899
0000000061,0000060000,078283,020686,080039,025435,035114,083844
0000000062,0000061000,056780,048030,079455,035186,025833,083373
0000000063,0000062000,030454,071244,079766,046034,018823,079535
0000000064,0000063000,001998,087937,080943,056903,014786,072702
0000000065,0000064000,-26085,096691,082876,066744,014111,063537
0000000066,0000065000,-50986,096625,085373,074602,016851,052939
0000000067,0000066000,-70054,087621,088180,079690,022742,041959
0000000068,0000067000,-81580,070616,091032,081509,031222,031662
0000000069,0000068000,-84512,047320,093655,079894,041454,023044
0000000070,0000069000,-78423,019971,095781,075004,052424,016964
0000000071,0000070000,-63936,-08742,097204,067306,063066,014020
0000000072,0000071000,-42522,-36003,097789,057553,072349,014490
0000000073,0000072000,-16231,-59177,097477,046711,079353,018327
0000000074,0000073000,012343,-75987,096301,035843,083390,025159
0000000075,0000074000,040391,-84713,094368,025996,084073,034324
0000000076,0000075000,065203,-84553,091871,018142,081330,044920
0000000077,0000076000,084360,-75633,089064,013057,075434,055900
0000000078,0000077000,095913,-58664,086212,011233,066961,066197
0000000079,0000078000,098747,-35266,083588,012848,056730,074814
0000000080,0000079000,092706,-07956,081461,017742,045756,080894
0000000081,0000080000,078287,020684,080039,025435,035118,083839
0000000082,0000081000,056776,048040,079454,035185,025838,083370
0000000083,0000082000,030479,071230,079765,046032,018828,079532
0000000084,0000083000,002005,087938,080942,056899,014791,072702
0000000085,0000084000,-26099,096715,082875,066740,014114,063538
0000000086,0000085000,-50974,096624,085372,074598,016852,052942
0000000087,0000086000,-70043,087617,088179,079684,022744,041964
0000000088,0000087000,-81602,070644,091032,081504,031221,031667
0000000089,0000088000,-84522,047333,093655,079892,041450,023050
0000000090,0000089000,-78417,019964,095782,075003,052419,016970
0000000091,0000090000,-63956,-08727,097205,067306,063060,014025
0000000092,0000091000,-42540,-35991,097790,057556,072342,014493
0000000093,0000092000,-16225,-59193,097478,046716,079346,018330
0000000094,0000093000,012331,-75989,096302,035848,083385,025160
0000000095,0000094000,040370,-84704,094369,026004,084067,034322
0000000096,0000095000,065215,-84575,091872,018150,081325,044916
0000000097,0000096000,084371,-75655,089065,013064,075434,055894
0000000098,0000097000,095903,-58662,086212,011239,066962,066190
0000000099,0000098000,098760,-35281,083589,012853,056732,074806
0000000100,0000099000,092731,-07981,081461,017744,045761,080886
0000000101,0000100000,078289,020687,080039,025435,035126,083832
0000000102,0000101000,056787,048040,079453,035184,025844,083364
0000000103,0000102000,030507,071214,079764,046027,018836,079529
0000000104,0000103000,002009,087948,080941,056891,014800,072701
0000000105,0000104000,-26105,096736,082873,066732,014119,063540
0000000106,0000105000,-50959,096624,085370,074590,016855,052947
0000000107,0000106000,-70043,087628,088178,079675,022746,041970
0000000108,0000107000,-81624,070674,091031,081497,031220,031675
0000000109,0000108000,-84528,047344,093654,079888,041445,023059
0000000110,0000109000,-78425,019968,095782,075000,052413,016979
0000000111,0000110000,-63987,-08704,097205,067307,063052,014033
0000000112,0000111000,-42557,-35984,097791,057561,072331,014500
0000000113,0000112000,-16227,-59207,097480,046722,079336,018334
0000000114,0000113000,012310,-75986,096304,035856,083376,025160
0000000115,0000114000,040354,-84706,094371,026015,084058,034319
0000000116,0000115000,065225,-84603,091874,018162,081320,044911
0000000117,0000116000,084374,-75673,089066,013074,075432,055886
0000000118,0000117000,095902,-58670,086213,011249,066963,066180
0000000119,0000118000,098784,-35308,083589,012860,056736,074795
0000000120,0000119000,092755,-08003,081461,017747,045769,080875
0000000121,0000120000,078297,020687,080038,025435,035136,083822
0000000122,0000121000,056812,048030,079452,035181,025855,083356
0000000123,0000122000,030536,071203,079762,046020,018848,079524
0000000124,0000123000,002013,087964,080939,056881,014811,072700
0000000125,0000124000,-26099,096754,082871,066722,014127,063543
0000000126,0000125000,-50945,096630,085368,074578,016861,052953
0000000127,0000126000,-70052,087653,088176,079663,022749,041980
0000000128,0000127000,-81644,070707,091030,081487,031218,031687
0000000129,0000128000,-84535,047357,093654,079881,041439,023072
0000000130,0000129000,-78446,019986,095782,074995,052404,016992
0000000131,0000130000,-64023,-08678,097206,067307,063040,014045
0000000132,0000131000,-42576,-35982,097792,057566,072317,014509
0000000133,0000132000,-16241,-59215,097482,046730,079323,018339
0000000134,0000133000,012282,-75985,096307,035868,083363,025161
0000000135,0000134000,040343,-84720,094374,026030,084047,034316
0000000136,0000135000,065233,-84635,091876,018176,081313,044903
0000000137,0000136000,084373,-75694,089068,013088,075430,055874
0000000138,0000137000,095911,-58691,086215,011262,066964,066166
0000000139,0000138000,098815,-35344,083589,012870,056742,074780
0000000140,0000139000,092779,-08025,081461,017752,045780,080860
0000000141,0000140000,078317,020680,080037,025435,035149,083808
0000000142,0000141000,056848,048015,079450,035176,025870,083346
0000000143,0000142000,030567,071198,079760,046010,018864,079518
0000000144,0000143000,002024,087984,080936,056868,014826,072698
0000000145,0000144000,-26085,096771,082868,066706,014139,063546
0000000146,0000145000,-50934,096647,085365,074560,016869,052962
0000000147,0000146000,-70067,087690,088174,079647,022753,041993
0000000148,0000147000,-81662,070742,091028,081474,031215,031703
0000000149,0000148000,-84550,047378,093653,079871,041431,023090
0000000150,0000149000,-78480,020015,095783,074990,052392,017010
0000000151,0000150000,-64064,-08650,097208,067308,063023,014060
0000000152,0000151000,-42601,-35979,097795,057573,072298,014521
0000000153,0000152000,-16269,-59218,097485,046741,079304,018346
0000000154,0000153000,012250,-75987,096310,035884,083346,025163
0000000155,0000154000,040333,-84745,094377,026049,084032,034311
0000000156,0000155000,065235,-84670,091880,018196,081303,044893
0000000157,0000156000,084373,-75721,089071,013107,075426,055859
0000000158,0000157000,095929,-58727,086216,011278,066966,066147
0000000159,0000158000,098851,-35388,083590,012881,056751,074759
0000000160,0000159000,092809,-08051,081461,017757,045795,080840
0000000161,0000160000,078350,020663,080035,025435,035167,083790
0000000162,0000161000,056894,047995,079447,035170,025891,083332
0000000163,0000162000,030599,071199,079756,045997,018886,079509
0000000164,0000163000,002043,088004,080932,056850,014846,072696
0000000165,0000164000,-26063,096790,082864,066685,014155,063551
0000000166,0000165000,-50927,096677,085362,074538,016880,052973
0000000167,0000166000,-70084,087738,088171,079625,022757,042010
0000000168,0000167000,-81681,070783,091026,081457,031212,031724
0000000169,0000168000,-84575,047412,093652,079858,041422,023113
0000000170,0000169000,-78525,020055,095783,074983,052377,017033
0000000171,0000170000,-64109,-08622,097210,067309,063002,014080
0000000172,0000171000,-42637,-35973,097798,057581,072274,014537
0000000173,0000172000,-16310,-59217,097489,046756,079281,018356
0000000174,0000173000,012215,-75996,096314,035904,083323,025165
0000000175,0000174000,040321,-84778,094382,026073,084014,034306
0000000176,0000175000,065231,-84710,091884,018221,081292,044880
0000000177,0000176000,084376,-75759,089074,013131,075421,055840
0000000178,0000177000,095957,-58778,086219,011299,066969,066123
0000000179,0000178000,098892,-35439,083591,012896,056762,074733
0000000180,0000179000,092847,-08084,081460,017765,045813,080814
0000000181,0000180000,078399,020635,080033,025435,035190,083767
0000000182,0000181000,056948,047974,079444,035161,025917,083314
0000000183,0000182000,030638,071203,079752,045980,018913,079499
0000000184,0000183000,002073,088024,080927,056828,014870,072694
0000000185,0000184000,-26036,096814,082859,066659,014175,063558
0000000186,0000185000,-50924,096719,085357,074510,016894,052988
0000000187,0000186000,-70101,087794,088167,079599,022762,042031
0000000188,0000187000,-81704,070832,091023,081434,031208,031750
0000000189,0000188000,-84613,047459,093651,079841,041410,023142
0000000190,0000189000,-78581,020104,095784,074975,052357,017061
0000000191,0000190000,-64163,-08591,097212,067310,062976,014106
0000000192,0000191000,-42686,-35962,097801,057590,072245,014556
0000000193,0000192000,-16363,-59213,097494,046774,079251,018367
0000000194,0000193000,012176,-76011,096320,035930,083295,025167
0000000195,0000194000,040304,-84817,094387,026102,083992,034298
0000000196,0000195000,065224,-84755,091889,018251,081277,044864
0000000197,0000196000,084385,-75810,089079,013161,075415,055816
0000000198,0000197000,095992,-58841,086221,011325,066973,066094
0000000199,0000198000,098937,-35497,083593,012914,056776,074701
0000000200,0000199000,092897,-08126,081459,017774,045835,080783
0000000201,0000200000,078463,020598,080030,025434,035218,083740
0000000202,0000201000,057012,047951,079440,035150,025950,083293
0000000203,0000202000,030686,071209,079747,045960,018946,079486
0000000204,0000203000,002115,088045,080920,056801,014900,072691
0000000205,0000204000,-26005,096846,082852,066626,014199,063566
0000000206,0000205000,-50921,096774,085351,074475,016911,053006
0000000207,0000206000,-70119,087859,088162,079567,022768,042057
0000000208,0000207000,-81732,070893,091020,081407,031203,031783
0000000209,0000208000,-84663,047521,093650,079821,041395,023177
0000000210,0000209000,-78647,020163,095785,074965,052332,017095
0000000211,0000210000,-64226,-08555,097214,067312,062944,014136
0000000212,0000211000,-42750,-35943,097806,057602,072210,014580
0000000213,0000212000,-16427,-59209,097500,046796,079215,018381
0000000214,0000213000,012131,-76034,096327,035960,083262,025170
0000000215,0000214000,040280,-84863,094394,026138,083965,034290
0000000216,0000215000,065213,-84809,091896,018289,081259,044844
0000000217,0000216000,084400,-75876,089084,013197,075408,055787
0000000218,0000217000,096033,-58918,086225,011355,066978,066058
0000000219,0000218000,098990,-35564,083594,012936,056793,074663
0000000220,0000219000,092961,-08181,081458,017785,045862,080745
0000000221,0000220000,078541,020551,080027,025433,035253,083706
0000000222,0000221000,057085,047927,079435,035136,025989,083267
0000000223,0000222000,030747,071214,079740,045935,018986,079471
0000000224,0000223000,002168,088068,080913,056768,014936,072688
0000000225,0000224000,-25971,096888,082845,066587,014229,063575
0000000226,0000225000,-50917,096840,085344,074434,016931,053027
0000000227,0000226000,-70136,087935,088156,079528,022775,042089
0000000228,0000227000,-81767,070968,091016,081373,031197,031822
0000000229,0000228000,-84725,047599,093649,079797,041377,023219
0000000230,0000229000,-78723,020230,095786,074953,052302,017137
0000000231,0000230000,-64303,-08511,097218,067313,062906,014173
0000000232,0000231000,-42830,-35918,097811,057617,072167,014607
0000000233,0000232000,-16501,-59206,097507,046823,079171,018398
0000000234,0000233000,012079,-76063,096335,035997,083222,025173
0000000235,0000234000,040247,-84915,094403,026180,083933,034279
0000000236,0000235000,065201,-84874,091903,018334,081238,044820
0000000237,0000236000,084419,-75958,089090,013239,075400,055753
0000000238,0000237000,096079,-59008,086229,011391,066984,066016
0000000239,0000238000,099051,-35644,083596,012961,056813,074617
0000000240,0000239000,093040,-08250,081457,017799,045894,080700
0000000241,0000240000,078632,020495,080023,025432,035294,083667
0000000242,0000241000,057171,047900,079429,035120,026036,083237
0000000243,0000242000,030821,071218,079732,045907,019033,079453
0000000244,0000243000,002231,088093,080904,056728,014979,072685
0000000245,0000244000,-25933,096941,082836,066541,014264,063587
0000000246,0000245000,-50912,096918,085336,074386,016953,053053
0000000247,0000246000,-70154,088022,088150,079482,022784,042126
0000000248,0000247000,-81812,071059,091011,081335,031191,031867
0000000249,0000248000,-84798,047691,093647,079769,041355,023268
0000000250,0000249000,-78810,020307,095787,074939,052268,017185
0000000251,0000250000,-64395,-08458,097222,067315,062862,014215
0000000252,0000251000,-42927,-35887,097818,057634,072118,014640
0000000253,0000252000,-16587,-59205,097516,046855,079120,018417
0000000254,0000253000,012016,-76097,096344,036040,083176,025177
0000000255,0000254000,040206,-84973,094413,026230,083896,034267
0000000256,0000255000,065188,-84951,091912,018386,081213,044793
0000000257,0000256000,084443,-76056,089098,013289,075390,055713
0000000258,0000257000,096130,-59111,086235,011432,066992,065967
0000000259,0000258000,099124,-35738,083598,012991,056837,074564
0000000260,0000259000,093135,-08333,081456,017814,045931,080648
0000000261,0000260000,078738,020431,080019,025430,035342,083621
0000000262,0000261000,057271,047870,079422,035101,026090,083202
0000000263,0000262000,030912,071219,079723,045873,019087,079432
0000000264,0000263000,002306,088123,080893,056682,015028,072681
0000000265,0000264000,-25890,097004,082825,066487,014304,063600
0000000266,0000265000,-50902,097008,085326,074330,016980,053082
0000000267,0000266000,-70174,088123,088141,079429,022793,042170
0000000268,0000267000,-81866,071168,091006,081290,031183,031920
0000000269,0000268000,-84882,047799,093644,079737,041330,023326
0000000270,0000269000,-78910,020395,095788,074924,052227,017241
0000000271,0000270000,-64505,-08394,097226,067317,062810,014265
0000000272,0000271000,-43040,-35849,097825,057654,072060,014678
0000000273,0000272000,-16685,-59204,097525,046891,079062,018439
0000000274,0000273000,011942,-76134,096356,036089,083122,025181
0000000275,0000274000,040156,-85038,094424,026288,083853,034252
0000000276,0000275000,065174,-85043,091923,018446,081185,044761
0000000277,0000276000,084469,-76170,089106,013346,075380,055666
0000000278,0000277000,096188,-59229,086241,011480,067001,065910
0000000279,0000278000,099208,-35848,083601,013025,056864,074502
0000000280,0000279000,093246,-08432,081455,017831,045974,080588
0000000281,0000280000,078859,020358,080015,025427,035397,083568
0000000282,0000281000,057387,047833,079414,035079,026152,083161
0000000283,0000282000,031018,071219,079712,045834,019149,079409
0000000284,0000283000,002391,088159,080881,056629,015085,072677
0000000285,0000284000,-25840,097076,082813,066425,014350,063616
0000000286,0000285000,-50889,097108,085315,074265,017009,053117
0000000287,0000286000,-70197,088240,088132,079369,022804,042219
0000000288,0000287000,-81928,071295,090999,081238,031173,031981
0000000289,0000288000,-84977,047922,093642,079701,041301,023391
0000000290,0000289000,-79025,020498,095789,074906,052181,017305
0000000291,0000290000,-64633,-08317,097231,067319,062751,014321
0000000292,0000291000,-43169,-35804,097834,057677,071994,014720
0000000293,0000292000,-16798,-59204,097537,046933,078995,018464
0000000294,0000293000,011854,-76175,096368,036145,083062,025185
0000000295,0000294000,040098,-85112,094437,026353,083804,034235
0000000296,0000295000,065159,-85149,091935,018515,081153,044724
0000000297,0000296000,084498,-76299,089116,013410,075369,055613
0000000298,0000297000,096252,-59364,086248,011535,067011,065846
0000000299,0000298000,099307,-35977,083604,013064,056895,074432
0000000300,0000299000,093373,-08545,081454,017849,046023,080520
0000000301,0000300000,078996,020274,080009,025424,035460,083508
