DIgSILENT PowerFactory,21000900,2000
6,06A,00D
1,TTPP_200000_100:Secondary Voltage A,,,V,0.010000000,-67.889305,0.000000,-86352,99998,1,1,P
2,TTPP_200000_100:Secondary Voltage B,,,V,0.010000000,-8.387165,0.000000,-93861,99998,1,1,P
3,TTPP_200000_100:Secondary Voltage C,,,V,0.10000000,-8985.043945,0.000000,79759,99998,1,1,P
4,TTCC_500_5:Secondary Current A,,,A,0.0010000000,-82.877113,0.000000,56760,99998,1,1,P
5,TTCC_500_5:Secondary Current B,,,A,0.0010000000,-84.781174,0.000000,69544,99998,1,1,P
6,TTCC_500_5:Secondary Current C,,,A,0.0010000000,-84.659477,0.000000,69290,99998,1,1,P
50
1
1000.000000,1101
30/06/2023,06:03:29.000000
30/06/2023,06:03:29.000000
ASCII
1.000000
0000000001,0000000000,061936,037215,080698,088795,089458,074065
0000000002,0000001000,036468,061544,080811,085780,092175,074363
0000000003,0000002000,007934,080117,081808,082481,094169,075667
0000000004,0000003000,-20576,090792,083591,079225,095241,077852
0000000005,0000004000,-46316,092532,085992,076323,095289,080706
0000000006,0000005000,-67052,085482,088769,074059,094314,083945
0000000007,0000006000,-80551,070229,091645,072663,092403,087252
0000000008,0000007000,-85359,047973,094351,072269,089741,090307
0000000009,0000008000,-81209,021122,096621,072910,086597,092811
0000000010,0000009000,-68546,-07545,098222,074526,083277,094514
0000000011,0000010000,-48375,-35516,099002,076963,080102,095253
0000000012,0000011000,-22753,-60004,098889,079978,077385,094955
0000000013,0000012000,005557,-78362,097893,083274,075393,093650
0000000014,0000013000,034029,-88999,096110,086534,074318,091466
0000000015,0000014000,060014,-90980,093709,089438,074268,088612
0000000016,0000015000,080671,-83858,090932,091696,075249,085372
0000000017,0000016000,094039,-68456,088055,093093,077159,082066
0000000018,0000017000,098982,-46339,085349,093490,079817,079011
0000000019,0000018000,094818,-19484,083080,092846,082965,076507
0000000020,0000019000,082014,009324,081479,091231,086284,074803
0000000021,0000020000,061978,037170,080699,088797,089455,074065
0000000022,0000021000,036450,061564,080811,085779,092176,074363
0000000023,0000022000,007957,080103,081808,082480,094170,075667
0000000024,0000023000,-20517,090748,083590,079224,095241,077852
0000000025,0000024000,-46357,092574,085992,076320,095291,080706
0000000026,0000025000,-67115,085551,088770,074059,094314,083945
0000000027,0000026000,-80526,070201,091646,072665,092401,087252
0000000028,0000027000,-85305,047925,094351,072268,089742,090307
0000000029,0000028000,-81218,021139,096621,072908,086599,092811
0000000030,0000029000,-68559,-07525,098222,074526,083277,094514
0000000031,0000030000,-48370,-35518,099002,076962,080103,095253
0000000032,0000031000,-22789,-59974,098890,079977,077386,094955
0000000033,0000032000,005552,-78356,097894,083275,075392,093651
0000000034,0000033000,034085,-89053,096110,086534,074318,091466
0000000035,0000034000,060021,-90982,093709,089435,074270,088612
0000000036,0000035000,080631,-83818,090932,091696,075249,085373
0000000037,0000036000,094037,-68454,088055,093093,077158,082066
0000000038,0000037000,098987,-46350,085350,093489,079818,079011
0000000039,0000038000,094818,-19487,083080,092846,082964,076507
0000000040,0000039000,082044,009300,081478,091231,086283,074804
0000000041,0000040000,061991,037157,080698,088795,089457,074065
0000000042,0000041000,036416,061599,080811,085778,092176,074363
0000000043,0000042000,007941,080117,081807,082482,094169,075667
0000000044,0000043000,-20488,090720,083590,079224,095241,077852
0000000045,0000044000,-46351,092569,085991,076320,095292,080706
0000000046,0000045000,-67119,085561,088769,074059,094314,083945
0000000047,0000046000,-80514,070192,091645,072664,092402,087252
0000000048,0000047000,-85328,047945,094351,072268,089743,090307
0000000049,0000048000,-81248,021167,096621,072909,086598,092810
0000000050,0000049000,-68535,-07552,098222,074526,083278,094514
0000000051,0000050000,-48351,-35538,099002,076961,080104,095253
0000000052,0000051000,-22818,-59949,098890,079976,077387,094955
0000000053,0000052000,005543,-78350,097894,083274,075393,093651
0000000054,0000053000,034089,-89066,096111,086533,074319,091466
0000000055,0000054000,060001,-90970,093710,089434,074271,088613
0000000056,0000055000,080635,-83826,090932,091695,075249,085373
0000000057,0000056000,094070,-68491,088055,093092,077159,082067
0000000058,0000057000,098978,-46343,085350,093487,079818,079012
0000000059,0000058000,094791,-19462,083080,092846,082964,076508
0000000060,0000059000,082066,009280,081479,091231,086283,074805
0000000061,0000060000,062009,037139,080698,088795,089456,074066
0000000062,0000061000,036409,061612,080811,085778,092176,074364
0000000063,0000062000,007961,080106,081806,082482,094168,075668
0000000064,0000063000,-20474,090713,083590,079224,095241,077853
0000000065,0000064000,-46377,092601,085991,076321,095291,080706
0000000066,0000065000,-67120,085570,088768,074060,094313,083945
0000000067,0000066000,-80486,070172,091644,072665,092402,087251
0000000068,0000067000,-85336,047958,094351,072268,089744,090306
0000000069,0000068000,-81268,021192,096621,072909,086599,092810
0000000070,0000069000,-68530,-07557,098222,074526,083278,094513
0000000071,0000070000,-48365,-35529,099003,076961,080105,095252
0000000072,0000071000,-22843,-59930,098891,079976,077388,094954
0000000073,0000072000,005555,-78368,097895,083274,075394,093650
0000000074,0000073000,034096,-89081,096112,086531,074321,091466
0000000075,0000074000,059973,-90953,093711,089433,074272,088613
0000000076,0000075000,080631,-83830,090933,091694,075249,085374
0000000077,0000076000,094087,-68517,088056,093091,077159,082068
0000000078,0000077000,098973,-46345,085351,093486,079819,079013
0000000079,0000078000,094798,-19470,083081,092845,082963,076510
0000000080,0000079000,082095,009253,081478,091230,086282,074806
0000000081,0000080000,062010,037141,080698,088795,089456,074067
0000000082,0000081000,036403,061625,080810,085779,092174,074365
0000000083,0000082000,007988,080090,081805,082483,094167,075668
0000000084,0000083000,-20456,090707,083588,079225,095240,077853
0000000085,0000084000,-46385,092623,085990,076322,095290,080705
0000000086,0000085000,-67113,085576,088767,074062,094312,083944
0000000087,0000086000,-80480,070176,091643,072666,092402,087250
0000000088,0000087000,-85360,047988,094350,072269,089744,090305
0000000089,0000088000,-81278,021206,096620,072910,086600,092808
0000000090,0000089000,-68524,-07564,098222,074526,083280,094512
0000000091,0000090000,-48389,-35512,099004,076960,080107,095250
0000000092,0000091000,-22871,-59911,098892,079975,077390,094953
0000000093,0000092000,005553,-78379,097896,083273,075396,093650
0000000094,0000093000,034084,-89087,096113,086529,074323,091466
0000000095,0000094000,059953,-90950,093713,089431,074273,088613
0000000096,0000095000,080641,-83855,090935,091692,075250,085375
0000000097,0000096000,094097,-68542,088058,093088,077160,082070
0000000098,0000097000,098963,-46346,085352,093484,079818,079015
0000000099,0000098000,094811,-19487,083081,092844,082962,076512
0000000100,0000099000,082126,009222,081478,091229,086280,074808
0000000101,0000100000,062021,037137,080697,088794,089454,074069
0000000102,0000101000,036417,061625,080809,085780,092172,074366
0000000103,0000102000,008019,080077,081804,082484,094164,075669
0000000104,0000103000,-20448,090717,083587,079227,095238,077853
0000000105,0000104000,-46388,092647,085988,076324,095289,080705
0000000106,0000105000,-67097,085580,088765,074064,094311,083943
0000000107,0000106000,-80479,070190,091642,072668,092401,087248
0000000108,0000107000,-85385,048025,094349,072271,089745,090302
0000000109,0000108000,-81290,021225,096620,072912,086601,092805
0000000110,0000109000,-68536,-07554,098222,074527,083282,094509
0000000111,0000110000,-48424,-35487,099004,076960,080110,095248
0000000112,0000111000,-22895,-59902,098893,079974,077392,094952
0000000113,0000112000,005545,-78393,097898,083271,075399,093649
0000000114,0000113000,034059,-89087,096116,086526,074326,091466
0000000115,0000114000,059933,-90954,093715,089428,074275,088614
0000000116,0000115000,080649,-83886,090937,091689,075252,085377
0000000117,0000116000,094103,-68569,088060,093085,077161,082072
0000000118,0000117000,098966,-46362,085353,093482,079818,079018
0000000119,0000118000,094839,-19520,083081,092842,082961,076515
0000000120,0000119000,082156,009193,081478,091228,086278,074812
0000000121,0000120000,062036,037132,080696,088794,089451,074072
0000000122,0000121000,036447,061614,080807,085781,092168,074368
0000000123,0000122000,008056,080064,081801,082486,094161,075671
0000000124,0000123000,-20435,090733,083584,079230,095235,077853
0000000125,0000124000,-46380,092671,085984,076328,095286,080704
0000000126,0000125000,-67083,085595,088762,074068,094309,083941
0000000127,0000126000,-80488,070222,091640,072672,092401,087245
0000000128,0000127000,-85409,048066,094347,072274,089745,090299
0000000129,0000128000,-81304,021247,096619,072914,086602,092801
0000000130,0000129000,-68562,-07532,098223,074528,083285,094505
0000000131,0000130000,-48468,-35455,099006,076960,080114,095245
0000000132,0000131000,-22925,-59893,098895,079973,077396,094949
0000000133,0000132000,005523,-78401,097901,083268,075403,093647
0000000134,0000133000,034027,-89090,096119,086523,074330,091465
0000000135,0000134000,059916,-90972,093718,089424,074278,088615
0000000136,0000135000,080655,-83925,090940,091685,075254,085379
0000000137,0000136000,094104,-68599,088063,093081,077162,082075
0000000138,0000137000,098976,-46392,085355,093478,079817,079022
0000000139,0000138000,094876,-19565,083082,092840,082959,076520
0000000140,0000139000,082192,009160,081478,091226,086275,074816
0000000141,0000140000,062066,037118,080695,088794,089447,074076
0000000142,0000141000,036491,061597,080804,085783,092164,074371
0000000143,0000142000,008096,080058,081798,082489,094156,075673
0000000144,0000143000,-20417,090754,083580,079234,095231,077854
0000000145,0000144000,-46361,092694,085980,076333,095282,080703
0000000146,0000145000,-67069,085619,088758,074073,094307,083938
0000000147,0000146000,-80503,070268,091637,072676,092400,087241
0000000148,0000147000,-85434,048114,094345,072278,089746,090294
0000000149,0000148000,-81328,021280,096618,072917,086604,092796
0000000150,0000149000,-68604,-07495,098223,074529,083289,094500
0000000151,0000150000,-48520,-35420,099008,076959,080118,095240
0000000152,0000151000,-22962,-59885,098898,079971,077401,094945
0000000153,0000152000,005485,-78403,097905,083264,075408,093645
0000000154,0000153000,033986,-89095,096124,086518,074335,091465
0000000155,0000154000,059899,-91001,093723,089419,074282,088617
0000000156,0000155000,080656,-83971,090945,091679,075256,085382
0000000157,0000156000,094107,-68639,088067,093075,077163,082080
0000000158,0000157000,098999,-46439,085357,093474,079816,079028
0000000159,0000158000,094921,-19621,083083,092836,082956,076526
0000000160,0000159000,082235,009121,081478,091224,086272,074822
0000000161,0000160000,062111,037093,080693,088795,089442,074081
0000000162,0000161000,036550,061573,080801,085785,092158,074375
0000000163,0000162000,008143,080056,081793,082492,094150,075675
0000000164,0000163000,-20388,090777,083574,079239,095225,077854
0000000165,0000164000,-46334,092722,085975,076339,095278,080701
0000000166,0000165000,-67058,085658,088753,074079,094304,083935
0000000167,0000166000,-80521,070328,091632,072682,092399,087236
0000000168,0000167000,-85461,048171,094342,072283,089746,090288
0000000169,0000168000,-81362,021327,096617,072921,086607,092790
0000000170,0000169000,-68662,-07443,098224,074531,083293,094494
0000000171,0000170000,-48582,-35381,099010,076959,080124,095234
0000000172,0000171000,-23013,-59872,098902,079969,077408,094941
0000000173,0000172000,005432,-78403,097910,083260,075415,093642
0000000174,0000173000,033939,-89107,096130,086512,074341,091464
0000000175,0000174000,059878,-91041,093729,089412,074287,088618
0000000176,0000175000,080651,-84024,090950,091672,075260,085386
0000000177,0000176000,094113,-68692,088071,093068,077164,082085
0000000178,0000177000,099032,-46503,085361,093468,079815,079035
0000000179,0000178000,094973,-19688,083085,092832,082953,076533
0000000180,0000179000,082288,009074,081477,091222,086266,074829
0000000181,0000180000,062175,037056,080690,088795,089435,074088
0000000182,0000181000,036621,061545,080796,085787,092150,074380
0000000183,0000182000,008198,080057,081788,082497,094143,075678
0000000184,0000183000,-20346,090803,083568,079245,095218,077855
0000000185,0000184000,-46300,092756,085968,076347,095272,080700
0000000186,0000185000,-67050,085712,088747,074087,094300,083931
0000000187,0000186000,-80541,070400,091627,072690,092398,087230
0000000188,0000187000,-85492,048239,094338,072290,089747,090280
0000000189,0000188000,-81411,021391,096615,072925,086611,092781
0000000190,0000189000,-68733,-07379,098225,074533,083299,094485
0000000191,0000190000,-48655,-35337,099013,076959,080132,095227
0000000192,0000191000,-23080,-59854,098907,079966,077416,094936
0000000193,0000192000,005364,-78399,097917,083255,075424,093639
0000000194,0000193000,033885,-89126,096137,086505,074349,091464
0000000195,0000194000,059852,-91090,093737,089404,074294,088620
0000000196,0000195000,080641,-84086,090958,091663,075264,085391
0000000197,0000196000,094124,-68761,088077,093060,077166,082092
0000000198,0000197000,099075,-46586,085365,093461,079814,079043
0000000199,0000198000,095034,-19766,083087,092827,082949,076542
0000000200,0000199000,082357,009013,081476,091220,086260,074838
0000000201,0000200000,062258,037006,080687,088795,089426,074096
0000000202,0000201000,036706,061515,080791,085790,092141,074387
0000000203,0000202000,008266,080061,081781,082503,094133,075682
0000000204,0000203000,-20291,090830,083560,079253,095209,077855
0000000205,0000204000,-46260,092800,085959,076356,095265,080697
0000000206,0000205000,-67042,085782,088739,074097,094296,083926
0000000207,0000206000,-80562,070487,091621,072699,092396,087223
0000000208,0000207000,-85531,048323,094334,072298,089749,090271
0000000209,0000208000,-81476,021474,096613,072931,086615,092771
0000000210,0000209000,-68819,-07302,098225,074536,083306,094476
0000000211,0000210000,-48742,-35285,099016,076959,080141,095218
0000000212,0000211000,-23166,-59829,098913,079962,077427,094929
0000000213,0000212000,005280,-78395,097925,083248,075435,093635
0000000214,0000213000,033822,-89153,096146,086496,074358,091463
0000000215,0000214000,059817,-91149,093746,089393,074301,088623
0000000216,0000215000,080628,-84159,090966,091652,075269,085396
0000000217,0000216000,094141,-68848,088084,093049,077168,082101
0000000218,0000217000,099126,-46686,085369,093452,079813,079053
0000000219,0000218000,095104,-19859,083089,092820,082944,076553
0000000220,0000219000,082442,008938,081475,091217,086252,074849
0000000221,0000220000,062359,036945,080683,088796,089416,074105
0000000222,0000221000,036805,061481,080784,085794,092129,074394
0000000223,0000222000,008349,080064,081772,082510,094122,075686
0000000224,0000223000,-20221,090860,083550,079263,095199,077856
0000000225,0000224000,-46214,092855,085949,076367,095256,080694
0000000226,0000225000,-67034,085868,088730,074109,094290,083919
0000000227,0000226000,-80584,070587,091613,072711,092394,087213
0000000228,0000227000,-85578,048424,094328,072307,089750,090260
0000000229,0000228000,-81555,021576,096611,072938,086621,092759
0000000230,0000229000,-68920,-07212,098226,074539,083315,094464
0000000231,0000230000,-48846,-35223,099020,076958,080152,095208
0000000232,0000231000,-23272,-59795,098920,079958,077439,094921
0000000233,0000232000,005181,-78390,097934,083240,075447,093631
0000000234,0000233000,033749,-89188,096157,086486,074370,091462
0000000235,0000234000,059773,-91216,093757,089381,074311,088626
0000000236,0000235000,080612,-84246,090977,091639,075276,085403
0000000237,0000236000,094164,-68956,088093,093037,077170,082111
0000000238,0000237000,099185,-46804,085375,093442,079811,079065
0000000239,0000238000,095187,-19967,083091,092813,082938,076567
0000000240,0000239000,082546,008846,081474,091213,086243,074862
0000000241,0000240000,062479,036871,080678,088796,089404,074117
0000000242,0000241000,036921,061442,080777,085799,092116,074403
0000000243,0000242000,008449,080067,081762,082518,094109,075691
0000000244,0000243000,-20138,090895,083538,079275,095186,077857
0000000245,0000244000,-46161,092923,085937,076380,095246,080691
0000000246,0000245000,-67024,085969,088719,074122,094284,083912
0000000247,0000246000,-80608,070704,091603,072724,092391,087203
0000000248,0000247000,-85636,048545,094322,072318,089753,090247
0000000249,0000248000,-81649,021697,096608,072945,086627,092745
0000000250,0000249000,-69036,-07108,098228,074543,083325,094450
0000000251,0000250000,-48969,-35150,099025,076958,080164,095196
0000000252,0000251000,-23399,-59753,098929,079953,077454,094912
0000000253,0000252000,005066,-78387,097945,083231,075461,093625
0000000254,0000253000,033663,-89230,096170,086473,074383,091461
0000000255,0000254000,059718,-91293,093770,089366,074321,088630
0000000256,0000255000,080594,-84349,090989,091624,075283,085411
0000000257,0000256000,094192,-69083,088103,093023,077172,082122
0000000258,0000257000,099253,-46941,085382,093430,079808,079080
0000000259,0000258000,095283,-20093,083094,092804,082932,076582
0000000260,0000259000,082670,008735,081473,091209,086232,074877
0000000261,0000260000,062619,036786,080672,088797,089391,074130
0000000262,0000261000,037055,061399,080768,085804,092101,074413
0000000263,0000262000,008569,080068,081750,082528,094093,075697
0000000264,0000263000,-20039,090934,083524,079288,095172,077858
0000000265,0000264000,-46101,093004,085923,076396,095235,080687
0000000266,0000265000,-67010,086086,088706,074139,094276,083903
0000000267,0000266000,-80635,070840,091593,072739,092389,087190
0000000268,0000267000,-85706,048689,094315,072331,089755,090231
0000000269,0000268000,-81759,021839,096605,072955,086635,092728
0000000270,0000269000,-69169,-06988,098229,074548,083336,094434
0000000271,0000270000,-49115,-35063,099031,076957,080179,095182
0000000272,0000271000,-23547,-59703,098938,079947,077470,094901
0000000273,0000272000,004935,-78384,097958,083221,075478,093619
0000000274,0000273000,033563,-89277,096184,086459,074398,091460
0000000275,0000274000,059653,-91380,093786,089350,074334,088634
0000000276,0000275000,080574,-84470,091003,091607,075290,085421
0000000277,0000276000,094224,-69232,088114,093007,077175,082136
0000000278,0000277000,099329,-47098,085390,093416,079806,079096
0000000279,0000278000,095396,-20241,083098,092795,082924,076600
0000000280,0000279000,082815,008606,081471,091204,086219,074894
0000000281,0000280000,062779,036688,080666,088798,089375,074145
0000000282,0000281000,037210,061348,080757,085811,092083,074424
0000000283,0000282000,008709,080066,081736,082539,094075,075703
0000000284,0000283000,-19926,090980,083508,079303,095156,077859
0000000285,0000284000,-46033,093099,085907,076414,095222,080682
0000000286,0000285000,-66991,086219,088690,074157,094268,083893
0000000287,0000286000,-80665,070995,091580,072756,092386,087176
0000000288,0000287000,-85786,048856,094306,072346,089758,090214
0000000289,0000288000,-81883,022001,096601,072965,086643,092710
0000000290,0000289000,-69322,-06851,098231,074553,083350,094415
0000000291,0000290000,-49283,-34962,099038,076956,080196,095166
0000000292,0000291000,-23717,-59645,098950,079940,077489,094889
0000000293,0000292000,004784,-78381,097973,083209,075497,093612
0000000294,0000293000,033445,-89330,096201,086443,074416,091459
0000000295,0000294000,059577,-91478,093803,089331,074348,088639
0000000296,0000295000,080552,-84609,091019,091587,075299,085431
0000000297,0000296000,094260,-69402,088128,092988,077178,082151
0000000298,0000297000,099414,-47277,085400,093400,079803,079115
0000000299,0000298000,095525,-20410,083102,092784,082915,076620
0000000300,0000299000,082981,008456,081469,091199,086205,074914
0000000301,0000300000,062961,036576,080659,088799,089357,074162
