DIgSILENT PowerFactory,21000900,2000
6,06A,00D
1,TTPP_200000_100:Secondary Voltage A,,,V,0.10000000,-8390.874023,0.000000,67155,99998,1,1,P
2,TTPP_200000_100:Secondary Voltage B,,,V,0.10000000,-8149.763672,0.000000,65023,99998,1,1,P
3,TTPP_200000_100:Secondary Voltage C,,,V,0.10000000,-8384.707031,0.000000,67137,99998,1,1,P
4,TTCC_500_5:Secondary Current A,,,A,0.0010000000,-87.346504,0.000000,69145,99998,1,1,P
5,TTCC_500_5:Secondary Current B,,,A,0.0010000000,-85.144485,0.000000,70251,99998,1,1,P
6,TTCC_500_5:Secondary Current C,,,A,0.0010000000,-84.818306,0.000000,69466,99998,1,1,P
50
1
1000.000000,1101
30/06/2023,06:07:32.000000
30/06/2023,06:07:32.000000
ASCII
1.000000
0000000001,0000000000,089421,085138,074695,093262,089824,074223
0000000002,0000001000,086873,087572,074809,090247,092540,074522
0000000003,0000002000,084021,089427,075807,086947,094535,075827
0000000004,0000003000,081176,090488,077589,083692,095604,078013
0000000005,0000004000,078592,090671,079991,080788,095654,080867
0000000006,0000005000,076520,089964,082769,078527,094675,084107
0000000007,0000006000,075173,088434,085645,077134,092762,087413
0000000008,0000007000,074700,086203,088350,076738,090103,090468
0000000009,0000008000,075108,083525,090619,077379,086959,092971
0000000010,0000009000,076376,080658,092220,078997,083638,094674
0000000011,0000010000,078396,077860,092999,081435,080463,095412
0000000012,0000011000,080957,075411,092885,084449,077747,095113
0000000013,0000012000,083785,073580,091889,087748,075754,093808
0000000014,0000013000,086639,072509,090104,091006,074681,091622
0000000015,0000014000,089237,072314,087703,093908,074633,088768
0000000016,0000015000,091296,073033,084925,096166,075614,085529
0000000017,0000016000,092632,074573,082049,097565,077522,082222
0000000018,0000017000,093130,076780,079344,097959,080183,079167
0000000019,0000018000,092711,079467,077075,097315,083330,076664
0000000020,0000019000,091429,082350,075474,095698,086650,074961
0000000021,0000020000,089426,085131,074695,093264,089821,074223
0000000022,0000021000,086872,087573,074808,090245,092542,074522
0000000023,0000022000,084020,089428,075806,086948,094534,075827
0000000024,0000023000,081176,090488,077590,083691,095605,078013
0000000025,0000024000,078594,090668,079992,080788,095654,080867
0000000026,0000025000,076516,089968,082769,078526,094676,084107
0000000027,0000026000,075177,088432,085645,077133,092763,087413
0000000028,0000027000,074698,086204,088351,076737,090104,090468
0000000029,0000028000,075108,083526,090619,077379,086959,092971
0000000030,0000029000,076376,080658,092219,078997,083638,094674
0000000031,0000030000,078397,077857,092999,081433,080464,095412
0000000032,0000031000,080952,075415,092886,084449,077747,095113
0000000033,0000032000,083788,073577,091888,087747,075754,093808
0000000034,0000033000,086641,072507,090104,091005,074681,091623
0000000035,0000034000,089233,072317,087703,093907,074634,088769
0000000036,0000035000,091294,073034,084925,096167,075613,085529
0000000037,0000036000,092637,074568,082049,097563,077524,082223
0000000038,0000037000,093128,076782,079344,097958,080184,079168
0000000039,0000038000,092708,079471,077075,097315,083330,076665
0000000040,0000039000,091434,082345,075474,095699,086649,074962
0000000041,0000040000,089428,085130,074695,093262,089823,074224
0000000042,0000041000,086866,087578,074809,090245,092541,074522
0000000043,0000042000,084022,089426,075805,086948,094533,075828
0000000044,0000043000,081180,090484,077589,083691,095605,078013
0000000045,0000044000,078589,090674,079991,080787,095655,080867
0000000046,0000045000,076515,089970,082769,078528,094675,084106
0000000047,0000046000,075182,088427,085645,077133,092763,087413
0000000048,0000047000,074697,086206,088350,076737,090105,090468
0000000049,0000048000,075103,083530,090619,077379,086959,092971
0000000050,0000049000,076381,080654,092220,078997,083638,094674
0000000051,0000050000,078398,077857,092999,081432,080466,095412
0000000052,0000051000,080948,075420,092886,084448,077748,095113
0000000053,0000052000,083789,073576,091889,087747,075754,093808
0000000054,0000053000,086644,072504,090105,091004,074682,091623
0000000055,0000054000,089229,072320,087704,093905,074635,088769
0000000056,0000055000,091294,073034,084926,096167,075613,085530
0000000057,0000056000,092640,074564,082050,097562,077524,082223
0000000058,0000057000,093126,076783,079344,097956,080184,079169
0000000059,0000058000,092706,079472,077075,097315,083329,076665
0000000060,0000059000,091437,082342,075474,095699,086648,074962
0000000061,0000060000,089428,085130,074695,093262,089823,074225
0000000062,0000061000,086865,087580,074808,090245,092541,074523
0000000063,0000062000,084025,089424,075805,086949,094532,075828
0000000064,0000063000,081181,090483,077589,083691,095605,078013
0000000065,0000064000,078587,090676,079990,080788,095655,080867
0000000066,0000065000,076517,089969,082768,078529,094675,084106
0000000067,0000066000,075183,088426,085644,077134,092763,087412
0000000068,0000067000,074694,086209,088350,076737,090105,090467
0000000069,0000068000,075103,083531,090619,077380,086959,092970
0000000070,0000069000,076382,080652,092220,078997,083639,094673
0000000071,0000070000,078395,077859,093000,081432,080467,095411
0000000072,0000071000,080946,075421,092887,084448,077749,095113
0000000073,0000072000,083791,073573,091889,087746,075756,093808
0000000074,0000073000,086642,072505,090106,091002,074684,091623
0000000075,0000074000,089227,072322,087705,093904,074635,088769
0000000076,0000075000,091296,073030,084926,096166,075613,085530
0000000077,0000076000,092641,074562,082051,097560,077525,082224
0000000078,0000077000,093124,076785,079345,097955,080184,079170
0000000079,0000078000,092709,079470,077075,097314,083328,076667
0000000080,0000079000,091440,082339,075474,095698,086648,074964
0000000081,0000080000,089426,085132,074694,093262,089822,074226
0000000082,0000081000,086866,087580,074807,090246,092539,074524
0000000083,0000082000,084029,089421,075804,086950,094531,075829
0000000084,0000083000,081180,090486,077588,083692,095604,078013
0000000085,0000084000,078586,090679,079989,080790,095653,080867
0000000086,0000085000,076520,089967,082766,078530,094674,084105
0000000087,0000086000,075182,088428,085643,077134,092764,087411
0000000088,0000087000,074691,086213,088349,076738,090105,090466
0000000089,0000088000,075104,083531,090619,077381,086960,092968
0000000090,0000089000,076382,080652,092220,078997,083641,094671
0000000091,0000090000,078390,077863,093001,081431,080469,095410
0000000092,0000091000,080945,075421,092888,084447,077750,095112
0000000093,0000092000,083791,073571,091891,087744,075758,093807
0000000094,0000093000,086639,072506,090108,091000,074686,091623
0000000095,0000094000,089225,072322,087706,093903,074636,088770
0000000096,0000095000,091299,073027,084928,096163,075614,085532
0000000097,0000096000,092640,074561,082052,097558,077525,082226
0000000098,0000097000,093123,076785,079346,097954,080184,079172
0000000099,0000098000,092712,079466,077075,097313,083327,076669
0000000100,0000099000,091442,082337,075474,095697,086647,074966
0000000101,0000100000,089426,085133,074694,093262,089820,074228
0000000102,0000101000,086869,087578,074806,090247,092536,074526
0000000103,0000102000,084032,089420,075802,086951,094529,075830
0000000104,0000103000,081180,090488,077586,083694,095602,078014
0000000105,0000104000,078587,090680,079987,080792,095651,080866
0000000106,0000105000,076521,089967,082765,078532,094673,084104
0000000107,0000106000,075180,088431,085642,077136,092764,087409
0000000108,0000107000,074689,086216,088348,076741,090105,090463
0000000109,0000108000,075104,083531,090618,077382,086961,092966
0000000110,0000109000,076379,080655,092220,078997,083643,094669
0000000111,0000110000,078387,077866,093001,081431,080471,095407
0000000112,0000111000,080945,075420,092889,084446,077753,095110
0000000113,0000112000,083789,073571,091893,087742,075761,093806
0000000114,0000113000,086636,072507,090110,090998,074689,091623
0000000115,0000114000,089226,072319,087709,093900,074638,088771
0000000116,0000115000,091299,073024,084931,096160,075616,085533
0000000117,0000116000,092639,074561,082054,097555,077526,082228
0000000118,0000117000,093125,076782,079347,097952,080183,079175
0000000119,0000118000,092716,079462,077076,097311,083326,076672
0000000120,0000119000,091443,082336,075474,095695,086645,074969
0000000121,0000120000,089429,085132,074692,093262,089816,074231
0000000122,0000121000,086874,087575,074804,090248,092533,074528
0000000123,0000122000,084034,089420,075800,086952,094526,075831
0000000124,0000123000,081181,090491,077583,083697,095599,078014
0000000125,0000124000,078590,090680,079983,080796,095648,080865
0000000126,0000125000,076522,089969,082762,078536,094672,084102
0000000127,0000126000,075178,088436,085639,077140,092763,087406
0000000128,0000127000,074688,086219,088346,076744,090106,090460
0000000129,0000128000,075103,083533,090617,077384,086963,092962
0000000130,0000129000,076374,080659,092221,078998,083646,094665
0000000131,0000130000,078383,077868,093002,081431,080474,095404
0000000132,0000131000,080943,075420,092891,084445,077757,095107
0000000133,0000132000,083785,073572,091896,087739,075765,093805
0000000134,0000133000,086633,072507,090114,090995,074692,091622
0000000135,0000134000,089226,072315,087712,093896,074641,088772
0000000136,0000135000,091299,073021,084934,096155,075618,085536
0000000137,0000136000,092638,074559,082057,097551,077527,082232
0000000138,0000137000,093128,076777,079349,097948,080182,079179
0000000139,0000138000,092719,079457,077077,097308,083324,076677
0000000140,0000139000,091445,082334,075474,095694,086642,074974
0000000141,0000140000,089433,085130,074691,093262,089812,074235
0000000142,0000141000,086879,087573,074801,090250,092529,074531
0000000143,0000142000,084036,089421,075796,086955,094521,075833
0000000144,0000143000,081183,090492,077578,083701,095594,078014
0000000145,0000144000,078593,090681,079979,080800,095645,080864
0000000146,0000145000,076522,089973,082758,078540,094669,084100
0000000147,0000146000,075176,088441,085636,077145,092762,087403
0000000148,0000147000,074688,086222,088344,076748,090106,090455
0000000149,0000148000,075100,083537,090617,077387,086965,092957
0000000150,0000149000,076369,080664,092221,079000,083650,094660
0000000151,0000150000,078380,077870,093004,081431,080479,095399
0000000152,0000151000,080939,075420,092894,084443,077763,095104
0000000153,0000152000,083780,073573,091900,087736,075771,093803
0000000154,0000153000,086630,072506,090118,090990,074697,091622
0000000155,0000154000,089225,072312,087717,093890,074646,088773
0000000156,0000155000,091297,073018,084939,096150,075621,085538
0000000157,0000156000,092639,074554,082060,097545,077528,082236
0000000158,0000157000,093131,076771,079351,097943,080182,079184
0000000159,0000158000,092722,079453,077078,097304,083322,076683
0000000160,0000159000,091449,082331,075473,095692,086637,074980
0000000161,0000160000,089439,085125,074689,093262,089807,074240
0000000162,0000161000,086884,087571,074798,090251,092523,074535
0000000163,0000162000,084039,089422,075792,086959,094515,075835
0000000164,0000163000,081188,090493,077573,083706,095589,078015
0000000165,0000164000,078596,090683,079974,080806,095641,080863
0000000166,0000165000,076522,089979,082753,078547,094666,084096
0000000167,0000166000,075175,088446,085632,077151,092760,087398
0000000168,0000167000,074686,086226,088341,076753,090107,090449
0000000169,0000168000,075095,083543,090615,077390,086968,092950
0000000170,0000169000,076363,080669,092221,079002,083654,094653
0000000171,0000170000,078375,077872,093006,081431,080485,095394
0000000172,0000171000,080933,075423,092898,084440,077770,095099
0000000173,0000172000,083774,073574,091905,087732,075778,093800
0000000174,0000173000,086627,072503,090124,090984,074703,091621
0000000175,0000174000,089222,072308,087723,093883,074651,088775
0000000176,0000175000,091295,073014,084944,096142,075625,085542
0000000177,0000176000,092641,074548,082065,097539,077529,082242
0000000178,0000177000,093135,076764,079355,097937,080181,079191
0000000179,0000178000,092726,079448,077080,097300,083319,076690
0000000180,0000179000,091455,082326,075472,095690,086632,074987
0000000181,0000180000,089447,085121,074686,093263,089800,074246
0000000182,0000181000,086890,087570,074794,090254,092515,074540
0000000183,0000182000,084045,089423,075786,086964,094507,075838
0000000184,0000183000,081193,090494,077566,083713,095581,078015
0000000185,0000184000,078599,090687,079967,080814,095635,080861
0000000186,0000185000,076522,089985,082747,078555,094663,084092
0000000187,0000186000,075175,088452,085626,077159,092759,087392
0000000188,0000187000,074683,086233,088337,076759,090109,090441
0000000189,0000188000,075089,083551,090614,077395,086972,092942
0000000190,0000189000,076357,080674,092222,079004,083660,094645
0000000191,0000190000,078368,077876,093009,081431,080492,095386
0000000192,0000191000,080925,075426,092903,084437,077778,095094
0000000193,0000192000,083767,073574,091912,087727,075786,093797
0000000194,0000193000,086622,072500,090131,090977,074711,091621
0000000195,0000194000,089218,072304,087731,093875,074657,088777
0000000196,0000195000,091294,073008,084951,096133,075629,085547
0000000197,0000196000,092643,074540,082071,097530,077530,082249
0000000198,0000197000,093139,076756,079359,097930,080180,079200
0000000199,0000198000,092731,079441,077081,097295,083315,076699
0000000200,0000199000,091463,082319,075472,095688,086626,074996
0000000201,0000200000,089455,085115,074683,093263,089792,074254
0000000202,0000201000,086897,087568,074788,090257,092506,074546
0000000203,0000202000,084052,089423,075779,086970,094498,075842
0000000204,0000203000,081199,090496,077558,083720,095573,078016
0000000205,0000204000,078602,090693,079959,080823,095628,080858
0000000206,0000205000,076522,089992,082739,078565,094658,084087
0000000207,0000206000,075174,088460,085620,077168,092757,087384
0000000208,0000207000,074678,086242,088333,076767,090110,090432
0000000209,0000208000,075082,083560,090612,077401,086976,092932
0000000210,0000209000,076350,080681,092223,079007,083667,094635
0000000211,0000210000,078360,077881,093013,081430,080502,095378
0000000212,0000211000,080915,075429,092909,084434,077788,095087
0000000213,0000212000,083760,073574,091919,087720,075796,093793
0000000214,0000213000,086616,072496,090140,090968,074721,091620
0000000215,0000214000,089214,072299,087740,093864,074665,088780
0000000216,0000215000,091293,073001,084960,096123,075634,085553
0000000217,0000216000,092646,074530,082078,097520,077532,082257
0000000218,0000217000,093143,076747,079364,097921,080178,079210
0000000219,0000218000,092738,079432,077083,097289,083310,076711
0000000220,0000219000,091473,082310,075471,095685,086618,075007
0000000221,0000220000,089465,085110,074679,093263,089782,074264
0000000222,0000221000,086906,087565,074782,090261,092495,074553
0000000223,0000222000,084061,089422,075770,086977,094486,075846
0000000224,0000223000,081206,090499,077548,083730,095562,078017
0000000225,0000224000,078605,090699,079949,080834,095620,080856
0000000226,0000225000,076524,090000,082729,078577,094652,084081
0000000227,0000226000,075172,088469,085612,077179,092755,087375
0000000228,0000227000,074672,086253,088328,076776,090112,090421
0000000229,0000228000,075074,083570,090609,077408,086982,092920
0000000230,0000229000,076340,080689,092224,079010,083675,094624
0000000231,0000230000,078348,077888,093018,081430,080513,095367
0000000232,0000231000,080904,075433,092916,084430,077801,095079
0000000233,0000232000,083751,073573,091929,087712,075809,093788
0000000234,0000233000,086609,072493,090151,090957,074732,091619
0000000235,0000234000,089209,072293,087751,093852,074674,088783
0000000236,0000235000,091292,072991,084970,096110,075640,085560
0000000237,0000236000,092648,074519,082086,097508,077535,082267
0000000238,0000237000,093148,076736,079370,097911,080176,079222
0000000239,0000238000,092747,079421,077086,097282,083304,076724
0000000240,0000239000,091484,082300,075469,095681,086609,075020
0000000241,0000240000,089476,085103,074674,093264,089770,074275
0000000242,0000241000,086918,087561,074774,090266,092481,074562
0000000243,0000242000,084072,089422,075760,086985,094473,075851
0000000244,0000243000,081214,090503,077537,083741,095550,078018
0000000245,0000244000,078610,090707,079937,080848,095610,080852
0000000246,0000245000,076526,090010,082718,078591,094646,084073
0000000247,0000246000,075169,088481,085603,077192,092753,087364
0000000248,0000247000,074666,086266,088321,076788,090114,090408
0000000249,0000248000,075065,083581,090607,077416,086988,092905
0000000250,0000249000,076329,080699,092225,079014,083686,094610
0000000251,0000250000,078335,077896,093023,081429,080526,095355
0000000252,0000251000,080892,075437,092925,084425,077815,095070
0000000253,0000252000,083740,073573,091940,087703,075823,093783
0000000254,0000253000,086599,072490,090164,090945,074746,091618
0000000255,0000254000,089203,072286,087764,093838,074685,088786
0000000256,0000255000,091291,072980,084982,096095,075647,085568
0000000257,0000256000,092650,074507,082097,097493,077537,082279
0000000258,0000257000,093154,076723,079377,097899,080174,079236
0000000259,0000258000,092757,079408,077089,097273,083297,076739
0000000260,0000259000,091496,082289,075468,095677,086598,075035
0000000261,0000260000,089489,085095,074669,093264,089756,074289
0000000262,0000261000,086932,087557,074765,090271,092466,074572
0000000263,0000262000,084085,089421,075748,086995,094457,075857
0000000264,0000263000,081223,090507,077523,083755,095536,078019
0000000265,0000264000,078616,090715,079922,080863,095598,080848
0000000266,0000265000,076528,090021,082705,078607,094638,084064
0000000267,0000266000,075166,088495,085592,077208,092750,087351
0000000268,0000267000,074659,086281,088314,076801,090116,090392
0000000269,0000268000,075055,083595,090603,077425,086995,092889
0000000270,0000269000,076316,080711,092227,079018,083697,094594
0000000271,0000270000,078320,077905,093028,081428,080540,095341
0000000272,0000271000,080878,075442,092934,084419,077832,095059
0000000273,0000272000,083727,073573,091953,087693,075840,093777
0000000274,0000273000,086589,072486,090179,090931,074761,091617
0000000275,0000274000,089197,072277,087779,093821,074697,088791
0000000276,0000275000,091290,072968,084996,096077,075655,085577
0000000277,0000276000,092653,074492,082108,097477,077540,082292
0000000278,0000277000,093162,076707,079385,097885,080171,079253
0000000279,0000278000,092769,079392,077092,097263,083289,076757
0000000280,0000279000,091510,082276,075467,095672,086585,075052
0000000281,0000280000,089505,085086,074663,093265,089740,074304
0000000282,0000281000,086948,087551,074754,090278,092448,074583
0000000283,0000282000,084099,089421,075734,087006,094439,075863
0000000284,0000283000,081234,090513,077507,083770,095520,078020
0000000285,0000284000,078624,090724,079906,080881,095585,080843
0000000286,0000285000,076530,090034,082690,078625,094630,084054
0000000287,0000286000,075163,088511,085580,077225,092747,087337
0000000288,0000287000,074651,086298,088305,076815,090119,090375
0000000289,0000288000,075043,083611,090600,077435,087004,092870
0000000290,0000289000,076300,080725,092228,079023,083711,094575
0000000291,0000290000,078303,077916,093035,081427,080557,095325
0000000292,0000291000,080861,075447,092946,084412,077851,095047
0000000293,0000292000,083712,073574,091968,087680,075859,093770
0000000294,0000293000,086577,072481,090196,090915,074778,091616
0000000295,0000294000,089190,072266,087797,093802,074711,088796
0000000296,0000295000,091287,072954,085012,096058,075664,085588
0000000297,0000296000,092656,074476,082122,097458,077543,082308
0000000298,0000297000,093171,076689,079394,097870,080168,079271
0000000299,0000298000,092782,079375,077097,097252,083280,076777
0000000300,0000299000,091526,082262,075465,095667,086571,075071
0000000301,0000300000,089523,085075,074656,093266,089722,074321
