DIgSILENT PowerFactory,21000900,2000
6,06A,00D
1,TTPP_200000_100:Secondary Voltage A,,,V,0.10000000,-8414.434570,0.000000,70022,99998,1,1,P
2,TTPP_200000_100:Secondary Voltage B,,,V,0.10000000,-8410.886719,0.000000,70158,99998,1,1,P
3,TTPP_200000_100:Secondary Voltage C,,,V,0.10000000,-8488.048828,0.000000,67315,99998,1,1,P
4,TTCC_500_5:Secondary Current A,,,A,0.0010000000,-79.298424,0.000000,64984,99998,1,1,P
5,TTCC_500_5:Secondary Current B,,,A,0.0010000000,-84.526810,0.000000,69126,99998,1,1,P
6,TTCC_500_5:Secondary Current C,,,A,0.0010000000,-84.851341,0.000000,69723,99998,1,1,P
50
1
1000.000000,1101
30/06/2023,06:09:50.000000
30/06/2023,06:09:50.000000
ASCII
1.000000
0000000001,0000000000,089656,087749,075728,085214,089206,074256
0000000002,0000001000,087108,090183,075842,082198,091923,074555
0000000003,0000002000,084258,092037,076840,078902,093914,075860
0000000004,0000003000,081408,093103,078623,075643,094988,078046
0000000005,0000004000,078830,093279,081025,072739,095038,080900
0000000006,0000005000,076754,092576,083803,070481,094056,084140
0000000007,0000006000,075409,091046,086679,069086,092145,087446
0000000008,0000007000,074935,088815,089384,068689,089486,090501
0000000009,0000008000,075346,086134,091653,069332,086340,093004
0000000010,0000009000,076610,083271,093254,070950,083020,094707
0000000011,0000010000,078632,080469,094032,073386,079846,095445
0000000012,0000011000,081193,078022,093919,076402,077129,095146
0000000013,0000012000,084021,076191,092922,079700,075136,093841
0000000014,0000013000,086874,075121,091137,082958,074063,091655
0000000015,0000014000,089474,074924,088736,085860,074015,088801
0000000016,0000015000,091531,075645,085958,088120,074995,085562
0000000017,0000016000,092867,077185,083082,089515,076906,082255
0000000018,0000017000,093366,079391,080377,089911,079565,079200
0000000019,0000018000,092947,082079,078108,089267,082712,076697
0000000020,0000019000,091664,084962,076508,087650,086032,074994
0000000021,0000020000,089662,087743,075728,085216,089204,074257
0000000022,0000021000,087107,090184,075842,082198,091924,074555
0000000023,0000022000,084255,092040,076839,078899,093917,075860
0000000024,0000023000,081411,093099,078623,075643,094987,078046
0000000025,0000024000,078829,093280,081025,072740,095036,080900
0000000026,0000025000,076751,092579,083803,070479,094058,084140
0000000027,0000026000,075412,091043,086678,069085,092145,087446
0000000028,0000027000,074934,088815,089384,068690,089485,090501
0000000029,0000028000,075343,086137,091653,069331,086341,093004
0000000030,0000029000,076613,083268,093253,070949,083020,094707
0000000031,0000030000,078633,080468,094033,073385,079846,095445
0000000032,0000031000,081188,078026,093920,076401,077129,095146
0000000033,0000032000,084024,076188,092922,079699,075137,093841
0000000034,0000033000,086878,075118,091137,082957,074064,091656
0000000035,0000034000,089469,074928,088737,085859,074016,088802
0000000036,0000035000,091530,075645,085958,088119,074995,085562
0000000037,0000036000,092873,077179,083082,089515,076906,082256
0000000038,0000037000,093363,079394,080377,089910,079566,079201
0000000039,0000038000,092943,082083,078108,089267,082712,076698
0000000040,0000039000,091670,084957,076507,087651,086031,074995
0000000041,0000040000,089663,087742,075728,085214,089205,074257
0000000042,0000041000,087101,090190,075842,082197,091924,074555
0000000043,0000042000,084257,092037,076839,078900,093916,075861
0000000044,0000043000,081416,093095,078623,075643,094987,078046
0000000045,0000044000,078824,093285,081025,072739,095037,080900
0000000046,0000045000,076750,092581,083802,070480,094058,084140
0000000047,0000046000,075417,091038,086678,069085,092145,087446
0000000048,0000047000,074932,088817,089384,068688,089487,090501
0000000049,0000048000,075339,086142,091653,069331,086341,093004
0000000050,0000049000,076616,083265,093253,070949,083020,094707
0000000051,0000050000,078634,080467,094033,073384,079848,095445
0000000052,0000051000,081184,078031,093920,076400,077130,095146
0000000053,0000052000,084025,076187,092922,079699,075136,093841
0000000054,0000053000,086880,075115,091138,082956,074065,091656
0000000055,0000054000,089466,074931,088737,085857,074017,088802
0000000056,0000055000,091530,075645,085959,088119,074995,085563
0000000057,0000056000,092876,077175,083083,089514,076906,082256
0000000058,0000057000,093362,079394,080377,089908,079567,079201
0000000059,0000058000,092942,082084,078108,089266,082712,076698
0000000060,0000059000,091673,084954,076507,087650,086031,074995
0000000061,0000060000,089663,087742,075728,085214,089205,074258
0000000062,0000061000,087100,090192,075841,082197,091923,074556
0000000063,0000062000,084260,092036,076838,078901,093915,075861
0000000064,0000063000,081417,093095,078622,075643,094987,078046
0000000065,0000064000,078823,093287,081024,072740,095037,080900
0000000066,0000065000,076752,092580,083801,070480,094057,084139
0000000067,0000066000,075418,091038,086678,069085,092146,087446
0000000068,0000067000,074929,088820,089384,068689,089487,090500
0000000069,0000068000,075339,086142,091653,069332,086342,093003
0000000070,0000069000,076618,083263,093253,070949,083021,094706
0000000071,0000070000,078630,080470,094034,073384,079849,095444
0000000072,0000071000,081182,078032,093920,076400,077131,095146
0000000073,0000072000,084027,076184,092923,079698,075138,093841
0000000074,0000073000,086878,075116,091139,082954,074066,091656
0000000075,0000074000,089463,074933,088738,085857,074018,088802
0000000076,0000075000,091533,075642,085960,088118,074996,085563
0000000077,0000076000,092877,077174,083084,089512,076907,082257
0000000078,0000077000,093359,079397,080378,089907,079567,079203
0000000079,0000078000,092944,082081,078108,089266,082711,076700
0000000080,0000079000,091676,084950,076507,087649,086030,074997
0000000081,0000080000,089662,087744,075728,085213,089204,074259
0000000082,0000081000,087101,090192,075840,082198,091921,074557
0000000083,0000082000,084264,092032,076837,078901,093913,075862
0000000084,0000083000,081416,093097,078621,075644,094987,078047
0000000085,0000084000,078821,093290,081023,072742,095035,080900
0000000086,0000085000,076755,092579,083800,070482,094056,084138
0000000087,0000086000,075418,091039,086677,069086,092146,087444
0000000088,0000087000,074926,088824,089383,068690,089488,090499
0000000089,0000088000,075340,086142,091652,069333,086342,093002
0000000090,0000089000,076618,083263,093254,070949,083023,094705
0000000091,0000090000,078626,080474,094034,073383,079851,095443
0000000092,0000091000,081181,078032,093921,076399,077133,095145
0000000093,0000092000,084027,076182,092924,079696,075140,093840
0000000094,0000093000,086875,075117,091141,082952,074068,091656
0000000095,0000094000,089461,074933,088739,085855,074019,088803
0000000096,0000095000,091534,075638,085961,088115,074997,085565
0000000097,0000096000,092876,077173,083085,089510,076908,082259
0000000098,0000097000,093359,079396,080379,089906,079566,079205
0000000099,0000098000,092948,082078,078109,089265,082710,076702
0000000100,0000099000,091678,084949,076507,087648,086029,074999
0000000101,0000100000,089662,087745,075727,085214,089202,074261
0000000102,0000101000,087105,090190,075839,082199,091919,074559
0000000103,0000102000,084267,092031,076836,078902,093911,075863
0000000104,0000103000,081415,093099,078619,075645,094984,078047
0000000105,0000104000,078823,093291,081020,072744,095033,080899
0000000106,0000105000,076757,092579,083798,070484,094055,084137
0000000107,0000106000,075416,091042,086675,069088,092146,087442
0000000108,0000107000,074925,088827,089382,068693,089488,090496
0000000109,0000108000,075340,086142,091652,069334,086343,092999
0000000110,0000109000,076614,083265,093254,070949,083025,094702
0000000111,0000110000,078623,080476,094035,073383,079853,095440
0000000112,0000111000,081181,078031,093922,076399,077135,095143
0000000113,0000112000,084025,076182,092927,079694,075143,093839
0000000114,0000113000,086872,075118,091143,082950,074071,091656
0000000115,0000114000,089462,074930,088742,085852,074021,088804
0000000116,0000115000,091535,075635,085964,088112,074998,085566
0000000117,0000116000,092875,077172,083087,089507,076909,082261
0000000118,0000117000,093360,079394,080380,089903,079565,079208
0000000119,0000118000,092951,082073,078109,089263,082709,076705
0000000120,0000119000,091679,084948,076507,087647,086027,075002
0000000121,0000120000,089664,087744,075726,085214,089199,074264
0000000122,0000121000,087109,090187,075837,082200,091915,074561
0000000123,0000122000,084269,092032,076833,078904,093908,075864
0000000124,0000123000,081416,093102,078616,075648,094981,078047
0000000125,0000124000,078826,093291,081017,072748,095031,080898
0000000126,0000125000,076758,092580,083796,070488,094054,084135
0000000127,0000126000,075413,091047,086673,069092,092145,087440
0000000128,0000127000,074924,088830,089380,068696,089488,090493
0000000129,0000128000,075339,086144,091651,069336,086345,092995
0000000130,0000129000,076610,083270,093254,070950,083028,094698
0000000131,0000130000,078619,080479,094036,073383,079856,095437
0000000132,0000131000,081179,078031,093925,076397,077139,095140
0000000133,0000132000,084021,076183,092930,079691,075148,093838
0000000134,0000133000,086869,075118,091147,082947,074075,091655
0000000135,0000134000,089461,074927,088745,085848,074024,088805
0000000136,0000135000,091534,075632,085967,088107,075001,085568
0000000137,0000136000,092874,077170,083090,089503,076909,082265
0000000138,0000137000,093363,079389,080382,089900,079565,079212
0000000139,0000138000,092955,082069,078110,089260,082707,076710
0000000140,0000139000,091681,084946,076507,087646,086024,075007
0000000141,0000140000,089668,087741,075724,085214,089195,074268
0000000142,0000141000,087114,090185,075835,082201,091911,074564
0000000143,0000142000,084271,092033,076830,078907,093904,075866
0000000144,0000143000,081418,093103,078612,075653,094977,078047
0000000145,0000144000,078829,093292,081013,072752,095027,080897
0000000146,0000145000,076757,092584,083792,070492,094052,084133
0000000147,0000146000,075412,091052,086670,069097,092144,087436
0000000148,0000147000,074923,088833,089378,068700,089489,090488
0000000149,0000148000,075335,086148,091650,069339,086348,092990
0000000150,0000149000,076605,083275,093255,070952,083032,094693
0000000151,0000150000,078616,080481,094038,073383,079861,095432
0000000152,0000151000,081175,078031,093928,076395,077145,095137
0000000153,0000152000,084016,076184,092934,079688,075153,093836
0000000154,0000153000,086866,075117,091151,082942,074079,091655
0000000155,0000154000,089461,074923,088750,085842,074028,088806
0000000156,0000155000,091533,075629,085972,088101,075004,085571
0000000157,0000156000,092875,077166,083093,089497,076910,082269
0000000158,0000157000,093367,079382,080384,089895,079564,079217
0000000159,0000158000,092958,082065,078112,089256,082705,076716
0000000160,0000159000,091685,084943,076506,087644,086020,075013
0000000161,0000160000,089675,087737,075722,085214,089189,074273
0000000162,0000161000,087119,090183,075831,082203,091905,074568
0000000163,0000162000,084274,092034,076825,078911,093898,075868
0000000164,0000163000,081423,093104,078607,075658,094971,078048
0000000165,0000164000,078832,093295,081008,072758,095023,080896
0000000166,0000165000,076757,092590,083787,070499,094049,084129
0000000167,0000166000,075411,091057,086665,069103,092143,087431
0000000168,0000167000,074921,088837,089375,068705,089489,090482
0000000169,0000168000,075330,086154,091649,069342,086351,092983
0000000170,0000169000,076599,083280,093255,070954,083036,094687
0000000171,0000170000,078611,080483,094040,073383,079867,095427
0000000172,0000171000,081169,078034,093932,076392,077152,095132
0000000173,0000172000,084010,076185,092939,079684,075160,093833
0000000174,0000173000,086863,075114,091157,082936,074086,091654
0000000175,0000174000,089458,074919,088756,085835,074033,088808
0000000176,0000175000,091531,075625,085977,088094,075007,085575
0000000177,0000176000,092877,077159,083098,089491,076911,082275
0000000178,0000177000,093371,079375,080388,089889,079563,079224
0000000179,0000178000,092961,082060,078113,089252,082701,076723
0000000180,0000179000,091691,084938,076506,087642,086015,075020
0000000181,0000180000,089682,087732,075719,085214,089183,074279
0000000182,0000181000,087125,090181,075827,082206,091898,074573
0000000183,0000182000,084280,092034,076819,078916,093890,075871
0000000184,0000183000,081428,093105,078600,075664,094964,078049
0000000185,0000184000,078834,093299,081001,072766,095017,080894
0000000186,0000185000,076757,092596,083781,070507,094045,084125
0000000187,0000186000,075410,091063,086660,069111,092141,087425
0000000188,0000187000,074918,088844,089371,068711,089491,090475
0000000189,0000188000,075324,086162,091648,069347,086354,092975
0000000190,0000189000,076593,083285,093256,070956,083042,094678
0000000191,0000190000,078604,080487,094043,073383,079875,095419
0000000192,0000191000,081161,078037,093937,076389,077160,095127
0000000193,0000192000,084003,076185,092945,079679,075168,093830
0000000194,0000193000,086858,075111,091164,082929,074094,091654
0000000195,0000194000,089454,074915,088764,085827,074040,088810
0000000196,0000195000,091530,075620,085984,088085,075011,085580
0000000197,0000196000,092879,077151,083104,089482,076913,082282
0000000198,0000197000,093374,079368,080392,089882,079562,079233
0000000199,0000198000,092967,082053,078115,089247,082697,076732
0000000200,0000199000,091698,084930,076505,087640,086008,075029
0000000201,0000200000,089690,087727,075716,085215,089174,074287
0000000202,0000201000,087132,090179,075822,082209,091889,074579
0000000203,0000202000,084287,092034,076812,078922,093880,075875
0000000204,0000203000,081435,093107,078592,075672,094955,078049
0000000205,0000204000,078837,093304,080993,072775,095010,080892
0000000206,0000205000,076758,092603,083773,070517,094040,084120
0000000207,0000206000,075409,091071,086654,069120,092139,087417
0000000208,0000207000,074913,088853,089367,068719,089492,090465
0000000209,0000208000,075317,086171,091646,069353,086359,092965
0000000210,0000209000,076585,083292,093256,070959,083049,094668
0000000211,0000210000,078595,080492,094047,073382,079884,095411
0000000212,0000211000,081151,078040,093943,076386,077171,095120
0000000213,0000212000,083996,076185,092953,079672,075179,093826
0000000214,0000213000,086852,075108,091174,082920,074103,091653
0000000215,0000214000,089450,074910,088773,085816,074048,088812
0000000216,0000215000,091529,075612,085993,088075,075016,085586
0000000217,0000216000,092881,077142,083111,089472,076915,082290
0000000218,0000217000,093379,079358,080397,089873,079561,079243
0000000219,0000218000,092973,082044,078117,089241,082692,076743
0000000220,0000219000,091708,084922,076504,087637,086000,075040
0000000221,0000220000,089700,087721,075712,085215,089165,074297
0000000222,0000221000,087142,090177,075815,082213,091877,074586
0000000223,0000222000,084297,092034,076803,078929,093869,075879
0000000224,0000223000,081442,093110,078582,075682,094945,078050
0000000225,0000224000,078841,093311,080983,072786,095002,080889
0000000226,0000225000,076759,092611,083763,070529,094034,084114
0000000227,0000226000,075407,091080,086646,069131,092137,087408
0000000228,0000227000,074908,088864,089362,068728,089494,090454
0000000229,0000228000,075310,086181,091643,069360,086364,092953
0000000230,0000229000,076576,083300,093258,070962,083058,094657
0000000231,0000230000,078584,080499,094051,073382,079895,095400
0000000232,0000231000,081140,078044,093950,076382,077183,095112
0000000233,0000232000,083987,076184,092962,079664,075191,093821
0000000234,0000233000,086845,075104,091185,082910,074115,091652
0000000235,0000234000,089445,074904,088784,085804,074057,088816
0000000236,0000235000,091528,075602,086003,088062,075022,085592
0000000237,0000236000,092884,077131,083119,089459,076917,082300
0000000238,0000237000,093384,079348,080403,089863,079559,079255
0000000239,0000238000,092982,082033,078119,089233,082687,076757
0000000240,0000239000,091719,084912,076503,087633,085991,075053
0000000241,0000240000,089711,087715,075708,085215,089153,074308
0000000242,0000241000,087153,090173,075807,082218,091864,074595
0000000243,0000242000,084308,092033,076793,078937,093855,075884
0000000244,0000243000,081449,093114,078570,075693,094933,078051
0000000245,0000244000,078846,093318,080970,072800,094992,080885
0000000246,0000245000,076761,092621,083752,070542,094028,084106
0000000247,0000246000,075405,091092,086637,069144,092135,087397
0000000248,0000247000,074901,088877,089355,068740,089496,090441
0000000249,0000248000,075301,086192,091640,069368,086370,092939
0000000250,0000249000,076565,083310,093259,070966,083068,094643
0000000251,0000250000,078571,080507,094056,073381,079908,095388
0000000252,0000251000,081128,078048,093958,076377,077197,095103
0000000253,0000252000,083976,076184,092973,079655,075206,093816
0000000254,0000253000,086835,075101,091197,082897,074128,091651
0000000255,0000254000,089439,074897,088797,085790,074067,088819
0000000256,0000255000,091527,075591,086015,088047,075029,085601
0000000257,0000256000,092886,077118,083130,089445,076920,082312
0000000258,0000257000,093390,079334,080410,089851,079556,079269
0000000259,0000258000,092993,082019,078122,089225,082680,076772
0000000260,0000259000,091731,084901,076501,087629,085980,075068
0000000261,0000260000,089724,087707,075702,085216,089139,074322
0000000262,0000261000,087167,090168,075798,082223,091848,074605
0000000263,0000262000,084320,092033,076781,078947,093840,075890
0000000264,0000263000,081459,093119,078557,075706,094918,078052
0000000265,0000264000,078852,093326,080956,072815,094980,080881
0000000266,0000265000,076763,092632,083739,070559,094020,084098
0000000267,0000266000,075402,091106,086626,069159,092133,087385
0000000268,0000267000,074894,088892,089348,068752,089498,090426
0000000269,0000268000,075291,086206,091637,069377,086378,092922
0000000270,0000269000,076551,083322,093260,070970,083079,094627
0000000271,0000270000,078556,080516,094062,073380,079923,095374
0000000272,0000271000,081113,078053,093968,076371,077214,095092
0000000273,0000272000,083963,076184,092986,079645,075223,093809
0000000274,0000273000,086825,075097,091212,082883,074143,091650
0000000275,0000274000,089433,074888,088813,085773,074080,088824
0000000276,0000275000,091525,075579,086029,088029,075037,085610
0000000277,0000276000,092889,077104,083141,089429,076923,082325
0000000278,0000277000,093398,079319,080418,089837,079554,079286
0000000279,0000278000,093004,082004,078126,089215,082672,076790
0000000280,0000279000,091746,084888,076500,087624,085968,075085
0000000281,0000280000,089740,087697,075696,085217,089123,074337
0000000282,0000281000,087183,090163,075788,082229,091830,074616
0000000283,0000282000,084334,092033,076767,078958,093822,075897
0000000284,0000283000,081469,093124,078541,075722,094902,078053
0000000285,0000284000,078859,093335,080940,072833,094967,080877
0000000286,0000285000,076765,092645,083724,070577,094012,084088
0000000287,0000286000,075398,091122,086613,069177,092130,087370
0000000288,0000287000,074886,088908,089339,068767,089501,090408
0000000289,0000288000,075278,086222,091633,069387,086386,092903
0000000290,0000289000,076536,083336,093262,070975,083093,094608
0000000291,0000290000,078539,080526,094068,073379,079940,095358
0000000292,0000291000,081097,078058,093979,076364,077233,095080
0000000293,0000292000,083948,076185,093001,079632,075242,093802
0000000294,0000293000,086813,075092,091229,082867,074161,091649
0000000295,0000294000,089426,074878,088830,085754,074093,088829
0000000296,0000295000,091523,075565,086046,088010,075046,085621
0000000297,0000296000,092892,077087,083155,089410,076926,082341
0000000298,0000297000,093406,079301,080427,089822,079551,079304
0000000299,0000298000,093018,081987,078130,089204,082663,076810
0000000300,0000299000,091762,084874,076498,087619,085953,075104
0000000301,0000300000,089758,087686,075689,085218,089105,074354
