DIgSILENT PowerFactory,21000900,2000
6,06A,00D
1,TTPP_200000_100:Secondary Voltage A,,,V,0.10000000,-8246.025391,0.000000,61831,99998,1,1,P
2,TTPP_200000_100:Secondary Voltage B,,,V,0.10000000,-7859.528320,0.000000,60457,99998,1,1,P
3,TTPP_200000_100:Secondary Voltage C,,,V,0.10000000,-8258.598633,0.000000,63736,99998,1,1,P
4,TTCC_300_1:Secondary Current A,,,A,0.00010000000,-3.591533,0.000000,-6898,99998,1,1,P
5,TTCC_300_1:Secondary Current B,,,A,0.00010000000,-5.026414,0.000000,675,99998,1,1,P
6,TTCC_300_1:Secondary Current C,,,A,0.00010000000,-4.888986,0.000000,-1621,99998,1,1,P
50
1
1000.000000,1101
30/06/2023,06:08:32.000000
30/06/2023,06:08:32.000000
ASCII
1.000000
0000000001,0000000000,089567,080070,074005,014985,036275,083809
0000000002,0000001000,087433,082787,073420,024738,026996,083335
0000000003,0000002000,084792,085118,073732,035577,019999,079494
0000000004,0000003000,081936,086797,074908,046456,015956,072657
0000000005,0000004000,079142,087659,076842,056300,015280,063489
0000000006,0000005000,076655,087650,079338,064147,018033,052890
0000000007,0000006000,074733,086764,082144,069234,023928,041908
0000000008,0000007000,073589,085056,084997,071057,032403,031611
0000000009,0000008000,073303,082718,087619,069433,042643,022994
0000000010,0000009000,073901,079996,089745,064535,053618,016916
0000000011,0000010000,075349,077125,091167,056841,064252,013976
0000000012,0000011000,077502,074387,091752,047082,073538,014449
0000000013,0000012000,080124,072079,091441,036234,080545,018290
0000000014,0000013000,082975,070403,090263,025368,084575,025127
0000000015,0000014000,085789,069521,088332,015525,085250,034295
0000000016,0000015000,088268,069538,085835,007666,082510,044894
0000000017,0000016000,090176,070438,083027,002587,076607,055876
0000000018,0000017000,091338,072128,080175,000768,068127,066174
0000000019,0000018000,091623,074465,077553,002384,057895,074790
0000000020,0000019000,091011,077205,075427,007283,046919,080867
0000000021,0000020000,089573,080065,074004,014985,036276,083809
0000000022,0000021000,087427,082794,073420,024735,026999,083335
0000000023,0000022000,084790,085120,073732,035585,019992,079493
0000000024,0000023000,081943,086790,074908,046456,015956,072657
0000000025,0000024000,079140,087661,076841,056297,015283,063489
0000000026,0000025000,076647,087656,079338,064151,018029,052889
0000000027,0000026000,074739,086758,082144,069239,023922,041908
0000000028,0000027000,073591,085054,084997,071054,032406,031610
0000000029,0000028000,073296,082725,087619,069434,042642,022994
0000000030,0000029000,073902,079995,089745,064542,053612,016916
0000000031,0000030000,075355,077119,091167,056842,064253,013975
0000000032,0000031000,077497,074392,091752,047082,073539,014448
0000000033,0000032000,080121,072081,091440,036239,080540,018290
0000000034,0000033000,082980,070398,090264,025372,084572,025126
0000000035,0000034000,085788,069522,088332,015523,085253,034294
0000000036,0000035000,088264,069543,085835,007670,082507,044893
0000000037,0000036000,090179,070435,083027,002591,076604,055874
0000000038,0000037000,091340,072126,080176,000769,068128,066172
0000000039,0000038000,091619,074469,077553,002384,057896,074788
0000000040,0000039000,091012,077204,075427,007287,046917,080866
0000000041,0000040000,089575,080062,074004,014985,036278,083807
0000000042,0000041000,087424,082797,073420,024736,027000,083334
0000000043,0000042000,084790,085120,073731,035586,019991,079492
0000000044,0000043000,081946,086788,074908,046457,015956,072657
0000000045,0000044000,079139,087663,076841,056296,015284,063489
0000000046,0000045000,076647,087658,079337,064152,018027,052890
0000000047,0000046000,074741,086756,082144,069238,023922,041909
0000000048,0000047000,073590,085055,084997,071053,032405,031611
0000000049,0000048000,073295,082727,087619,069435,042640,022995
0000000050,0000049000,073904,079992,089745,064543,053609,016917
0000000051,0000050000,075354,077120,091168,056842,064252,013976
0000000052,0000051000,077495,074395,091752,047085,073535,014449
0000000053,0000052000,080123,072078,091440,036242,080537,018290
0000000054,0000053000,082981,070397,090264,025373,084571,025126
0000000055,0000054000,085785,069525,088332,015527,085250,034292
0000000056,0000055000,088266,069541,085835,007675,082504,044891
0000000057,0000056000,090182,070432,083028,002592,076605,055872
0000000058,0000057000,091336,072129,080176,000771,068129,066169
0000000059,0000058000,091619,074470,077553,002389,057894,074785
0000000060,0000059000,091016,077199,075426,007288,046919,080863
0000000061,0000060000,089574,080063,074004,014983,036281,083805
0000000062,0000061000,087422,082800,073420,024737,027001,083332
0000000063,0000062000,084794,085117,073731,035586,019992,079491
0000000064,0000063000,081947,086787,074907,046453,015960,072656
0000000065,0000064000,079135,087667,076840,056294,015285,063489
0000000066,0000065000,076649,087656,079337,064152,018026,052891
0000000067,0000066000,074744,086754,082144,069235,023924,041911
0000000068,0000067000,073586,085059,084996,071051,032405,031614
0000000069,0000068000,073294,082728,087619,069437,042635,022998
0000000070,0000069000,073907,079989,089745,064542,053607,016920
0000000071,0000070000,075351,077122,091168,056841,064250,013978
0000000072,0000071000,077492,074397,091753,047089,073530,014451
0000000073,0000072000,080126,072075,091441,036246,080532,018291
0000000074,0000073000,082980,070396,090265,025375,084569,025125
0000000075,0000074000,085782,069527,088333,015532,085247,034291
0000000076,0000075000,088267,069538,085835,007681,082500,044889
0000000077,0000076000,090183,070430,083028,002596,076605,055868
0000000078,0000077000,091334,072131,080176,000775,068130,066165
0000000079,0000078000,091620,074468,077553,002394,057895,074780
0000000080,0000079000,091019,077196,075427,007289,046922,080858
0000000081,0000080000,089573,080065,074004,014983,036286,083800
0000000082,0000081000,087423,082800,073419,024737,027004,083328
0000000083,0000082000,084797,085114,073730,035583,019997,079489
0000000084,0000083000,081946,086789,074907,046448,015966,072656
0000000085,0000084000,079134,087669,076839,056290,015288,063490
0000000086,0000085000,076651,087655,079336,064147,018028,052894
0000000087,0000086000,074743,086755,082143,069229,023925,041915
0000000088,0000087000,073584,085062,084996,071047,032403,031619
0000000089,0000088000,073295,082728,087618,069434,042632,023004
0000000090,0000089000,073906,079989,089745,064540,053604,016926
0000000091,0000090000,075348,077125,091169,056842,064244,013983
0000000092,0000091000,077492,074397,091753,047092,073522,014455
0000000093,0000092000,080126,072073,091442,036249,080526,018294
0000000094,0000093000,082977,070398,090266,025381,084563,025126
0000000095,0000094000,085781,069527,088334,015541,085240,034289
0000000096,0000095000,088270,069535,085837,007688,082497,044885
0000000097,0000096000,090182,070430,083030,002602,076605,055863
0000000098,0000097000,091334,072131,080177,000782,068129,066158
0000000099,0000098000,091624,074465,077553,002399,057897,074773
0000000100,0000099000,091020,077195,075427,007290,046929,080851
0000000101,0000100000,089572,080066,074003,014984,036292,083793
0000000102,0000101000,087426,082798,073418,024736,027011,083323
0000000103,0000102000,084799,085113,073729,035578,020006,079485
0000000104,0000103000,081945,086791,074905,046441,015973,072655
0000000105,0000104000,079135,087669,076837,056284,015293,063492
0000000106,0000105000,076653,087654,079334,064138,018033,052898
0000000107,0000106000,074741,086758,082142,069220,023928,041922
0000000108,0000107000,073582,085065,084995,071042,032401,031627
0000000109,0000108000,073296,082727,087618,069429,042627,023013
0000000110,0000109000,073904,079991,089746,064536,053598,016935
0000000111,0000110000,075345,077128,091169,056843,064234,013992
0000000112,0000111000,077492,074396,091755,047097,073511,014461
0000000113,0000112000,080125,072073,091444,036255,080517,018297
0000000114,0000113000,082974,070400,090268,025390,084554,025126
0000000115,0000114000,085781,069525,088335,015552,085231,034287
0000000116,0000115000,088271,069532,085839,007698,082492,044879
0000000117,0000116000,090181,070429,083031,002612,076603,055854
0000000118,0000117000,091335,072129,080178,000792,068129,066147
0000000119,0000118000,091627,074461,077554,002405,057902,074761
0000000120,0000119000,091021,077195,075426,007293,046937,080839
0000000121,0000120000,089573,080066,074002,014985,036302,083783
0000000122,0000121000,087429,082795,073416,024733,027022,083315
0000000123,0000122000,084801,085113,073727,035570,020019,079481
0000000124,0000123000,081945,086793,074903,046432,015984,072653
0000000125,0000124000,079138,087669,076835,056273,015301,063495
0000000126,0000125000,076654,087655,079332,064125,018040,052905
0000000127,0000126000,074739,086762,082140,069208,023930,041931
0000000128,0000127000,073582,085066,084993,071032,032398,031639
0000000129,0000128000,073295,082728,087618,069421,042622,023026
0000000130,0000129000,073900,079995,089746,064532,053589,016948
0000000131,0000130000,075342,077130,091170,056844,064221,014003
0000000132,0000131000,077491,074395,091756,047101,073498,014470
0000000133,0000132000,080122,072074,091446,036263,080503,018303
0000000134,0000133000,082971,070400,090271,025403,084540,025127
0000000135,0000134000,085782,069522,088338,015566,085220,034283
0000000136,0000135000,088270,069530,085841,007712,082486,044872
0000000137,0000136000,090180,070428,083033,002627,076599,055843
0000000138,0000137000,091337,072125,080179,000805,068130,066133
0000000139,0000138000,091629,074458,077554,002414,057909,074746
0000000140,0000139000,091022,077194,075426,007298,046948,080824
0000000141,0000140000,089577,080064,074001,014986,036315,083770
0000000142,0000141000,087433,082793,073414,024727,027038,083304
0000000143,0000142000,084802,085115,073725,035560,020036,079474
0000000144,0000143000,081947,086795,074900,046419,015998,072652
0000000145,0000144000,079140,087670,076832,056257,015313,063499
0000000146,0000145000,076654,087659,079330,064107,018048,052913
0000000147,0000146000,074737,086766,082138,069193,023933,041944
0000000148,0000147000,073581,085068,084992,071019,032396,031656
0000000149,0000148000,073293,082731,087617,069411,042615,023044
0000000150,0000149000,073896,079999,089746,064527,053576,016966
0000000151,0000150000,075340,077131,091171,056846,064205,014019
0000000152,0000151000,077488,074395,091759,047107,073480,014482
0000000153,0000152000,080117,072075,091449,036274,080485,018310
0000000154,0000153000,082969,070398,090274,025419,084522,025129
0000000155,0000154000,085781,069518,088342,015584,085206,034279
0000000156,0000155000,088269,069528,085844,007732,082477,044861
0000000157,0000156000,090181,070425,083036,002647,076595,055828
0000000158,0000157000,091340,072120,080181,000821,068133,066115
0000000159,0000158000,091632,074455,077555,002425,057919,074725
0000000160,0000159000,091024,077192,075426,007305,046961,080803
0000000161,0000160000,089582,080060,073999,014985,036332,083752
0000000162,0000161000,087437,082792,073412,024720,027060,083291
0000000163,0000162000,084804,085116,073721,035547,020057,079466
0000000164,0000163000,081950,086795,074896,046402,016017,072650
0000000165,0000164000,079142,087671,076828,056235,015330,063504
0000000166,0000165000,076653,087663,079326,064085,018059,052925
0000000167,0000166000,074737,086770,082135,069172,023936,041961
0000000168,0000167000,073580,085071,084990,071000,032393,031677
0000000169,0000168000,073289,082736,087617,069397,042606,023067
0000000170,0000169000,073892,080003,089747,064521,053560,016988
0000000171,0000170000,075336,077132,091173,056846,064184,014039
0000000172,0000171000,077483,074397,091762,047114,073457,014498
0000000173,0000172000,080113,072076,091453,036290,080460,018319
0000000174,0000173000,082967,070396,090278,025440,084499,025131
0000000175,0000174000,085779,069515,088346,015608,085189,034273
0000000176,0000175000,088267,069526,085849,007757,082464,044848
0000000177,0000176000,090182,070420,083039,002671,076590,055808
0000000178,0000177000,091343,072115,080183,000841,068136,066091
0000000179,0000178000,091634,074451,077556,002440,057930,074700
0000000180,0000179000,091029,077188,075425,007313,046979,080778
0000000181,0000180000,089587,080056,073998,014985,036356,083729
0000000182,0000181000,087441,082791,073409,024710,027086,083273
0000000183,0000182000,084808,085117,073717,035531,020083,079455
0000000184,0000183000,081955,086796,074891,046380,016041,072648
0000000185,0000184000,079144,087674,076823,056208,015351,063510
0000000186,0000185000,076652,087668,079321,064057,018072,052939
0000000187,0000186000,074736,086774,082131,069146,023941,041983
0000000188,0000187000,073578,085076,084987,070977,032390,031703
0000000189,0000188000,073284,082742,087615,069381,042593,023096
0000000190,0000189000,073887,080007,089747,064514,053539,017017
0000000191,0000190000,075332,077135,091176,056847,064158,014064
0000000192,0000191000,077477,074399,091765,047124,073428,014517
0000000193,0000192000,080108,072076,091458,036308,080430,018331
0000000194,0000193000,082964,070393,090284,025465,084472,025133
0000000195,0000194000,085777,069513,088352,015637,085167,034266
0000000196,0000195000,088266,069522,085854,007789,082449,044832
0000000197,0000196000,090184,070414,083043,002701,076584,055785
0000000198,0000197000,091346,072109,080186,000866,068141,066062
0000000199,0000198000,091638,074446,077557,002458,057943,074668
0000000200,0000199000,091035,077183,075424,007322,047000,080747
0000000201,0000200000,089594,080052,073995,014984,036385,083701
0000000202,0000201000,087447,082790,073405,024699,027119,083251
0000000203,0000202000,084814,085116,073711,035512,020116,079442
0000000204,0000203000,081959,086797,074885,046352,016072,072645
0000000205,0000204000,079146,087679,076817,056175,015375,063518
0000000206,0000205000,076653,087674,079315,064024,018088,052957
0000000207,0000206000,074736,086780,082126,069113,023947,042009
0000000208,0000207000,073574,085083,084984,070949,032385,031735
0000000209,0000208000,073279,082749,087614,069361,042578,023131
0000000210,0000209000,073882,080011,089748,064504,053514,017051
0000000211,0000210000,075325,077138,091178,056847,064127,014095
0000000212,0000211000,077470,074402,091770,047136,073392,014541
0000000213,0000212000,080102,072075,091464,036331,080393,018345
0000000214,0000213000,082960,070391,090291,025495,084439,025136
0000000215,0000214000,085773,069509,088359,015673,085140,034257
0000000216,0000215000,088266,069516,085860,007827,082431,044812
0000000217,0000216000,090187,070406,083048,002737,076577,055756
0000000218,0000217000,091349,072102,080190,000896,068146,066026
0000000219,0000218000,091643,074440,077559,002480,057960,074629
0000000220,0000219000,091042,077176,075423,007333,047027,080709
0000000221,0000220000,089601,080048,073992,014982,036420,083668
0000000222,0000221000,087453,082788,073400,024686,027158,083226
0000000223,0000222000,084821,085116,073705,035487,020155,079427
0000000224,0000223000,081965,086800,074877,046318,016109,072642
0000000225,0000224000,079149,087684,076809,056136,015405,063528
0000000226,0000225000,076654,087680,079308,063983,018108,052979
0000000227,0000226000,074734,086787,082120,069074,023955,042041
0000000228,0000227000,073569,085092,084980,070916,032380,031774
0000000229,0000228000,073273,082756,087612,069338,042559,023173
0000000230,0000229000,073875,080017,089749,064492,053485,017093
0000000231,0000230000,075316,077144,091182,056848,064089,014131
0000000232,0000231000,077462,074405,091775,047151,073349,014569
0000000233,0000232000,080096,072075,091471,036358,080350,018361
0000000234,0000233000,082954,070388,090299,025531,084399,025139
0000000235,0000234000,085769,069505,088367,015716,085108,034247
0000000236,0000235000,088265,069508,085868,007872,082409,044789
0000000237,0000236000,090189,070398,083055,002779,076569,055721
0000000238,0000237000,091353,072094,080194,000932,068153,065984
0000000239,0000238000,091650,074431,077560,002506,057979,074583
0000000240,0000239000,091051,077169,075422,007346,047059,080664
0000000241,0000240000,089609,080044,073989,014981,036461,083628
0000000242,0000241000,087462,082786,073393,024671,027204,083195
0000000243,0000242000,084829,085116,073697,035458,020202,079409
0000000244,0000243000,081970,086803,074868,046279,016152,072639
0000000245,0000244000,079152,087690,076800,056091,015439,063539
0000000246,0000245000,076655,087687,079300,063935,018130,053004
0000000247,0000246000,074732,086796,082114,069028,023964,042078
0000000248,0000247000,073564,085102,084975,070877,032373,031819
0000000249,0000248000,073266,082765,087610,069310,042537,023222
0000000250,0000249000,073866,080025,089750,064478,053451,017141
0000000251,0000250000,075306,077150,091186,056850,064045,014174
0000000252,0000251000,077452,074408,091782,047169,073299,014601
0000000253,0000252000,080088,072074,091479,036389,080300,018381
0000000254,0000253000,082947,070385,090309,025573,084353,025143
0000000255,0000254000,085765,069499,088377,015766,085070,034234
0000000256,0000255000,088265,069500,085877,007924,082385,044761
0000000257,0000256000,090190,070389,083062,002828,076560,055681
0000000258,0000257000,091358,072085,080199,000974,068160,065935
0000000259,0000258000,091658,074421,077563,002536,058003,074530
0000000260,0000259000,091060,077160,075421,007361,047097,080612
0000000261,0000260000,089619,080038,073984,014979,036509,083582
0000000262,0000261000,087473,082782,073386,024652,027257,083160
0000000263,0000262000,084838,085115,073688,035424,020257,079389
0000000264,0000263000,081977,086807,074858,046233,016201,072635
0000000265,0000264000,079157,087696,076789,056037,015479,063553
0000000266,0000265000,076657,087695,079290,063878,018157,053034
0000000267,0000266000,074730,086806,082106,068975,023974,042121
0000000268,0000267000,073559,085113,084970,070833,032365,031872
0000000269,0000268000,073258,082775,087608,069278,042512,023279
0000000270,0000269000,073856,080034,089751,064462,053411,017197
0000000271,0000270000,075295,077157,091190,056853,063993,014223
0000000272,0000271000,077442,074411,091789,047189,073241,014639
0000000273,0000272000,080078,072074,091489,036425,080241,018403
0000000274,0000273000,082939,070382,090320,025623,084300,025147
0000000275,0000274000,085761,069492,088389,015823,085027,034219
0000000276,0000275000,088264,069490,085887,007984,082357,044729
0000000277,0000276000,090192,070378,083071,002885,076550,055634
0000000278,0000277000,091364,072073,080205,001023,068168,065878
0000000279,0000278000,091667,074410,077565,002570,058030,074469
0000000280,0000279000,091071,077151,075420,007377,047140,080552
0000000281,0000280000,089631,080031,073979,014976,036564,083529
0000000282,0000281000,087485,082778,073379,024631,027319,083120
0000000283,0000282000,084849,085115,073677,035385,020319,079365
0000000284,0000283000,081985,086811,074846,046180,016258,072631
0000000285,0000284000,079162,087703,076777,055976,015525,063569
0000000286,0000285000,076658,087705,079279,063814,018187,053068
0000000287,0000286000,074727,086819,082096,068914,023984,042171
0000000288,0000287000,073553,085125,084963,070782,032355,031933
0000000289,0000288000,073249,082787,087605,069242,042483,023345
0000000290,0000289000,073844,080045,089753,064444,053365,017261
0000000291,0000290000,075282,077164,091195,056856,063934,014279
0000000292,0000291000,077429,074415,091798,047213,073175,014682
0000000293,0000292000,080067,072075,091501,036467,080175,018427
0000000294,0000293000,082930,070379,090333,025679,084239,025151
0000000295,0000294000,085755,069484,088402,015889,084978,034202
0000000296,0000295000,088262,069480,085900,008052,082325,044692
0000000297,0000296000,090195,070365,083081,002950,076538,055581
0000000298,0000297000,091370,072059,080212,001077,068178,065813
0000000299,0000298000,091677,074397,077568,002609,058061,074399
0000000300,0000299000,091083,077140,075419,007396,047189,080484
0000000301,0000300000,089645,080023,073974,014973,036626,083470
