DIgSILENT PowerFactory,21000900,2000
6,06A,00D
1,TTPP_200000_100:Secondary Voltage A,,,V,0.10000000,-8405.171875,0.000000,66848,99998,1,1,P
2,TTPP_200000_100:Secondary Voltage B,,,V,0.10000000,-8288.575195,0.000000,65734,99998,1,1,P
3,TTPP_200000_100:Secondary Voltage C,,,V,0.10000000,-8222.692383,0.000000,61214,99998,1,1,P
4,TTCC_500_5:Secondary Current A,,,A,0.0010000000,-80.203140,0.000000,66310,99998,1,1,P
5,TTCC_500_5:Secondary Current B,,,A,0.0010000000,-84.417946,0.000000,68977,99998,1,1,P
6,TTCC_500_5:Secondary Current C,,,A,0.0010000000,-84.963425,0.000000,69956,99998,1,1,P
50
1
1000.000000,1101
30/06/2023,06:10:22.000000
30/06/2023,06:10:22.000000
ASCII
1.000000
0000000001,0000000000,089564,086526,073074,086119,089097,074368
0000000002,0000001000,087016,088960,073189,083102,091815,074667
0000000003,0000002000,084166,090813,074187,079806,093806,075972
0000000004,0000003000,081315,091880,075969,076549,094878,078158
0000000005,0000004000,078736,092058,078371,073644,094929,081012
0000000006,0000005000,076662,091352,081150,071384,093949,084252
0000000007,0000006000,075317,089821,084025,069992,092035,087558
0000000008,0000007000,074841,087594,086730,069594,089377,090613
0000000009,0000008000,075253,084911,089000,070235,086233,093116
0000000010,0000009000,076519,082046,090600,071855,082910,094819
0000000011,0000010000,078539,079247,091379,074292,079736,095557
0000000012,0000011000,081099,076800,091265,077305,077021,095258
0000000013,0000012000,083930,074966,090268,080603,075028,093953
0000000014,0000013000,086782,073898,088484,083864,073953,091767
0000000015,0000014000,089379,073702,086082,086764,073907,088913
0000000016,0000015000,091439,074421,083305,089023,074888,085674
0000000017,0000016000,092776,075960,080429,090421,076796,082367
0000000018,0000017000,093273,078169,077723,090816,079456,079312
0000000019,0000018000,092854,080856,075454,090171,082604,076809
0000000020,0000019000,091572,083738,073854,088555,085923,075106
0000000021,0000020000,089569,086520,073075,086121,089095,074369
0000000022,0000021000,087014,088962,073188,083102,091815,074667
0000000023,0000022000,084162,090817,074186,079804,093808,075973
0000000024,0000023000,081319,091876,075970,076549,094878,078158
0000000025,0000024000,078736,092057,078372,073645,094928,081012
0000000026,0000025000,076659,091357,081149,071383,093950,084252
0000000027,0000026000,075319,089820,084025,069990,092036,087558
0000000028,0000027000,074842,087591,086731,069594,089377,090613
0000000029,0000028000,075250,084914,089000,070236,086233,093116
0000000030,0000029000,076520,082045,090600,071853,082912,094819
0000000031,0000030000,078540,079245,091379,074290,079737,095557
0000000032,0000031000,081096,076803,091266,077305,077021,095259
0000000033,0000032000,083931,074966,090268,080603,075028,093953
0000000034,0000033000,086785,073895,088484,083862,073955,091768
0000000035,0000034000,089377,073705,086083,086764,073907,088914
0000000036,0000035000,091438,074422,083305,089024,074886,085674
0000000037,0000036000,092780,075956,080428,090420,076797,082368
0000000038,0000037000,093271,078170,077724,090814,079457,079313
0000000039,0000038000,092851,080859,075454,090172,082603,076810
0000000040,0000039000,091577,083734,073854,088556,085922,075107
0000000041,0000040000,089571,086519,073074,086119,089096,074369
0000000042,0000041000,087009,088966,073188,083102,091815,074667
0000000043,0000042000,084165,090814,074185,079805,093807,075973
0000000044,0000043000,081323,091872,075969,076548,094879,078158
0000000045,0000044000,078732,092062,078371,073644,094929,081012
0000000046,0000045000,076658,091358,081149,071384,093949,084252
0000000047,0000046000,075324,089815,084025,069990,092036,087558
0000000048,0000047000,074839,087594,086731,069593,089378,090613
0000000049,0000048000,075246,084918,089000,070236,086233,093116
0000000050,0000049000,076524,082041,090600,071854,082911,094819
0000000051,0000050000,078541,079244,091379,074289,079739,095557
0000000052,0000051000,081091,076808,091266,077305,077022,095258
0000000053,0000052000,083932,074964,090269,080604,075028,093953
0000000054,0000053000,086788,073892,088485,083861,073956,091768
0000000055,0000054000,089373,073708,086083,086762,073908,088914
0000000056,0000055000,091437,074422,083305,089023,074886,085675
0000000057,0000056000,092784,075952,080429,090419,076797,082368
0000000058,0000057000,093269,078171,077724,090813,079458,079314
0000000059,0000058000,092849,080861,075454,090171,082603,076811
0000000060,0000059000,091580,083730,073854,088555,085922,075108
0000000061,0000060000,089571,086519,073074,086119,089096,074370
0000000062,0000061000,087008,088969,073188,083102,091814,074668
0000000063,0000062000,084167,090812,074185,079806,093806,075973
0000000064,0000063000,081324,091872,075969,076548,094878,078158
0000000065,0000064000,078730,092064,078370,073645,094928,081012
0000000066,0000065000,076659,091357,081148,071385,093948,084251
0000000067,0000066000,075326,089814,084024,069990,092037,087558
0000000068,0000067000,074837,087597,086730,069594,089379,090612
0000000069,0000068000,075246,084919,088999,070236,086233,093115
0000000070,0000069000,076525,082040,090600,071854,082913,094818
0000000071,0000070000,078538,079247,091380,074288,079740,095556
0000000072,0000071000,081089,076809,091267,077304,077022,095258
0000000073,0000072000,083934,074961,090269,080602,075029,093953
0000000074,0000073000,086786,073893,088486,083859,073957,091768
0000000075,0000074000,089370,073710,086084,086761,073909,088915
0000000076,0000075000,091440,074419,083306,089022,074887,085676
0000000077,0000076000,092784,075951,080430,090417,076798,082370
0000000078,0000077000,093267,078173,077724,090812,079458,079315
0000000079,0000078000,092852,080858,075455,090171,082602,076812
0000000080,0000079000,091583,083727,073854,088554,085921,075109
0000000081,0000080000,089569,086521,073074,086118,089095,074371
0000000082,0000081000,087009,088969,073187,083103,091812,074669
0000000083,0000082000,084171,090809,074184,079806,093805,075974
0000000084,0000083000,081323,091874,075968,076548,094878,078159
0000000085,0000084000,078729,092067,078369,073646,094927,081012
0000000086,0000085000,076662,091355,081147,071387,093947,084250
0000000087,0000086000,075325,089816,084023,069991,092037,087556
0000000088,0000087000,074833,087601,086729,069595,089379,090611
0000000089,0000088000,075247,084918,088999,070238,086233,093113
0000000090,0000089000,076525,082040,090600,071854,082914,094817
0000000091,0000090000,078534,079250,091381,074288,079742,095555
0000000092,0000091000,081088,076809,091267,077304,077024,095257
0000000093,0000092000,083935,074959,090271,080601,075031,093952
0000000094,0000093000,086783,073894,088487,083857,073960,091768
0000000095,0000094000,089369,073710,086086,086759,073910,088915
0000000096,0000095000,091442,074415,083308,089020,074888,085677
0000000097,0000096000,092784,075950,080431,090414,076799,082371
0000000098,0000097000,093266,078173,077725,090810,079457,079317
0000000099,0000098000,092855,080855,075455,090170,082601,076814
0000000100,0000099000,091585,083725,073854,088553,085920,075111
0000000101,0000100000,089569,086522,073073,086118,089093,074373
0000000102,0000101000,087012,088967,073185,083104,091810,074671
0000000103,0000102000,084174,090808,074182,079807,093802,075975
0000000104,0000103000,081323,091876,075966,076550,094876,078159
0000000105,0000104000,078730,092068,078367,073649,094925,081011
0000000106,0000105000,076664,091355,081145,071389,093946,084249
0000000107,0000106000,075323,089819,084022,069993,092037,087554
0000000108,0000107000,074832,087604,086728,069597,089379,090608
0000000109,0000108000,075247,084919,088998,070239,086235,093111
0000000110,0000109000,076522,082042,090600,071854,082917,094814
0000000111,0000110000,078530,079253,091381,074288,079744,095552
0000000112,0000111000,081088,076808,091269,077303,077027,095255
0000000113,0000112000,083933,074959,090273,080599,075034,093951
0000000114,0000113000,086779,073895,088490,083854,073962,091768
0000000115,0000114000,089369,073707,086088,086757,073912,088916
0000000116,0000115000,091442,074412,083310,089017,074889,085678
0000000117,0000116000,092782,075949,080434,090411,076800,082374
0000000118,0000117000,093268,078170,077726,090808,079457,079320
0000000119,0000118000,092859,080850,075456,090167,082600,076818
0000000120,0000119000,091586,083724,073854,088552,085918,075114
0000000121,0000120000,089571,086521,073072,086119,089090,074376
0000000122,0000121000,087017,088964,073184,083105,091807,074673
0000000123,0000122000,084176,090809,074180,079809,093799,075976
0000000124,0000123000,081323,091879,075963,076553,094872,078159
0000000125,0000124000,078733,092068,078364,073652,094922,081010
0000000126,0000125000,076665,091357,081142,071392,093945,084247
0000000127,0000126000,075321,089824,084019,069997,092036,087552
0000000128,0000127000,074831,087607,086726,069600,089379,090605
0000000129,0000128000,075246,084920,088998,070241,086236,093107
0000000130,0000129000,076517,082047,090601,071855,082919,094810
0000000131,0000130000,078527,079256,091382,074288,079748,095549
0000000132,0000131000,081086,076807,091271,077302,077031,095252
0000000133,0000132000,083929,074960,090276,080596,075039,093950
0000000134,0000133000,086776,073895,088493,083851,073966,091767
0000000135,0000134000,089369,073703,086092,086753,073915,088917
0000000136,0000135000,091442,074409,083314,089012,074892,085681
0000000137,0000136000,092781,075947,080436,090407,076800,082377
0000000138,0000137000,093271,078166,077728,090805,079456,079324
0000000139,0000138000,092862,080846,075457,090165,082598,076822
0000000140,0000139000,091588,083723,073853,088551,085915,075119
0000000141,0000140000,089576,086518,073070,086119,089086,074380
0000000142,0000141000,087022,088961,073181,083106,091802,074676
0000000143,0000142000,084178,090810,074176,079812,093795,075978
0000000144,0000143000,081326,091880,075958,076557,094868,078159
0000000145,0000144000,078736,092069,078360,073657,094918,081009
0000000146,0000145000,076665,091361,081138,071397,093943,084245
0000000147,0000146000,075319,089829,084016,070001,092035,087548
0000000148,0000147000,074830,087610,086724,069604,089380,090600
0000000149,0000148000,075243,084925,088997,070243,086239,093102
0000000150,0000149000,076512,082051,090601,071856,082923,094805
0000000151,0000150000,078523,079257,091384,074288,079752,095544
0000000152,0000151000,081082,076808,091274,077300,077036,095249
0000000153,0000152000,083923,074961,090280,080593,075044,093948
0000000154,0000153000,086773,073894,088498,083847,073971,091767
0000000155,0000154000,089368,073700,086097,086747,073919,088918
0000000156,0000155000,091440,074406,083318,089006,074895,085684
0000000157,0000156000,092782,075943,080440,090402,076801,082381
0000000158,0000157000,093274,078159,077731,090800,079455,079329
0000000159,0000158000,092865,080842,075458,090161,082596,076828
0000000160,0000159000,091592,083720,073853,088549,085911,075125
0000000161,0000160000,089582,086514,073068,086119,089080,074385
0000000162,0000161000,087027,088960,073178,083108,091796,074680
0000000163,0000162000,084182,090811,074172,079815,093789,075980
0000000164,0000163000,081330,091881,075953,076563,094862,078160
0000000165,0000164000,078739,092071,078354,073663,094914,081008
0000000166,0000165000,076664,091367,081133,071403,093940,084241
0000000167,0000166000,075318,089834,084012,070008,092034,087543
0000000168,0000167000,074829,087614,086721,069610,089381,090594
0000000169,0000168000,075238,084931,088996,070247,086242,093095
0000000170,0000169000,076506,082057,090601,071858,082928,094799
0000000171,0000170000,078518,079260,091386,074288,079758,095539
0000000172,0000171000,081076,076810,091278,077297,077043,095244
0000000173,0000172000,083917,074962,090285,080588,075051,093945
0000000174,0000173000,086770,073891,088503,083841,073977,091767
0000000175,0000174000,089366,073696,086103,086740,073924,088920
0000000176,0000175000,091438,074402,083324,088999,074898,085687
0000000177,0000176000,092784,075936,080444,090395,076802,082387
0000000178,0000177000,093278,078152,077734,090794,079454,079336
0000000179,0000178000,092869,080836,075459,090157,082592,076835
0000000180,0000179000,091598,083714,073852,088547,085906,075132
0000000181,0000180000,089589,086509,073066,086119,089074,074392
0000000182,0000181000,087033,088958,073174,083111,091789,074685
0000000183,0000182000,084187,090811,074166,079820,093781,075983
0000000184,0000183000,081336,091882,075947,076569,094855,078161
0000000185,0000184000,078742,092076,078348,073670,094908,081006
0000000186,0000185000,076664,091373,081127,071411,093936,084237
0000000187,0000186000,075318,089840,084006,070015,092032,087537
0000000188,0000187000,074825,087621,086718,069616,089382,090586
0000000189,0000188000,075232,084939,088994,070252,086246,093087
0000000190,0000189000,076500,082062,090602,071861,082933,094790
0000000191,0000190000,078512,079264,091389,074287,079766,095532
0000000192,0000191000,081068,076814,091283,077294,077052,095239
0000000193,0000192000,083911,074962,090291,080583,075059,093942
0000000194,0000193000,086766,073888,088511,083834,073985,091766
0000000195,0000194000,089362,073692,086111,086731,073931,088922
0000000196,0000195000,091437,074396,083331,088990,074902,085692
0000000197,0000196000,092786,075928,080450,090387,076804,082394
0000000198,0000197000,093282,078144,077738,090787,079453,079345
0000000199,0000198000,092874,080830,075461,090152,082588,076845
0000000200,0000199000,091606,083707,073851,088544,085899,075141
0000000201,0000200000,089598,086504,073063,086119,089065,074400
0000000202,0000201000,087040,088956,073168,083114,091780,074691
0000000203,0000202000,084195,090811,074158,079826,093771,075987
0000000204,0000203000,081342,091884,075938,076577,094846,078161
0000000205,0000204000,078744,092081,078339,073680,094901,081004
0000000206,0000205000,076665,091380,081119,071421,093931,084232
0000000207,0000206000,075317,089848,084000,070025,092031,087529
0000000208,0000207000,074821,087630,086713,069624,089384,090577
0000000209,0000208000,075225,084948,088992,070258,086250,093077
0000000210,0000209000,076493,082069,090603,071864,082940,094781
0000000211,0000210000,078503,079269,091393,074287,079775,095523
0000000212,0000211000,081058,076817,091289,077291,077062,095232
0000000213,0000212000,083903,074962,090299,080577,075070,093938
0000000214,0000213000,086760,073884,088520,083825,073994,091765
0000000215,0000214000,089357,073687,086120,086721,073939,088925
0000000216,0000215000,091436,074389,083339,088979,074907,085698
0000000217,0000216000,092789,075918,080457,090376,076806,082402
0000000218,0000217000,093286,078135,077743,090778,079452,079355
0000000219,0000218000,092881,080821,075463,090146,082583,076856
0000000220,0000219000,091615,083699,073850,088541,085891,075152
0000000221,0000220000,089607,086498,073059,086120,089056,074409
0000000222,0000221000,087049,088954,073161,083118,091768,074698
0000000223,0000222000,084204,090811,074150,079833,093760,075991
0000000224,0000223000,081349,091887,075929,076587,094836,078162
0000000225,0000224000,078748,092088,078329,073691,094893,081001
0000000226,0000225000,076666,091388,081110,071433,093926,084226
0000000227,0000226000,075315,089857,083992,070036,092029,087520
0000000228,0000227000,074815,087641,086708,069633,089385,090566
0000000229,0000228000,075217,084958,088990,070264,086255,093065
0000000230,0000229000,076484,082077,090604,071867,082949,094769
0000000231,0000230000,078492,079276,091397,074286,079786,095512
0000000232,0000231000,081047,076821,091296,077286,077074,095224
0000000233,0000232000,083894,074961,090309,080569,075082,093933
0000000234,0000233000,086752,073881,088531,083814,074006,091764
0000000235,0000234000,089352,073681,086131,086709,073948,088928
0000000236,0000235000,091436,074379,083349,088967,074913,085705
0000000237,0000236000,092791,075907,080466,090364,076808,082412
0000000238,0000237000,093291,078124,077749,090768,079450,079367
0000000239,0000238000,092890,080809,075465,090138,082578,076869
0000000240,0000239000,091626,083689,073849,088538,085882,075165
0000000241,0000240000,089619,086491,073054,086120,089044,074420
0000000242,0000241000,087061,088950,073154,083122,091755,074707
0000000243,0000242000,084215,090810,074140,079842,093746,075996
0000000244,0000243000,081357,091891,075917,076598,094824,078163
0000000245,0000244000,078753,092095,078317,073704,094883,080997
0000000246,0000245000,076668,091398,081098,071447,093919,084218
0000000247,0000246000,075312,089869,083983,070049,092026,087509
0000000248,0000247000,074809,087654,086702,069644,089387,090553
0000000249,0000248000,075208,084969,088987,070272,086261,093051
0000000250,0000249000,076472,082087,090605,071871,082959,094755
0000000251,0000250000,078478,079284,091403,074286,079799,095500
0000000252,0000251000,081035,076825,091305,077281,077088,095215
0000000253,0000252000,083883,074961,090320,080560,075097,093928
0000000254,0000253000,086743,073878,088544,083802,074019,091763
0000000255,0000254000,089347,073674,086144,086694,073958,088931
0000000256,0000255000,091434,074368,083362,088951,074920,085713
0000000257,0000256000,092794,075895,080476,090350,076811,082424
0000000258,0000257000,093297,078111,077756,090756,079448,079381
0000000259,0000258000,092900,080796,075468,090130,082571,076884
0000000260,0000259000,091639,083678,073848,088533,085871,075180
0000000261,0000260000,089632,086484,073049,086121,089030,074434
0000000262,0000261000,087075,088945,073144,083128,091739,074717
0000000263,0000262000,084227,090810,074128,079852,093731,076002
0000000264,0000263000,081366,091896,075903,076611,094809,078164
0000000265,0000264000,078759,092103,078303,073720,094871,080993
0000000266,0000265000,076670,091409,081085,071463,093912,084210
0000000267,0000266000,075309,089883,083972,070064,092024,087496
0000000268,0000267000,074801,087669,086694,069657,089390,090537
0000000269,0000268000,075198,084983,088984,070281,086269,093034
0000000270,0000269000,076459,082099,090607,071875,082971,094739
0000000271,0000270000,078463,079293,091408,074285,079814,095486
0000000272,0000271000,081021,076829,091314,077275,077105,095204
0000000273,0000272000,083870,074961,090333,080549,075114,093922
0000000274,0000273000,086732,073874,088559,083787,074035,091762
0000000275,0000274000,089340,073665,086159,086678,073971,088936
0000000276,0000275000,091433,074356,083376,088934,074928,085722
0000000277,0000276000,092796,075881,080488,090334,076814,082437
0000000278,0000277000,093305,078096,077764,090742,079445,079398
0000000279,0000278000,092912,080781,075472,090120,082563,076902
0000000280,0000279000,091653,083665,073846,088529,085859,075197
0000000281,0000280000,089648,086474,073042,086122,089014,074449
0000000282,0000281000,087091,088940,073134,083134,091721,074729
0000000283,0000282000,084241,090809,074114,079863,093713,076009
0000000284,0000283000,081377,091901,075887,076627,094793,078165
0000000285,0000284000,078766,092112,078286,073738,094858,080989
0000000286,0000285000,076672,091422,081070,071482,093903,084200
0000000287,0000286000,075305,089899,083960,070082,092021,087482
0000000288,0000287000,074793,087685,086685,069672,089393,090520
0000000289,0000288000,075186,084998,088980,070292,086277,093015
0000000290,0000289000,076443,082113,090608,071880,082984,094720
0000000291,0000290000,078446,079303,091415,074284,079831,095470
0000000292,0000291000,081004,076835,091326,077269,077124,095192
0000000293,0000292000,083855,074961,090348,080537,075133,093915
0000000294,0000293000,086720,073869,088576,083771,074052,091761
0000000295,0000294000,089333,073655,086176,086659,073985,088941
0000000296,0000295000,091431,074342,083392,088914,074937,085733
0000000297,0000296000,092799,075864,080501,090315,076817,082453
0000000298,0000297000,093314,078078,077773,090726,079442,079416
0000000299,0000298000,092925,080764,075476,090109,082554,076922
0000000300,0000299000,091669,083650,073845,088523,085844,075217
0000000301,0000300000,089666,086463,073035,086123,088996,074466
