DIgSILENT PowerFactory,21000900,2000
6,06A,00D
1,TTPP_200000_100:Secondary Voltage A,,,V,0.010000000,-71.443840,0.000000,-85626,99998,1,1,P
2,TTPP_200000_100:Secondary Voltage B,,,V,0.010000000,0.367545,0.000000,-93826,99998,1,1,P
3,TTPP_200000_100:Secondary Voltage C,,,V,0.10000000,-8973.839844,0.000000,79471,99998,1,1,P
4,TTCC_300_1:Secondary Current A,,,A,0.00010000000,-3.020618,0.000000,-74064,99998,1,1,P
5,TTCC_300_1:Secondary Current B,,,A,0.00010000000,-4.987530,0.000000,-341,99998,1,1,P
6,TTCC_300_1:Secondary Current C,,,A,0.00010000000,-4.878238,0.000000,-2370,99998,1,1,P
50
1
1000.000000,1101
30/06/2023,06:05:11.000000
30/06/2023,06:05:11.000000
ASCII
1.000000
0000000001,0000000000,078208,014715,081157,009273,035890,083701
0000000002,0000001000,056870,041901,080573,019026,026609,083228
0000000003,0000002000,030478,065181,080884,029863,019614,079388
0000000004,0000003000,001891,081993,082060,040743,015568,072554
0000000005,0000004000,-26053,090610,083994,050586,014893,063386
0000000006,0000005000,-50932,090514,086490,058439,017639,052786
0000000007,0000006000,-70098,081617,089297,063522,023537,041804
0000000008,0000007000,-81583,064581,092149,065345,032012,031507
0000000009,0000008000,-84450,041214,094772,063725,042250,022889
0000000010,0000009000,-78447,013961,096898,058830,053223,016810
0000000011,0000010000,-63936,-14768,098320,051135,063860,013868
0000000012,0000011000,-42442,-42107,098905,041374,073149,014341
0000000013,0000012000,-16251,-65185,098593,030530,080152,018182
0000000014,0000013000,012303,-81976,097416,019665,084183,025016
0000000015,0000014000,040462,-90803,095483,009819,084862,034184
0000000016,0000015000,065220,-90602,092986,001957,082125,044783
0000000017,0000016000,084278,-81577,090180,-03120,076219,055764
0000000018,0000017000,095936,-64721,087327,-04938,067739,066062
0000000019,0000018000,098797,-41349,084705,-03328,057512,074679
0000000020,0000019000,092632,-13925,082579,001571,046535,080758
0000000021,0000020000,078249,014676,081157,009273,035891,083700
0000000022,0000021000,056823,041942,080573,019025,026612,083228
0000000023,0000022000,030447,065201,080884,029870,019608,079387
0000000024,0000023000,001958,081934,082060,040744,015568,072553
0000000025,0000024000,-26061,090618,083993,050584,014894,063385
0000000026,0000025000,-50978,090568,086491,058440,017638,052786
0000000027,0000026000,-70075,081597,089297,063528,023532,041804
0000000028,0000027000,-81549,064547,092149,065345,032013,031507
0000000029,0000028000,-84485,041253,094772,063725,042250,022890
0000000030,0000029000,-78454,013962,096898,058834,053219,016810
0000000031,0000030000,-63913,-14795,098320,051137,063859,013868
0000000032,0000031000,-42465,-42090,098905,041376,073147,014340
0000000033,0000032000,-16252,-65185,098593,030533,080150,018181
0000000034,0000033000,012327,-81997,097416,019667,084182,025016
0000000035,0000034000,040438,-90787,095484,009819,084862,034183
0000000036,0000035000,065207,-90582,092987,001962,082121,044781
0000000037,0000036000,084320,-81623,090179,-03118,076219,055763
0000000038,0000037000,095932,-64713,087328,-04939,067741,066061
0000000039,0000038000,098755,-41312,084705,-03325,057511,074678
0000000040,0000039000,092662,-13954,082578,001574,046533,080756
0000000041,0000040000,078280,014647,081156,009272,035893,083699
0000000042,0000041000,056785,041979,080572,019023,026614,083227
0000000043,0000042000,030445,065209,080884,029873,019605,079386
0000000044,0000043000,001994,081896,082060,040743,015568,072552
0000000045,0000044000,-26075,090638,083993,050583,014895,063385
0000000046,0000045000,-50994,090587,086490,058440,017637,052786
0000000047,0000046000,-70053,081577,089297,063528,023530,041805
0000000048,0000047000,-81556,064553,092149,065344,032013,031508
0000000049,0000048000,-84507,041275,094772,063726,042247,022890
0000000050,0000049000,-78432,013943,096898,058836,053217,016812
0000000051,0000050000,-63918,-14796,098320,051136,063858,013869
0000000052,0000051000,-42498,-42058,098905,041379,073144,014341
0000000053,0000052000,-16233,-65204,098593,030536,080146,018181
0000000054,0000053000,012345,-82019,097417,019668,084181,025015
0000000055,0000054000,040403,-90756,095484,009821,084861,034182
0000000056,0000055000,065201,-90582,092987,001968,082117,044780
0000000057,0000056000,084357,-81662,090180,-03115,076218,055761
0000000058,0000057000,095917,-64703,087328,-04938,067743,066058
0000000059,0000058000,098736,-41293,084705,-03321,057510,074675
0000000060,0000059000,092692,-13984,082578,001577,046534,080754
0000000061,0000060000,078288,014640,081156,009271,035896,083697
0000000062,0000061000,056768,042002,080572,019023,026616,083225
0000000063,0000062000,030463,065196,080883,029873,019606,079385
0000000064,0000063000,002008,081886,082060,040741,015571,072552
0000000065,0000064000,-26096,090663,083993,050581,014897,063386
0000000066,0000065000,-50983,090584,086489,058439,017637,052788
0000000067,0000066000,-70037,081564,089297,063525,023531,041808
0000000068,0000067000,-81583,064581,092149,065342,032012,031510
0000000069,0000068000,-84515,041287,094772,063727,042244,022893
0000000070,0000069000,-78409,013920,096898,058835,053214,016815
0000000071,0000070000,-63937,-14779,098321,051136,063856,013872
0000000072,0000071000,-42526,-42034,098905,041383,073138,014343
0000000073,0000072000,-16214,-65228,098594,030540,080141,018182
0000000074,0000073000,012345,-82028,097417,019671,084178,025015
0000000075,0000074000,040374,-90735,095485,009826,084858,034180
0000000076,0000075000,065211,-90597,092988,001974,082113,044777
0000000077,0000076000,084374,-81687,090180,-03111,076218,055757
0000000078,0000077000,095901,-64691,087328,-04934,067744,066054
0000000079,0000078000,098742,-41299,084705,-03317,057511,074670
0000000080,0000079000,092719,-14010,082578,001578,046537,080749
0000000081,0000080000,078282,014648,081156,009271,035901,083692
0000000082,0000081000,056769,042008,080571,019023,026619,083221
0000000083,0000082000,030493,065174,080882,029870,019611,079383
0000000084,0000083000,002007,081895,082059,040736,015577,072551
0000000085,0000084000,-26110,090687,083992,050577,014900,063386
0000000086,0000085000,-50962,090573,086488,058435,017638,052790
0000000087,0000086000,-70032,081566,089296,063519,023533,041812
0000000088,0000087000,-81612,064616,092149,065338,032011,031515
0000000089,0000088000,-84515,041290,094771,063726,042239,022899
0000000090,0000089000,-78401,013911,096898,058833,053210,016821
0000000091,0000090000,-63966,-14755,098321,051136,063851,013877
0000000092,0000091000,-42542,-42024,098906,041387,073130,014347
0000000093,0000092000,-16206,-65248,098595,030545,080134,018184
0000000094,0000093000,012328,-82024,097419,019676,084173,025015
0000000095,0000094000,040357,-90729,095486,009834,084852,034178
0000000096,0000095000,065226,-90624,092989,001982,082109,044773
0000000097,0000096000,084376,-81700,090182,-03105,076217,055751
0000000098,0000097000,095891,-64688,087329,-04927,067744,066046
0000000099,0000098000,098766,-41324,084705,-03311,057513,074662
0000000100,0000099000,092739,-14031,082578,001580,046543,080741
0000000101,0000100000,078276,014659,081156,009271,035908,083685
0000000102,0000101000,056788,042000,080570,019022,026626,083216
0000000103,0000102000,030523,065157,080881,029865,019619,079380
0000000104,0000103000,002002,081913,082058,040728,015585,072550
0000000105,0000104000,-26111,090704,083990,050570,014905,063388
0000000106,0000105000,-50942,090567,086487,058427,017642,052795
0000000107,0000106000,-70041,081585,089295,063510,023536,041818
0000000108,0000107000,-81634,064647,092148,065331,032009,031524
0000000109,0000108000,-84513,041293,094771,063721,042235,022908
0000000110,0000109000,-78414,013919,096898,058830,053204,016830
0000000111,0000110000,-63999,-14728,098322,051136,063842,013885
0000000112,0000111000,-42552,-42025,098907,041391,073120,014353
0000000113,0000112000,-16212,-65259,098596,030551,080125,018188
0000000114,0000113000,012301,-82015,097421,019685,084164,025016
0000000115,0000114000,040351,-90739,095488,009845,084843,034176
0000000116,0000115000,065239,-90655,092991,001992,082104,044768
0000000117,0000116000,084369,-81708,090183,-03095,076216,055743
0000000118,0000117000,095893,-64699,087330,-04917,067745,066036
0000000119,0000118000,098797,-41360,084706,-03305,057517,074651
0000000120,0000119000,092755,-14046,082578,001582,046552,080730
0000000121,0000120000,078283,014661,081155,009272,035917,083675
0000000122,0000121000,056820,041983,080569,019019,026637,083208
0000000123,0000122000,030547,065150,080879,029857,019632,079375
0000000124,0000123000,002003,081935,082055,040719,015596,072549
0000000125,0000124000,-26097,090714,083988,050560,014913,063391
0000000126,0000125000,-50929,090574,086485,058414,017649,052801
0000000127,0000126000,-70057,081619,089293,063497,023539,041828
0000000128,0000127000,-81648,064674,092146,065322,032007,031536
0000000129,0000128000,-84518,041302,094771,063714,042229,022922
0000000130,0000129000,-78443,013945,096899,058826,053195,016843
0000000131,0000130000,-64032,-14704,098323,051138,063830,013896
0000000132,0000131000,-42563,-42030,098909,041396,073105,014362
0000000133,0000132000,-16234,-65260,098599,030559,080111,018194
0000000134,0000133000,012270,-82010,097423,019697,084150,025017
0000000135,0000134000,040349,-90762,095490,009860,084832,034172
0000000136,0000135000,065244,-90685,092993,002007,082097,044760
0000000137,0000136000,084362,-81722,090185,-03081,076213,055731
0000000138,0000137000,095909,-64727,087331,-04904,067746,066022
0000000139,0000138000,098829,-41398,084706,-03296,057524,074635
0000000140,0000139000,092773,-14060,082578,001587,046563,080714
0000000141,0000140000,078307,014650,081153,009272,035930,083661
0000000142,0000141000,056861,041962,080567,019014,026652,083198
0000000143,0000142000,030569,065153,080877,029847,019649,079368
0000000144,0000143000,002014,081955,082052,040706,015611,072547
0000000145,0000144000,-26075,090723,083985,050544,014925,063395
0000000146,0000145000,-50923,090596,086482,058396,017657,052810
0000000147,0000146000,-70076,081660,089291,063481,023542,041841
0000000148,0000147000,-81658,064702,092145,065309,032004,031552
0000000149,0000148000,-84534,041324,094770,063703,042222,022939
0000000150,0000149000,-78484,013982,096899,058820,053183,016860
0000000151,0000150000,-64066,-14683,098324,051139,063813,013912
0000000152,0000151000,-42586,-42031,098911,041402,073087,014374
0000000153,0000152000,-16270,-65255,098602,030570,080093,018201
0000000154,0000153000,012241,-82014,097426,019713,084132,025018
0000000155,0000154000,040345,-90794,095494,009879,084817,034168
0000000156,0000155000,065239,-90714,092996,002026,082088,044750
0000000157,0000156000,084360,-81747,090188,-03061,076209,055716
0000000158,0000157000,095934,-64770,087333,-04888,067748,066003
0000000159,0000158000,098861,-41439,084707,-03284,057533,074615
0000000160,0000159000,092798,-14081,082578,001593,046577,080694
0000000161,0000160000,078348,014626,081152,009273,035948,083643
0000000162,0000161000,056907,041941,080564,019007,026673,083184
0000000163,0000162000,030595,065161,080873,029834,019670,079360
0000000164,0000163000,002038,081971,082048,040688,015630,072545
0000000165,0000164000,-26049,090737,083981,050523,014941,063400
0000000166,0000165000,-50924,090632,086479,058374,017669,052822
0000000167,0000166000,-70092,081708,089288,063461,023545,041858
0000000168,0000167000,-81671,064736,092143,065291,032001,031573
0000000169,0000168000,-84565,041362,094769,063689,042212,022962
0000000170,0000169000,-78532,014025,096900,058814,053167,016883
0000000171,0000170000,-64104,-14662,098326,051140,063791,013932
0000000172,0000171000,-42623,-42024,098914,041410,073064,014390
0000000173,0000172000,-16317,-65247,098606,030584,080069,018210
0000000174,0000173000,012212,-82028,097431,019734,084110,025020
0000000175,0000174000,040334,-90829,095498,009903,084799,034162
0000000176,0000175000,065229,-90746,093001,002051,082077,044737
0000000177,0000176000,084367,-81787,090191,-03037,076204,055697
0000000178,0000177000,095967,-64826,087335,-04867,067751,065980
0000000179,0000178000,098895,-41483,084708,-03270,057544,074589
0000000180,0000179000,092835,-14112,082577,001601,046594,080669
0000000181,0000180000,078404,014591,081150,009272,035971,083621
0000000182,0000181000,056957,041923,080561,018998,026700,083166
0000000183,0000182000,030630,065170,080869,029818,019697,079349
0000000184,0000183000,002075,081984,082043,040666,015654,072543
0000000185,0000184000,-26022,090761,083976,050496,014961,063406
0000000186,0000185000,-50926,090681,086474,058345,017682,052836
0000000187,0000186000,-70104,081760,089284,063435,023550,041879
0000000188,0000187000,-81690,064781,092140,065268,031997,031599
0000000189,0000188000,-84610,041416,094768,063673,042200,022991
0000000190,0000189000,-78587,014074,096900,058806,053147,016911
0000000191,0000190000,-64152,-14637,098328,051141,063765,013957
0000000192,0000191000,-42678,-42007,098918,041419,073035,014409
0000000193,0000192000,-16371,-65241,098611,030603,080039,018222
0000000194,0000193000,012179,-82050,097436,019759,084082,025023
0000000195,0000194000,040314,-90867,095504,009932,084777,034155
0000000196,0000195000,065217,-90787,093006,002082,082062,044720
0000000197,0000196000,084382,-81844,090195,-03007,076198,055673
0000000198,0000197000,096003,-64891,087338,-04842,067755,065950
0000000199,0000198000,098934,-41534,084709,-03252,057558,074557
0000000200,0000199000,092889,-14157,082576,001610,046616,080637
0000000201,0000200000,078472,014549,081147,009272,036000,083593
0000000202,0000201000,057015,041906,080557,018987,026733,083145
0000000203,0000202000,030678,065176,080864,029798,019730,079336
0000000204,0000203000,002122,081999,082037,040639,015684,072541
0000000205,0000204000,-25996,090797,083969,050463,014986,063414
0000000206,0000205000,-50927,090740,086468,058311,017699,052854
0000000207,0000206000,-70115,081819,089279,063402,023556,041906
0000000208,0000207000,-81720,064842,092137,065240,031992,031631
0000000209,0000208000,-84665,041484,094767,063653,042185,023026
0000000210,0000209000,-78648,014128,096901,058796,053122,016946
0000000211,0000210000,-64214,-14604,098331,051142,063734,013988
0000000212,0000211000,-42748,-41983,098923,041431,073000,014433
0000000213,0000212000,-16433,-65239,098616,030625,080003,018236
0000000214,0000213000,012139,-82078,097443,019790,084048,025026
0000000215,0000214000,040285,-90908,095511,009967,084751,034146
0000000216,0000215000,065205,-90839,093012,002120,082044,044701
0000000217,0000216000,084402,-81916,090200,-02971,076190,055644
0000000218,0000217000,096041,-64966,087342,-04812,067760,065915
0000000219,0000218000,098982,-41597,084711,-03230,057575,074518
0000000220,0000219000,092958,-14217,082575,001622,046643,080599
0000000221,0000220000,078550,014501,081144,009270,036034,083559
0000000222,0000221000,057083,041888,080552,018973,026772,083119
0000000223,0000222000,030742,065179,080857,029774,019769,079321
0000000224,0000223000,002178,082018,082030,040606,015720,072538
0000000225,0000224000,-25968,090844,083962,050424,015016,063424
0000000226,0000225000,-50922,090807,086461,058270,017718,052875
0000000227,0000226000,-70128,081889,089273,063363,023563,041937
0000000228,0000227000,-81759,064920,092133,065207,031987,031670
0000000229,0000228000,-84729,041565,094765,063629,042167,023068
0000000230,0000229000,-78718,014190,096902,058785,053092,016987
0000000231,0000230000,-64292,-14559,098334,051143,063696,014025
0000000232,0000231000,-42833,-41954,098928,041446,072957,014461
0000000233,0000232000,-16503,-65240,098624,030652,079959,018252
0000000234,0000233000,012088,-82109,097451,019826,084009,025029
0000000235,0000234000,040247,-90954,095520,010010,084719,034136
0000000236,0000235000,065195,-90905,093020,002165,082022,044677
0000000237,0000236000,084425,-82002,090207,-02928,076182,055610
0000000238,0000237000,096082,-65052,087346,-04776,067767,065873
0000000239,0000238000,099043,-41676,084713,-03204,057595,074473
0000000240,0000239000,093042,-14291,082574,001635,046675,080554
0000000241,0000240000,078639,014447,081140,009269,036076,083520
0000000242,0000241000,057165,041865,080546,018957,026818,083089
0000000243,0000242000,030821,065178,080849,029745,019816,079303
0000000244,0000243000,002241,082043,082021,040566,015763,072534
0000000245,0000244000,-25934,090902,083953,050378,015050,063435
0000000246,0000245000,-50913,090882,086453,058222,017740,052901
0000000247,0000246000,-70143,081973,089266,063317,023572,041974
0000000248,0000247000,-81809,065016,092128,065168,031981,031716
0000000249,0000248000,-84801,041657,094763,063602,042145,023118
0000000250,0000249000,-78801,014262,096903,058771,053058,017036
0000000251,0000250000,-64388,-14503,098338,051144,063652,014067
0000000252,0000251000,-42931,-41920,098934,041463,072907,014493
0000000253,0000252000,-16584,-65243,098632,030684,079908,018271
0000000254,0000253000,012024,-82142,097461,019869,083963,025033
0000000255,0000254000,040202,-91008,095529,010060,084682,034123
0000000256,0000255000,065186,-90986,093029,002217,081998,044650
0000000257,0000256000,084450,-82101,090214,-02879,076173,055570
0000000258,0000257000,096130,-65150,087351,-04735,067774,065824
0000000259,0000258000,099118,-41771,084715,-03174,057618,074419
0000000260,0000259000,093140,-14378,082573,001650,046712,080502
0000000261,0000260000,078740,014387,081136,009267,036124,083474
0000000262,0000261000,057265,041835,080539,018939,026872,083053
0000000263,0000262000,030916,065175,080840,029711,019870,079283
0000000264,0000263000,002312,082075,082010,040520,015813,072530
0000000265,0000264000,-25893,090967,083942,050324,015090,063449
0000000266,0000265000,-50900,090967,086443,058166,017767,052931
0000000267,0000266000,-70164,082075,089258,063264,023582,042018
0000000268,0000267000,-81866,065129,092123,065123,031973,031769
0000000269,0000268000,-84882,041762,094761,063570,042120,023175
0000000270,0000269000,-78900,014349,096904,058755,053017,017092
0000000271,0000270000,-64502,-14435,098343,051147,063601,014116
0000000272,0000271000,-43042,-41882,098942,041484,072849,014531
0000000273,0000272000,-16679,-65246,098642,030720,079850,018293
0000000274,0000273000,011946,-82177,097472,019918,083910,025037
0000000275,0000274000,040152,-91072,095541,010117,084639,034108
0000000276,0000275000,065176,-91082,093039,002277,081969,044618
0000000277,0000276000,084474,-82214,090223,-02822,076163,055523
0000000278,0000277000,096184,-65265,087357,-04687,067783,065767
0000000279,0000278000,099207,-41885,084717,-03140,057645,074358
0000000280,0000279000,093251,-14477,082572,001666,046755,080442
0000000281,0000280000,078857,014318,081132,009264,036179,083421
0000000282,0000281000,057384,041797,080531,018917,026934,083013
0000000283,0000282000,031024,065172,080829,029672,019933,079259
0000000284,0000283000,002394,082114,081998,040467,015870,072526
0000000285,0000284000,-25843,091041,083930,050263,015136,063465
0000000286,0000285000,-50883,091064,086431,058102,017796,052965
0000000287,0000286000,-70190,082194,089249,063203,023593,042068
0000000288,0000287000,-81930,065258,092116,065072,031963,031829
0000000289,0000288000,-84973,041881,094758,063533,042090,023241
0000000290,0000289000,-79016,014451,096905,058737,052971,017156
0000000291,0000290000,-64633,-14354,098348,051149,063542,014173
0000000292,0000291000,-43169,-41840,098950,041507,072783,014573
0000000293,0000292000,-16790,-65247,098653,030762,079783,018318
0000000294,0000293000,011854,-82214,097485,019974,083849,025041
0000000295,0000294000,040095,-91146,095554,010183,084590,034091
0000000296,0000295000,065163,-91191,093052,002346,081937,044581
0000000297,0000296000,084500,-82341,090233,-02758,076152,055470
0000000298,0000297000,096248,-65398,087364,-04632,067793,065702
0000000299,0000298000,099308,-42016,084720,-03101,057676,074288
0000000300,0000299000,093376,-14589,082571,001685,046804,080374
0000000301,0000300000,078992,014237,081126,009261,036242,083362
