DIgSILENT PowerFactory,21000900,2000
6,06A,00D
1,TTPP_200000_100:Secondary Voltage A,,,V,0.010000000,-67.888947,0.000000,-86353,99998,1,1,P
2,TTPP_200000_100:Secondary Voltage B,,,V,0.010000000,-19.061207,0.000000,-92773,99998,1,1,P
3,TTPP_200000_100:Secondary Voltage C,,,V,0.10000000,-8994.989258,0.000000,79910,99998,1,1,P
4,TTCC_500_5:Secondary Current A,,,A,0.0010000000,-83.837906,0.000000,59492,99998,1,1,P
5,TTCC_500_5:Secondary Current B,,,A,0.0010000000,-84.821823,0.000000,69646,99998,1,1,P
6,TTCC_500_5:Secondary Current C,,,A,0.0010000000,-84.623207,0.000000,69243,99998,1,1,P
50
1
1000.000000,1101
30/06/2023,06:01:56.000000
30/06/2023,06:01:56.000000
ASCII
1.000000
0000000001,0000000000,061935,038283,080798,089756,089499,074028
0000000002,0000001000,036468,062612,080910,086740,092216,074326
0000000003,0000002000,007915,081204,081908,083442,094210,075631
0000000004,0000003000,-20557,091841,083690,080186,095282,077816
0000000005,0000004000,-46310,093594,086091,077284,095330,080670
0000000006,0000005000,-67073,086573,088869,075019,094355,083909
0000000007,0000006000,-80540,071284,091745,073624,092443,087216
0000000008,0000007000,-85363,049043,094451,073230,089781,090271
0000000009,0000008000,-81210,022192,096721,073870,086638,092774
0000000010,0000009000,-68539,-06484,098322,075488,083317,094478
0000000011,0000010000,-48375,-34448,099101,077924,080143,095216
0000000012,0000011000,-22744,-58945,098989,080938,077426,094919
0000000013,0000012000,005539,-77278,097992,084235,075433,093614
0000000014,0000013000,034026,-87927,096210,087495,074358,091429
0000000015,0000014000,060035,-89934,093808,090398,074309,088576
0000000016,0000015000,080668,-82788,091031,092657,075289,085336
0000000017,0000016000,094035,-67384,088154,094054,077200,082030
0000000018,0000017000,098975,-45267,085448,094450,079858,078974
0000000019,0000018000,094813,-18415,083180,093807,083005,076471
0000000020,0000019000,082019,010384,081578,092192,086324,074767
0000000021,0000020000,061975,038237,080798,089758,089496,074029
0000000022,0000021000,036457,062622,080911,086739,092217,074326
0000000023,0000022000,007951,081174,081907,083441,094211,075631
0000000024,0000023000,-20536,091830,083690,080185,095282,077816
0000000025,0000024000,-46353,093633,086091,077281,095332,080670
0000000026,0000025000,-67109,086610,088869,075020,094354,083909
0000000027,0000026000,-80522,071263,091745,073625,092442,087216
0000000028,0000027000,-85306,048992,094451,073229,089783,090271
0000000029,0000028000,-81230,022216,096720,073869,086639,092775
0000000030,0000029000,-68561,-06459,098322,075487,083318,094478
0000000031,0000030000,-48367,-34457,099102,077923,080143,095217
0000000032,0000031000,-22782,-58915,098989,080938,077426,094919
0000000033,0000032000,005559,-77295,097993,084236,075433,093614
0000000034,0000033000,034077,-87978,096209,087494,074359,091429
0000000035,0000034000,060014,-89908,093809,090396,074311,088576
0000000036,0000035000,080631,-82752,091031,092657,075289,085337
0000000037,0000036000,094044,-67394,088155,094054,077199,082030
0000000038,0000037000,098995,-45290,085449,094450,079859,078975
0000000039,0000038000,094812,-18412,083180,093807,083005,076471
0000000040,0000039000,082037,010375,081578,092191,086324,074768
0000000041,0000040000,061988,038226,080798,089756,089497,074029
0000000042,0000041000,036416,062666,080911,086739,092217,074327
0000000043,0000042000,007950,081176,081907,083442,094210,075631
0000000044,0000043000,-20485,091785,083690,080185,095282,077816
0000000045,0000044000,-46359,093644,086091,077281,095333,080670
0000000046,0000045000,-67126,086634,088869,075020,094354,083909
0000000047,0000046000,-80514,071258,091745,073626,092442,087215
0000000048,0000047000,-85320,049005,094451,073229,089783,090271
0000000049,0000048000,-81243,022231,096720,073869,086639,092774
0000000050,0000049000,-68535,-06483,098321,075487,083318,094478
0000000051,0000050000,-48356,-34466,099102,077922,080145,095216
0000000052,0000051000,-22823,-58878,098990,080937,077427,094919
0000000053,0000052000,005548,-77286,097993,084235,075433,093614
0000000054,0000053000,034098,-88006,096210,087494,074360,091430
0000000055,0000054000,060003,-89903,093809,090395,074311,088576
0000000056,0000055000,080631,-82753,091031,092656,075290,085337
0000000057,0000056000,094065,-67418,088155,094053,077199,082031
0000000058,0000057000,098977,-45275,085449,094448,079859,078976
0000000059,0000058000,094796,-18399,083180,093807,083005,076472
0000000060,0000059000,082070,010344,081578,092191,086323,074768
0000000061,0000060000,062007,038209,080798,089756,089497,074030
0000000062,0000061000,036403,062686,080910,086739,092216,074327
0000000063,0000062000,007957,081176,081906,083443,094209,075632
0000000064,0000063000,-20472,091777,083689,080185,095281,077816
0000000065,0000064000,-46373,093664,086091,077282,095332,080669
0000000066,0000065000,-67119,086635,088868,075021,094354,083908
0000000067,0000066000,-80488,071241,091744,073626,092442,087215
0000000068,0000067000,-85342,049030,094450,073229,089784,090270
0000000069,0000068000,-81268,022259,096720,073870,086639,092773
0000000070,0000069000,-68525,-06495,098321,075487,083319,094477
0000000071,0000070000,-48361,-34465,099102,077921,080146,095216
0000000072,0000071000,-22843,-58862,098990,080936,077428,094918
0000000073,0000072000,005552,-77297,097994,084235,075434,093614
0000000074,0000073000,034095,-88013,096211,087492,074361,091430
0000000075,0000074000,059974,-89886,093810,090394,074312,088577
0000000076,0000075000,080635,-82766,091032,092655,075290,085338
0000000077,0000076000,094089,-67451,088156,094051,077200,082032
0000000078,0000077000,098970,-45274,085450,094447,079859,078977
0000000079,0000078000,094793,-18398,083180,093806,083004,076473
0000000080,0000079000,082094,010320,081578,092191,086322,074770
0000000081,0000080000,062012,038206,080797,089755,089496,074031
0000000082,0000081000,036404,062692,080910,086740,092215,074328
0000000083,0000082000,007988,081158,081905,083443,094207,075632
0000000084,0000083000,-20460,091777,083688,080186,095280,077817
0000000085,0000084000,-46389,093693,086089,077283,095331,080669
0000000086,0000085000,-67112,086641,088867,075023,094353,083908
0000000087,0000086000,-80477,071239,091743,073627,092442,087214
0000000088,0000087000,-85360,049055,094450,073230,089785,090268
0000000089,0000088000,-81279,022275,096720,073871,086640,092772
0000000090,0000089000,-68525,-06496,098322,075487,083320,094475
0000000091,0000090000,-48389,-34444,099103,077921,080148,095214
0000000092,0000091000,-22869,-58846,098991,080936,077430,094917
0000000093,0000092000,005557,-77315,097995,084233,075436,093613
0000000094,0000093000,034085,-88019,096213,087490,074364,091430
0000000095,0000094000,059951,-89880,093812,090392,074314,088577
0000000096,0000095000,080640,-82786,091034,092653,075291,085339
0000000097,0000096000,094098,-67475,088157,094049,077201,082033
0000000098,0000097000,098965,-45279,085451,094445,079859,078979
0000000099,0000098000,094812,-18420,083180,093805,083003,076476
0000000100,0000099000,082125,010291,081578,092190,086321,074772
0000000101,0000100000,062018,038207,080797,089755,089495,074033
0000000102,0000101000,036416,062693,080908,086741,092212,074330
0000000103,0000102000,008020,081142,081903,083445,094205,075633
0000000104,0000103000,-20448,091784,083686,080188,095279,077817
0000000105,0000104000,-46390,093716,086087,077285,095329,080669
0000000106,0000105000,-67098,086648,088864,075025,094351,083906
0000000107,0000106000,-80480,071257,091741,073629,092442,087212
0000000108,0000107000,-85385,049092,094448,073232,089785,090266
0000000109,0000108000,-81288,022290,096719,073873,086641,092769
0000000110,0000109000,-68534,-06489,098322,075488,083323,094473
0000000111,0000110000,-48424,-34419,099104,077921,080151,095212
0000000112,0000111000,-22895,-58834,098993,080935,077433,094915
0000000113,0000112000,005547,-77326,097997,084231,075439,093612
0000000114,0000113000,034061,-88021,096215,087487,074366,091429
0000000115,0000114000,059934,-89887,093814,090389,074316,088578
0000000116,0000115000,080650,-82819,091036,092650,075292,085341
0000000117,0000116000,094102,-67500,088159,094046,077201,082036
0000000118,0000117000,098964,-45292,085453,094442,079859,078982
0000000119,0000118000,094839,-18453,083181,093803,083001,076479
0000000120,0000119000,082157,010260,081578,092189,086319,074775
0000000121,0000120000,062035,038201,080796,089755,089492,074036
0000000122,0000121000,036446,062683,080906,086742,092209,074332
0000000123,0000122000,008055,081132,081901,083447,094202,075635
0000000124,0000123000,-20437,091801,083683,080190,095276,077817
0000000125,0000124000,-46381,093738,086084,077289,095326,080668
0000000126,0000125000,-67081,086660,088862,075029,094350,083905
0000000127,0000126000,-80488,071289,091739,073632,092442,087209
0000000128,0000127000,-85410,049134,094447,073235,089786,090262
0000000129,0000128000,-81304,022313,096718,073875,086643,092765
0000000130,0000129000,-68561,-06466,098322,075489,083325,094469
0000000131,0000130000,-48468,-34388,099105,077920,080154,095208
0000000132,0000131000,-22923,-58827,098995,080934,077437,094913
0000000133,0000132000,005524,-77334,098000,084229,075443,093611
0000000134,0000133000,034026,-88021,096219,087483,074370,091429
0000000135,0000134000,059917,-89904,093818,090385,074319,088579
0000000136,0000135000,080656,-82859,091040,092646,075294,085343
0000000137,0000136000,094104,-67531,088162,094041,077202,082039
0000000138,0000137000,098976,-45323,085454,094439,079858,078986
0000000139,0000138000,094876,-18497,083182,093800,082999,076483
0000000140,0000139000,082192,010228,081577,092187,086316,074780
0000000141,0000140000,062064,038187,080794,089755,089488,074040
0000000142,0000141000,036491,062664,080904,086743,092204,074335
0000000143,0000142000,008096,081125,081897,083449,094197,075636
0000000144,0000143000,-20419,091822,083679,080194,095271,077817
0000000145,0000144000,-46363,093762,086080,077294,095323,080667
0000000146,0000145000,-67068,086685,088858,075034,094347,083902
0000000147,0000146000,-80503,071335,091736,073637,092441,087205
0000000148,0000147000,-85434,049181,094444,073239,089786,090258
0000000149,0000148000,-81326,022346,096717,073878,086645,092760
0000000150,0000149000,-68604,-06428,098323,075490,083329,094464
0000000151,0000150000,-48521,-34353,099107,077920,080159,095204
0000000152,0000151000,-22961,-58818,098998,080932,077442,094909
0000000153,0000152000,005487,-77337,098004,084225,075449,093609
0000000154,0000153000,033986,-88027,096223,087479,074375,091429
0000000155,0000154000,059900,-89933,093822,090380,074323,088580
0000000156,0000155000,080656,-82904,091044,092640,075297,085346
0000000157,0000156000,094106,-67570,088166,094036,077204,082043
0000000158,0000157000,098999,-45370,085457,094435,079857,078991
0000000159,0000158000,094921,-18554,083183,093797,082997,076489
0000000160,0000159000,082234,010190,081577,092185,086312,074785
0000000161,0000160000,062110,038162,080792,089755,089482,074045
0000000162,0000161000,036550,062640,080900,086745,092198,074339
0000000163,0000162000,008142,081123,081893,083453,094191,075639
0000000164,0000163000,-20390,091846,083674,080199,095266,077818
0000000165,0000164000,-46335,093789,086074,077300,095318,080665
0000000166,0000165000,-67058,086724,088853,075040,094344,083899
0000000167,0000166000,-80522,071395,091732,073643,092440,087200
0000000168,0000167000,-85461,049238,094441,073244,089787,090252
0000000169,0000168000,-81361,022393,096716,073881,086648,092754
0000000170,0000169000,-68662,-06377,098323,075492,083334,094457
0000000171,0000170000,-48582,-34314,099109,077920,080165,095198
0000000172,0000171000,-23012,-58806,099001,080930,077449,094905
0000000173,0000172000,005433,-77336,098010,084221,075456,093606
0000000174,0000173000,033939,-88039,096229,087473,074382,091428
0000000175,0000174000,059880,-89974,093829,090373,074328,088582
0000000176,0000175000,080652,-82956,091050,092633,075301,085350
0000000177,0000176000,094112,-67623,088171,094029,077205,082049
0000000178,0000177000,099032,-45435,085460,094429,079856,078998
0000000179,0000178000,094973,-18620,083184,093793,082994,076497
0000000180,0000179000,082287,010142,081576,092183,086307,074793
0000000181,0000180000,062174,038124,080789,089756,089475,074052
0000000182,0000181000,036621,062613,080896,086748,092191,074344
0000000183,0000182000,008197,081125,081887,083458,094184,075642
0000000184,0000183000,-20348,091871,083667,080206,095259,077818
0000000185,0000184000,-46300,093823,086067,077307,095312,080663
0000000186,0000185000,-67050,086779,088847,075048,094341,083895
0000000187,0000186000,-80542,071468,091727,073651,092438,087194
0000000188,0000187000,-85492,049306,094438,073251,089788,090244
0000000189,0000188000,-81411,022457,096715,073886,086652,092745
0000000190,0000189000,-68734,-06312,098324,075494,083340,094449
0000000191,0000190000,-48654,-34270,099112,077920,080172,095191
0000000192,0000191000,-23079,-58788,099006,080927,077457,094899
0000000193,0000192000,005364,-77332,098016,084215,075465,093603
0000000194,0000193000,033885,-88058,096236,087466,074389,091428
0000000195,0000194000,059854,-90024,093836,090364,074334,088584
0000000196,0000195000,080642,-83018,091057,092623,075305,085354
0000000197,0000196000,094123,-67692,088176,094021,077206,082056
0000000198,0000197000,099075,-45518,085464,094422,079855,079007
0000000199,0000198000,095033,-18698,083186,093787,082990,076506
0000000200,0000199000,082355,010082,081576,092180,086301,074802
0000000201,0000200000,062257,038074,080786,089756,089467,074060
0000000202,0000201000,036705,062582,080890,086751,092181,074350
0000000203,0000202000,008264,081129,081880,083463,094174,075645
0000000204,0000203000,-20292,091898,083659,080214,095250,077819
0000000205,0000204000,-46260,093867,086059,077317,095305,080661
0000000206,0000205000,-67043,086849,088839,075058,094336,083889
0000000207,0000206000,-80563,071554,091720,073660,092436,087186
0000000208,0000207000,-85530,049389,094433,073259,089789,090235
0000000209,0000208000,-81475,022540,096713,073892,086656,092735
0000000210,0000209000,-68819,-06235,098325,075497,083347,094439
0000000211,0000210000,-48741,-34218,099116,077920,080181,095182
0000000212,0000211000,-23165,-58763,099012,080923,077467,094893
0000000213,0000212000,005280,-77327,098024,084209,075475,093599
0000000214,0000213000,033823,-88086,096245,087457,074399,091427
0000000215,0000214000,059819,-90082,093845,090354,074342,088587
0000000216,0000215000,080628,-83091,091066,092613,075310,085360
0000000217,0000216000,094140,-67780,088183,094010,077208,082064
0000000218,0000217000,099127,-45618,085469,094413,079853,079017
0000000219,0000218000,095104,-18790,083188,093781,082985,076517
0000000220,0000219000,082441,010007,081575,092177,086293,074813
0000000221,0000220000,062359,038013,080782,089757,089457,074069
0000000222,0000221000,036804,062548,080884,086755,092170,074358
0000000223,0000222000,008347,081133,081871,083470,094163,075650
0000000224,0000223000,-20222,091928,083649,080224,095239,077820
0000000225,0000224000,-46214,093922,086049,077328,095297,080658
0000000226,0000225000,-67035,086935,088829,075069,094331,083883
0000000227,0000226000,-80585,071654,091712,073671,092434,087177
0000000228,0000227000,-85578,049490,094428,073268,089791,090224
0000000229,0000228000,-81555,022642,096710,073898,086661,092723
0000000230,0000229000,-68920,-06145,098326,075500,083355,094427
0000000231,0000230000,-48845,-34157,099120,077919,080192,095172
0000000232,0000231000,-23271,-58729,099020,080919,077480,094885
0000000233,0000232000,005181,-77323,098034,084201,075488,093594
0000000234,0000233000,033750,-88121,096256,087447,074410,091426
0000000235,0000234000,059774,-90149,093857,090342,074351,088590
0000000236,0000235000,080612,-83178,091076,092600,075316,085367
0000000237,0000236000,094163,-67887,088192,093998,077210,082074
0000000238,0000237000,099186,-45737,085475,094403,079851,079029
0000000239,0000238000,095186,-18898,083191,093774,082979,076530
0000000240,0000239000,082545,009915,081573,092174,086284,074826
0000000241,0000240000,062479,037939,080777,089757,089445,074081
0000000242,0000241000,036920,062510,080876,086760,092157,074366
0000000243,0000242000,008448,081135,081861,083479,094149,075655
0000000244,0000243000,-20138,091962,083637,080235,095227,077821
0000000245,0000244000,-46162,093990,086037,077341,095287,080655
0000000246,0000245000,-67025,087037,088818,075083,094324,083876
0000000247,0000246000,-80608,071771,091703,073685,092432,087166
0000000248,0000247000,-85636,049611,094422,073279,089793,090210
0000000249,0000248000,-81650,022764,096708,073906,086668,092709
0000000250,0000249000,-69036,-06041,098327,075504,083365,094413
0000000251,0000250000,-48968,-34084,099125,077919,080205,095159
0000000252,0000251000,-23398,-58687,099028,080914,077494,094875
0000000253,0000252000,005067,-77319,098045,084192,075502,093589
0000000254,0000253000,033664,-88163,096269,087434,074424,091425
0000000255,0000254000,059719,-90225,093870,090327,074362,088594
0000000256,0000255000,080594,-83281,091088,092585,075323,085375
0000000257,0000256000,094192,-68015,088202,093984,077213,082086
0000000258,0000257000,099253,-45874,085482,094391,079849,079043
0000000259,0000258000,095283,-19025,083194,093765,082972,076546
0000000260,0000259000,082669,009804,081572,092170,086273,074841
0000000261,0000260000,062619,037853,080772,089758,089431,074094
0000000262,0000261000,037054,062467,080867,086765,092141,074376
0000000263,0000262000,008568,081136,081849,083489,094134,075661
0000000264,0000263000,-20040,092001,083623,080249,095213,077822
0000000265,0000264000,-46102,094072,086023,077357,095276,080651
0000000266,0000265000,-67011,087154,088805,075099,094317,083867
0000000267,0000266000,-80635,071906,091692,073700,092429,087154
0000000268,0000267000,-85705,049755,094414,073292,089796,090195
0000000269,0000268000,-81759,022906,096705,073915,086675,092692
0000000270,0000269000,-69169,-05921,098328,075509,083377,094397
0000000271,0000270000,-49114,-33997,099131,077918,080220,095145
0000000272,0000271000,-23547,-58636,099038,080908,077511,094864
0000000273,0000272000,004935,-77316,098058,084181,075519,093583
0000000274,0000273000,033564,-88210,096284,087420,074439,091424
0000000275,0000274000,059654,-90312,093885,090311,074374,088598
0000000276,0000275000,080574,-83402,091102,092567,075331,085384
0000000277,0000276000,094224,-68164,088214,093968,077216,082100
0000000278,0000277000,099329,-46030,085490,094377,079847,079060
0000000279,0000278000,095395,-19172,083197,093755,082964,076563
0000000280,0000279000,082815,009674,081570,092165,086260,074858
0000000281,0000280000,062779,037756,080766,089759,089415,074109
0000000282,0000281000,037208,062417,080857,086771,092124,074388
0000000283,0000282000,008709,081134,081835,083500,094116,075667
0000000284,0000283000,-19926,092047,083608,080264,095196,077823
0000000285,0000284000,-46034,094166,086006,077374,095263,080646
0000000286,0000285000,-66992,087287,088790,075118,094308,083857
0000000287,0000286000,-80665,072062,091680,073717,092426,087139
0000000288,0000287000,-85786,049922,094406,073307,089799,090178
0000000289,0000288000,-81883,023068,096701,073926,086684,092673
0000000290,0000289000,-69321,-05784,098330,075514,083390,094379
0000000291,0000290000,-49282,-33895,099137,077917,080237,095129
0000000292,0000291000,-23717,-58578,099049,080901,077530,094852
0000000293,0000292000,004785,-77314,098072,084169,075538,093576
0000000294,0000293000,033446,-88263,096301,087404,074456,091423
0000000295,0000294000,059577,-90411,093902,090292,074388,088603
0000000296,0000295000,080552,-83541,091118,092548,075340,085395
0000000297,0000296000,094260,-68334,088227,093949,077219,082115
0000000298,0000297000,099414,-46209,085499,094361,079844,079078
0000000299,0000298000,095524,-19342,083201,093744,082955,076583
0000000300,0000299000,082980,009524,081569,092160,086246,074877
0000000301,0000300000,062960,037644,080759,089760,089397,074126
