DIgSILENT PowerFactory,21000900,2000
6,06A,00D
1,TTPP_200000_100:Secondary Voltage A,,,V,0.10000000,-8335.491211,0.000000,67165,99998,1,1,P
2,TTPP_200000_100:Secondary Voltage B,,,V,0.10000000,-7952.117676,0.000000,61638,99998,1,1,P
3,TTPP_200000_100:Secondary Voltage C,,,V,0.10000000,-8223.774414,0.000000,63363,99998,1,1,P
4,TTCC_500_5:Secondary Current A,,,A,0.0010000000,-87.702293,0.000000,69961,99998,1,1,P
5,TTCC_500_5:Secondary Current B,,,A,0.0010000000,-85.176834,0.000000,70210,99998,1,1,P
6,TTCC_500_5:Secondary Current C,,,A,0.0010000000,-84.415657,0.000000,69028,99998,1,1,P
50
1
1000.000000,1101
30/06/2023,06:07:36.000000
30/06/2023,06:07:36.000000
ASCII
1.000000
0000000001,0000000000,088867,083162,073085,093618,089856,073821
0000000002,0000001000,086319,085595,073199,090603,092572,074119
0000000003,0000002000,083467,087451,074198,087303,094567,075425
0000000004,0000003000,080622,088512,075980,084048,095637,077610
0000000005,0000004000,078038,088694,078382,081144,095687,080464
0000000006,0000005000,075965,087988,081160,078883,094708,083704
0000000007,0000006000,074620,086457,084036,077489,092795,087011
0000000008,0000007000,074146,084227,086741,077094,090135,090066
0000000009,0000008000,074555,081548,089010,077735,086991,092569
0000000010,0000009000,075822,078682,090611,079353,083670,094272
0000000011,0000010000,077842,075883,091390,081791,080495,095009
0000000012,0000011000,080403,073434,091276,084805,077779,094711
0000000013,0000012000,083232,071603,090279,088103,075786,093405
0000000014,0000013000,086085,070533,088495,091362,074713,091220
0000000015,0000014000,088683,070338,086093,094264,074665,088366
0000000016,0000015000,090742,071056,083316,096523,075646,085126
0000000017,0000016000,092078,072597,080440,097920,077555,081819
0000000018,0000017000,092577,074804,077734,098315,080216,078764
0000000019,0000018000,092157,077491,075465,097671,083363,076261
0000000020,0000019000,090876,080373,073865,096054,086682,074558
0000000021,0000020000,088872,083156,073086,093620,089854,073821
0000000022,0000021000,086318,085596,073199,090601,092575,074119
0000000023,0000022000,083466,087452,074196,087304,094566,075425
0000000024,0000023000,080622,088512,075980,084047,095637,077611
0000000025,0000024000,078039,088693,078383,081144,095686,080465
0000000026,0000025000,075963,087991,081160,078882,094709,083704
0000000027,0000026000,074622,086455,084036,077489,092795,087011
0000000028,0000027000,074145,084227,086742,077093,090136,090066
0000000029,0000028000,074554,081549,089010,077735,086991,092569
0000000030,0000029000,075823,078681,090610,079353,083670,094272
0000000031,0000030000,077843,075881,091390,081789,080496,095010
0000000032,0000031000,080399,073439,091277,084804,077780,094711
0000000033,0000032000,083234,071601,090279,088103,075786,093405
0000000034,0000033000,086088,070530,088495,091361,074714,091220
0000000035,0000034000,088679,070341,086094,094263,074666,088366
0000000036,0000035000,090741,071057,083316,096523,075645,085126
0000000037,0000036000,092084,072591,080439,097919,077556,081820
0000000038,0000037000,092574,074806,077734,098313,080217,078765
0000000039,0000038000,092154,077495,075466,097671,083362,076262
0000000040,0000039000,090880,080369,073865,096055,086681,074559
0000000041,0000040000,088874,083154,073085,093618,089855,073821
0000000042,0000041000,086312,085602,073199,090601,092574,074120
0000000043,0000042000,083468,087450,074196,087304,094565,075425
0000000044,0000043000,080627,088507,075980,084047,095638,077611
0000000045,0000044000,078035,088697,078382,081143,095687,080465
0000000046,0000045000,075961,087994,081160,078883,094707,083704
0000000047,0000046000,074628,086450,084035,077489,092795,087011
0000000048,0000047000,074143,084229,086741,077092,090137,090065
0000000049,0000048000,074549,081554,089010,077735,086991,092568
0000000050,0000049000,075826,078677,090610,079353,083670,094271
0000000051,0000050000,077844,075880,091390,081788,080498,095009
0000000052,0000051000,080394,073443,091277,084804,077780,094711
0000000053,0000052000,083235,071599,090279,088103,075786,093405
0000000054,0000053000,086091,070527,088496,091360,074715,091220
0000000055,0000054000,088676,070343,086094,094261,074667,088366
0000000056,0000055000,090740,071058,083316,096523,075645,085127
0000000057,0000056000,092086,072588,080440,097918,077556,081820
0000000058,0000057000,092573,074807,077735,098312,080217,078766
0000000059,0000058000,092153,077496,075465,097670,083362,076263
0000000060,0000059000,090883,080366,073865,096054,086681,074560
0000000061,0000060000,088874,083154,073085,093618,089855,073822
0000000062,0000061000,086311,085604,073199,090601,092573,074120
0000000063,0000062000,083471,087448,074195,087305,094565,075425
0000000064,0000063000,080627,088507,075980,084047,095637,077611
0000000065,0000064000,078033,088700,078381,081144,095687,080464
0000000066,0000065000,075963,087992,081159,078884,094707,083704
0000000067,0000066000,074629,086450,084035,077489,092796,087010
0000000068,0000067000,074140,084233,086741,077093,090137,090065
0000000069,0000068000,074550,081554,089010,077736,086991,092567
0000000070,0000069000,075828,078675,090610,079353,083671,094271
0000000071,0000070000,077841,075883,091391,081787,080499,095008
0000000072,0000071000,080393,073444,091277,084804,077781,094710
0000000073,0000072000,083237,071596,090280,088102,075788,093405
0000000074,0000073000,086089,070528,088497,091358,074716,091220
0000000075,0000074000,088673,070345,086095,094260,074668,088367
0000000076,0000075000,090743,071054,083317,096522,075646,085128
0000000077,0000076000,092087,072586,080441,097916,077557,081822
0000000078,0000077000,092570,074809,077735,098311,080217,078767
0000000079,0000078000,092155,077493,075466,097670,083361,076264
0000000080,0000079000,090887,080362,073865,096053,086680,074561
0000000081,0000080000,088872,083156,073085,093617,089854,073823
0000000082,0000081000,086312,085604,073198,090602,092571,074121
0000000083,0000082000,083475,087444,074194,087305,094563,075426
0000000084,0000083000,080627,088509,075978,084047,095637,077611
0000000085,0000084000,078032,088702,078380,081145,095685,080464
0000000086,0000085000,075966,087991,081157,078886,094706,083703
0000000087,0000086000,074629,086451,084034,077490,092796,087009
0000000088,0000087000,074137,084237,086740,077094,090138,090063
0000000089,0000088000,074550,081554,089009,077737,086992,092566
0000000090,0000089000,075828,078675,090611,079353,083673,094269
0000000091,0000090000,077837,075886,091391,081787,080501,095007
0000000092,0000091000,080391,073445,091278,084803,077783,094709
0000000093,0000092000,083238,071594,090282,088100,075790,093405
0000000094,0000093000,086086,070530,088498,091356,074718,091220
0000000095,0000094000,088672,070345,086097,094259,074669,088367
0000000096,0000095000,090745,071050,083319,096519,075647,085129
0000000097,0000096000,092086,072585,080442,097914,077558,081823
0000000098,0000097000,092569,074808,077736,098310,080216,078769
0000000099,0000098000,092158,077490,075466,097669,083360,076266
0000000100,0000099000,090888,080361,073865,096052,086679,074563
0000000101,0000100000,088872,083157,073084,093617,089852,073825
0000000102,0000101000,086315,085602,073196,090603,092569,074123
0000000103,0000102000,083477,087444,074193,087306,094562,075427
0000000104,0000103000,080626,088512,075976,084049,095635,077611
0000000105,0000104000,078034,088703,078377,081148,095683,080464
0000000106,0000105000,075968,087991,081156,078888,094705,083702
0000000107,0000106000,074626,086455,084033,077492,092796,087007
0000000108,0000107000,074135,084240,086739,077096,090138,090061
0000000109,0000108000,074551,081554,089009,077738,086993,092563
0000000110,0000109000,075825,078678,090611,079353,083675,094266
0000000111,0000110000,077833,075889,091392,081787,080503,095005
0000000112,0000111000,080391,073443,091280,084802,077785,094707
0000000113,0000112000,083236,071594,090284,088098,075793,093403
0000000114,0000113000,086082,070531,088501,091354,074721,091220
0000000115,0000114000,088672,070342,086099,094256,074671,088368
0000000116,0000115000,090746,071047,083321,096516,075648,085130
0000000117,0000116000,092085,072585,080444,097911,077559,081826
0000000118,0000117000,092571,074806,077737,098307,080216,078772
0000000119,0000118000,092162,077485,075467,097667,083359,076270
0000000120,0000119000,090889,080360,073865,096051,086677,074567
0000000121,0000120000,088874,083156,073083,093618,089849,073828
0000000122,0000121000,086320,085599,073195,090604,092566,074125
0000000123,0000122000,083480,087444,074191,087308,094558,075428
0000000124,0000123000,080626,088514,075973,084052,095631,077611
0000000125,0000124000,078036,088703,078374,081151,095681,080463
0000000126,0000125000,075968,087993,081153,078891,094704,083700
0000000127,0000126000,074624,086460,084030,077496,092795,087004
0000000128,0000127000,074135,084242,086737,077100,090138,090057
0000000129,0000128000,074549,081556,089008,077740,086995,092559
0000000130,0000129000,075820,078682,090611,079354,083678,094263
0000000131,0000130000,077830,075891,091393,081787,080506,095001
0000000132,0000131000,080389,073443,091282,084801,077789,094705
0000000133,0000132000,083232,071595,090287,088095,075798,093402
0000000134,0000133000,086079,070531,088504,091351,074725,091220
0000000135,0000134000,088672,070339,086103,094252,074674,088369
0000000136,0000135000,090745,071044,083325,096511,075651,085133
0000000137,0000136000,092084,072582,080447,097907,077559,081829
0000000138,0000137000,092574,074801,077739,098304,080215,078776
0000000139,0000138000,092165,077481,075468,097664,083357,076274
0000000140,0000139000,090891,080358,073864,096050,086674,074571
0000000141,0000140000,088879,083153,073081,093618,089845,073832
0000000142,0000141000,086325,085597,073192,090605,092561,074128
0000000143,0000142000,083482,087445,074187,087311,094554,075430
0000000144,0000143000,080629,088516,075969,084056,095627,077612
0000000145,0000144000,078039,088704,078370,081156,095677,080462
0000000146,0000145000,075968,087997,081149,078896,094702,083697
0000000147,0000146000,074622,086464,084027,077501,092794,087000
0000000148,0000147000,074134,084245,086735,077104,090138,090053
0000000149,0000148000,074546,081560,089007,077743,086998,092554
0000000150,0000149000,075815,078687,090612,079356,083682,094257
0000000151,0000150000,077826,075893,091395,081787,080511,094997
0000000152,0000151000,080385,073444,091285,084799,077795,094701
0000000153,0000152000,083226,071597,090291,088092,075803,093400
0000000154,0000153000,086076,070529,088508,091346,074729,091219
0000000155,0000154000,088671,070335,086107,094246,074678,088370
0000000156,0000155000,090743,071042,083329,096505,075654,085136
0000000157,0000156000,092085,072578,080451,097901,077560,081833
0000000158,0000157000,092578,074795,077742,098299,080214,078782
0000000159,0000158000,092168,077477,075469,097660,083355,076280
0000000160,0000159000,090895,080355,073864,096048,086670,074577
0000000161,0000160000,088885,083149,073079,093618,089839,073837
0000000162,0000161000,086330,085595,073189,090607,092555,074132
0000000163,0000162000,083485,087446,074183,087314,094548,075433
0000000164,0000163000,080634,088517,075964,084062,095621,077612
0000000165,0000164000,078042,088707,078365,081162,095673,080460
0000000166,0000165000,075967,088002,081144,078902,094699,083694
0000000167,0000166000,074622,086470,084022,077507,092793,086995
0000000168,0000167000,074132,084250,086732,077109,090139,090047
0000000169,0000168000,074541,081566,089006,077746,087001,092548
0000000170,0000169000,075810,078692,090612,079358,083686,094251
0000000171,0000170000,077822,075895,091397,081787,080517,094991
0000000172,0000171000,080379,073446,091289,084796,077802,094697
0000000173,0000172000,083220,071598,090296,088088,075810,093397
0000000174,0000173000,086073,070526,088514,091340,074736,091219
0000000175,0000174000,088669,070331,086114,094239,074683,088372
0000000176,0000175000,090741,071038,083335,096498,075657,085139
0000000177,0000176000,092087,072572,080455,097895,077561,081839
0000000178,0000177000,092581,074788,077745,098293,080213,078788
0000000179,0000178000,092172,077472,075470,097656,083352,076287
0000000180,0000179000,090901,080350,073863,096046,086665,074584
0000000181,0000180000,088893,083144,073077,093618,089833,073844
0000000182,0000181000,086336,085593,073184,090609,092548,074137
0000000183,0000182000,083491,087447,074177,087319,094540,075436
0000000184,0000183000,080639,088518,075957,084068,095614,077613
0000000185,0000184000,078045,088711,078358,081169,095667,080458
0000000186,0000185000,075968,088009,081138,078910,094695,083690
0000000187,0000186000,074621,086476,084017,077515,092791,086989
0000000188,0000187000,074129,084257,086728,077115,090141,090039
0000000189,0000188000,074535,081574,089005,077751,087004,092539
0000000190,0000189000,075803,078698,090613,079360,083692,094243
0000000191,0000190000,077815,075899,091400,081787,080525,094984
0000000192,0000191000,080371,073449,091294,084793,077810,094691
0000000193,0000192000,083214,071598,090302,088083,075818,093394
0000000194,0000193000,086069,070523,088522,091333,074744,091218
0000000195,0000194000,088665,070327,086121,094231,074690,088374
0000000196,0000195000,090740,071032,083342,096489,075661,085144
0000000197,0000196000,092089,072563,080461,097886,077563,081846
0000000198,0000197000,092585,074780,077749,098286,080212,078797
0000000199,0000198000,092177,077465,075472,097651,083348,076297
0000000200,0000199000,090909,080343,073862,096043,086658,074593
0000000201,0000200000,088901,083139,073074,093618,089825,073852
0000000202,0000201000,086343,085592,073179,090613,092539,074143
0000000203,0000202000,083498,087446,074169,087325,094530,075439
0000000204,0000203000,080645,088519,075949,084076,095605,077614
0000000205,0000204000,078048,088716,078350,081179,095660,080456
0000000206,0000205000,075968,088016,081130,078920,094690,083684
0000000207,0000206000,074620,086483,084011,077524,092789,086981
0000000208,0000207000,074124,084266,086724,077123,090142,090030
0000000209,0000208000,074528,081583,089003,077757,087009,092529
0000000210,0000209000,075796,078704,090614,079363,083699,094233
0000000211,0000210000,077806,075904,091404,081786,080534,094975
0000000212,0000211000,080361,073453,091300,084790,077821,094684
0000000213,0000212000,083206,071597,090310,088076,075829,093390
0000000214,0000213000,086063,070520,088531,091324,074753,091217
0000000215,0000214000,088660,070323,086131,094220,074698,088377
0000000216,0000215000,090739,071024,083350,096479,075666,085150
0000000217,0000216000,092092,072554,080468,097876,077565,081854
0000000218,0000217000,092589,074771,077754,098277,080211,078807
0000000219,0000218000,092184,077456,075474,097645,083343,076308
0000000220,0000219000,090919,080334,073861,096040,086650,074604
0000000221,0000220000,088910,083133,073070,093619,089815,073861
0000000222,0000221000,086352,085589,073172,090617,092527,074151
0000000223,0000222000,083507,087446,074161,087332,094519,075443
0000000224,0000223000,080652,088522,075939,084086,095595,077614
0000000225,0000224000,078051,088723,078340,081190,095652,080453
0000000226,0000225000,075970,088024,081120,078932,094684,083678
0000000227,0000226000,074618,086493,084003,077535,092787,086972
0000000228,0000227000,074118,084277,086719,077132,090144,090018
0000000229,0000228000,074520,081593,089000,077764,087014,092517
0000000230,0000229000,075787,078712,090615,079366,083708,094221
0000000231,0000230000,077795,075911,091408,081786,080545,094965
0000000232,0000231000,080351,073457,091307,084786,077833,094676
0000000233,0000232000,083197,071597,090320,088068,075841,093385
0000000234,0000233000,086055,070517,088542,091313,074765,091216
0000000235,0000234000,088655,070317,086142,094208,074707,088380
0000000236,0000235000,090739,071015,083360,096466,075672,085157
0000000237,0000236000,092094,072543,080477,097863,077567,081864
0000000238,0000237000,092594,074760,077760,098267,080209,078819
0000000239,0000238000,092193,077445,075476,097637,083337,076321
0000000240,0000239000,090930,080324,073860,096037,086641,074617
0000000241,0000240000,088922,083127,073065,093619,089803,073873
0000000242,0000241000,086364,085585,073164,090621,092514,074159
0000000243,0000242000,083518,087445,074150,087341,094505,075449
0000000244,0000243000,080660,088526,075928,084097,095583,077615
0000000245,0000244000,078056,088730,078328,081203,095642,080450
0000000246,0000245000,075972,088033,081109,078946,094678,083671
0000000247,0000246000,074615,086504,083994,077548,092785,086961
0000000248,0000247000,074112,084290,086712,077143,090146,090005
0000000249,0000248000,074511,081605,088997,077772,087020,092503
0000000250,0000249000,075775,078723,090616,079370,083718,094207
0000000251,0000250000,077781,075919,091413,081785,080558,094952
0000000252,0000251000,080338,073461,091315,084781,077847,094667
0000000253,0000252000,083187,071597,090331,088059,075856,093380
0000000254,0000253000,086046,070513,088555,091301,074778,091215
0000000255,0000254000,088650,070309,086155,094194,074717,088384
0000000256,0000255000,090738,071004,083373,096451,075679,085165
0000000257,0000256000,092097,072530,080487,097849,077570,081876
0000000258,0000257000,092601,074747,077767,098255,080207,078833
0000000259,0000258000,092203,077431,075479,097629,083330,076336
0000000260,0000259000,090942,080313,073859,096032,086630,074632
0000000261,0000260000,088935,083119,073060,093620,089789,073886
0000000262,0000261000,086378,085580,073155,090627,092498,074169
0000000263,0000262000,083531,087445,074138,087351,094490,075454
0000000264,0000263000,080669,088531,075914,084110,095568,077616
0000000265,0000264000,078062,088738,078313,081219,095630,080446
0000000266,0000265000,075974,088044,081096,078962,094670,083662
0000000267,0000266000,074612,086518,083983,077563,092783,086949
0000000268,0000267000,074105,084304,086705,077156,090148,089990
0000000269,0000268000,074501,081618,088994,077781,087028,092487
0000000270,0000269000,075762,078735,090617,079374,083729,094191
0000000271,0000270000,077766,075929,091419,081784,080573,094938
0000000272,0000271000,080324,073465,091325,084775,077864,094656
0000000273,0000272000,083173,071597,090344,088049,075872,093374
0000000274,0000273000,086035,070509,088569,091287,074793,091214
0000000275,0000274000,088643,070300,086170,094177,074730,088388
0000000276,0000275000,090736,070991,083387,096433,075687,085174
0000000277,0000276000,092099,072516,080499,097833,077573,081889
0000000278,0000277000,092608,074731,077775,098241,080204,078850
0000000279,0000278000,092215,077416,075483,097619,083322,076354
0000000280,0000279000,090956,080300,073857,096028,086618,074649
0000000281,0000280000,088951,083110,073053,093621,089773,073901
0000000282,0000281000,086394,085575,073145,090633,092481,074181
0000000283,0000282000,083544,087445,074125,087362,094472,075461
0000000284,0000283000,080680,088536,075898,084126,095552,077617
0000000285,0000284000,078070,088747,078297,081237,095617,080441
0000000286,0000285000,075976,088057,081081,078981,094662,083652
0000000287,0000286000,074609,086534,083971,077581,092780,086934
0000000288,0000287000,074097,084321,086696,077171,090151,089972
0000000289,0000288000,074489,081634,088991,077791,087036,092468
0000000290,0000289000,075746,078749,090619,079379,083743,094173
0000000291,0000290000,077750,075939,091426,081783,080590,094922
0000000292,0000291000,080307,073470,091336,084768,077883,094644
0000000293,0000292000,083158,071597,090359,088036,075892,093367
0000000294,0000293000,086023,070504,088586,091271,074811,091213
0000000295,0000294000,088636,070290,086187,094158,074743,088393
0000000296,0000295000,090734,070977,083403,096414,075696,085185
0000000297,0000296000,092102,072500,080512,097814,077576,081905
0000000298,0000297000,092617,074713,077784,098226,080201,078869
0000000299,0000298000,092228,077399,075487,097608,083313,076374
0000000300,0000299000,090972,080286,073856,096022,086604,074669
0000000301,0000300000,088969,083098,073046,093622,089755,073918
