DIgSILENT PowerFactory,21000900,2000
6,06A,00D
1,TTPP_200000_100:Secondary Voltage A,,,V,0.010000000,-71.429489,0.000000,-85630,99998,1,1,P
2,TTPP_200000_100:Secondary Voltage B,,,V,0.010000000,-36.278328,0.000000,-90042,99998,1,1,P
3,TTPP_200000_100:Secondary Voltage C,,,V,0.10000000,-8995.783203,0.000000,79925,99998,1,1,P
4,TTCC_300_1:Secondary Current A,,,A,0.00010000000,-4.354771,0.000000,-39483,99998,1,1,P
5,TTCC_300_1:Secondary Current B,,,A,0.00010000000,-4.925718,0.000000,-1434,99998,1,1,P
6,TTCC_300_1:Secondary Current C,,,A,0.00010000000,-4.880684,0.000000,-2294,99998,1,1,P
50
1
1000.000000,1101
30/06/2023,06:03:58.000000
30/06/2023,06:03:58.000000
ASCII
1.000000
0000000001,0000000000,078209,018380,081376,022610,035277,083725
0000000002,0000001000,056862,045566,080792,032365,025994,083254
0000000003,0000002000,030494,068829,081103,043202,018996,079414
0000000004,0000003000,001917,085640,082279,054074,014957,072581
0000000005,0000004000,-26067,094300,084213,063922,014274,063415
0000000006,0000005000,-50951,094200,086710,071776,017020,052817
0000000007,0000006000,-70127,085314,089518,076865,022912,041834
0000000008,0000007000,-81555,068217,092369,078690,031387,031536
0000000009,0000008000,-84406,044844,094991,077067,041627,022918
0000000010,0000009000,-78467,017645,097118,072170,052604,016838
0000000011,0000010000,-63980,-11066,098540,064480,063237,013894
0000000012,0000011000,-42448,-38441,099125,054727,072520,014365
0000000013,0000012000,-16226,-61554,098813,043876,079533,018203
0000000014,0000013000,012314,-78316,097636,033011,083564,025036
0000000015,0000014000,040452,-87131,095702,023165,084244,034203
0000000016,0000015000,065223,-86936,093206,015301,081509,044802
0000000017,0000016000,084280,-77922,090399,010223,075606,055783
0000000018,0000017000,095913,-61033,087547,008406,067123,066082
0000000019,0000018000,098800,-37693,084925,010014,056899,074700
0000000020,0000019000,092656,-10287,082798,014909,045924,080779
0000000021,0000020000,078254,018341,081375,022610,035278,083724
0000000022,0000021000,056813,045615,080791,032358,026000,083254
0000000023,0000022000,030428,068885,081103,043206,018992,079414
0000000024,0000023000,001946,085603,082280,054082,014948,072581
0000000025,0000024000,-26041,094264,084213,063923,014274,063414
0000000026,0000025000,-50961,094215,086710,071775,017021,052816
0000000027,0000026000,-70100,085284,089516,076866,022911,041835
0000000028,0000027000,-81570,068230,092369,078688,031388,031536
0000000029,0000028000,-84481,044905,094992,077068,041626,022918
0000000030,0000029000,-78449,017620,097118,072179,052596,016838
0000000031,0000030000,-63926,-11123,098540,064483,063235,013893
0000000032,0000031000,-42460,-38431,099124,054723,072525,014364
0000000033,0000032000,-16245,-61532,098813,043878,079530,018203
0000000034,0000033000,012309,-78317,097636,033014,083561,025036
0000000035,0000034000,040433,-87119,095703,023166,084244,034202
0000000036,0000035000,065217,-86935,093206,015308,081504,044800
0000000037,0000036000,084325,-77962,090399,010226,075604,055782
0000000038,0000037000,095933,-61050,087547,008402,067129,066080
0000000039,0000038000,098757,-37648,084925,010014,056899,074698
0000000040,0000039000,092645,-10275,082798,014913,045920,080778
0000000041,0000040000,078279,018315,081376,022611,035278,083723
0000000042,0000041000,056811,045621,080791,032360,026000,083252
0000000043,0000042000,030444,068877,081103,043207,018991,079413
0000000044,0000043000,001972,085585,082279,054079,014952,072581
0000000045,0000044000,-26073,094298,084213,063921,014276,063415
0000000046,0000045000,-50986,094242,086710,071778,017017,052816
0000000047,0000046000,-70070,085257,089516,076868,022909,041835
0000000048,0000047000,-81556,068218,092369,078686,031389,031537
0000000049,0000048000,-84493,044924,094992,077069,041624,022919
0000000050,0000049000,-78447,017619,097118,072179,052594,016839
0000000051,0000050000,-63933,-11118,098540,064483,063234,013894
0000000052,0000051000,-42490,-38407,099125,054727,072520,014364
0000000053,0000052000,-16235,-61544,098813,043884,079525,018203
0000000054,0000053000,012339,-78351,097636,033015,083561,025035
0000000055,0000054000,040416,-87104,095704,023167,084244,034201
0000000056,0000055000,065196,-86917,093207,015312,081501,044799
0000000057,0000056000,084338,-77981,090399,010229,075603,055779
0000000058,0000057000,095929,-61051,087547,008405,067128,066078
0000000059,0000058000,098753,-37646,084924,010018,056898,074695
0000000060,0000059000,092678,-10304,082798,014914,045922,080775
0000000061,0000060000,078283,018311,081375,022609,035282,083720
0000000062,0000061000,056784,045651,080791,032360,026002,083250
0000000063,0000062000,030453,068871,081102,043208,018992,079412
0000000064,0000063000,001995,085566,082279,054078,014954,072580
0000000065,0000064000,-26081,094311,084212,063918,014278,063415
0000000066,0000065000,-50984,094248,086709,071776,017018,052817
0000000067,0000066000,-70057,085249,089516,076864,022910,041838
0000000068,0000067000,-81579,068241,092369,078684,031389,031540
0000000069,0000068000,-84511,044943,094991,077070,041621,022922
0000000070,0000069000,-78426,017598,097118,072180,052590,016842
0000000071,0000070000,-63933,-11120,098540,064482,063232,013897
0000000072,0000071000,-42517,-38384,099125,054729,072516,014366
0000000073,0000072000,-16234,-61550,098814,043887,079521,018204
0000000074,0000073000,012339,-78359,097637,033019,083557,025035
0000000075,0000074000,040394,-87092,095704,023172,084240,034200
0000000076,0000075000,065206,-86931,093207,015318,081498,044796
0000000077,0000076000,084360,-78008,090400,010233,075603,055776
0000000078,0000077000,095916,-61042,087548,008408,067130,066073
0000000079,0000078000,098746,-37641,084925,010022,056899,074690
0000000080,0000079000,092702,-10327,082798,014917,045924,080770
0000000081,0000080000,078290,018306,081375,022609,035287,083716
0000000082,0000081000,056783,045659,080790,032359,026006,083247
0000000083,0000082000,030477,068857,081101,043206,018996,079410
0000000084,0000083000,002002,085567,082278,054073,014959,072580
0000000085,0000084000,-26098,094338,084211,063914,014281,063416
0000000086,0000085000,-50975,094248,086708,071772,017019,052820
0000000087,0000086000,-70043,085241,089515,076859,022911,041842
0000000088,0000087000,-81596,068263,092368,078679,031388,031545
0000000089,0000088000,-84522,044958,094991,077067,041617,022928
0000000090,0000089000,-78424,017594,097118,072178,052586,016848
0000000091,0000090000,-63956,-11103,098541,064483,063227,013902
0000000092,0000091000,-42536,-38372,099126,054732,072509,014370
0000000093,0000092000,-16225,-61568,098814,043892,079513,018206
0000000094,0000093000,012332,-78365,097638,033024,083552,025036
0000000095,0000094000,040372,-87082,095706,023180,084235,034198
0000000096,0000095000,065211,-86948,093208,015326,081494,044792
0000000097,0000096000,084370,-78029,090401,010240,075602,055770
0000000098,0000097000,095910,-61043,087548,008415,067131,066066
0000000099,0000098000,098761,-37657,084925,010028,056901,074682
0000000100,0000099000,092728,-10352,082797,014919,045930,080763
0000000101,0000100000,078291,018310,081375,022609,035294,083709
0000000102,0000101000,056789,045662,080789,032358,026013,083241
0000000103,0000102000,030505,068842,081100,043201,019004,079407
0000000104,0000103000,002011,085572,082277,054065,014968,072579
0000000105,0000104000,-26102,094358,084210,063906,014287,063418
0000000106,0000105000,-50963,094252,086706,071764,017023,052825
0000000107,0000106000,-70044,085254,089514,076850,022913,041848
0000000108,0000107000,-81619,068294,092367,078672,031387,031553
0000000109,0000108000,-84528,044968,094991,077063,041612,022937
0000000110,0000109000,-78428,017596,097118,072175,052580,016857
0000000111,0000110000,-63985,-11082,098542,064483,063219,013910
0000000112,0000111000,-42557,-38361,099127,054737,072498,014377
0000000113,0000112000,-16230,-61580,098816,043898,079503,018210
0000000114,0000113000,012313,-78365,097640,033032,083543,025036
0000000115,0000114000,040358,-87085,095707,023191,084226,034195
0000000116,0000115000,065223,-86975,093210,015337,081488,044787
0000000117,0000116000,084374,-78049,090402,010249,075600,055762
0000000118,0000117000,095906,-61049,087549,008424,067132,066056
0000000119,0000118000,098783,-37682,084925,010035,056905,074671
0000000120,0000119000,092754,-10377,082797,014922,045938,080752
0000000121,0000120000,078302,018308,081374,022609,035304,083699
0000000122,0000121000,056812,045655,080788,032355,026024,083233
0000000123,0000122000,030534,068832,081098,043194,019016,079402
0000000124,0000123000,002016,085587,082275,054055,014979,072578
0000000125,0000124000,-26098,094377,084207,063895,014295,063421
0000000126,0000125000,-50948,094258,086704,071752,017028,052831
0000000127,0000126000,-70051,085277,089512,076838,022916,041858
0000000128,0000127000,-81640,068328,092366,078662,031385,031565
0000000129,0000128000,-84538,044984,094990,077056,041606,022950
0000000130,0000129000,-78447,017612,097118,072171,052571,016870
0000000131,0000130000,-64020,-11057,098543,064483,063206,013922
0000000132,0000131000,-42577,-38357,099129,054742,072484,014386
0000000133,0000132000,-16243,-61589,098818,043907,079489,018215
0000000134,0000133000,012286,-78364,097643,033044,083531,025038
0000000135,0000134000,040344,-87097,095710,023205,084215,034192
0000000136,0000135000,065230,-87007,093212,015352,081481,044779
0000000137,0000136000,084376,-78071,090404,010263,075598,055750
0000000138,0000137000,095914,-61071,087551,008437,067133,066041
0000000139,0000138000,098813,-37718,084926,010044,056911,074656
0000000140,0000139000,092780,-10401,082797,014926,045949,080736
0000000141,0000140000,078321,018301,081373,022609,035318,083685
0000000142,0000141000,056847,045641,080786,032350,026039,083223
0000000143,0000142000,030565,068825,081096,043184,019033,079395
0000000144,0000143000,002027,085605,082272,054042,014994,072576
0000000145,0000144000,-26085,094395,084204,063880,014307,063424
0000000146,0000145000,-50938,094275,086701,071735,017037,052840
0000000147,0000146000,-70065,085313,089510,076821,022920,041871
0000000148,0000147000,-81660,068365,092364,078649,031382,031581
0000000149,0000148000,-84553,045006,094989,077046,041598,022968
0000000150,0000149000,-78479,017639,097119,072166,052559,016887
0000000151,0000150000,-64061,-11029,098544,064484,063190,013937
0000000152,0000151000,-42604,-38353,099131,054749,072465,014398
0000000153,0000152000,-16270,-61593,098821,043918,079471,018223
0000000154,0000153000,012255,-78367,097646,033060,083513,025039
0000000155,0000154000,040333,-87120,095713,023225,084200,034187
0000000156,0000155000,065233,-87043,093216,015372,081471,044769
0000000157,0000156000,084376,-78099,090407,010282,075594,055735
0000000158,0000157000,095930,-61105,087552,008453,067135,066023
0000000159,0000158000,098849,-37761,084926,010056,056920,074635
0000000160,0000159000,092812,-10429,082797,014932,045964,080716
0000000161,0000160000,078354,018284,081371,022609,035336,083667
0000000162,0000161000,056892,045623,080783,032344,026060,083209
0000000163,0000162000,030599,068824,081092,043171,019054,079387
0000000164,0000163000,002046,085626,082268,054024,015014,072574
0000000165,0000164000,-26064,094415,084200,063859,014323,063429
0000000166,0000165000,-50929,094303,086698,071712,017048,052851
0000000167,0000166000,-70081,085359,089507,076800,022924,041888
0000000168,0000167000,-81681,068407,092362,078631,031379,031602
0000000169,0000168000,-84578,045039,094989,077033,041588,022991
0000000170,0000169000,-78524,017678,097119,072159,052543,016910
0000000171,0000170000,-64108,-11000,098546,064485,063169,013958
0000000172,0000171000,-42639,-38346,099134,054757,072441,014413
0000000173,0000172000,-16309,-61593,098825,043932,079447,018232
0000000174,0000173000,012219,-78375,097651,033080,083491,025041
0000000175,0000174000,040320,-87152,095718,023249,084182,034181
0000000176,0000175000,065231,-87084,093220,015397,081460,044756
0000000177,0000176000,084380,-78138,090411,010306,075590,055716
0000000178,0000177000,095957,-61153,087555,008474,067138,065999
0000000179,0000178000,098890,-37812,084927,010071,056931,074610
0000000180,0000179000,092851,-10462,082796,014939,045982,080690
0000000181,0000180000,078401,018258,081369,022609,035359,083644
0000000182,0000181000,056946,045601,080780,032335,026086,083191
0000000183,0000182000,030640,068827,081088,043154,019081,079376
0000000184,0000183000,002075,085647,082263,054002,015038,072572
0000000185,0000184000,-26038,094441,084195,063833,014342,063436
0000000186,0000185000,-50924,094344,086693,071684,017061,052866
0000000187,0000186000,-70099,085416,089503,076774,022929,041909
0000000188,0000187000,-81705,068458,092359,078609,031375,031629
0000000189,0000188000,-84614,045085,094988,077016,041576,023020
0000000190,0000189000,-78579,017726,097120,072150,052523,016938
0000000191,0000190000,-64163,-10967,098548,064486,063142,013983
0000000192,0000191000,-42688,-38335,099137,054767,072412,014433
0000000193,0000192000,-16361,-61591,098830,043950,079418,018244
0000000194,0000193000,012178,-78390,097656,033106,083463,025043
0000000195,0000194000,040302,-87191,095724,023278,084159,034174
0000000196,0000195000,065225,-87131,093225,015427,081445,044740
0000000197,0000196000,084388,-78189,090415,010336,075584,055692
0000000198,0000197000,095990,-61216,087558,008500,067142,065970
0000000199,0000198000,098937,-37872,084929,010089,056945,074578
0000000200,0000199000,092901,-10505,082795,014949,046004,080659
0000000201,0000200000,078463,018222,081366,022608,035387,083616
0000000202,0000201000,057011,045578,080776,032324,026119,083170
0000000203,0000202000,030689,068832,081083,043134,019115,079364
0000000204,0000203000,002116,085669,082256,053974,015068,072569
0000000205,0000204000,-26007,094473,084189,063801,014367,063444
0000000206,0000205000,-50920,094397,086687,071650,017078,052884
0000000207,0000206000,-70117,085482,089498,076741,022935,041935
0000000208,0000207000,-81734,068520,092356,078581,031370,031661
0000000209,0000208000,-84663,045146,094986,076996,041561,023055
0000000210,0000209000,-78645,017785,097121,072140,052499,016973
0000000211,0000210000,-64228,-10930,098551,064487,063111,014013
0000000212,0000211000,-42751,-38318,099142,054779,072376,014456
0000000213,0000212000,-16424,-61588,098836,043972,079382,018258
0000000214,0000213000,012132,-78411,097663,033136,083429,025046
0000000215,0000214000,040278,-87237,095731,023314,084132,034166
0000000216,0000215000,065216,-87186,093232,015465,081427,044720
0000000217,0000216000,084402,-78254,090420,010372,075577,055663
0000000218,0000217000,096031,-61292,087561,008530,067147,065934
0000000219,0000218000,098990,-37941,084930,010111,056962,074539
0000000220,0000219000,092964,-10560,082795,014960,046031,080621
0000000221,0000220000,078540,018176,081363,022607,035422,083583
0000000222,0000221000,057085,045553,080771,032310,026158,083144
0000000223,0000222000,030750,068837,081076,043109,019154,079348
0000000224,0000223000,002167,085693,082249,053941,015104,072566
0000000225,0000224000,-25973,094515,084181,063761,014397,063453
0000000226,0000225000,-50915,094463,086680,071608,017098,052905
0000000227,0000226000,-70135,085558,089493,076702,022942,041967
0000000228,0000227000,-81769,068595,092352,078548,031364,031700
0000000229,0000228000,-84723,045223,094985,076972,041543,023097
0000000230,0000229000,-78722,017852,097122,072128,052469,017014
0000000231,0000230000,-64305,-10885,098554,064489,063073,014050
0000000232,0000231000,-42830,-38294,099148,054793,072334,014484
0000000233,0000232000,-16499,-61585,098843,043999,079338,018274
0000000234,0000233000,012079,-78439,097671,033173,083390,025049
0000000235,0000234000,040247,-87289,095739,023357,084101,034155
0000000236,0000235000,065204,-87252,093239,015510,081406,044696
0000000237,0000236000,084420,-78335,090426,010415,075568,055629
0000000238,0000237000,096078,-61382,087566,008566,067153,065892
0000000239,0000238000,099053,-38021,084932,010136,056982,074493
0000000240,0000239000,093043,-10628,082794,014973,046063,080576
0000000241,0000240000,078632,018121,081360,022606,035463,083543
0000000242,0000241000,057172,045525,080765,032294,026204,083114
0000000243,0000242000,030824,068841,081068,043080,019201,079330
0000000244,0000243000,002230,085720,082240,053902,015147,072563
0000000245,0000244000,-25934,094566,084172,063715,014431,063465
0000000246,0000245000,-50910,094541,086672,071560,017121,052931
0000000247,0000246000,-70154,085647,089486,076657,022951,042004
0000000248,0000247000,-81813,068685,092348,078510,031357,031745
0000000249,0000248000,-84796,045314,094983,076944,041522,023146
0000000250,0000249000,-78810,017930,097123,072115,052434,017063
0000000251,0000250000,-64398,-10832,098558,064491,063028,014093
0000000252,0000251000,-42926,-38263,099154,054810,072284,014517
0000000253,0000252000,-16585,-61583,098852,044031,079288,018293
0000000254,0000253000,012016,-78472,097681,033216,083343,025053
0000000255,0000254000,040207,-87348,095749,023406,084063,034142
0000000256,0000255000,065191,-87329,093249,015562,081382,044669
0000000257,0000256000,084443,-78432,090434,010464,075559,055588
0000000258,0000257000,096130,-61486,087571,008608,067160,065843
0000000259,0000258000,099126,-38116,084934,010166,057005,074440
0000000260,0000259000,093137,-10710,082792,014988,046100,080524
0000000261,0000260000,078738,018057,081355,022604,035511,083497
0000000262,0000261000,057273,045493,080758,032275,026258,083079
0000000263,0000262000,030913,068843,081059,043047,019255,079310
0000000264,0000263000,002304,085750,082230,053856,015197,072559
0000000265,0000264000,-25890,094628,084161,063661,014472,063478
0000000266,0000265000,-50901,094630,086662,071504,017147,052960
0000000267,0000266000,-70175,085749,089478,076604,022960,042048
0000000268,0000267000,-81866,068793,092342,078465,031349,031798
0000000269,0000268000,-84880,045421,094980,076912,041496,023204
0000000270,0000269000,-78911,018020,097124,072099,052394,017119
0000000271,0000270000,-64507,-10768,098562,064493,062977,014142
0000000272,0000271000,-43038,-38226,099162,054830,072227,014555
0000000273,0000272000,-16684,-61581,098862,044067,079229,018315
0000000274,0000273000,011941,-78509,097692,033265,083290,025057
0000000275,0000274000,040158,-87414,095760,023464,084021,034128
0000000276,0000275000,065176,-87421,093259,015622,081353,044637
0000000277,0000276000,084469,-78545,090442,010521,075549,055542
0000000278,0000277000,096188,-61605,087577,008656,067169,065786
0000000279,0000278000,099211,-38226,084937,010200,057033,074379
0000000280,0000279000,093247,-10807,082791,015005,046143,080464
0000000281,0000280000,078859,017983,081351,022602,035566,083445
0000000282,0000281000,057389,045456,080750,032253,026320,083039
0000000283,0000282000,031018,068843,081049,043008,019318,079286
0000000284,0000283000,002389,085785,082218,053803,015253,072555
0000000285,0000284000,-25839,094700,084149,063600,014518,063494
0000000286,0000285000,-50888,094732,086651,071440,017177,052995
0000000287,0000286000,-70199,085866,089468,076543,022971,042098
0000000288,0000287000,-81928,068919,092336,078413,031340,031859
0000000289,0000288000,-84975,045545,094978,076876,041467,023269
0000000290,0000289000,-79027,018123,097125,072081,052348,017183
0000000291,0000290000,-64634,-10692,098568,064496,062918,014198
0000000292,0000291000,-43167,-38182,099170,054854,072161,014597
0000000293,0000292000,-16797,-61580,098873,044109,079162,018340
0000000294,0000293000,011853,-78551,097705,033321,083229,025061
0000000295,0000294000,040100,-87489,095774,023529,083972,034111
0000000296,0000295000,065160,-87526,093271,015691,081321,044600
0000000297,0000296000,084498,-78674,090452,010586,075537,055489
0000000298,0000297000,096253,-61740,087584,008710,067180,065722
0000000299,0000298000,099308,-38354,084940,010239,057064,074309
0000000300,0000299000,093373,-10920,082790,015024,046192,080396
0000000301,0000300000,078997,017899,081345,022598,035629,083385
