DIgSILENT PowerFactory,21000900,2000
6,06A,00D
1,TTPP_200000_100:Secondary Voltage A,,,V,0.10000000,-8276.488281,0.000000,67760,99998,1,1,P
2,TTPP_200000_100:Secondary Voltage B,,,V,0.10000000,-8388.259766,0.000000,68480,99998,1,1,P
3,TTPP_200000_100:Secondary Voltage C,,,V,0.10000000,-8161.510254,0.000000,59833,99998,1,1,P
4,TTCC_500_5:Secondary Current A,,,A,0.0010000000,-79.575638,0.000000,65767,99998,1,1,P
5,TTCC_500_5:Secondary Current B,,,A,0.0010000000,-84.351608,0.000000,68921,99998,1,1,P
6,TTCC_500_5:Secondary Current C,,,A,0.0010000000,-84.974075,0.000000,70032,99998,1,1,P
50
1
1000.000000,1101
30/06/2023,06:10:17.000000
30/06/2023,06:10:17.000000
ASCII
1.000000
0000000001,0000000000,088277,087523,072462,085491,089031,074379
0000000002,0000001000,085729,089956,072577,082475,091748,074678
0000000003,0000002000,082878,091811,073575,079179,093739,075983
0000000004,0000003000,080029,092876,075358,075920,094813,078169
0000000005,0000004000,077451,093053,077759,073017,094861,081023
0000000006,0000005000,075373,092351,080538,070758,093881,084262
0000000007,0000006000,074030,090818,083413,069362,091971,087569
0000000008,0000007000,073557,088588,086119,068968,089310,090624
0000000009,0000008000,073965,085909,088388,069609,086165,093127
0000000010,0000009000,075231,083044,089988,071226,082846,094830
0000000011,0000010000,077254,080242,090767,073664,079670,095568
0000000012,0000011000,079812,077797,090653,076679,076954,095269
0000000013,0000012000,082642,075964,089657,079976,074962,093964
0000000014,0000013000,085496,074894,087872,083236,073887,091778
0000000015,0000014000,088093,074699,085471,086137,073840,088924
0000000016,0000015000,090152,075418,082693,088395,074821,085685
0000000017,0000016000,091489,076957,079817,089794,076730,082378
0000000018,0000017000,091986,079166,077112,090189,079390,079323
0000000019,0000018000,091568,081852,074842,089543,082538,076820
0000000020,0000019000,090285,084735,073242,087928,085856,075117
0000000021,0000020000,088282,087517,072463,085493,089029,074379
0000000022,0000021000,085728,089958,072576,082474,091749,074678
0000000023,0000022000,082876,091813,073574,079177,093741,075983
0000000024,0000023000,080031,092874,075358,075921,094812,078169
0000000025,0000024000,077450,093053,077760,073017,094862,081023
0000000026,0000025000,075372,092353,080537,070756,093883,084262
0000000027,0000026000,074032,090817,083413,069362,091970,087569
0000000028,0000027000,073555,088588,086119,068967,089311,090624
0000000029,0000028000,073964,085911,088388,069608,086166,093127
0000000030,0000029000,075233,083042,089988,071226,082845,094830
0000000031,0000030000,077254,080242,090768,073662,079671,095568
0000000032,0000031000,079809,077800,090654,076678,076954,095269
0000000033,0000032000,082644,075963,089656,079976,074961,093964
0000000034,0000033000,085498,074892,087872,083234,073888,091778
0000000035,0000034000,088089,074702,085471,086136,073841,088924
0000000036,0000035000,090151,075419,082693,088396,074820,085685
0000000037,0000036000,091493,076953,079817,089792,076731,082378
0000000038,0000037000,091984,079167,077112,090187,079391,079324
0000000039,0000038000,091564,081856,074843,089544,082537,076820
0000000040,0000039000,090290,084730,073242,087928,085856,075117
0000000041,0000040000,088284,087516,072463,085492,089030,074380
0000000042,0000041000,085722,089964,072577,082474,091749,074678
0000000043,0000042000,082878,091811,073573,079178,093740,075983
0000000044,0000043000,080036,092869,075357,075920,094812,078169
0000000045,0000044000,077445,093059,077760,073016,094862,081023
0000000046,0000045000,075371,092355,080537,070757,093882,084262
0000000047,0000046000,074038,090812,083413,069362,091970,087569
0000000048,0000047000,073553,088591,086119,068966,089312,090624
0000000049,0000048000,073959,085915,088388,069608,086166,093127
0000000050,0000049000,075237,083038,089988,071226,082845,094830
0000000051,0000050000,077254,080241,090768,073661,079673,095568
0000000052,0000051000,079804,077804,090654,076677,076955,095269
0000000053,0000052000,082645,075961,089657,079976,074961,093964
0000000054,0000053000,085501,074889,087873,083233,073890,091779
0000000055,0000054000,088086,074705,085472,086135,073842,088925
0000000056,0000055000,090150,075419,082693,088396,074820,085685
0000000057,0000056000,091497,076949,079817,089791,076731,082379
0000000058,0000057000,091983,079168,077112,090186,079392,079324
0000000059,0000058000,091562,081858,074843,089544,082536,076821
0000000060,0000059000,090293,084727,073242,087928,085855,075118
0000000061,0000060000,088284,087516,072463,085491,089030,074380
0000000062,0000061000,085721,089966,072576,082475,091748,074679
0000000063,0000062000,082881,091809,073573,079178,093739,075984
0000000064,0000063000,080037,092869,075357,075920,094812,078169
0000000065,0000064000,077443,093061,077759,073017,094862,081023
0000000066,0000065000,075372,092354,080536,070758,093882,084262
0000000067,0000066000,074039,090811,083413,069363,091970,087568
0000000068,0000067000,073550,088594,086118,068966,089312,090623
0000000069,0000068000,073959,085916,088387,069609,086166,093126
0000000070,0000069000,075238,083037,089988,071226,082846,094829
0000000071,0000070000,077251,080244,090768,073661,079674,095567
0000000072,0000071000,079803,077806,090655,076677,076956,095268
0000000073,0000072000,082647,075958,089657,079975,074963,093964
0000000074,0000073000,085499,074889,087874,083231,073891,091779
0000000075,0000074000,088083,074706,085472,086134,073842,088925
0000000076,0000075000,090153,075415,082694,088395,074820,085686
0000000077,0000076000,091497,076947,079818,089789,076732,082380
0000000078,0000077000,091980,079170,077113,090185,079391,079326
0000000079,0000078000,091565,081855,074843,089543,082536,076823
0000000080,0000079000,090296,084724,073242,087927,085855,075120
0000000081,0000080000,088282,087518,072462,085491,089029,074382
0000000082,0000081000,085722,089965,072575,082475,091746,074680
0000000083,0000082000,082885,091806,073572,079179,093738,075984
0000000084,0000083000,080036,092871,075356,075921,094811,078169
0000000085,0000084000,077442,093064,077757,073019,094860,081022
0000000086,0000085000,075375,092352,080535,070759,093881,084261
0000000087,0000086000,074038,090813,083412,069363,091971,087567
0000000088,0000087000,073547,088598,086118,068967,089312,090621
0000000089,0000088000,073960,085915,088387,069610,086167,093124
0000000090,0000089000,075238,083036,089988,071226,082848,094827
0000000091,0000090000,077247,080247,090769,073660,079676,095565
0000000092,0000091000,079802,077806,090656,076677,076957,095267
0000000093,0000092000,082648,075956,089659,079973,074965,093963
0000000094,0000093000,085496,074891,087876,083229,073893,091779
0000000095,0000094000,088082,074706,085474,086132,073844,088926
0000000096,0000095000,090155,075412,082696,088393,074821,085687
0000000097,0000096000,091497,076946,079820,089787,076733,082382
0000000098,0000097000,091979,079170,077113,090183,079391,079328
0000000099,0000098000,091568,081851,074843,089542,082534,076825
0000000100,0000099000,090298,084722,073242,087926,085854,075122
0000000101,0000100000,088282,087519,072461,085491,089027,074384
0000000102,0000101000,085725,089964,072574,082476,091744,074681
0000000103,0000102000,082887,091805,073570,079180,093736,075985
0000000104,0000103000,080036,092873,075354,075923,094809,078169
0000000105,0000104000,077443,093065,077755,073021,094858,081022
0000000106,0000105000,075377,092352,080533,070762,093880,084260
0000000107,0000106000,074036,090816,083410,069366,091971,087565
0000000108,0000107000,073545,088601,086116,068970,089313,090619
0000000109,0000108000,073961,085916,088386,069611,086168,093122
0000000110,0000109000,075235,083039,089989,071226,082850,094825
0000000111,0000110000,077243,080250,090769,073660,079678,095563
0000000112,0000111000,079801,077805,090657,076676,076960,095266
0000000113,0000112000,082646,075956,089661,079971,074968,093962
0000000114,0000113000,085492,074892,087878,083227,073896,091778
0000000115,0000114000,088082,074704,085476,086129,073846,088926
0000000116,0000115000,090156,075408,082698,088389,074823,085689
0000000117,0000116000,091495,076946,079822,089784,076733,082384
0000000118,0000117000,091981,079167,077115,090181,079390,079331
0000000119,0000118000,091572,081847,074844,089540,082533,076828
0000000120,0000119000,090299,084721,073242,087924,085852,075125
0000000121,0000120000,088284,087518,072460,085491,089024,074386
0000000122,0000121000,085730,089961,072572,082477,091740,074684
0000000123,0000122000,082889,091805,073568,079181,093733,075987
0000000124,0000123000,080036,092876,075351,075926,094806,078170
0000000125,0000124000,077446,093065,077752,073025,094855,081021
0000000126,0000125000,075378,092354,080530,070765,093879,084258
0000000127,0000126000,074034,090821,083408,069369,091970,087562
0000000128,0000127000,073544,088604,086114,068973,089313,090615
0000000129,0000128000,073959,085917,088386,069613,086170,093118
0000000130,0000129000,075230,083043,089989,071227,082853,094821
0000000131,0000130000,077240,080252,090771,073660,079681,095560
0000000132,0000131000,079799,077804,090659,076674,076964,095263
0000000133,0000132000,082642,075956,089664,079968,074972,093960
0000000134,0000133000,085489,074892,087881,083224,073899,091778
0000000135,0000134000,088082,074700,085480,086125,073849,088928
0000000136,0000135000,090155,075406,082702,088384,074826,085691
0000000137,0000136000,091495,076944,079824,089780,076734,082388
0000000138,0000137000,091984,079162,077116,090177,079389,079335
0000000139,0000138000,091575,081843,074845,089537,082532,076833
0000000140,0000139000,090301,084720,073242,087923,085849,075129
0000000141,0000140000,088289,087515,072459,085491,089019,074390
0000000142,0000141000,085735,089958,072569,082479,091736,074687
0000000143,0000142000,082892,091807,073564,079184,093729,075989
0000000144,0000143000,080039,092877,075347,075930,094801,078170
0000000145,0000144000,077449,093066,077748,073030,094852,081020
0000000146,0000145000,075378,092358,080527,070769,093876,084255
0000000147,0000146000,074032,090826,083404,069374,091969,087558
0000000148,0000147000,073544,088607,086112,068977,089313,090611
0000000149,0000148000,073956,085921,088385,069616,086173,093113
0000000150,0000149000,075225,083048,089989,071229,082857,094816
0000000151,0000150000,077236,080254,090772,073660,079686,095555
0000000152,0000151000,079795,077805,090662,076672,076970,095260
0000000153,0000152000,082636,075958,089668,079965,074978,093958
0000000154,0000153000,085486,074890,087886,083219,073904,091778
0000000155,0000154000,088081,074696,085485,086120,073853,088929
0000000156,0000155000,090153,075403,082706,088379,074828,085694
0000000157,0000156000,091495,076940,079828,089775,076735,082392
0000000158,0000157000,091988,079156,077119,090173,079389,079340
0000000159,0000158000,091578,081838,074846,089534,082529,076839
0000000160,0000159000,090305,084716,073241,087921,085845,075135
0000000161,0000160000,088295,087511,072457,085492,089014,074396
0000000162,0000161000,085740,089956,072566,082481,091730,074691
0000000163,0000162000,082895,091808,073560,079188,093722,075991
0000000164,0000163000,080043,092878,075341,075935,094796,078171
0000000165,0000164000,077452,093068,077742,073035,094848,081018
0000000166,0000165000,075377,092364,080522,070776,093874,084252
0000000167,0000166000,074031,090831,083400,069380,091968,087553
0000000168,0000167000,073542,088611,086109,068982,089314,090605
0000000169,0000168000,073951,085928,088384,069620,086176,093106
0000000170,0000169000,075220,083054,089990,071231,082861,094809
0000000171,0000170000,077232,080257,090775,073660,079692,095549
0000000172,0000171000,079789,077807,090666,076670,076977,095255
0000000173,0000172000,082630,075959,089673,079961,074985,093956
0000000174,0000173000,085483,074888,087892,083214,073911,091777
0000000175,0000174000,088079,074693,085491,086113,073858,088931
0000000176,0000175000,090152,075399,082712,088371,074832,085698
0000000177,0000176000,091497,076933,079832,089768,076736,082397
0000000178,0000177000,091991,079149,077122,090167,079388,079347
0000000179,0000178000,091582,081833,074848,089529,082526,076846
0000000180,0000179000,090311,084711,073240,087919,085839,075143
0000000181,0000180000,088303,087506,072454,085492,089007,074402
0000000182,0000181000,085746,089955,072562,082483,091723,074696
0000000183,0000182000,082900,091808,073554,079193,093715,075994
0000000184,0000183000,080049,092879,075335,075942,094788,078171
0000000185,0000184000,077455,093072,077736,073043,094842,081017
0000000186,0000185000,075377,092370,080515,070784,093870,084248
0000000187,0000186000,074031,090837,083395,069388,091966,087547
0000000188,0000187000,073539,088618,086106,068988,089316,090597
0000000189,0000188000,073945,085935,088382,069624,086179,093098
0000000190,0000189000,075213,083059,089990,071233,082867,094801
0000000191,0000190000,077225,080260,090778,073660,079699,095542
0000000192,0000191000,079781,077810,090671,076667,076985,095250
0000000193,0000192000,082624,075959,089680,079956,074993,093952
0000000194,0000193000,085479,074884,087899,083206,073918,091777
0000000195,0000194000,088075,074689,085499,086104,073865,088933
0000000196,0000195000,090150,075393,082719,088363,074836,085703
0000000197,0000196000,091499,076925,079838,089759,076738,082404
0000000198,0000197000,091995,079141,077127,090159,079387,079355
0000000199,0000198000,091587,081826,074849,089524,082522,076855
0000000200,0000199000,090319,084704,073239,087917,085833,075152
0000000201,0000200000,088311,087501,072451,085492,088999,074410
0000000202,0000201000,085753,089953,072556,082486,091713,074702
0000000203,0000202000,082908,091808,073547,079199,093705,075997
0000000204,0000203000,080055,092881,075327,075950,094780,078172
0000000205,0000204000,077458,093078,077727,073052,094835,081014
0000000206,0000205000,075378,092377,080507,070794,093865,084243
0000000207,0000206000,074030,090845,083388,069397,091964,087540
0000000208,0000207000,073534,088627,086101,068996,089317,090588
0000000209,0000208000,073938,085944,088380,069630,086184,093088
0000000210,0000209000,075206,083066,089991,071236,082874,094791
0000000211,0000210000,077216,080266,090781,073659,079709,095533
0000000212,0000211000,079771,077814,090677,076663,076996,095243
0000000213,0000212000,082616,075959,089687,079949,075003,093949
0000000214,0000213000,085473,074881,087908,083197,073928,091776
0000000215,0000214000,088070,074684,085508,086093,073872,088935
0000000216,0000215000,090149,075386,082727,088352,074841,085708
0000000217,0000216000,091502,076915,079846,089749,076740,082413
0000000218,0000217000,091999,079132,077132,090150,079385,079366
0000000219,0000218000,091594,081818,074851,089518,082517,076866
0000000220,0000219000,090329,084696,073238,087914,085825,075163
0000000221,0000220000,088320,087495,072447,085492,088989,074420
0000000222,0000221000,085762,089950,072550,082490,091702,074709
0000000223,0000222000,082917,091807,073538,079206,093693,076002
0000000224,0000223000,080062,092884,075317,075959,094770,078173
0000000225,0000224000,077461,093084,077717,073063,094827,081011
0000000226,0000225000,075380,092385,080498,070806,093859,084236
0000000227,0000226000,074028,090854,083380,069408,091962,087531
0000000228,0000227000,073528,088638,086096,069006,089319,090577
0000000229,0000228000,073930,085954,088378,069637,086189,093075
0000000230,0000229000,075197,083074,089992,071239,082882,094779
0000000231,0000230000,077205,080272,090786,073659,079720,095523
0000000232,0000231000,079761,077818,090684,076659,077008,095235
0000000233,0000232000,082608,075958,089697,079942,075016,093944
0000000234,0000233000,085465,074878,087919,083187,073940,091775
0000000235,0000234000,088065,074678,085519,086081,073882,088938
0000000236,0000235000,090149,075376,082738,088339,074847,085715
0000000237,0000236000,091504,076904,079854,089737,076742,082423
0000000238,0000237000,092004,079121,077137,090140,079384,079378
0000000239,0000238000,091603,081806,074854,089511,082511,076879
0000000240,0000239000,090340,084686,073237,087910,085816,075176
0000000241,0000240000,088332,087488,072442,085493,088977,074431
0000000242,0000241000,085774,089947,072542,082495,091689,074718
0000000243,0000242000,082928,091807,073528,079214,093680,076007
0000000244,0000243000,080070,092888,075305,075970,094757,078174
0000000245,0000244000,077466,093092,077705,073077,094817,081008
0000000246,0000245000,075382,092395,080487,070820,093853,084229
0000000247,0000246000,074025,090866,083371,069421,091960,087520
0000000248,0000247000,073522,088651,086090,069017,089321,090563
0000000249,0000248000,073921,085966,088375,069645,086195,093061
0000000250,0000249000,075185,083084,089994,071243,082893,094765
0000000251,0000250000,077192,080281,090791,073658,079733,095511
0000000252,0000251000,079748,077822,090693,076654,077022,095226
0000000253,0000252000,082597,075958,089708,079932,075031,093938
0000000254,0000253000,085456,074874,087932,083174,073953,091774
0000000255,0000254000,088060,074671,085532,086067,073892,088942
0000000256,0000255000,090148,075365,082750,088324,074854,085723
0000000257,0000256000,091507,076892,079864,089722,076744,082434
0000000258,0000257000,092011,079108,077144,090128,079381,079392
0000000259,0000258000,091613,081793,074857,089502,082504,076895
0000000260,0000259000,090352,084674,073236,087906,085805,075191
0000000261,0000260000,088345,087481,072437,085493,088964,074444
0000000262,0000261000,085788,089942,072533,082500,091673,074728
0000000263,0000262000,082940,091806,073516,079224,093664,076013
0000000264,0000263000,080079,092893,075291,075984,094743,078175
0000000265,0000264000,077472,093100,077691,073092,094805,081004
0000000266,0000265000,075384,092406,080473,070836,093845,084220
0000000267,0000266000,074022,090880,083361,069437,091957,087507
0000000268,0000267000,073515,088666,086082,069030,089323,090548
0000000269,0000268000,073911,085980,088372,069654,086202,093045
0000000270,0000269000,075172,083096,089995,071248,082904,094749
0000000271,0000270000,077177,080290,090796,073657,079747,095497
0000000272,0000271000,079734,077826,090703,076648,077039,095215
0000000273,0000272000,082584,075958,089721,079922,075047,093932
0000000274,0000273000,085445,074870,087947,083160,073968,091773
0000000275,0000274000,088053,074662,085547,086050,073904,088946
0000000276,0000275000,090146,075353,082764,088307,074862,085733
0000000277,0000276000,091509,076877,079876,089706,076747,082448
0000000278,0000277000,092018,079092,077152,090115,079378,079408
0000000279,0000278000,091625,081778,074860,089492,082496,076912
0000000280,0000279000,090366,084662,073235,087901,085792,075208
0000000281,0000280000,088361,087471,072431,085494,088948,074459
0000000282,0000281000,085804,089936,072522,082507,091655,074739
0000000283,0000282000,082954,091806,073502,079235,093647,076019
0000000284,0000283000,080090,092898,075275,075999,094727,078176
0000000285,0000284000,077479,093109,077674,073110,094792,080999
0000000286,0000285000,075386,092419,080458,070854,093837,084210
0000000287,0000286000,074019,090896,083348,069454,091954,087493
0000000288,0000287000,073507,088682,086073,069044,089326,090531
0000000289,0000288000,073899,085995,088368,069664,086211,093026
0000000290,0000289000,075156,083110,089997,071253,082918,094731
0000000291,0000290000,077160,080300,090803,073657,079764,095480
0000000292,0000291000,079717,077832,090714,076641,077058,095203
0000000293,0000292000,082568,075958,089736,079910,075067,093925
0000000294,0000293000,085433,074865,087964,083144,073986,091772
0000000295,0000294000,088046,074651,085565,086031,073918,088952
0000000296,0000295000,090144,075339,082780,088287,074871,085743
0000000297,0000296000,091513,076861,079889,089688,076750,082463
0000000298,0000297000,092027,079074,077161,090099,079375,079427
0000000299,0000298000,091638,081760,074864,089481,082487,076933
0000000300,0000299000,090382,084647,073233,087896,085778,075227
0000000301,0000300000,088379,087460,072423,085495,088929,074477
