DIgSILENT PowerFactory,21000900,2000
6,06A,00D
1,TTPP_200000_100:Secondary Voltage A,,,V,0.010000000,-67.865509,0.000000,-86352,99998,1,1,P
2,TTPP_200000_100:Secondary Voltage B,,,V,0.010000000,27.774252,0.000000,-96737,99998,1,1,P
3,TTPP_200000_100:Secondary Voltage C,,,V,0.10000000,-8979.195313,0.000000,79554,99998,1,1,P
4,TTCC_500_5:Secondary Current A,,,A,0.0010000000,-79.516357,0.000000,46266,99998,1,1,P
5,TTCC_500_5:Secondary Current B,,,A,0.0010000000,-84.624748,0.000000,69271,99998,1,1,P
6,TTCC_500_5:Secondary Current C,,,A,0.0010000000,-84.739082,0.000000,69493,99998,1,1,P
50
1
1000.000000,1101
30/06/2023,06:03:20.000000
30/06/2023,06:03:20.000000
ASCII
1.000000
0000000001,0000000000,061917,033617,080640,085433,089303,074144
0000000002,0000001000,036431,057958,080753,082418,092019,074443
0000000003,0000002000,007924,076506,081751,079117,094016,075748
0000000004,0000003000,-20553,087145,083534,075865,095083,077933
0000000005,0000004000,-46340,088926,085935,072957,095136,080787
0000000006,0000005000,-67118,081913,088713,070698,094155,084027
0000000007,0000006000,-80566,066596,091589,069303,092244,087333
0000000008,0000007000,-85318,044300,094294,068909,089583,090388
0000000009,0000008000,-81176,017462,096563,069548,086440,092891
0000000010,0000009000,-68570,-11138,098164,071166,083119,094595
0000000011,0000010000,-48370,-39140,098944,073604,079944,095333
0000000012,0000011000,-22735,-63637,098831,076619,077227,095034
0000000013,0000012000,005584,-81990,097834,079916,075235,093729
0000000014,0000013000,034050,-92622,096050,083174,074162,091544
0000000015,0000014000,060044,-94605,093649,086078,074112,088690
0000000016,0000015000,080670,-87459,090871,088336,075094,085450
0000000017,0000016000,094031,-72043,087994,089734,077003,082144
0000000018,0000017000,098970,-49934,085289,090128,079663,079089
0000000019,0000018000,094809,-23085,083021,089486,082809,076585
0000000020,0000019000,082024,005710,081420,087869,086129,074882
0000000021,0000020000,061968,033563,080640,085434,089302,074144
0000000022,0000021000,036411,057984,080754,082416,092022,074443
0000000023,0000022000,007904,076518,081750,079119,094014,075748
0000000024,0000023000,-20517,087112,083534,075862,095085,077933
0000000025,0000024000,-46361,088939,085935,072958,095135,080787
0000000026,0000025000,-67138,081936,088713,070697,094156,084027
0000000027,0000026000,-80537,066576,091589,069303,092244,087333
0000000028,0000027000,-85305,044285,094294,068908,089584,090388
0000000029,0000028000,-81225,017518,096564,069548,086441,092892
0000000030,0000029000,-68548,-11164,098164,071167,083119,094595
0000000031,0000030000,-48340,-39168,098944,073602,079945,095333
0000000032,0000031000,-22776,-63605,098831,076618,077228,095034
0000000033,0000032000,005565,-81975,097834,079916,075235,093729
0000000034,0000033000,034098,-92671,096050,083175,074162,091544
0000000035,0000034000,060025,-94592,093649,086076,074114,088690
0000000036,0000035000,080643,-87425,090871,088337,075093,085451
0000000037,0000036000,094063,-72080,087995,089733,077003,082144
0000000038,0000037000,098978,-49941,085290,090128,079663,079089
0000000039,0000038000,094782,-23058,083021,089485,082809,076586
0000000040,0000039000,082039,005694,081419,087869,086128,074883
0000000041,0000040000,061991,033540,080640,085433,089302,074145
0000000042,0000041000,036379,058014,080753,082415,092022,074443
0000000043,0000042000,007920,076512,081750,079119,094013,075748
0000000044,0000043000,-20492,087089,083533,075862,095085,077933
0000000045,0000044000,-46385,088966,085935,072958,095135,080787
0000000046,0000045000,-67147,081951,088713,070698,094156,084026
0000000047,0000046000,-80501,066542,091589,069304,092244,087333
0000000048,0000047000,-85321,044304,094295,068907,089585,090388
0000000049,0000048000,-81258,017548,096564,069548,086440,092891
0000000050,0000049000,-68520,-11191,098164,071166,083119,094594
0000000051,0000050000,-48338,-39175,098944,073602,079946,095333
0000000052,0000051000,-22814,-63569,098831,076617,077229,095034
0000000053,0000052000,005573,-81985,097834,079916,075235,093729
0000000054,0000053000,034120,-92700,096051,083173,074163,091544
0000000055,0000054000,059996,-94565,093650,086075,074115,088691
0000000056,0000055000,080639,-87426,090871,088336,075093,085451
0000000057,0000056000,094091,-72112,087995,089732,077004,082145
0000000058,0000057000,098966,-49935,085290,090127,079664,079090
0000000059,0000058000,094771,-23047,083021,089485,082809,076587
0000000060,0000059000,082072,005663,081419,087869,086128,074883
0000000061,0000060000,061991,033539,080640,085432,089302,074145
0000000062,0000061000,036364,058036,080753,082416,092021,074444
0000000063,0000062000,007948,076490,081749,079120,094012,075748
0000000064,0000063000,-20479,087082,083533,075862,095085,077933
0000000065,0000064000,-46411,088999,085934,072958,095135,080787
0000000066,0000065000,-67136,081948,088712,070699,094155,084026
0000000067,0000066000,-80479,066525,091588,069304,092244,087332
0000000068,0000067000,-85352,044336,094294,068907,089586,090387
0000000069,0000068000,-81270,017564,096563,069549,086441,092890
0000000070,0000069000,-68500,-11212,098164,071166,083120,094594
0000000071,0000070000,-48357,-39159,098945,073601,079948,095332
0000000072,0000071000,-22843,-63544,098832,076617,077230,095034
0000000073,0000072000,005588,-82008,097835,079915,075236,093729
0000000074,0000073000,034116,-92707,096052,083172,074164,091544
0000000075,0000074000,059967,-94547,093651,086074,074116,088691
0000000076,0000075000,080651,-87447,090872,088335,075093,085452
0000000077,0000076000,094104,-72136,087996,089730,077004,082146
0000000078,0000077000,098949,-49923,085291,090125,079664,079091
0000000079,0000078000,094784,-23060,083021,089484,082808,076588
0000000080,0000079000,082102,005632,081419,087868,086127,074885
0000000081,0000080000,061984,033550,080639,085432,089301,074147
0000000082,0000081000,036368,058040,080752,082417,092019,074445
0000000083,0000082000,007983,076466,081748,079120,094011,075749
0000000084,0000083000,-20478,087092,083532,075863,095084,077934
0000000085,0000084000,-46424,089026,085933,072960,095134,080787
0000000086,0000085000,-67114,081939,088710,070700,094155,084025
0000000087,0000086000,-80476,066532,091587,069305,092244,087331
0000000088,0000087000,-85381,044374,094293,068908,089586,090386
0000000089,0000088000,-81271,017570,096563,069550,086441,092889
0000000090,0000089000,-68498,-11217,098164,071166,083122,094592
0000000091,0000090000,-48391,-39131,098945,073600,079950,095330
0000000092,0000091000,-22860,-63535,098833,076616,077231,095033
0000000093,0000092000,005593,-82028,097836,079914,075238,093728
0000000094,0000093000,034093,-92701,096053,083170,074166,091544
0000000095,0000094000,059950,-94545,093652,086072,074117,088691
0000000096,0000095000,080668,-87479,090874,088333,075094,085453
0000000097,0000096000,094104,-72151,087998,089728,077005,082148
0000000098,0000097000,098940,-49924,085292,090124,079663,079093
0000000099,0000098000,094812,-23091,083021,089483,082807,076590
0000000100,0000099000,082126,005609,081419,087867,086126,074887
0000000101,0000100000,061983,033557,080639,085432,089299,074149
0000000102,0000101000,036394,058028,080750,082418,092016,074446
0000000103,0000102000,008016,076449,081746,079121,094009,075750
0000000104,0000103000,-20480,087114,083530,075864,095082,077934
0000000105,0000104000,-46419,089043,085931,072963,095132,080786
0000000106,0000105000,-67092,081936,088708,070703,094153,084024
0000000107,0000106000,-80488,066559,091586,069307,092244,087329
0000000108,0000107000,-85405,044410,094292,068910,089587,090383
0000000109,0000108000,-81271,017576,096562,069552,086442,092886
0000000110,0000109000,-68517,-11201,098165,071167,083124,094589
0000000111,0000110000,-48431,-39100,098946,073600,079952,095328
0000000112,0000111000,-22874,-63536,098834,076616,077234,095031
0000000113,0000112000,005581,-82037,097839,079911,075241,093727
0000000114,0000113000,034060,-92692,096056,083167,074169,091544
0000000115,0000114000,059941,-94560,093654,086069,074119,088692
0000000116,0000115000,080679,-87514,090876,088329,075096,085455
0000000117,0000116000,094097,-72164,088000,089724,077006,082150
0000000118,0000117000,098947,-49943,085293,090121,079663,079096
0000000119,0000118000,094848,-23134,083022,089481,082806,076594
0000000120,0000119000,082146,005590,081419,087866,086124,074890
0000000121,0000120000,061998,033554,080637,085432,089296,074152
0000000122,0000121000,036436,058006,080748,082419,092013,074448
0000000123,0000122000,008046,076443,081744,079123,094006,075751
0000000124,0000123000,-20475,087138,083527,075867,095079,077934
0000000125,0000124000,-46399,089055,085928,072966,095129,080785
0000000126,0000125000,-67077,081949,088706,070706,094152,084022
0000000127,0000126000,-80507,066602,091583,069310,092244,087326
0000000128,0000127000,-85421,044445,094290,068913,089587,090380
0000000129,0000128000,-81281,017592,096562,069554,086444,092882
0000000130,0000129000,-68555,-11166,098165,071168,083127,094586
0000000131,0000130000,-48472,-39071,098947,073600,079955,095325
0000000132,0000131000,-22894,-63538,098836,076614,077238,095028
0000000133,0000132000,005549,-82036,097842,079909,075246,093726
0000000134,0000133000,034023,-92689,096059,083164,074173,091544
0000000135,0000134000,059936,-94589,093658,086065,074122,088693
0000000136,0000135000,080679,-87550,090880,088325,075098,085457
0000000137,0000136000,094090,-72185,088003,089720,077007,082153
0000000138,0000137000,098969,-49983,085295,090118,079662,079100
0000000139,0000138000,094886,-23181,083023,089478,082804,076598
0000000140,0000139000,082170,005569,081419,087864,086121,074895
0000000141,0000140000,062034,033534,080636,085433,089292,074156
0000000142,0000141000,036487,057980,080746,082420,092008,074451
0000000143,0000142000,008075,076448,081741,079126,094001,075753
0000000144,0000143000,-20456,087160,083523,075871,095075,077935
0000000145,0000144000,-46370,089067,085923,072971,095125,080784
0000000146,0000145000,-67072,081981,088702,070711,094150,084020
0000000147,0000146000,-80527,066654,091580,069315,092243,087323
0000000148,0000147000,-85435,044482,094288,068918,089587,090375
0000000149,0000148000,-81307,017627,096561,069557,086446,092877
0000000150,0000149000,-68607,-11119,098166,071169,083131,094581
0000000151,0000150000,-48515,-39044,098949,073600,079960,095320
0000000152,0000151000,-22928,-63534,098839,076612,077243,095025
0000000153,0000152000,005500,-82028,097846,079905,075251,093724
0000000154,0000153000,033987,-92698,096064,083159,074178,091543
0000000155,0000154000,059927,-94628,093663,086060,074126,088695
0000000156,0000155000,080670,-87586,090884,088319,075101,085460
0000000157,0000156000,094091,-72222,088006,089715,077008,082158
0000000158,0000157000,099002,-50041,085297,090113,079661,079106
0000000159,0000158000,094925,-23233,083024,089475,082802,076604
0000000160,0000159000,082205,005538,081418,087863,086117,074901
0000000161,0000160000,062090,033500,080634,085433,089287,074161
0000000162,0000161000,036545,057955,080743,082422,092002,074455
0000000163,0000162000,008111,076456,081736,079129,093995,075756
0000000164,0000163000,-20420,087177,083517,075876,095069,077935
0000000165,0000164000,-46338,089088,085918,072977,095121,080783
0000000166,0000165000,-67071,082030,088697,070717,094147,084016
0000000167,0000166000,-80543,066713,091576,069321,092241,087318
0000000168,0000167000,-85453,044529,094285,068923,089588,090369
0000000169,0000168000,-81350,017681,096560,069560,086449,092871
0000000170,0000169000,-68668,-11063,098166,071171,083135,094574
0000000171,0000170000,-48566,-39015,098951,073600,079966,095314
0000000172,0000171000,-22982,-63520,098843,076610,077250,095020
0000000173,0000172000,005439,-82018,097851,079901,075258,093721
0000000174,0000173000,033949,-92718,096070,083153,074184,091543
0000000175,0000174000,059909,-94671,093669,086053,074131,088696
0000000176,0000175000,080656,-87628,090890,088312,075105,085464
0000000177,0000176000,094102,-72279,088011,089708,077009,082163
0000000178,0000177000,099042,-50114,085300,090107,079660,079113
0000000179,0000178000,094968,-23291,083025,089470,082798,076612
0000000180,0000179000,082258,005492,081418,087860,086112,074908
0000000181,0000180000,062163,033453,080631,085433,089280,074167
0000000182,0000181000,036611,057932,080738,082425,091995,074460
0000000183,0000182000,008162,076464,081730,079134,093987,075758
0000000184,0000183000,-20370,087194,083511,075883,095062,077936
0000000185,0000184000,-46305,089123,085911,072984,095115,080781
0000000186,0000185000,-67072,082093,088691,070725,094143,084012
0000000187,0000186000,-80556,066780,091570,069329,092240,087312
0000000188,0000187000,-85480,044592,094281,068929,089589,090361
0000000189,0000188000,-81408,017754,096558,069565,086453,092862
0000000190,0000189000,-68737,-11000,098167,071173,083141,094566
0000000191,0000190000,-48632,-38979,098954,073600,079973,095307
0000000192,0000191000,-23057,-63495,098848,076607,077259,095015
0000000193,0000192000,005368,-82011,097857,079896,075267,093718
0000000194,0000193000,033904,-92746,096077,083146,074192,091542
0000000195,0000194000,059879,-94718,093677,086044,074138,088698
0000000196,0000195000,080640,-87683,090897,088303,075109,085469
0000000197,0000196000,094121,-72355,088016,089700,077010,082170
0000000198,0000197000,099085,-50199,085304,090100,079659,079121
0000000199,0000198000,095020,-23360,083027,089465,082795,076621
0000000200,0000199000,082331,005428,081417,087858,086105,074917
0000000201,0000200000,062251,033397,080628,085433,089271,074175
0000000202,0000201000,036687,057909,080733,082428,091986,074467
0000000203,0000202000,008230,076468,081723,079140,093978,075762
0000000204,0000203000,-20306,087213,083502,075891,095053,077936
0000000205,0000204000,-46270,089172,085903,072994,095108,080779
0000000206,0000205000,-67068,082168,088683,070735,094138,084007
0000000207,0000206000,-80569,066858,091564,069338,092238,087304
0000000208,0000207000,-85520,044676,094277,068937,089591,090352
0000000209,0000208000,-81479,017845,096556,069570,086458,092852
0000000210,0000209000,-68816,-10929,098167,071176,083148,094556
0000000211,0000210000,-48716,-38931,098958,073600,079982,095298
0000000212,0000211000,-23151,-63461,098854,076603,077269,095008
0000000213,0000212000,005287,-82008,097865,079889,075277,093714
0000000214,0000213000,033848,-92781,096086,083137,074201,091541
0000000215,0000214000,059837,-94770,093686,086034,074145,088701
0000000216,0000215000,080625,-87754,090906,088292,075114,085474
0000000217,0000216000,094146,-72451,088024,089689,077012,082179
0000000218,0000217000,099133,-50296,085309,090091,079658,079131
0000000219,0000218000,095086,-23447,083029,089459,082790,076632
0000000220,0000219000,082424,005346,081416,087855,086097,074928
0000000221,0000220000,062352,033335,080624,085434,089262,074185
0000000222,0000221000,036779,057883,080726,082432,091975,074474
0000000223,0000222000,008318,076468,081714,079147,093966,075766
0000000224,0000223000,-20233,087238,083493,075901,095042,077937
0000000225,0000224000,-46232,089234,085893,073005,095100,080776
0000000226,0000225000,-67059,082254,088673,070747,094133,084001
0000000227,0000226000,-80585,066952,091556,069349,092236,087295
0000000228,0000227000,-85574,044782,094272,068946,089593,090341
0000000229,0000228000,-81561,017950,096554,069577,086463,092840
0000000230,0000229000,-68910,-10846,098168,071180,083156,094544
0000000231,0000230000,-48822,-38868,098962,073599,079993,095288
0000000232,0000231000,-23263,-63421,098861,076599,077282,095000
0000000233,0000232000,005194,-82009,097874,079881,075290,093709
0000000234,0000233000,033776,-92818,096097,083127,074213,091541
0000000235,0000234000,059786,-94830,093697,086021,074155,088704
0000000236,0000235000,080612,-87843,090916,088279,075120,085481
0000000237,0000236000,094173,-72564,088032,089677,077014,082189
0000000238,0000237000,099186,-50408,085315,090081,079656,079144
0000000239,0000238000,095168,-23553,083032,089452,082784,076645
0000000240,0000239000,082535,005247,081415,087851,086088,074941
0000000241,0000240000,062469,033264,080619,085434,089250,074196
0000000242,0000241000,036891,057850,080719,082436,091961,074483
0000000243,0000242000,008424,076465,081704,079156,093953,075771
0000000244,0000243000,-20149,087272,083481,075912,095030,077938
0000000245,0000244000,-46185,089308,085881,073018,095090,080772
0000000246,0000245000,-67044,082352,088662,070761,094126,083993
0000000247,0000246000,-80606,067065,091547,069363,092234,087284
0000000248,0000247000,-85638,044910,094265,068957,089595,090328
0000000249,0000248000,-81654,018071,096551,069585,086469,092826
0000000250,0000249000,-69021,-10747,098170,071184,083166,094530
0000000251,0000250000,-48951,-38791,098967,073598,080006,095276
0000000252,0000251000,-23391,-63377,098870,076594,077296,094991
0000000253,0000252000,005085,-82012,097886,079872,075304,093704
0000000254,0000253000,033688,-92858,096110,083114,074226,091540
0000000255,0000254000,059727,-94902,093710,086007,074165,088708
0000000256,0000255000,080600,-87951,090928,088264,075127,085489
0000000257,0000256000,094202,-72694,088042,089663,077017,082200
0000000258,0000257000,099248,-50539,085322,090069,079654,079158
0000000259,0000258000,095268,-23682,083034,089443,082777,076660
0000000260,0000259000,082663,005132,081413,087847,086077,074956
0000000261,0000260000,062603,033184,080614,085435,089236,074209
0000000262,0000261000,037025,057807,080709,082442,091946,074493
0000000263,0000262000,008550,076460,081692,079166,093937,075777
0000000264,0000263000,-20054,087314,083467,075925,095016,077939
0000000265,0000264000,-46128,089393,085867,073034,095078,080768
0000000266,0000265000,-67024,082464,088649,070777,094119,083984
0000000267,0000266000,-80634,067200,091536,069378,092231,087271
0000000268,0000267000,-85712,045059,094258,068970,089597,090312
0000000269,0000268000,-81760,018209,096548,069594,086476,092809
0000000270,0000269000,-69152,-10630,098171,071188,083178,094514
0000000271,0000270000,-49102,-38699,098973,073598,080021,095261
0000000272,0000271000,-23538,-63327,098880,076588,077312,094980
0000000273,0000272000,004958,-82014,097898,079862,075321,093698
0000000274,0000273000,033583,-92902,096125,083100,074242,091539
0000000275,0000274000,059660,-94987,093725,085990,074177,088712
0000000276,0000275000,080585,-88077,090942,088247,075135,085499
0000000277,0000276000,094232,-72841,088054,089647,077020,082214
0000000278,0000277000,099321,-50692,085330,090055,079651,079174
0000000279,0000278000,095385,-23833,083038,089433,082769,076678
0000000280,0000279000,082808,005001,081412,087842,086065,074973
0000000281,0000280000,062758,033091,080608,085436,089220,074225
0000000282,0000281000,037183,057754,080699,082448,091928,074504
0000000283,0000282000,008693,076455,081678,079177,093919,075784
0000000284,0000283000,-19946,087364,083451,075941,095000,077940
0000000285,0000284000,-46059,089488,085850,073051,095065,080764
0000000286,0000285000,-67002,082592,088634,070795,094110,083974
0000000287,0000286000,-80668,067359,091524,069395,092228,087257
0000000288,0000287000,-85795,045228,094249,068985,089600,090295
0000000289,0000288000,-81880,018367,096544,069605,086485,092790
0000000290,0000289000,-69306,-10493,098173,071193,083192,094496
0000000291,0000290000,-49274,-38593,098980,073597,080038,095245
0000000292,0000291000,-23704,-63272,098891,076581,077331,094968
0000000293,0000292000,004809,-82013,097913,079850,075340,093691
0000000294,0000293000,033461,-92950,096142,083084,074259,091538
0000000295,0000294000,059586,-95086,093743,085971,074191,088717
0000000296,0000295000,080566,-88220,090958,088227,075144,085509
0000000297,0000296000,094265,-73007,088067,089628,077023,082229
0000000298,0000297000,099405,-50870,085340,090040,079648,079193
0000000299,0000298000,095518,-24008,083042,089422,082760,076698
0000000300,0000299000,082971,004853,081410,087837,086050,074993
0000000301,0000300000,062938,032983,080601,085437,089202,074242
