DIgSILENT PowerFactory,21000900,2000
6,06A,00D
1,TTPP_200000_100:Secondary Voltage A,,,V,0.10000000,-8490.481445,0.000000,71135,99998,1,1,P
2,TTPP_200000_100:Secondary Voltage B,,,V,0.10000000,-8359.142578,0.000000,68180,99998,1,1,P
3,TTPP_200000_100:Secondary Voltage C,,,V,0.10000000,-8609.649414,0.000000,68640,99998,1,1,P
4,TTCC_500_5:Secondary Current A,,,A,0.0010000000,-78.910263,0.000000,64332,99998,1,1,P
5,TTCC_500_5:Secondary Current B,,,A,0.0010000000,-84.573563,0.000000,69172,99998,1,1,P
6,TTCC_500_5:Secondary Current C,,,A,0.0010000000,-84.805908,0.000000,69631,99998,1,1,P
50
1
1000.000000,1101
30/06/2023,06:11:31.000000
30/06/2023,06:11:31.000000
ASCII
1.000000
0000000001,0000000000,090417,087232,076944,084826,089253,074211
0000000002,0000001000,087869,089665,077058,081810,091969,074510
0000000003,0000002000,085017,091521,078056,078512,093963,075815
0000000004,0000003000,082172,092582,079839,075255,095034,078001
0000000005,0000004000,079588,092764,082241,072353,095082,080855
0000000006,0000005000,077514,092059,085019,070090,094106,084095
0000000007,0000006000,076171,090526,087895,068698,092190,087401
0000000008,0000007000,075695,088298,090600,068301,089532,090456
0000000009,0000008000,076107,085616,092869,068943,086387,092959
0000000010,0000009000,077370,082754,094470,070561,083066,094662
0000000011,0000010000,079394,079951,095248,072998,079892,095400
0000000012,0000011000,081952,077506,095135,076013,077175,095101
0000000013,0000012000,084783,075672,094138,079310,075184,093796
0000000014,0000013000,087635,074604,092353,082571,074109,091610
0000000015,0000014000,090233,074408,089952,085471,074063,088756
0000000016,0000015000,092293,075126,087174,087731,075043,085516
0000000017,0000016000,093627,076668,084298,089128,076952,082210
0000000018,0000017000,094127,078874,081593,089523,079612,079155
0000000019,0000018000,093707,081562,079324,088879,082760,076652
0000000020,0000019000,092425,084444,077724,087262,086079,074949
0000000021,0000020000,090422,087226,076944,084828,089251,074211
0000000022,0000021000,087867,089667,077058,081808,091971,074510
0000000023,0000022000,085016,091522,078055,078511,093963,075815
0000000024,0000023000,082171,092583,079839,075255,095034,078001
0000000025,0000024000,079590,092762,082241,072352,095083,080855
0000000026,0000025000,077512,092062,085019,070090,094105,084094
0000000027,0000026000,076173,090525,087895,068697,092192,087401
0000000028,0000027000,075694,088298,090600,068301,089532,090456
0000000029,0000028000,076104,085620,092869,068943,086388,092959
0000000030,0000029000,077374,082750,094469,070561,083067,094662
0000000031,0000030000,079393,079951,095249,072997,079893,095400
0000000032,0000031000,081949,077509,095136,076013,077176,095101
0000000033,0000032000,084784,075671,094137,079311,075183,093796
0000000034,0000033000,087639,074600,092353,082569,074110,091610
0000000035,0000034000,090229,074411,089953,085471,074063,088756
0000000036,0000035000,092291,075128,087174,087731,075042,085516
0000000037,0000036000,093634,076661,084298,089127,076953,082210
0000000038,0000037000,094124,078876,081593,089521,079613,079155
0000000039,0000038000,093703,081565,079324,088879,082759,076652
0000000040,0000039000,092430,084439,077723,087263,086078,074949
0000000041,0000040000,090424,087224,076944,084826,089252,074211
0000000042,0000041000,087862,089673,077058,081809,091971,074510
0000000043,0000042000,085018,091520,078055,078512,093962,075815
0000000044,0000043000,082177,092578,079839,075255,095034,078001
0000000045,0000044000,079585,092767,082241,072351,095084,080855
0000000046,0000045000,077511,092064,085018,070091,094104,084094
0000000047,0000046000,076178,090521,087894,068697,092192,087401
0000000048,0000047000,075693,088299,090600,068300,089534,090456
0000000049,0000048000,076099,085624,092869,068943,086388,092959
0000000050,0000049000,077376,082747,094469,070561,083067,094662
0000000051,0000050000,079394,079950,095249,072996,079894,095399
0000000052,0000051000,081944,077513,095136,076012,077177,095101
0000000053,0000052000,084785,075670,094138,079311,075183,093796
0000000054,0000053000,087641,074598,092354,082568,074111,091610
0000000055,0000054000,090226,074413,089953,085469,074064,088756
0000000056,0000055000,092290,075128,087175,087731,075042,085517
0000000057,0000056000,093636,076658,084299,089126,076953,082211
0000000058,0000057000,094123,078877,081593,089520,079614,079156
0000000059,0000058000,093703,081566,079324,088878,082759,076653
0000000060,0000059000,092433,084436,077723,087262,086078,074950
0000000061,0000060000,090424,087225,076944,084826,089252,074212
0000000062,0000061000,087861,089674,077057,081809,091970,074511
0000000063,0000062000,085021,091518,078054,078512,093962,075816
0000000064,0000063000,082177,092578,079838,075255,095034,078001
0000000065,0000064000,079583,092770,082240,072352,095084,080855
0000000066,0000065000,077513,092063,085017,070092,094104,084094
0000000067,0000066000,076179,090520,087894,068697,092192,087400
0000000068,0000067000,075690,088303,090600,068301,089534,090455
0000000069,0000068000,076100,085624,092869,068944,086388,092958
0000000070,0000069000,077378,082745,094469,070561,083068,094661
0000000071,0000070000,079391,079953,095250,072995,079896,095399
0000000072,0000071000,081942,077514,095136,076012,077178,095100
0000000073,0000072000,084788,075666,094139,079310,075184,093795
0000000074,0000073000,087639,074598,092355,082566,074113,091610
0000000075,0000074000,090223,074416,089954,085469,074064,088757
0000000076,0000075000,092293,075124,087176,087730,075042,085518
0000000077,0000076000,093637,076656,084300,089124,076954,082212
0000000078,0000077000,094120,078879,081594,089519,079614,079157
0000000079,0000078000,093705,081564,079324,088878,082758,076654
0000000080,0000079000,092437,084433,077723,087261,086077,074951
0000000081,0000080000,090422,087227,076944,084825,089251,074213
0000000082,0000081000,087862,089674,077056,081810,091968,074512
0000000083,0000082000,085025,091515,078053,078513,093960,075816
0000000084,0000083000,082176,092579,079837,075255,095033,078001
0000000085,0000084000,079582,092773,082239,072353,095082,080854
0000000086,0000085000,077515,092061,085016,070094,094103,084093
0000000087,0000086000,076178,090521,087893,068698,092193,087399
0000000088,0000087000,075687,088307,090599,068302,089534,090453
0000000089,0000088000,076100,085624,092868,068945,086389,092956
0000000090,0000089000,077378,082745,094470,070561,083070,094659
0000000091,0000090000,079387,079956,095250,072995,079898,095397
0000000092,0000091000,081941,077515,095137,076011,077179,095099
0000000093,0000092000,084788,075665,094140,079308,075187,093795
0000000094,0000093000,087636,074600,092357,082564,074115,091610
0000000095,0000094000,090222,074415,089955,085467,074066,088757
0000000096,0000095000,092295,075121,087177,087727,075043,085519
0000000097,0000096000,093636,076655,084301,089122,076955,082213
0000000098,0000097000,094119,078879,081595,089518,079613,079159
0000000099,0000098000,093708,081560,079325,088877,082757,076657
0000000100,0000099000,092438,084431,077724,087260,086076,074954
0000000101,0000100000,090422,087227,076943,084825,089249,074215
0000000102,0000101000,087865,089672,077055,081811,091966,074513
0000000103,0000102000,085027,091514,078052,078514,093958,075817
0000000104,0000103000,082176,092582,079835,075257,095031,078001
0000000105,0000104000,079583,092773,082236,072356,095080,080854
0000000106,0000105000,077517,092061,085014,070096,094102,084092
0000000107,0000106000,076176,090525,087891,068700,092192,087397
0000000108,0000107000,075685,088310,090598,068304,089534,090451
0000000109,0000108000,076101,085624,092868,068946,086390,092954
0000000110,0000109000,077375,082748,094470,070561,083072,094657
0000000111,0000110000,079383,079959,095251,072995,079900,095395
0000000112,0000111000,081941,077513,095138,076011,077182,095097
0000000113,0000112000,084786,075664,094142,079306,075190,093794
0000000114,0000113000,087632,074601,092359,082562,074118,091610
0000000115,0000114000,090222,074413,089958,085464,074067,088758
0000000116,0000115000,092296,075117,087180,087724,075045,085521
0000000117,0000116000,093635,076655,084303,089119,076955,082216
0000000118,0000117000,094121,078876,081596,089515,079612,079162
0000000119,0000118000,093712,081556,079325,088875,082755,076660
0000000120,0000119000,092439,084430,077723,087259,086074,074957
0000000121,0000120000,090424,087227,076942,084826,089246,074218
0000000122,0000121000,087870,089669,077053,081812,091962,074515
0000000123,0000122000,085029,091514,078049,078516,093955,075819
0000000124,0000123000,082176,092584,079832,075260,095028,078002
0000000125,0000124000,079586,092774,082233,072359,095077,080853
0000000126,0000125000,077518,092063,085012,070099,094100,084090
0000000127,0000126000,076174,090530,087889,068704,092192,087394
0000000128,0000127000,075684,088312,090596,068308,089535,090448
0000000129,0000128000,076099,085626,092867,068948,086392,092950
0000000130,0000129000,077370,082752,094470,070562,083075,094653
0000000131,0000130000,079380,079961,095252,072995,079903,095391
0000000132,0000131000,081939,077513,095141,076009,077186,095095
0000000133,0000132000,084782,075665,094146,079303,075194,093792
0000000134,0000133000,087629,074601,092363,082559,074121,091610
0000000135,0000134000,090222,074409,089961,085460,074071,088759
0000000136,0000135000,092295,075115,087183,087719,075048,085523
0000000137,0000136000,093634,076653,084306,089115,076956,082219
0000000138,0000137000,094124,078871,081598,089512,079612,079166
0000000139,0000138000,093715,081552,079326,088872,082754,076664
0000000140,0000139000,092441,084429,077723,087257,086071,074961
0000000141,0000140000,090429,087224,076940,084826,089242,074222
0000000142,0000141000,087875,089667,077051,081813,091958,074519
0000000143,0000142000,085031,091515,078046,078519,093951,075820
0000000144,0000143000,082179,092586,079828,075264,095023,078002
0000000145,0000144000,079589,092775,082229,072364,095074,080852
0000000146,0000145000,077518,092067,085008,070104,094098,084088
0000000147,0000146000,076172,090535,087886,068708,092191,087391
0000000148,0000147000,075684,088315,090594,068312,089535,090443
0000000149,0000148000,076096,085630,092866,068951,086394,092945
0000000150,0000149000,077365,082757,094470,070564,083078,094648
0000000151,0000150000,079376,079963,095254,072995,079908,095387
0000000152,0000151000,081935,077514,095144,076007,077192,095091
0000000153,0000152000,084776,075667,094150,079300,075200,093790
0000000154,0000153000,087626,074599,092367,082554,074126,091609
0000000155,0000154000,090221,074405,089966,085454,074075,088760
0000000156,0000155000,092293,075112,087188,087713,075050,085526
0000000157,0000156000,093635,076649,084309,089109,076957,082223
0000000158,0000157000,094128,078865,081600,089507,079611,079172
0000000159,0000158000,093718,081547,079328,088868,082752,076670
0000000160,0000159000,092445,084425,077722,087256,086067,074967
0000000161,0000160000,090435,087219,076938,084826,089236,074227
0000000162,0000161000,087880,089665,077047,081815,091952,074523
0000000163,0000162000,085035,091517,078041,078522,093945,075823
0000000164,0000163000,082183,092587,079823,075270,095018,078003
0000000165,0000164000,079592,092777,082224,072370,095070,080851
0000000166,0000165000,077517,092073,085003,070110,094095,084084
0000000167,0000166000,076171,090540,087881,068715,092189,087386
0000000168,0000167000,075682,088320,090591,068317,089536,090437
0000000169,0000168000,076091,085637,092865,068954,086397,092938
0000000170,0000169000,077360,082762,094471,070566,083083,094641
0000000171,0000170000,079372,079965,095256,072995,079914,095381
0000000172,0000171000,081929,077516,095148,076004,077198,095087
0000000173,0000172000,084770,075668,094155,079296,075206,093787
0000000174,0000173000,087623,074596,092373,082548,074132,091609
0000000175,0000174000,090219,074402,089972,085447,074080,088762
0000000176,0000175000,092291,075108,087193,087706,075054,085530
0000000177,0000176000,093637,076642,084314,089103,076958,082229
0000000178,0000177000,094131,078858,081604,089501,079610,079179
0000000179,0000178000,093722,081542,079329,088864,082748,076678
0000000180,0000179000,092451,084420,077722,087254,086061,074974
0000000181,0000180000,090442,087215,076935,084826,089230,074234
0000000182,0000181000,087886,089664,077043,081817,091945,074528
0000000183,0000182000,085040,091517,078035,078527,093937,075826
0000000184,0000183000,082189,092588,079816,075276,095011,078003
0000000185,0000184000,079595,092781,082217,072377,095064,080849
0000000186,0000185000,077517,092079,084997,070118,094091,084080
0000000187,0000186000,076171,090546,087876,068722,092188,087379
0000000188,0000187000,075679,088327,090587,068323,089537,090429
0000000189,0000188000,076085,085644,092863,068959,086401,092930
0000000190,0000189000,077353,082768,094472,070568,083089,094633
0000000191,0000190000,079365,079969,095259,072995,079921,095374
0000000192,0000191000,081921,077519,095153,076001,077207,095081
0000000193,0000192000,084764,075668,094161,079291,075215,093784
0000000194,0000193000,087619,074593,092380,082541,074140,091608
0000000195,0000194000,090215,074398,089980,085439,074087,088764
0000000196,0000195000,092290,075102,087200,087697,075058,085534
0000000197,0000196000,093639,076634,084320,089094,076960,082236
0000000198,0000197000,094135,078850,081608,089494,079609,079187
0000000199,0000198000,093727,081535,079331,088859,082744,076687
0000000200,0000199000,092459,084413,077721,087251,086055,074983
0000000201,0000200000,090451,087209,076932,084826,089221,074242
0000000202,0000201000,087893,089662,077038,081821,091935,074534
0000000203,0000202000,085048,091517,078028,078533,093927,075829
0000000204,0000203000,082195,092590,079808,075284,095002,078004
0000000205,0000204000,079597,092787,082209,072387,095057,080846
0000000206,0000205000,077518,092086,084989,070128,094087,084075
0000000207,0000206000,076170,090553,087870,068732,092186,087372
0000000208,0000207000,075674,088336,090583,068331,089539,090420
0000000209,0000208000,076078,085653,092861,068965,086405,092920
0000000210,0000209000,077346,082774,094472,070571,083096,094623
0000000211,0000210000,079356,079975,095263,072994,079930,095365
0000000212,0000211000,081911,077523,095159,075998,077217,095075
0000000213,0000212000,084756,075668,094169,079284,075225,093780
0000000214,0000213000,087613,074590,092390,082532,074150,091607
0000000215,0000214000,090210,074393,089989,085428,074094,088767
0000000216,0000215000,092289,075095,087209,087687,075063,085540
0000000217,0000216000,093642,076624,084327,089084,076962,082244
0000000218,0000217000,094139,078841,081613,089485,079608,079197
0000000219,0000218000,093734,081526,079333,088853,082739,076698
0000000220,0000219000,092469,084404,077720,087248,086047,074994
0000000221,0000220000,090460,087204,076928,084827,089211,074252
0000000222,0000221000,087902,089659,077031,081825,091924,074541
0000000223,0000222000,085057,091516,078019,078540,093916,075834
0000000224,0000223000,082202,092593,079798,075293,094992,078005
0000000225,0000224000,079601,092793,082199,072398,095049,080843
0000000226,0000225000,077520,092094,084979,070140,094081,084068
0000000227,0000226000,076168,090563,087862,068743,092184,087363
0000000228,0000227000,075668,088347,090577,068340,089541,090409
0000000229,0000228000,076070,085663,092859,068972,086411,092908
0000000230,0000229000,077337,082782,094474,070574,083104,094611
0000000231,0000230000,079345,079981,095267,072994,079941,095355
0000000232,0000231000,081901,077527,095166,075994,077229,095067
0000000233,0000232000,084748,075667,094178,079276,075238,093776
0000000234,0000233000,087605,074587,092401,082522,074162,091607
0000000235,0000234000,090205,074387,090000,085416,074103,088770
0000000236,0000235000,092289,075085,087219,087674,075069,085547
0000000237,0000236000,093644,076613,084336,089071,076964,082254
0000000238,0000237000,094144,078830,081619,089475,079606,079209
0000000239,0000238000,093743,081515,079335,088845,082733,076711
0000000240,0000239000,092479,084394,077719,087245,086038,075007
0000000241,0000240000,090471,087197,076924,084827,089200,074263
0000000242,0000241000,087914,089656,077023,081829,091911,074550
0000000243,0000242000,085068,091515,078009,078549,093902,075839
0000000244,0000243000,082210,092597,079786,075305,094979,078006
0000000245,0000244000,079606,092801,082186,072411,095039,080840
0000000246,0000245000,077522,092103,084968,070154,094075,084061
0000000247,0000246000,076165,090575,087853,068756,092182,087352
0000000248,0000247000,075662,088360,090571,068351,089543,090396
0000000249,0000248000,076061,085675,092856,068980,086417,092893
0000000250,0000249000,077325,082793,094475,070578,083114,094597
0000000251,0000250000,079331,079989,095272,072993,079954,095343
0000000252,0000251000,081888,077531,095174,075989,077244,095057
0000000253,0000252000,084737,075667,094189,079267,075252,093770
0000000254,0000253000,087596,074583,092413,082509,074175,091606
0000000255,0000254000,090200,074380,090013,085402,074114,088774
0000000256,0000255000,092288,075074,087231,087659,075076,085555
0000000257,0000256000,093647,076601,084346,089057,076967,082266
0000000258,0000257000,094150,078817,081626,089463,079603,079224
0000000259,0000258000,093753,081502,079338,088837,082727,076726
0000000260,0000259000,092492,084383,077717,087240,086027,075022
0000000261,0000260000,090485,087189,076918,084828,089186,074276
0000000262,0000261000,087928,089651,077014,081835,091895,074560
0000000263,0000262000,085080,091515,077997,078558,093887,075845
0000000264,0000263000,082219,092601,079773,075318,094965,078007
0000000265,0000264000,079612,092809,082172,072427,095027,080836
0000000266,0000265000,077524,092114,084955,070170,094067,084052
0000000267,0000266000,076162,090589,087842,068771,092179,087339
0000000268,0000267000,075655,088374,090564,068364,089545,090380
0000000269,0000268000,076051,085688,092853,068989,086424,092877
0000000270,0000269000,077312,082805,094476,070582,083126,094581
0000000271,0000270000,079317,079999,095278,072992,079969,095328
0000000272,0000271000,081874,077535,095184,075983,077260,095047
0000000273,0000272000,084724,075667,094202,079257,075269,093764
0000000274,0000273000,087585,074579,092428,082495,074190,091605
0000000275,0000274000,090193,074371,090028,085385,074126,088778
0000000276,0000275000,092286,075061,087245,087641,075084,085564
0000000277,0000276000,093649,076586,084357,089041,076969,082280
0000000278,0000277000,094158,078801,081634,089449,079601,079240
0000000279,0000278000,093765,081487,079342,088827,082719,076744
0000000280,0000279000,092506,084371,077716,087236,086015,075039
0000000281,0000280000,090501,087180,076912,084829,089170,074291
0000000282,0000281000,087944,089645,077004,081841,091877,074571
0000000283,0000282000,085094,091515,077983,078570,093869,075851
0000000284,0000283000,082230,092606,079757,075333,094949,078008
0000000285,0000284000,079619,092818,082156,072445,095014,080831
0000000286,0000285000,077526,092127,084940,070189,094059,084042
0000000287,0000286000,076159,090605,087829,068789,092176,087325
0000000288,0000287000,075647,088391,090555,068379,089548,090363
0000000289,0000288000,076039,085704,092849,068999,086433,092858
0000000290,0000289000,077296,082819,094478,070587,083139,094563
0000000291,0000290000,079300,080009,095284,072991,079986,095312
0000000292,0000291000,081857,077540,095195,075976,077279,095034
0000000293,0000292000,084708,075667,094217,079244,075288,093757
0000000294,0000293000,087573,074574,092445,082479,074207,091604
0000000295,0000294000,090186,074360,090046,085366,074140,088783
0000000296,0000295000,092284,075047,087262,087622,075093,085575
0000000297,0000296000,093652,076570,084371,089022,076973,082295
0000000298,0000297000,094167,078783,081643,089434,079598,079259
0000000299,0000298000,093778,081469,079346,088816,082710,076764
0000000300,0000299000,092522,084356,077714,087230,086000,075059
0000000301,0000300000,090519,087169,076905,084830,089152,074308
