DIgSILENT PowerFactory,21000900,2000
6,06A,00D
1,TTPP_200000_100:Secondary Voltage A,,,V,0.10000000,-8204.997070,0.000000,61304,99998,1,1,P
2,TTPP_200000_100:Secondary Voltage B,,,V,0.10000000,-7754.747070,0.000000,58498,99998,1,1,P
3,TTPP_200000_100:Secondary Voltage C,,,V,0.10000000,-8057.283203,0.000000,61131,99998,1,1,P
4,TTCC_300_1:Secondary Current A,,,A,0.00010000000,-3.810315,0.000000,-3981,99998,1,1,P
5,TTCC_300_1:Secondary Current B,,,A,0.00010000000,-5.017588,0.000000,654,99998,1,1,P
6,TTCC_300_1:Secondary Current C,,,A,0.00010000000,-4.884896,0.000000,-1998,99998,1,1,P
50
1
1000.000000,1101
30/06/2023,06:08:53.000000
30/06/2023,06:08:53.000000
ASCII
1.000000
0000000001,0000000000,089156,079022,071992,017173,036186,083768
0000000002,0000001000,087022,081740,071407,026926,026907,083294
0000000003,0000002000,084382,084070,071718,037764,019911,079452
0000000004,0000003000,081525,085749,072895,048645,015866,072616
0000000005,0000004000,078732,086611,074828,058486,015192,063448
0000000006,0000005000,076245,086602,077325,066336,017944,052848
0000000007,0000006000,074323,085717,080131,071421,023840,041867
0000000008,0000007000,073179,084008,082984,073245,032315,031570
0000000009,0000008000,072893,081670,085606,071621,042555,022953
0000000010,0000009000,073491,078948,087732,066722,053530,016876
0000000011,0000010000,074939,076077,089154,059030,064164,013935
0000000012,0000011000,077092,073339,089739,049269,073450,014408
0000000013,0000012000,079714,071031,089427,038422,080457,018250
0000000014,0000013000,082564,069355,088250,027556,084487,025086
0000000015,0000014000,085379,068473,086318,017712,085162,034255
0000000016,0000015000,087858,068490,083821,009854,082421,044854
0000000017,0000016000,089765,069391,081013,004774,076518,055835
0000000018,0000017000,090928,071081,078162,002956,068038,066133
0000000019,0000018000,091212,073418,075540,004572,057806,074749
0000000020,0000019000,090601,076157,073414,009471,046831,080826
0000000021,0000020000,089162,079017,071991,017173,036187,083768
0000000022,0000021000,087016,081747,071407,026923,026911,083294
0000000023,0000022000,084379,084072,071719,037774,019903,079452
0000000024,0000023000,081533,085742,072895,048644,015868,072616
0000000025,0000024000,078730,086613,074828,058485,015195,063448
0000000026,0000025000,076237,086609,077325,066339,017941,052848
0000000027,0000026000,074329,085710,080131,071427,023834,041867
0000000028,0000027000,073181,084006,082984,073242,032318,031569
0000000029,0000028000,072886,081678,085606,071621,042554,022953
0000000030,0000029000,073491,078947,087732,066729,053524,016875
0000000031,0000030000,074945,076071,089154,059029,064165,013934
0000000032,0000031000,077087,073344,089739,049269,073451,014407
0000000033,0000032000,079710,071033,089427,038427,080452,018249
0000000034,0000033000,082570,069350,088251,027559,084484,025085
0000000035,0000034000,085378,068474,086318,017711,085165,034253
0000000036,0000035000,087854,068495,083821,009857,082419,044853
0000000037,0000036000,089769,069387,081014,004779,076515,055834
0000000038,0000037000,090929,071079,078162,002957,068040,066131
0000000039,0000038000,091209,073422,075540,004572,057808,074747
0000000040,0000039000,090601,076156,073413,009475,046828,080825
0000000041,0000040000,089165,079014,071991,017173,036189,083767
0000000042,0000041000,087014,081749,071407,026924,026912,083293
0000000043,0000042000,084380,084072,071718,037774,019903,079451
0000000044,0000043000,081536,085740,072895,048645,015867,072616
0000000045,0000044000,078728,086615,074828,058484,015196,063448
0000000046,0000045000,076237,086610,077324,066340,017939,052848
0000000047,0000046000,074331,085708,080131,071426,023834,041868
0000000048,0000047000,073179,084007,082984,073241,032317,031570
0000000049,0000048000,072885,081679,085606,071623,042552,022954
0000000050,0000049000,073494,078944,087732,066730,053522,016876
0000000051,0000050000,074943,076072,089155,059029,064164,013935
0000000052,0000051000,077084,073347,089739,049273,073447,014408
0000000053,0000052000,079713,071030,089427,038429,080449,018249
0000000054,0000053000,082570,069349,088251,027560,084483,025085
0000000055,0000054000,085374,068477,086319,017714,085162,034252
0000000056,0000055000,087855,068493,083821,009862,082415,044851
0000000057,0000056000,089772,069384,081014,004780,076517,055832
0000000058,0000057000,090926,071082,078163,002959,068040,066129
0000000059,0000058000,091209,073422,075540,004577,057806,074744
0000000060,0000059000,090606,076151,073413,009476,046830,080822
0000000061,0000060000,089163,079015,071991,017171,036193,083764
0000000062,0000061000,087012,081752,071406,026926,026912,083291
0000000063,0000062000,084384,084069,071718,037774,019904,079450
0000000064,0000063000,081537,085739,072894,048641,015872,072615
0000000065,0000064000,078724,086619,074827,058482,015197,063448
0000000066,0000065000,076239,086608,077323,066340,017938,052850
0000000067,0000066000,074334,085706,080131,071423,023836,041870
0000000068,0000067000,073176,084011,082983,073238,032317,031573
0000000069,0000068000,072884,081680,085606,071624,042547,022957
0000000070,0000069000,073497,078941,087732,066730,053519,016879
0000000071,0000070000,074941,076074,089155,059028,064162,013937
0000000072,0000071000,077082,073349,089740,049276,073442,014410
0000000073,0000072000,079715,071027,089428,038434,080444,018251
0000000074,0000073000,082570,069348,088252,027563,084481,025085
0000000075,0000074000,085371,068479,086319,017720,085158,034251
0000000076,0000075000,087857,068491,083822,009868,082412,044848
0000000077,0000076000,089773,069382,081015,004784,076517,055828
0000000078,0000077000,090924,071083,078163,002962,068041,066124
0000000079,0000078000,091210,073421,075540,004582,057806,074740
0000000080,0000079000,090608,076149,073413,009477,046834,080817
0000000081,0000080000,089162,079017,071991,017171,036198,083759
0000000082,0000081000,087012,081752,071406,026925,026916,083287
0000000083,0000082000,084387,084067,071717,037772,019909,079448
0000000084,0000083000,081536,085741,072894,048636,015877,072614
0000000085,0000084000,078724,086621,074826,058479,015200,063449
0000000086,0000085000,076241,086607,077323,066335,017940,052853
0000000087,0000086000,074333,085707,080130,071417,023837,041874
0000000088,0000087000,073173,084014,082983,073235,032315,031578
0000000089,0000088000,072885,081680,085605,071622,042544,022963
0000000090,0000089000,073496,078942,087732,066727,053516,016885
0000000091,0000090000,074938,076077,089155,059029,064156,013943
0000000092,0000091000,077082,073349,089740,049280,073434,014414
0000000093,0000092000,079716,071025,089429,038437,080438,018253
0000000094,0000093000,082567,069350,088253,027568,084475,025085
0000000095,0000094000,085371,068479,086320,017728,085152,034249
0000000096,0000095000,087859,068487,083823,009876,082408,044844
0000000097,0000096000,089772,069382,081016,004790,076516,055822
0000000098,0000097000,090923,071084,078164,002970,068040,066117
0000000099,0000098000,091214,073417,075540,004587,057809,074732
0000000100,0000099000,090610,076148,073413,009478,046840,080810
0000000101,0000100000,089161,079018,071990,017172,036204,083752
0000000102,0000101000,087015,081750,071405,026924,026922,083282
0000000103,0000102000,084389,084065,071716,037766,019918,079444
0000000104,0000103000,081535,085744,072892,048629,015885,072613
0000000105,0000104000,078725,086622,074824,058472,015204,063451
0000000106,0000105000,076243,086606,077321,066326,017945,052857
0000000107,0000106000,074331,085711,080129,071408,023840,041881
0000000108,0000107000,073172,084017,082982,073229,032313,031586
0000000109,0000108000,072886,081679,085605,071617,042539,022972
0000000110,0000109000,073494,078944,087733,066724,053510,016894
0000000111,0000110000,074934,076080,089156,059031,064146,013951
0000000112,0000111000,077081,073348,089741,049284,073423,014420
0000000113,0000112000,079715,071025,089431,038442,080429,018257
0000000114,0000113000,082564,069352,088255,027577,084465,025086
0000000115,0000114000,085371,068477,086322,017739,085143,034246
0000000116,0000115000,087860,068484,083825,009886,082404,044839
0000000117,0000116000,089771,069382,081018,004800,076514,055814
0000000118,0000117000,090924,071082,078164,002980,068041,066107
0000000119,0000118000,091217,073413,075541,004593,057814,074721
0000000120,0000119000,090610,076147,073413,009481,046848,080798
0000000121,0000120000,089163,079018,071989,017173,036213,083742
0000000122,0000121000,087019,081748,071403,026921,026933,083274
0000000123,0000122000,084390,084066,071714,037758,019931,079439
0000000124,0000123000,081535,085746,072890,048620,015895,072612
0000000125,0000124000,078727,086621,074822,058461,015213,063454
0000000126,0000125000,076244,086608,077319,066313,017951,052863
0000000127,0000126000,074329,085714,080127,071396,023842,041890
0000000128,0000127000,073171,084018,082980,073220,032310,031598
0000000129,0000128000,072885,081680,085605,071609,042534,022985
0000000130,0000129000,073490,078947,087733,066720,053501,016907
0000000131,0000130000,074932,076082,089157,059032,064133,013962
0000000132,0000131000,077081,073347,089743,049289,073410,014429
0000000133,0000132000,079711,071026,089433,038450,080415,018262
0000000134,0000133000,082561,069352,088257,027590,084451,025087
0000000135,0000134000,085371,068474,086325,017754,085132,034243
0000000136,0000135000,087860,068483,083828,009900,082397,044831
0000000137,0000136000,089770,069381,081020,004815,076511,055802
0000000138,0000137000,090927,071078,078166,002993,068042,066093
0000000139,0000138000,091219,073410,075541,004601,057821,074705
0000000140,0000139000,090611,076146,073413,009486,046859,080783
0000000141,0000140000,089166,079016,071988,017174,036226,083729
0000000142,0000141000,087023,081746,071401,026915,026950,083264
0000000143,0000142000,084392,084067,071711,037748,019947,079433
0000000144,0000143000,081537,085747,072887,048608,015909,072611
0000000145,0000144000,078730,086622,074819,058445,015225,063458
0000000146,0000145000,076243,086611,077317,066295,017960,052872
0000000147,0000146000,074327,085718,080125,071381,023845,041903
0000000148,0000147000,073171,084020,082979,073206,032308,031614
0000000149,0000148000,072883,081683,085604,071598,042527,023003
0000000150,0000149000,073486,078951,087733,066715,053488,016925
0000000151,0000150000,074929,076083,089158,059033,064117,013978
0000000152,0000151000,077078,073347,089746,049294,073392,014441
0000000153,0000152000,079707,071027,089436,038462,080397,018269
0000000154,0000153000,082559,069350,088261,027607,084433,025088
0000000155,0000154000,085371,068471,086328,017772,085118,034238
0000000156,0000155000,087858,068481,083831,009919,082388,044821
0000000157,0000156000,089770,069377,081022,004835,076506,055787
0000000158,0000157000,090930,071073,078168,003009,068044,066074
0000000159,0000158000,091221,073407,075542,004613,057830,074685
0000000160,0000159000,090614,076144,073412,009493,046873,080763
0000000161,0000160000,089171,079012,071986,017174,036244,083711
0000000162,0000161000,087027,081744,071399,026908,026971,083250
0000000163,0000162000,084394,084068,071708,037735,019968,079424
0000000164,0000163000,081540,085748,072883,048590,015928,072609
0000000165,0000164000,078732,086624,074815,058423,015242,063463
0000000166,0000165000,076242,086615,077313,066273,017971,052884
0000000167,0000166000,074326,085722,080122,071360,023848,041920
0000000168,0000167000,073170,084023,082977,073188,032305,031635
0000000169,0000168000,072879,081688,085603,071585,042518,023026
0000000170,0000169000,073482,078955,087734,066709,053472,016947
0000000171,0000170000,074926,076084,089160,059034,064096,013998
0000000172,0000171000,077073,073349,089749,049302,073369,014457
0000000173,0000172000,079702,071028,089440,038477,080372,018278
0000000174,0000173000,082557,069348,088265,027627,084411,025090
0000000175,0000174000,085369,068468,086333,017795,085101,034233
0000000176,0000175000,087857,068478,083835,009945,082376,044808
0000000177,0000176000,089772,069373,081026,004859,076501,055768
0000000178,0000177000,090933,071067,078170,003029,068048,066050
0000000179,0000178000,091224,073404,075543,004627,057841,074659
0000000180,0000179000,090618,076140,073412,009501,046890,080737
0000000181,0000180000,089177,079009,071984,017173,036267,083688
0000000182,0000181000,087031,081743,071396,026898,026998,083232
0000000183,0000182000,084398,084069,071703,037720,019995,079414
0000000184,0000183000,081544,085748,072878,048568,015953,072607
0000000185,0000184000,078734,086627,074810,058396,015262,063469
0000000186,0000185000,076242,086620,077308,066245,017984,052898
0000000187,0000186000,074326,085727,080118,071334,023853,041942
0000000188,0000187000,073167,084028,082974,073165,032302,031662
0000000189,0000188000,072874,081694,085602,071569,042505,023054
0000000190,0000189000,073477,078959,087734,066701,053451,016976
0000000191,0000190000,074921,076087,089162,059034,064070,014023
0000000192,0000191000,077067,073351,089752,049312,073340,014476
0000000193,0000192000,079698,071028,089445,038496,080342,018290
0000000194,0000193000,082554,069345,088271,027652,084383,025093
0000000195,0000194000,085366,068465,086339,017824,085079,034225
0000000196,0000195000,087856,068474,083840,009976,082361,044791
0000000197,0000196000,089774,069366,081030,004889,076495,055744
0000000198,0000197000,090936,071061,078173,003054,068052,066021
0000000199,0000198000,091228,073399,075544,004646,057855,074627
0000000200,0000199000,090625,076135,073411,009510,046912,080706
0000000201,0000200000,089184,079005,071982,017172,036296,083660
0000000202,0000201000,087036,081742,071391,026888,027030,083210
0000000203,0000202000,084403,084069,071698,037700,020027,079401
0000000204,0000203000,081549,085750,072872,048540,015984,072604
0000000205,0000204000,078736,086631,074804,058364,015287,063477
0000000206,0000205000,076243,086626,077302,066212,018000,052916
0000000207,0000206000,074325,085732,080113,071301,023859,041968
0000000208,0000207000,073164,084035,082971,073137,032297,031694
0000000209,0000208000,072868,081701,085601,071549,042490,023090
0000000210,0000209000,073472,078964,087735,066691,053426,017010
0000000211,0000210000,074915,076090,089165,059035,064039,014054
0000000212,0000211000,077060,073354,089757,049324,073304,014500
0000000213,0000212000,079692,071028,089451,038519,080305,018304
0000000214,0000213000,082550,069343,088278,027682,084350,025096
0000000215,0000214000,085363,068461,086346,017860,085052,034217
0000000216,0000215000,087855,068468,083847,010014,082342,044772
0000000217,0000216000,089776,069359,081035,004924,076488,055715
0000000218,0000217000,090939,071055,078177,003084,068058,065986
0000000219,0000218000,091233,073392,075546,004668,057871,074588
0000000220,0000219000,090632,076128,073410,009521,046939,080668
0000000221,0000220000,089191,079001,071979,017170,036331,083627
0000000222,0000221000,087043,081741,071386,026875,027069,083185
0000000223,0000222000,084410,084068,071691,037676,020067,079386
0000000224,0000223000,081554,085752,072864,048506,016020,072601
0000000225,0000224000,078738,086636,074796,058325,015317,063486
0000000226,0000225000,076244,086632,077295,066171,018019,052937
0000000227,0000226000,074324,085739,080107,071262,023867,041999
0000000228,0000227000,073159,084044,082967,073104,032292,031733
0000000229,0000228000,072862,081708,085599,071526,042471,023132
0000000230,0000229000,073465,078969,087736,066679,053397,017052
0000000231,0000230000,074906,076096,089169,059036,064001,014090
0000000232,0000231000,077051,073357,089762,049339,073261,014528
0000000233,0000232000,079686,071027,089458,038545,080262,018321
0000000234,0000233000,082544,069340,088286,027718,084311,025099
0000000235,0000234000,085359,068457,086354,017903,085019,034206
0000000236,0000235000,087855,068461,083854,010059,082321,044748
0000000237,0000236000,089778,069350,081042,004966,076481,055681
0000000238,0000237000,090943,071047,078181,003120,068064,065943
0000000239,0000238000,091240,073384,075547,004694,057891,074543
0000000240,0000239000,090640,076121,073409,009534,046971,080623
0000000241,0000240000,089199,078996,071975,017169,036373,083587
0000000242,0000241000,087052,081738,071380,026859,027115,083154
0000000243,0000242000,084419,084068,071684,037646,020114,079368
0000000244,0000243000,081560,085755,072855,048467,016063,072598
0000000245,0000244000,078742,086642,074787,058279,015351,063498
0000000246,0000245000,076245,086639,077287,066123,018042,052963
0000000247,0000246000,074322,085748,080101,071216,023876,042037
0000000248,0000247000,073154,084054,082962,073065,032285,031778
0000000249,0000248000,072856,081717,085597,071498,042449,023181
0000000250,0000249000,073456,078977,087737,066665,053363,017100
0000000251,0000250000,074896,076102,089173,059038,063957,014133
0000000252,0000251000,077042,073360,089769,049356,073211,014560
0000000253,0000252000,079678,071026,089466,038577,080211,018340
0000000254,0000253000,082537,069338,088295,027761,084265,025102
0000000255,0000254000,085355,068451,086364,017953,084982,034193
0000000256,0000255000,087854,068452,083864,010111,082296,044721
0000000257,0000256000,089780,069341,081049,005016,076472,055640
0000000258,0000257000,090948,071037,078186,003162,068071,065894
0000000259,0000258000,091248,073374,075549,004724,057914,074489
0000000260,0000259000,090650,076113,073408,009549,047008,080571
0000000261,0000260000,089209,078990,071971,017167,036420,083541
0000000262,0000261000,087062,081734,071373,026840,027169,083119
0000000263,0000262000,084428,084068,071675,037612,020168,079348
0000000264,0000263000,081567,085759,072845,048421,016113,072594
0000000265,0000264000,078746,086648,074776,058225,015391,063512
0000000266,0000265000,076247,086647,077277,066066,018069,052993
0000000267,0000266000,074319,085759,080093,071163,023885,042080
0000000268,0000267000,073149,084065,082957,073021,032277,031831
0000000269,0000268000,072848,081727,085595,071466,042424,023238
0000000270,0000269000,073446,078986,087738,066649,053323,017156
0000000271,0000270000,074885,076109,089177,059040,063905,014182
0000000272,0000271000,077031,073363,089776,049377,073153,014598
0000000273,0000272000,079668,071026,089476,038613,080153,018362
0000000274,0000273000,082529,069334,088307,027810,084212,025106
0000000275,0000274000,085350,068444,086375,018011,084939,034179
0000000276,0000275000,087853,068442,083874,010171,082268,044689
0000000277,0000276000,089782,069330,081058,005073,076462,055594
0000000278,0000277000,090953,071025,078192,003210,068080,065837
0000000279,0000278000,091257,073362,075552,004758,057941,074428
0000000280,0000279000,090660,076103,073407,009565,047052,080511
0000000281,0000280000,089221,078983,071966,017164,036475,083489
0000000282,0000281000,087075,081730,071365,026819,027230,083079
0000000283,0000282000,084438,084068,071664,037573,020231,079324
0000000284,0000283000,081575,085763,072833,048368,016170,072590
0000000285,0000284000,078752,086655,074764,058164,015436,063527
0000000286,0000285000,076248,086657,077266,066002,018099,053027
0000000287,0000286000,074316,085771,080083,071102,023896,042130
0000000288,0000287000,073143,084077,082950,072970,032267,031892
0000000289,0000288000,072839,081739,085592,071429,042395,023304
0000000290,0000289000,073434,078997,087740,066631,053277,017220
0000000291,0000290000,074872,076116,089182,059043,063846,014238
0000000292,0000291000,077019,073367,089785,049400,073087,014641
0000000293,0000292000,079656,071027,089487,038654,080087,018387
0000000294,0000293000,082520,069331,088319,027867,084151,025110
0000000295,0000294000,085345,068436,086389,018077,084890,034162
0000000296,0000295000,087852,068432,083886,010240,082237,044652
0000000297,0000296000,089785,069318,081068,005137,076450,055541
0000000298,0000297000,090960,071011,078199,003265,068090,065773
0000000299,0000298000,091267,073349,075555,004797,057973,074358
0000000300,0000299000,090673,076092,073406,009584,047101,080443
0000000301,0000300000,089235,078975,071961,017162,036538,083429
