DIgSILENT PowerFactory,21000900,2000
6,06A,00D
1,TTPP_200000_100:Secondary Voltage A,,,V,0.10000000,-8252.256836,0.000000,61894,99998,1,1,P
2,TTPP_200000_100:Secondary Voltage B,,,V,0.10000000,-7893.955078,0.000000,61043,99998,1,1,P
3,TTPP_200000_100:Secondary Voltage C,,,V,0.10000000,-8318.822266,0.000000,64240,99998,1,1,P
4,TTCC_300_1:Secondary Current A,,,A,0.00010000000,-3.568366,0.000000,-7499,99998,1,1,P
5,TTCC_300_1:Secondary Current B,,,A,0.00010000000,-5.027735,0.000000,670,99998,1,1,P
6,TTCC_300_1:Secondary Current C,,,A,0.00010000000,-4.889283,0.000000,-1710,99998,1,1,P
50
1
1000.000000,1101
30/06/2023,06:08:39.000000
30/06/2023,06:08:39.000000
ASCII
1.000000
0000000001,0000000000,089629,080414,074607,014754,036288,083812
0000000002,0000001000,087495,083131,074022,024506,027009,083338
0000000003,0000002000,084854,085463,074334,035345,020012,079497
0000000004,0000003000,081998,087141,075510,046225,015969,072661
0000000005,0000004000,079205,088003,077444,056068,015293,063492
0000000006,0000005000,076717,087995,079940,063916,018046,052893
0000000007,0000006000,074796,087108,082746,069002,023941,041911
0000000008,0000007000,073651,085400,085599,070825,032416,031613
0000000009,0000008000,073366,083062,088221,069201,042656,022997
0000000010,0000009000,073963,080340,090347,064303,053631,016919
0000000011,0000010000,075411,077469,091770,056610,064265,013978
0000000012,0000011000,077564,074732,092355,046851,073551,014452
0000000013,0000012000,080186,072423,092043,036002,080558,018294
0000000014,0000013000,083037,070748,090866,025137,084588,025130
0000000015,0000014000,085851,069865,088934,015293,085263,034298
0000000016,0000015000,088331,069882,086437,007434,082523,044897
0000000017,0000016000,090238,070783,083629,002355,076620,055878
0000000018,0000017000,091400,072473,080778,000537,068140,066177
0000000019,0000018000,091685,074810,078155,002152,057908,074793
0000000020,0000019000,091073,077549,076029,007051,046933,080870
0000000021,0000020000,089635,080409,074607,014753,036290,083812
0000000022,0000021000,087489,083139,074023,024504,027012,083338
0000000023,0000022000,084852,085464,074334,035353,020005,079496
0000000024,0000023000,082006,087134,075510,046225,015969,072660
0000000025,0000024000,079202,088005,077443,056065,015296,063492
0000000026,0000025000,076710,088001,079940,063919,018042,052892
0000000027,0000026000,074802,087102,082746,069007,023936,041911
0000000028,0000027000,073654,085398,085599,070822,032419,031613
0000000029,0000028000,073359,083070,088222,069202,042655,022997
0000000030,0000029000,073964,080339,090347,064310,053625,016919
0000000031,0000030000,075417,077463,091770,056610,064266,013978
0000000032,0000031000,077559,074737,092354,046850,073552,014451
0000000033,0000032000,080183,072425,092043,036007,080553,018293
0000000034,0000033000,083042,070742,090866,025140,084585,025129
0000000035,0000034000,085851,069866,088934,015291,085266,034297
0000000036,0000035000,088326,069887,086437,007438,082520,044896
0000000037,0000036000,090242,070779,083630,002359,076617,055877
0000000038,0000037000,091402,072471,080778,000537,068141,066175
0000000039,0000038000,091682,074814,078155,002153,057910,074791
0000000040,0000039000,091074,077548,076029,007055,046930,080869
0000000041,0000040000,089638,080406,074607,014753,036291,083810
0000000042,0000041000,087487,083141,074022,024504,027014,083337
0000000043,0000042000,084852,085465,074334,035354,020005,079495
0000000044,0000043000,082008,087132,075510,046225,015969,072660
0000000045,0000044000,079201,088007,077443,056064,015298,063492
0000000046,0000045000,076709,088002,079939,063920,018041,052893
0000000047,0000046000,074804,087100,082746,069007,023935,041912
0000000048,0000047000,073652,085399,085599,070822,032418,031614
0000000049,0000048000,073357,083071,088221,069204,042653,022998
0000000050,0000049000,073966,080337,090347,064311,053623,016920
0000000051,0000050000,075416,077464,091770,056610,064265,013979
0000000052,0000051000,077557,074739,092355,046853,073548,014452
0000000053,0000052000,080185,072422,092043,036010,080550,018293
0000000054,0000053000,083043,070741,090866,025141,084584,025129
0000000055,0000054000,085847,069869,088934,015295,085264,034295
0000000056,0000055000,088328,069885,086437,007443,082517,044894
0000000057,0000056000,090244,070776,083630,002361,076618,055875
0000000058,0000057000,091399,072474,080778,000539,068142,066172
0000000059,0000058000,091681,074814,078155,002158,057908,074788
0000000060,0000059000,091078,077543,076029,007056,046932,080866
0000000061,0000060000,089636,080407,074607,014752,036295,083808
0000000062,0000061000,087484,083144,074022,024506,027014,083335
0000000063,0000062000,084856,085461,074333,035355,020006,079494
0000000064,0000063000,082009,087131,075510,046221,015974,072659
0000000065,0000064000,079197,088011,077442,056062,015299,063492
0000000066,0000065000,076711,088000,079939,063920,018039,052894
0000000067,0000066000,074806,087098,082746,069003,023937,041914
0000000068,0000067000,073648,085403,085599,070819,032418,031617
0000000069,0000068000,073357,083072,088221,069205,042648,023001
0000000070,0000069000,073969,080334,090347,064310,053620,016923
0000000071,0000070000,075414,077467,091770,056609,064263,013981
0000000072,0000071000,077554,074742,092355,046857,073543,014454
0000000073,0000072000,080188,072419,092043,036014,080545,018294
0000000074,0000073000,083042,070741,090867,025143,084582,025128
0000000075,0000074000,085844,069871,088935,015300,085260,034294
0000000076,0000075000,088330,069883,086438,007449,082513,044892
0000000077,0000076000,090246,070774,083631,002364,076618,055871
0000000078,0000077000,091397,072475,080779,000543,068143,066168
0000000079,0000078000,091683,074813,078155,002162,057908,074783
0000000080,0000079000,091081,077541,076029,007057,046935,080861
0000000081,0000080000,089635,080409,074606,014751,036300,083803
0000000082,0000081000,087485,083144,074021,024506,027017,083331
0000000083,0000082000,084859,085459,074332,035352,020011,079492
0000000084,0000083000,082009,087133,075509,046216,015979,072659
0000000085,0000084000,079196,088013,077441,056059,015301,063493
0000000086,0000085000,076714,087999,079938,063915,018041,052897
0000000087,0000086000,074806,087099,082745,068997,023939,041918
0000000088,0000087000,073646,085406,085598,070816,032417,031622
0000000089,0000088000,073358,083072,088221,069203,042645,023007
0000000090,0000089000,073969,080334,090348,064308,053617,016929
0000000091,0000090000,075410,077469,091771,056610,064257,013986
0000000092,0000091000,077554,074741,092356,046861,073535,014458
0000000093,0000092000,080188,072418,092045,036018,080539,018297
0000000094,0000093000,083039,070742,090869,025149,084576,025129
0000000095,0000094000,085843,069871,088936,015309,085253,034292
0000000096,0000095000,088332,069879,086439,007456,082510,044888
0000000097,0000096000,090245,070774,083632,002370,076618,055866
0000000098,0000097000,091396,072476,080779,000551,068142,066161
0000000099,0000098000,091686,074809,078155,002167,057911,074776
0000000100,0000099000,091082,077540,076029,007058,046942,080853
0000000101,0000100000,089634,080410,074606,014752,036306,083796
0000000102,0000101000,087488,083142,074020,024504,027024,083326
0000000103,0000102000,084862,085457,074331,035346,020020,079488
0000000104,0000103000,082007,087136,075507,046210,015987,072658
0000000105,0000104000,079198,088014,077439,056052,015306,063495
0000000106,0000105000,076716,087998,079936,063906,018046,052901
0000000107,0000106000,074803,087103,082744,068988,023941,041925
0000000108,0000107000,073644,085409,085597,070810,032414,031630
0000000109,0000108000,073359,083071,088220,069198,042640,023016
0000000110,0000109000,073967,080336,090348,064304,053611,016938
0000000111,0000110000,075407,077472,091771,056611,064248,013995
0000000112,0000111000,077554,074740,092357,046865,073524,014464
0000000113,0000112000,080187,072417,092046,036023,080530,018300
0000000114,0000113000,083036,070744,090870,025158,084567,025129
0000000115,0000114000,085843,069869,088938,015320,085244,034290
0000000116,0000115000,088333,069877,086441,007467,082505,044882
0000000117,0000116000,090243,070774,083633,002381,076616,055857
0000000118,0000117000,091397,072474,080780,000561,068142,066150
0000000119,0000118000,091689,074805,078156,002174,057915,074764
0000000120,0000119000,091083,077539,076029,007061,046950,080842
0000000121,0000120000,089636,080410,074605,014753,036315,083786
0000000122,0000121000,087492,083140,074019,024501,027035,083318
0000000123,0000122000,084863,085458,074329,035338,020032,079484
0000000124,0000123000,082008,087138,075505,046200,015997,072656
0000000125,0000124000,079200,088014,077437,056041,015314,063498
0000000126,0000125000,076716,088000,079935,063893,018053,052908
0000000127,0000126000,074801,087106,082743,068976,023943,041934
0000000128,0000127000,073644,085411,085596,070801,032411,031642
0000000129,0000128000,073358,083072,088220,069190,042635,023029
0000000130,0000129000,073963,080339,090348,064301,053602,016951
0000000131,0000130000,075404,077474,091772,056613,064235,014006
0000000132,0000131000,077553,074739,092358,046870,073511,014473
0000000133,0000132000,080184,072418,092049,036031,080517,018306
0000000134,0000133000,083034,070744,090873,025171,084553,025130
0000000135,0000134000,085844,069866,088940,015334,085233,034286
0000000136,0000135000,088332,069875,086443,007481,082499,044875
0000000137,0000136000,090243,070773,083635,002396,076613,055846
0000000138,0000137000,091400,072470,080781,000574,068144,066136
0000000139,0000138000,091692,074802,078157,002182,057923,074749
0000000140,0000139000,091084,077538,076028,007066,046961,080827
0000000141,0000140000,089639,080408,074603,014754,036328,083773
0000000142,0000141000,087496,083138,074017,024495,027052,083307
0000000143,0000142000,084864,085459,074327,035328,020049,079477
0000000144,0000143000,082009,087139,075502,046188,016011,072655
0000000145,0000144000,079203,088014,077434,056025,015327,063502
0000000146,0000145000,076716,088003,079932,063875,018062,052916
0000000147,0000146000,074800,087110,082740,068961,023946,041947
0000000148,0000147000,073644,085413,085594,070787,032409,031659
0000000149,0000148000,073355,083075,088220,069179,042628,023047
0000000150,0000149000,073958,080343,090349,064296,053589,016969
0000000151,0000150000,075402,077475,091774,056614,064218,014022
0000000152,0000151000,077550,074739,092361,046875,073493,014485
0000000153,0000152000,080180,072419,092052,036043,080498,018313
0000000154,0000153000,083032,070743,090876,025187,084535,025132
0000000155,0000154000,085843,069863,088944,015353,085219,034282
0000000156,0000155000,088331,069873,086447,007500,082490,044864
0000000157,0000156000,090243,070770,083638,002415,076608,055831
0000000158,0000157000,091403,072465,080783,000590,068146,066118
0000000159,0000158000,091694,074799,078158,002193,057932,074728
0000000160,0000159000,091087,077536,076028,007073,046975,080806
0000000161,0000160000,089644,080405,074602,014754,036346,083755
0000000162,0000161000,087500,083136,074014,024488,027073,083294
0000000163,0000162000,084867,085460,074323,035315,020070,079469
0000000164,0000163000,082013,087140,075498,046171,016030,072653
0000000165,0000164000,079205,088016,077430,056003,015343,063507
0000000166,0000165000,076715,088007,079928,063853,018072,052928
0000000167,0000166000,074799,087114,082737,068940,023949,041964
0000000168,0000167000,073643,085416,085592,070769,032406,031680
0000000169,0000168000,073351,083080,088219,069165,042619,023070
0000000170,0000169000,073954,080347,090349,064290,053573,016991
0000000171,0000170000,075399,077476,091775,056615,064197,014042
0000000172,0000171000,077546,074741,092364,046883,073470,014501
0000000173,0000172000,080175,072420,092055,036058,080473,018322
0000000174,0000173000,083030,070740,090880,025208,084512,025134
0000000175,0000174000,085842,069860,088949,015376,085202,034276
0000000176,0000175000,088329,069870,086451,007525,082478,044851
0000000177,0000176000,090245,070765,083641,002440,076603,055811
0000000178,0000177000,091406,072459,080786,000610,068150,066094
0000000179,0000178000,091697,074796,078159,002208,057943,074702
0000000180,0000179000,091091,077532,076027,007081,046992,080781
0000000181,0000180000,089650,080401,074600,014753,036369,083732
0000000182,0000181000,087504,083135,074011,024479,027100,083276
0000000183,0000182000,084870,085461,074319,035300,020096,079458
0000000184,0000183000,082017,087140,075493,046148,016055,072651
0000000185,0000184000,079207,088019,077425,055976,015364,063513
0000000186,0000185000,076715,088012,079923,063826,018086,052942
0000000187,0000186000,074799,087119,082733,068914,023954,041986
0000000188,0000187000,073640,085421,085589,070745,032403,031706
0000000189,0000188000,073346,083086,088218,069149,042607,023099
0000000190,0000189000,073950,080351,090350,064282,053552,017020
0000000191,0000190000,075394,077479,091778,056615,064171,014067
0000000192,0000191000,077539,074744,092368,046892,073441,014520
0000000193,0000192000,080170,072420,092060,036077,080443,018334
0000000194,0000193000,083027,070737,090886,025233,084485,025136
0000000195,0000194000,085839,069857,088954,015405,085180,034269
0000000196,0000195000,088328,069866,086456,007557,082462,044835
0000000197,0000196000,090247,070758,083645,002469,076597,055788
0000000198,0000197000,091409,072453,080789,000635,068154,066065
0000000199,0000198000,091700,074791,078160,002226,057957,074670
0000000200,0000199000,091097,077527,076026,007091,047014,080749
0000000201,0000200000,089656,080397,074597,014752,036398,083704
0000000202,0000201000,087509,083134,074007,024468,027132,083254
0000000203,0000202000,084876,085461,074313,035280,020129,079445
0000000204,0000203000,082022,087142,075487,046120,016085,072648
0000000205,0000204000,079208,088023,077419,055944,015389,063521
0000000206,0000205000,076715,088018,079917,063792,018102,052960
0000000207,0000206000,074798,087124,082728,068881,023960,042012
0000000208,0000207000,073636,085427,085586,070717,032399,031738
0000000209,0000208000,073341,083093,088216,069130,042591,023134
0000000210,0000209000,073944,080356,090350,064272,053528,017054
0000000211,0000210000,075387,077483,091781,056616,064140,014098
0000000212,0000211000,077532,074746,092372,046905,073405,014544
0000000213,0000212000,080165,072420,092066,036099,080406,018348
0000000214,0000213000,083022,070735,090893,025263,084452,025139
0000000215,0000214000,085835,069853,088961,015441,085153,034260
0000000216,0000215000,088328,069860,086462,007595,082444,044815
0000000217,0000216000,090249,070751,083651,002505,076590,055759
0000000218,0000217000,091412,072447,080792,000665,068160,066029
0000000219,0000218000,091706,074784,078161,002249,057973,074632
0000000220,0000219000,091105,077520,076025,007102,047040,080712
0000000221,0000220000,089663,080393,074594,014750,036433,083671
0000000222,0000221000,087516,083133,074002,024455,027171,083229
0000000223,0000222000,084883,085460,074307,035256,020168,079430
0000000224,0000223000,082027,087144,075480,046087,016122,072645
0000000225,0000224000,079211,088028,077411,055905,015418,063531
0000000226,0000225000,076716,088024,079910,063751,018121,052982
0000000227,0000226000,074797,087131,082723,068842,023968,042044
0000000228,0000227000,073632,085436,085582,070684,032393,031777
0000000229,0000228000,073335,083101,088215,069106,042572,023176
0000000230,0000229000,073937,080362,090351,064260,053498,017096
0000000231,0000230000,075379,077488,091784,056617,064103,014134
0000000232,0000231000,077524,074749,092378,046920,073362,014572
0000000233,0000232000,080158,072419,092073,036126,080363,018364
0000000234,0000233000,083017,070732,090901,025299,084412,025142
0000000235,0000234000,085832,069849,088970,015484,085121,034250
0000000236,0000235000,088328,069853,086470,007640,082423,044792
0000000237,0000236000,090251,070742,083657,002547,076582,055724
0000000238,0000237000,091415,072439,080797,000701,068166,065987
0000000239,0000238000,091712,074776,078163,002275,057993,074586
0000000240,0000239000,091113,077513,076025,007114,047073,080667
0000000241,0000240000,089672,080388,074591,014749,036474,083631
0000000242,0000241000,087524,083130,073996,024439,027217,083198
0000000243,0000242000,084891,085460,074299,035227,020215,079412
0000000244,0000243000,082033,087147,075471,046047,016165,072642
0000000245,0000244000,079214,088034,077402,055859,015452,063542
0000000246,0000245000,076718,088031,079902,063703,018143,053007
0000000247,0000246000,074795,087140,082716,068796,023977,042081
0000000248,0000247000,073627,085446,085578,070646,032386,031822
0000000249,0000248000,073328,083109,088213,069079,042550,023225
0000000250,0000249000,073929,080369,090352,064246,053464,017144
0000000251,0000250000,075369,077494,091788,056619,064058,014177
0000000252,0000251000,077515,074752,092384,046937,073312,014604
0000000253,0000252000,080150,072419,092082,036157,080313,018384
0000000254,0000253000,083010,070730,090911,025342,084366,025146
0000000255,0000254000,085827,069843,088979,015534,085083,034237
0000000256,0000255000,088327,069844,086479,007692,082398,044764
0000000257,0000256000,090253,070733,083665,002596,076573,055684
0000000258,0000257000,091420,072429,080802,000743,068173,065938
0000000259,0000258000,091720,074766,078165,002305,058016,074533
0000000260,0000259000,091122,077505,076023,007129,047110,080615
0000000261,0000260000,089682,080382,074586,014747,036522,083585
0000000262,0000261000,087535,083126,073989,024421,027270,083163
0000000263,0000262000,084901,085460,074290,035193,020270,079392
0000000264,0000263000,082039,087151,075460,046001,016215,072638
0000000265,0000264000,079219,088040,077391,055805,015492,063556
0000000266,0000265000,076719,088039,079892,063647,018170,053037
0000000267,0000266000,074792,087151,082708,068743,023987,042124
0000000268,0000267000,073621,085457,085572,070601,032378,031875
0000000269,0000268000,073321,083119,088210,069047,042525,023282
0000000270,0000269000,073918,080378,090354,064230,053424,017200
0000000271,0000270000,075357,077501,091792,056621,064007,014226
0000000272,0000271000,077504,074755,092391,046958,073254,014642
0000000273,0000272000,080140,072419,092092,036194,080255,018406
0000000274,0000273000,083002,070727,090922,025391,084313,025150
0000000275,0000274000,085823,069836,088991,015592,085040,034222
0000000276,0000275000,088326,069835,086490,007752,082370,044732
0000000277,0000276000,090255,070722,083673,002653,076563,055637
0000000278,0000277000,091426,072417,080808,000791,068182,065881
0000000279,0000278000,091729,074754,078167,002339,058043,074472
0000000280,0000279000,091133,077495,076022,007146,047153,080555
0000000281,0000280000,089693,080375,074582,014745,036577,083532
0000000282,0000281000,087547,083122,073981,024399,027332,083123
0000000283,0000282000,084911,085460,074279,035153,020333,079368
0000000284,0000283000,082047,087155,075448,045948,016272,072634
0000000285,0000284000,079224,088047,077379,055744,015538,063572
0000000286,0000285000,076721,088049,079881,063582,018200,053071
0000000287,0000286000,074789,087163,082698,068682,023998,042174
0000000288,0000287000,073615,085469,085565,070550,032368,031936
0000000289,0000288000,073312,083131,088207,069010,042496,023348
0000000290,0000289000,073906,080389,090355,064212,053378,017264
0000000291,0000290000,075344,077509,091797,056624,063947,014282
0000000292,0000291000,077492,074759,092400,046981,073188,014684
0000000293,0000292000,080129,072419,092103,036235,080188,018430
0000000294,0000293000,082993,070723,090935,025448,084252,025154
0000000295,0000294000,085818,069829,089004,015658,084991,034205
0000000296,0000295000,088324,069824,086502,007821,082338,044695
0000000297,0000296000,090257,070710,083683,002718,076552,055584
0000000298,0000297000,091433,072403,080814,000845,068192,065816
0000000299,0000298000,091739,074741,078171,002377,058074,074402
0000000300,0000299000,091145,077484,076021,007165,047203,080487
0000000301,0000300000,089707,080367,074576,014742,036640,083473
