DIgSILENT PowerFactory,21000900,2000
6,06A,00D
1,TTPP_200000_100:Secondary Voltage A,,,V,0.10000000,-8390.306641,0.000000,66834,99998,1,1,P
2,TTPP_200000_100:Secondary Voltage B,,,V,0.10000000,-8295.902344,0.000000,65941,99998,1,1,P
3,TTPP_200000_100:Secondary Voltage C,,,V,0.10000000,-8231.777344,0.000000,61220,99998,1,1,P
4,TTCC_500_5:Secondary Current A,,,A,0.0010000000,-79.790115,0.000000,65901,99998,1,1,P
5,TTCC_500_5:Secondary Current B,,,A,0.0010000000,-84.411919,0.000000,68972,99998,1,1,P
6,TTCC_500_5:Secondary Current C,,,A,0.0010000000,-84.965950,0.000000,69964,99998,1,1,P
50
1
1000.000000,1101
30/06/2023,06:11:42.000000
30/06/2023,06:11:42.000000
ASCII
1.000000
0000000001,0000000000,089415,086600,073165,085706,089091,074371
0000000002,0000001000,086867,089033,073279,082689,091809,074670
0000000003,0000002000,084018,090886,074278,079393,093800,075975
0000000004,0000003000,081166,091953,076060,076136,094872,078160
0000000005,0000004000,078587,092131,078462,073231,094923,081015
0000000006,0000005000,076514,091426,081241,070971,093943,084254
0000000007,0000006000,075168,089895,084116,069578,092029,087561
0000000008,0000007000,074692,087667,086821,069181,089371,090616
0000000009,0000008000,075105,084984,089090,069822,086227,093119
0000000010,0000009000,076370,082120,090691,071442,082904,094822
0000000011,0000010000,078390,079321,091470,073878,079730,095560
0000000012,0000011000,080951,076873,091356,076892,077015,095261
0000000013,0000012000,083782,075039,090359,080191,075022,093956
0000000014,0000013000,086633,073971,088575,083451,073947,091770
0000000015,0000014000,089231,073775,086173,086351,073901,088916
0000000016,0000015000,091290,074494,083396,088610,074881,085676
0000000017,0000016000,092627,076034,080519,090008,076790,082370
0000000018,0000017000,093124,078243,077814,090403,079450,079315
0000000019,0000018000,092705,080929,075545,089758,082599,076812
0000000020,0000019000,091424,083811,073945,088142,085917,075109
0000000021,0000020000,089420,086593,073165,085708,089089,074371
0000000022,0000021000,086865,089035,073279,082689,091809,074670
0000000023,0000022000,084014,090890,074276,079391,093802,075975
0000000024,0000023000,081170,091949,076060,076136,094872,078161
0000000025,0000024000,078588,092130,078463,073232,094922,081015
0000000026,0000025000,076510,091430,081240,070970,093944,084254
0000000027,0000026000,075171,089893,084116,069577,092030,087561
0000000028,0000027000,074693,087665,086822,069181,089371,090616
0000000029,0000028000,075101,084987,089090,069822,086227,093119
0000000030,0000029000,076371,082119,090690,071440,082906,094822
0000000031,0000030000,078392,079318,091470,073877,079731,095560
0000000032,0000031000,080947,076876,091357,076892,077015,095261
0000000033,0000032000,083782,075039,090359,080190,075022,093956
0000000034,0000033000,086636,073968,088575,083449,073949,091770
0000000035,0000034000,089228,073778,086174,086351,073901,088916
0000000036,0000035000,091289,074495,083396,088611,074880,085677
0000000037,0000036000,092631,076029,080519,090007,076791,082370
0000000038,0000037000,093122,078243,077814,090402,079451,079315
0000000039,0000038000,092702,080933,075545,089759,082597,076812
0000000040,0000039000,091428,083807,073945,088142,085916,075109
0000000041,0000040000,089422,086592,073165,085706,089090,074372
0000000042,0000041000,086861,089040,073279,082689,091809,074670
0000000043,0000042000,084016,090888,074276,079392,093801,075975
0000000044,0000043000,081174,091946,076060,076134,094873,078161
0000000045,0000044000,078583,092135,078462,073231,094922,081015
0000000046,0000045000,076509,091431,081240,070971,093943,084254
0000000047,0000046000,075176,089889,084116,069577,092031,087561
0000000048,0000047000,074691,087667,086822,069180,089372,090616
0000000049,0000048000,075098,084992,089090,069823,086226,093119
0000000050,0000049000,076375,082115,090690,071441,082905,094822
0000000051,0000050000,078392,079318,091470,073876,079733,095559
0000000052,0000051000,080942,076881,091357,076892,077015,095261
0000000053,0000052000,083783,075037,090359,080191,075022,093956
0000000054,0000053000,086639,073965,088576,083448,073950,091770
0000000055,0000054000,089224,073781,086174,086349,073902,088917
0000000056,0000055000,091289,074495,083396,088610,074880,085677
0000000057,0000056000,092635,076025,080520,090006,076791,082371
0000000058,0000057000,093121,078245,077815,090400,079452,079316
0000000059,0000058000,092701,080934,075545,089758,082597,076813
0000000060,0000059000,091432,083804,073945,088142,085916,075110
0000000061,0000060000,089422,086592,073165,085706,089090,074372
0000000062,0000061000,086859,089042,073279,082689,091808,074671
0000000063,0000062000,084019,090886,074275,079393,093800,075976
0000000064,0000063000,081175,091945,076060,076135,094872,078161
0000000065,0000064000,078581,092138,078461,073232,094922,081014
0000000066,0000065000,076511,091431,081239,070972,093942,084254
0000000067,0000066000,075177,089888,084115,069577,092031,087560
0000000068,0000067000,074688,087670,086821,069181,089373,090615
0000000069,0000068000,075098,084992,089090,069823,086227,093118
0000000070,0000069000,076376,082113,090691,071441,082907,094821
0000000071,0000070000,078389,079320,091471,073875,079734,095559
0000000072,0000071000,080941,076882,091357,076891,077016,095260
0000000073,0000072000,083785,075034,090360,080189,075023,093956
0000000074,0000073000,086637,073966,088577,083446,073951,091771
0000000075,0000074000,089222,073783,086175,086348,073903,088917
0000000076,0000075000,091291,074492,083397,088609,074881,085678
0000000077,0000076000,092635,076024,080521,090004,076792,082372
0000000078,0000077000,093118,078247,077815,090399,079452,079317
0000000079,0000078000,092703,080931,075545,089758,082596,076814
0000000080,0000079000,091435,083801,073945,088141,085915,075112
0000000081,0000080000,089421,086594,073165,085705,089089,074374
0000000082,0000081000,086860,089042,073278,082690,091806,074672
0000000083,0000082000,084023,090883,074274,079393,093798,075976
0000000084,0000083000,081174,091947,076058,076135,094872,078161
0000000085,0000084000,078580,092140,078460,073233,094921,081014
0000000086,0000085000,076514,091429,081237,070974,093941,084253
0000000087,0000086000,075176,089889,084114,069578,092031,087559
0000000088,0000087000,074685,087675,086820,069182,089373,090613
0000000089,0000088000,075098,084992,089090,069825,086227,093116
0000000090,0000089000,076376,082113,090691,071441,082908,094819
0000000091,0000090000,078385,079324,091471,073875,079736,095557
0000000092,0000091000,080940,076882,091358,076891,077018,095259
0000000093,0000092000,083786,075032,090362,080188,075025,093955
0000000094,0000093000,086634,073967,088578,083444,073954,091770
0000000095,0000094000,089220,073783,086177,086346,073904,088918
0000000096,0000095000,091293,074488,083399,088607,074882,085679
0000000097,0000096000,092635,076023,080522,090001,076793,082374
0000000098,0000097000,093118,078246,077816,090397,079451,079319
0000000099,0000098000,092706,080928,075546,089757,082595,076817
0000000100,0000099000,091436,083799,073945,088140,085914,075114
0000000101,0000100000,089421,086595,073164,085705,089087,074375
0000000102,0000101000,086863,089040,073276,082691,091804,074673
0000000103,0000102000,084026,090881,074273,079394,093796,075977
0000000104,0000103000,081174,091950,076056,076137,094870,078161
0000000105,0000104000,078581,092141,078458,073236,094919,081014
0000000106,0000105000,076515,091429,081236,070976,093940,084252
0000000107,0000106000,075174,089893,084113,069580,092031,087557
0000000108,0000107000,074683,087677,086819,069184,089373,090611
0000000109,0000108000,075099,084992,089089,069826,086228,093113
0000000110,0000109000,076373,082116,090691,071441,082911,094816
0000000111,0000110000,078381,079327,091472,073875,079738,095555
0000000112,0000111000,080939,076881,091360,076890,077021,095257
0000000113,0000112000,083784,075032,090364,080186,075028,093954
0000000114,0000113000,086630,073968,088581,083441,073956,091770
0000000115,0000114000,089220,073780,086179,086344,073906,088918
0000000116,0000115000,091294,074485,083401,088604,074883,085681
0000000117,0000116000,092633,076022,080524,089998,076794,082376
0000000118,0000117000,093119,078244,077817,090395,079450,079322
0000000119,0000118000,092710,080923,075547,089754,082594,076820
0000000120,0000119000,091437,083798,073945,088139,085912,075117
0000000121,0000120000,089423,086594,073163,085706,089084,074378
0000000122,0000121000,086868,089037,073274,082692,091801,074675
0000000123,0000122000,084028,090882,074270,079396,093793,075979
0000000124,0000123000,081175,091952,076053,076140,094866,078162
0000000125,0000124000,078584,092141,078454,073239,094916,081013
0000000126,0000125000,076516,091431,081233,070979,093939,084250
0000000127,0000126000,075172,089897,084110,069584,092030,087554
0000000128,0000127000,074683,087680,086817,069187,089373,090607
0000000129,0000128000,075098,084994,089088,069828,086230,093110
0000000130,0000129000,076369,082120,090692,071442,082913,094813
0000000131,0000130000,078378,079329,091473,073875,079742,095551
0000000132,0000131000,080937,076881,091362,076889,077025,095255
0000000133,0000132000,083780,075033,090367,080183,075033,093952
0000000134,0000133000,086627,073968,088584,083438,073960,091770
0000000135,0000134000,089220,073777,086183,086340,073909,088919
0000000136,0000135000,091293,074482,083404,088599,074886,085683
0000000137,0000136000,092633,076020,080527,089994,076794,082379
0000000138,0000137000,093122,078239,077819,090392,079450,079327
0000000139,0000138000,092713,080919,075548,089752,082592,076825
0000000140,0000139000,091440,083796,073944,088137,085909,075121
0000000141,0000140000,089427,086591,073161,085706,089080,074382
0000000142,0000141000,086873,089035,073272,082693,091796,074679
0000000143,0000142000,084030,090883,074267,079399,093789,075980
0000000144,0000143000,081177,091954,076049,076144,094862,078162
0000000145,0000144000,078587,092142,078450,073244,094912,081012
0000000146,0000145000,076516,091435,081229,070984,093937,084247
0000000147,0000146000,075170,089902,084107,069588,092029,087550
0000000148,0000147000,074682,087683,086815,069191,089374,090603
0000000149,0000148000,075094,084998,089088,069830,086233,093105
0000000150,0000149000,076363,082125,090692,071443,082917,094808
0000000151,0000150000,078374,079331,091475,073875,079746,095547
0000000152,0000151000,080933,076882,091365,076887,077030,095251
0000000153,0000152000,083775,075034,090371,080180,075038,093950
0000000154,0000153000,086624,073967,088588,083434,073965,091770
0000000155,0000154000,089219,073773,086187,086334,073913,088921
0000000156,0000155000,091292,074479,083409,088593,074889,085686
0000000157,0000156000,092633,076016,080531,089989,076795,082384
0000000158,0000157000,093126,078233,077822,090387,079449,079332
0000000159,0000158000,092716,080915,075549,089748,082590,076830
0000000160,0000159000,091443,083793,073944,088136,085905,075127
0000000161,0000160000,089433,086587,073159,085706,089074,074388
0000000162,0000161000,086878,089033,073269,082695,091790,074682
0000000163,0000162000,084033,090884,074262,079402,093783,075983
0000000164,0000163000,081182,091955,076044,076150,094856,078162
0000000165,0000164000,078590,092145,078445,073250,094908,081010
0000000166,0000165000,076516,091440,081224,070990,093934,084244
0000000167,0000166000,075170,089908,084103,069595,092028,087545
0000000168,0000167000,074680,087688,086812,069197,089375,090597
0000000169,0000168000,075089,085004,089086,069834,086236,093098
0000000170,0000169000,076358,082130,090692,071445,082922,094801
0000000171,0000170000,078370,079333,091477,073875,079752,095541
0000000172,0000171000,080927,076884,091369,076884,077037,095247
0000000173,0000172000,083769,075035,090376,080175,075045,093948
0000000174,0000173000,086621,073964,088594,083428,073971,091769
0000000175,0000174000,089217,073769,086194,086327,073918,088922
0000000176,0000175000,091290,074475,083415,088586,074892,085690
0000000177,0000176000,092635,076010,080535,089982,076796,082389
0000000178,0000177000,093130,078226,077825,090381,079448,079339
0000000179,0000178000,092720,080910,075550,089744,082586,076838
0000000180,0000179000,091449,083788,073943,088134,085900,075135
0000000181,0000180000,089441,086582,073157,085706,089068,074394
0000000182,0000181000,086884,089031,073264,082697,091783,074687
0000000183,0000182000,084039,090885,074257,079407,093775,075986
0000000184,0000183000,081187,091956,076037,076156,094849,078163
0000000185,0000184000,078593,092149,078438,073257,094902,081008
0000000186,0000185000,076516,091447,081218,070998,093930,084240
0000000187,0000186000,075169,089914,084097,069602,092026,087539
0000000188,0000187000,074677,087694,086809,069203,089376,090589
0000000189,0000188000,075083,085012,089085,069839,086240,093090
0000000190,0000189000,076352,082136,090693,071448,082927,094793
0000000191,0000190000,078363,079337,091480,073874,079760,095534
0000000192,0000191000,080919,076887,091374,076881,077046,095241
0000000193,0000192000,083762,075035,090382,080170,075053,093944
0000000194,0000193000,086617,073961,088602,083421,073979,091768
0000000195,0000194000,089213,073765,086201,086318,073925,088925
0000000196,0000195000,091289,074470,083422,088577,074896,085695
0000000197,0000196000,092638,076001,080541,089974,076798,082396
0000000198,0000197000,093133,078218,077829,090374,079447,079347
0000000199,0000198000,092725,080903,075552,089739,082582,076847
0000000200,0000199000,091457,083781,073942,088131,085893,075144
0000000201,0000200000,089449,086577,073153,085706,089059,074402
0000000202,0000201000,086891,089030,073259,082701,091774,074694
0000000203,0000202000,084046,090884,074249,079413,093765,075989
0000000204,0000203000,081193,091958,076029,076164,094840,078164
0000000205,0000204000,078596,092154,078430,073267,094895,081006
0000000206,0000205000,076516,091454,081210,071008,093925,084234
0000000207,0000206000,075168,089921,084091,069612,092025,087532
0000000208,0000207000,074672,087703,086804,069211,089378,090580
0000000209,0000208000,075076,085021,089083,069844,086244,093079
0000000210,0000209000,076344,082142,090694,071451,082934,094783
0000000211,0000210000,078354,079342,091484,073874,079769,095525
0000000212,0000211000,080910,076890,091380,076877,077056,095235
0000000213,0000212000,083755,075035,090390,080164,075064,093940
0000000214,0000213000,086611,073958,088611,083412,073988,091768
0000000215,0000214000,089209,073760,086211,086308,073933,088927
0000000216,0000215000,091288,074462,083430,088566,074901,085700
0000000217,0000216000,092640,075992,080548,089963,076800,082405
0000000218,0000217000,093137,078209,077834,090365,079446,079358
0000000219,0000218000,092732,080894,075554,089732,082577,076858
0000000220,0000219000,091467,083772,073941,088128,085885,075155
0000000221,0000220000,089459,086571,073150,085707,089050,074412
0000000222,0000221000,086900,089027,073252,082705,091762,074701
0000000223,0000222000,084055,090884,074241,079420,093754,075994
0000000224,0000223000,081200,091960,076019,076174,094830,078165
0000000225,0000224000,078599,092161,078420,073278,094887,081003
0000000226,0000225000,076518,091462,081200,071020,093920,084228
0000000227,0000226000,075166,089930,084083,069623,092023,087522
0000000228,0000227000,074666,087714,086799,069220,089379,090568
0000000229,0000228000,075068,085031,089080,069851,086249,093067
0000000230,0000229000,076335,082150,090695,071454,082943,094771
0000000231,0000230000,078343,079349,091488,073873,079780,095515
0000000232,0000231000,080899,076894,091387,076873,077068,095227
0000000233,0000232000,083746,075035,090400,080156,075076,093936
0000000234,0000233000,086603,073954,088622,083401,074000,091767
0000000235,0000234000,089203,073754,086222,086296,073942,088930
0000000236,0000235000,091287,074453,083440,088554,074907,085707
0000000237,0000236000,092643,075981,080557,089951,076802,082415
0000000238,0000237000,093142,078198,077840,090355,079444,079370
0000000239,0000238000,092741,080883,075556,089725,082572,076871
0000000240,0000239000,091478,083762,073940,088125,085876,075167
0000000241,0000240000,089470,086565,073145,085707,089038,074423
0000000242,0000241000,086912,089023,073244,082709,091749,074710
0000000243,0000242000,084066,090883,074230,079429,093740,075999
0000000244,0000243000,081208,091964,076008,076185,094818,078166
0000000245,0000244000,078604,092168,078408,073291,094877,081000
0000000246,0000245000,076520,091471,081189,071034,093913,084221
0000000247,0000246000,075164,089942,084074,069636,092020,087512
0000000248,0000247000,074660,087727,086792,069231,089381,090555
0000000249,0000248000,075060,085042,089078,069859,086255,093053
0000000250,0000249000,076324,082160,090696,071458,082953,094757
0000000251,0000250000,078330,079357,091493,073873,079793,095503
0000000252,0000251000,080886,076898,091395,076868,077082,095217
0000000253,0000252000,083735,075034,090411,080147,075091,093930
0000000254,0000253000,086594,073951,088635,083389,074013,091766
0000000255,0000254000,089198,073747,086235,086281,073952,088934
0000000256,0000255000,091286,074442,083452,088538,074914,085715
0000000257,0000256000,092645,075968,080567,089937,076805,082426
0000000258,0000257000,093149,078184,077847,090343,079441,079384
0000000259,0000258000,092751,080869,075559,089717,082565,076887
0000000260,0000259000,091490,083751,073939,088120,085865,075182
0000000261,0000260000,089483,086557,073140,085708,089024,074436
0000000262,0000261000,086926,089018,073235,082715,091733,074720
0000000263,0000262000,084079,090883,074218,079439,093725,076005
0000000264,0000263000,081217,091969,075994,076198,094803,078166
0000000265,0000264000,078610,092176,078393,073307,094865,080996
0000000266,0000265000,076522,091482,081176,071050,093906,084212
0000000267,0000266000,075160,089956,084063,069651,092018,087499
0000000268,0000267000,074653,087742,086785,069244,089384,090540
0000000269,0000268000,075049,085056,089074,069868,086263,093037
0000000270,0000269000,076310,082172,090698,071462,082965,094741
0000000271,0000270000,078315,079366,091499,073872,079808,095488
0000000272,0000271000,080872,076903,091405,076862,077099,095207
0000000273,0000272000,083722,075034,090424,080136,075108,093924
0000000274,0000273000,086583,073947,088649,083374,074029,091765
0000000275,0000274000,089192,073738,086250,086265,073965,088938
0000000276,0000275000,091284,074429,083467,088521,074922,085725
0000000277,0000276000,092648,075954,080579,089921,076808,082440
0000000278,0000277000,093156,078169,077855,090329,079439,079400
0000000279,0000278000,092763,080854,075563,089707,082557,076904
0000000280,0000279000,091504,083738,073937,088116,085853,075200
0000000281,0000280000,089499,086548,073133,085709,089008,074451
0000000282,0000281000,086942,089013,073225,082721,091715,074731
0000000283,0000282000,084093,090883,074205,079450,093707,076011
0000000284,0000283000,081228,091974,075978,076214,094787,078167
0000000285,0000284000,078618,092185,078377,073325,094852,080991
0000000286,0000285000,076524,091495,081161,071069,093897,084202
0000000287,0000286000,075157,089972,084051,069669,092015,087485
0000000288,0000287000,074645,087759,086776,069259,089386,090523
0000000289,0000288000,075037,085072,089071,069879,086271,093018
0000000290,0000289000,076294,082186,090699,071467,082978,094723
0000000291,0000290000,078298,079377,091506,073871,079825,095472
0000000292,0000291000,080856,076908,091416,076856,077118,095195
0000000293,0000292000,083706,075035,090439,080124,075127,093917
0000000294,0000293000,086571,073942,088666,083358,074046,091764
0000000295,0000294000,089184,073728,086267,086246,073979,088943
0000000296,0000295000,091282,074415,083483,088501,074931,085735
0000000297,0000296000,092651,075937,080592,089902,076811,082455
0000000298,0000297000,093165,078151,077864,090313,079436,079419
0000000299,0000298000,092776,080837,075567,089696,082548,076924
0000000300,0000299000,091520,083724,073936,088110,085838,075219
0000000301,0000300000,089517,086536,073126,085710,088990,074468
