DIgSILENT PowerFactory,21000900,2000
6,06A,00D
1,TTPP_200000_100:Secondary Voltage A,,,V,0.10000000,-8365.478516,0.000000,64557,99998,1,1,P
2,TTPP_200000_100:Secondary Voltage B,,,V,0.10000000,-8176.463379,0.000000,65681,99998,1,1,P
3,TTPP_200000_100:Secondary Voltage C,,,V,0.10000000,-8355.191406,0.000000,62856,99998,1,1,P
4,TTCC_300_1:Secondary Current A,,,A,0.00010000000,-3.560580,0.000000,-9594,99998,1,1,P
5,TTCC_300_1:Secondary Current B,,,A,0.00010000000,-5.021181,0.000000,414,99998,1,1,P
6,TTCC_300_1:Secondary Current C,,,A,0.00010000000,-4.889571,0.000000,-1965,99998,1,1,P
50
1
1000.000000,1101
30/06/2023,06:08:26.000000
30/06/2023,06:08:26.000000
ASCII
1.000000
0000000001,0000000000,090761,083239,074971,014676,036222,083815
0000000002,0000001000,088627,085956,074386,024428,026945,083341
0000000003,0000002000,085986,088287,074698,035269,019946,079500
0000000004,0000003000,083130,089967,075874,046147,015902,072664
0000000005,0000004000,080337,090828,077807,055989,015228,063494
0000000006,0000005000,077849,090819,080304,063838,017981,052895
0000000007,0000006000,075928,089933,083110,068925,023875,041915
0000000008,0000007000,074783,088226,085963,070747,032351,031617
0000000009,0000008000,074498,085887,088585,069123,042591,022999
0000000010,0000009000,075095,083165,090711,064225,053566,016922
0000000011,0000010000,076544,080294,092133,056532,064200,013982
0000000012,0000011000,078696,077557,092718,046773,073485,014455
0000000013,0000012000,081319,075248,092406,035924,080493,018296
0000000014,0000013000,084169,073573,091229,025058,084522,025133
0000000015,0000014000,086984,072690,089298,015215,085197,034301
0000000016,0000015000,089463,072708,086800,007357,082457,044900
0000000017,0000016000,091370,073608,083993,002277,076555,055881
0000000018,0000017000,092533,075298,081141,000459,068074,066180
0000000019,0000018000,092817,077635,078519,002075,057842,074796
0000000020,0000019000,092205,080374,076393,006973,046867,080873
0000000021,0000020000,090767,083234,074970,014675,036224,083815
0000000022,0000021000,088621,085964,074386,024426,026947,083341
0000000023,0000022000,085984,088289,074698,035276,019939,079499
0000000024,0000023000,083138,089959,075874,046147,015903,072663
0000000025,0000024000,080335,090830,077807,055987,015231,063495
0000000026,0000025000,077842,090826,080304,063842,017976,052895
0000000027,0000026000,075934,089928,083110,068930,023870,041914
0000000028,0000027000,074786,088223,085963,070744,032354,031616
0000000029,0000028000,074491,085895,088585,069124,042590,023000
0000000030,0000029000,075096,083164,090711,064232,053559,016922
0000000031,0000030000,076549,080288,092133,056532,064201,013981
0000000032,0000031000,078692,077562,092718,046772,073487,014454
0000000033,0000032000,081315,075250,092406,035929,080488,018296
0000000034,0000033000,084175,073567,091230,025062,084519,025132
0000000035,0000034000,086983,072691,089297,015213,085201,034300
0000000036,0000035000,089458,072712,086800,007360,082455,044899
0000000037,0000036000,091374,073604,083993,002281,076552,055880
0000000038,0000037000,092534,075296,081141,000460,068076,066178
0000000039,0000038000,092814,077639,078519,002075,057844,074794
0000000040,0000039000,092206,080373,076393,006977,046864,080872
0000000041,0000040000,090770,083231,074970,014675,036225,083813
0000000042,0000041000,088619,085966,074386,024426,026948,083340
0000000043,0000042000,085984,088290,074697,035277,019939,079498
0000000044,0000043000,083140,089957,075874,046147,015903,072662
0000000045,0000044000,080333,090832,077807,055986,015232,063495
0000000046,0000045000,077842,090827,080303,063843,017975,052895
0000000047,0000046000,075936,089926,083110,068929,023870,041915
0000000048,0000047000,074784,088224,085963,070744,032353,031617
0000000049,0000048000,074490,085896,088585,069126,042587,023001
0000000050,0000049000,075099,083162,090711,064233,053557,016923
0000000051,0000050000,076548,080289,092134,056532,064200,013982
0000000052,0000051000,078689,077564,092718,046775,073483,014454
0000000053,0000052000,081318,075247,092406,035932,080485,018296
0000000054,0000053000,084175,073566,091230,025063,084519,025132
0000000055,0000054000,086979,072694,089298,015217,085198,034298
0000000056,0000055000,089460,072710,086801,007365,082451,044897
0000000057,0000056000,091377,073601,083994,002283,076552,055878
0000000058,0000057000,092531,075299,081142,000461,068076,066175
0000000059,0000058000,092814,077639,078519,002080,057842,074791
0000000060,0000059000,092211,080368,076392,006978,046866,080869
0000000061,0000060000,090768,083233,074970,014674,036229,083811
0000000062,0000061000,088617,085969,074386,024428,026948,083338
0000000063,0000062000,085989,088286,074697,035277,019940,079497
0000000064,0000063000,083141,089957,075873,046143,015908,072662
0000000065,0000064000,080329,090836,077806,055985,015233,063495
0000000066,0000065000,077843,090825,080302,063842,017974,052897
0000000067,0000066000,075938,089923,083110,068925,023871,041917
0000000068,0000067000,074780,088228,085962,070741,032353,031620
0000000069,0000068000,074489,085898,088585,069127,042583,023004
0000000070,0000069000,075101,083159,090711,064232,053555,016926
0000000071,0000070000,076546,080291,092134,056531,064198,013984
0000000072,0000071000,078686,077567,092719,046779,073477,014457
0000000073,0000072000,081320,075244,092407,035936,080480,018297
0000000074,0000073000,084175,073566,091231,025066,084517,025131
0000000075,0000074000,086976,072696,089299,015222,085194,034297
0000000076,0000075000,089462,072708,086801,007371,082448,044895
0000000077,0000076000,091378,073599,083994,002286,076553,055874
0000000078,0000077000,092529,075300,081142,000465,068077,066171
0000000079,0000078000,092815,077638,078519,002084,057842,074786
0000000080,0000079000,092213,080366,076393,006979,046870,080864
0000000081,0000080000,090767,083234,074970,014674,036234,083806
0000000082,0000081000,088617,085969,074385,024428,026952,083334
0000000083,0000082000,085991,088284,074696,035274,019945,079494
0000000084,0000083000,083141,089958,075873,046139,015913,072661
0000000085,0000084000,080329,090838,077805,055981,015236,063496
0000000086,0000085000,077846,090824,080302,063838,017976,052900
0000000087,0000086000,075938,089925,083109,068919,023873,041921
0000000088,0000087000,074778,088231,085962,070738,032351,031625
0000000089,0000088000,074490,085897,088584,069125,042579,023010
0000000090,0000089000,075101,083159,090711,064230,053551,016932
0000000091,0000090000,076542,080295,092134,056532,064192,013989
0000000092,0000091000,078686,077566,092719,046783,073470,014461
0000000093,0000092000,081321,075243,092408,035940,080474,018300
0000000094,0000093000,084172,073567,091232,025071,084511,025132
0000000095,0000094000,086975,072696,089300,015231,085188,034295
0000000096,0000095000,089464,072704,086802,007378,082444,044891
0000000097,0000096000,091377,073599,083996,002292,076552,055869
0000000098,0000097000,092528,075301,081143,000473,068077,066164
0000000099,0000098000,092818,077634,078519,002090,057845,074779
0000000100,0000099000,092214,080365,076392,006981,046876,080856
0000000101,0000100000,090766,083235,074969,014674,036240,083799
0000000102,0000101000,088620,085967,074384,024427,026958,083329
0000000103,0000102000,085994,088282,074695,035268,019954,079491
0000000104,0000103000,083139,089961,075871,046132,015921,072660
0000000105,0000104000,080330,090839,077803,055975,015240,063498
0000000106,0000105000,077848,090823,080300,063829,017980,052904
0000000107,0000106000,075936,089928,083108,068910,023876,041927
0000000108,0000107000,074776,088234,085961,070732,032349,031633
0000000109,0000108000,074491,085896,088584,069120,042575,023019
0000000110,0000109000,075099,083161,090712,064227,053546,016941
0000000111,0000110000,076539,080297,092135,056533,064182,013997
0000000112,0000111000,078686,077565,092720,046787,073459,014467
0000000113,0000112000,081319,075242,092410,035945,080465,018303
0000000114,0000113000,084168,073569,091234,025080,084501,025132
0000000115,0000114000,086976,072694,089301,015242,085179,034293
0000000116,0000115000,089465,072702,086804,007389,082440,044885
0000000117,0000116000,091376,073599,083997,002303,076550,055860
0000000118,0000117000,092529,075299,081144,000483,068077,066153
0000000119,0000118000,092821,077631,078520,002096,057850,074767
0000000120,0000119000,092215,080364,076392,006984,046885,080845
0000000121,0000120000,090768,083235,074968,014675,036249,083789
0000000122,0000121000,088624,085965,074382,024423,026969,083321
0000000123,0000122000,085995,088283,074693,035261,019967,079486
0000000124,0000123000,083140,089963,075869,046123,015931,072659
0000000125,0000124000,080332,090839,077801,055963,015249,063501
0000000126,0000125000,077848,090825,080298,063815,017987,052910
0000000127,0000126000,075934,089932,083106,068899,023878,041937
0000000128,0000127000,074776,088236,085959,070723,032346,031645
0000000129,0000128000,074490,085897,088584,069112,042570,023032
0000000130,0000129000,075095,083164,090712,064223,053537,016954
0000000131,0000130000,076537,080299,092136,056535,064169,014009
0000000132,0000131000,078685,077564,092722,046791,073445,014476
0000000133,0000132000,081316,075243,092412,035953,080451,018309
0000000134,0000133000,084166,073569,091236,025093,084487,025133
0000000135,0000134000,086976,072691,089304,015257,085168,034289
0000000136,0000135000,089464,072700,086807,007403,082433,044878
0000000137,0000136000,091375,073598,083999,002318,076547,055849
0000000138,0000137000,092532,075295,081145,000496,068078,066139
0000000139,0000138000,092824,077627,078520,002104,057857,074752
0000000140,0000139000,092216,080363,076392,006988,046895,080830
0000000141,0000140000,090771,083233,074967,014676,036262,083775
0000000142,0000141000,088628,085963,074380,024418,026986,083310
0000000143,0000142000,085997,088284,074691,035250,019983,079480
0000000144,0000143000,083141,089964,075866,046110,015945,072658
0000000145,0000144000,080335,090839,077798,055947,015261,063505
0000000146,0000145000,077848,090828,080296,063798,017996,052919
0000000147,0000146000,075932,089936,083104,068883,023880,041950
0000000148,0000147000,074776,088238,085958,070709,032343,031661
0000000149,0000148000,074487,085900,088583,069101,042563,023050
0000000150,0000149000,075091,083168,090712,064218,053524,016972
0000000151,0000150000,076534,080300,092137,056536,064152,014025
0000000152,0000151000,078683,077564,092725,046797,073428,014488
0000000153,0000152000,081312,075244,092415,035965,080432,018316
0000000154,0000153000,084164,073568,091240,025109,084469,025135
0000000155,0000154000,086976,072688,089308,015275,085154,034285
0000000156,0000155000,089463,072698,086810,007422,082424,044867
0000000157,0000156000,091375,073595,084001,002337,076542,055834
0000000158,0000157000,092535,075290,081147,000512,068080,066121
0000000159,0000158000,092826,077624,078521,002115,057866,074731
0000000160,0000159000,092219,080361,076391,006995,046909,080809
0000000161,0000160000,090776,083230,074965,014676,036280,083758
0000000162,0000161000,088632,085961,074378,024410,027007,083296
0000000163,0000162000,085999,088285,074687,035238,020004,079471
0000000164,0000163000,083145,089965,075862,046093,015965,072656
0000000165,0000164000,080337,090841,077794,055926,015278,063510
0000000166,0000165000,077847,090832,080292,063776,018007,052931
0000000167,0000166000,075931,089939,083101,068863,023884,041967
0000000168,0000167000,074775,088241,085956,070691,032341,031682
0000000169,0000168000,074483,085905,088582,069088,042554,023073
0000000170,0000169000,075086,083172,090713,064212,053507,016994
0000000171,0000170000,076531,080301,092139,056537,064132,014045
0000000172,0000171000,078678,077566,092728,046805,073405,014504
0000000173,0000172000,081307,075245,092419,035980,080408,018325
0000000174,0000173000,084162,073565,091244,025130,084447,025137
0000000175,0000174000,086974,072685,089312,015298,085136,034279
0000000176,0000175000,089462,072695,086814,007447,082412,044854
0000000177,0000176000,091377,073590,084005,002362,076537,055814
0000000178,0000177000,092538,075284,081149,000532,068084,066097
0000000179,0000178000,092829,077621,078522,002130,057877,074705
0000000180,0000179000,092223,080357,076391,007003,046926,080784
0000000181,0000180000,090782,083226,074963,014675,036303,083735
0000000182,0000181000,088636,085960,074375,024401,027034,083279
0000000183,0000182000,086003,088286,074683,035222,020031,079461
0000000184,0000183000,083149,089965,075857,046070,015989,072654
0000000185,0000184000,080339,090844,077789,055899,015298,063516
0000000186,0000185000,077847,090837,080287,063748,018020,052945
0000000187,0000186000,075931,089944,083097,068836,023889,041988
0000000188,0000187000,074772,088246,085953,070668,032337,031709
0000000189,0000188000,074479,085911,088581,069071,042541,023101
0000000190,0000189000,075082,083176,090713,064204,053487,017023
0000000191,0000190000,076526,080304,092141,056537,064106,014070
0000000192,0000191000,078672,077569,092731,046814,073375,014523
0000000193,0000192000,081302,075245,092424,035999,080378,018337
0000000194,0000193000,084159,073563,091250,025155,084419,025139
0000000195,0000194000,086971,072682,089318,015327,085114,034272
0000000196,0000195000,089461,072691,086820,007479,082397,044838
0000000197,0000196000,091379,073583,084009,002391,076531,055791
0000000198,0000197000,092541,075278,081152,000557,068089,066068
0000000199,0000198000,092833,077616,078523,002149,057891,074673
0000000200,0000199000,092229,080352,076390,007013,046948,080752
0000000201,0000200000,090788,083222,074961,014674,036332,083707
0000000202,0000201000,088641,085959,074371,024390,027066,083257
0000000203,0000202000,086008,088286,074677,035202,020063,079448
0000000204,0000203000,083154,089967,075851,046043,016020,072651
0000000205,0000204000,080341,090848,077783,055866,015323,063524
0000000206,0000205000,077847,090843,080281,063714,018036,052963
0000000207,0000206000,075930,089949,083092,068804,023895,042015
0000000208,0000207000,074769,088253,085950,070640,032333,031741
0000000209,0000208000,074473,085918,088580,069052,042526,023136
0000000210,0000209000,075076,083181,090714,064194,053462,017057
0000000211,0000210000,076519,080308,092144,056538,064075,014101
0000000212,0000211000,078664,077571,092736,046827,073340,014546
0000000213,0000212000,081297,075245,092430,036021,080341,018351
0000000214,0000213000,084155,073560,091257,025185,084386,025142
0000000215,0000214000,086968,072678,089325,015363,085088,034263
0000000216,0000215000,089460,072685,086826,007517,082378,044818
0000000217,0000216000,091381,073576,084014,002427,076524,055762
0000000218,0000217000,092544,075272,081156,000587,068094,066032
0000000219,0000218000,092838,077609,078525,002171,057907,074635
0000000220,0000219000,092237,080346,076389,007024,046975,080715
0000000221,0000220000,090795,083218,074958,014673,036367,083674
0000000222,0000221000,088648,085958,074365,024377,027105,083232
0000000223,0000222000,086015,088285,074670,035178,020103,079433
0000000224,0000223000,083159,089969,075843,046009,016056,072648
0000000225,0000224000,080343,090853,077775,055827,015352,063533
0000000226,0000225000,077849,090849,080274,063673,018055,052984
0000000227,0000226000,075929,089956,083086,068764,023903,042046
0000000228,0000227000,074764,088261,085946,070606,032328,031780
0000000229,0000228000,074467,085926,088578,069028,042507,023178
0000000230,0000229000,075070,083187,090715,064182,053433,017099
0000000231,0000230000,076511,080313,092148,056539,064037,014137
0000000232,0000231000,078656,077574,092741,046842,073297,014574
0000000233,0000232000,081291,075244,092437,036048,080298,018367
0000000234,0000233000,084149,073557,091265,025221,084347,025145
0000000235,0000234000,086964,072674,089333,015406,085055,034253
0000000236,0000235000,089460,072678,086834,007562,082357,044795
0000000237,0000236000,091383,073567,084021,002469,076517,055727
0000000238,0000237000,092548,075264,081160,000623,068100,065990
0000000239,0000238000,092844,077601,078526,002197,057927,074589
0000000240,0000239000,092245,080338,076388,007037,047007,080670
0000000241,0000240000,090804,083213,074954,014671,036409,083634
0000000242,0000241000,088657,085955,074359,024361,027151,083201
0000000243,0000242000,086023,088285,074663,035149,020150,079415
0000000244,0000243000,083165,089972,075834,045969,016099,072644
0000000245,0000244000,080347,090859,077766,055781,015387,063545
0000000246,0000245000,077850,090856,080266,063625,018078,053010
0000000247,0000246000,075927,089965,083080,068718,023911,042084
0000000248,0000247000,074759,088271,085941,070568,032321,031825
0000000249,0000248000,074461,085934,088576,069001,042485,023228
0000000250,0000249000,075061,083194,090716,064168,053398,017147
0000000251,0000250000,076501,080319,092152,056541,063993,014180
0000000252,0000251000,078647,077577,092748,046859,073247,014607
0000000253,0000252000,081282,075244,092445,036079,080247,018387
0000000254,0000253000,084142,073555,091275,025264,084301,025149
0000000255,0000254000,086960,072668,089343,015456,085018,034240
0000000256,0000255000,089459,072669,086843,007614,082332,044767
0000000257,0000256000,091385,073558,084028,002518,076508,055687
0000000258,0000257000,092552,075254,081165,000665,068107,065941
0000000259,0000258000,092852,077591,078529,002227,057950,074536
0000000260,0000259000,092255,080330,076387,007051,047044,080618
0000000261,0000260000,090814,083207,074950,014669,036456,083588
0000000262,0000261000,088667,085951,074352,024343,027205,083166
0000000263,0000262000,086033,088285,074654,035115,020204,079394
0000000264,0000263000,083171,089976,075824,045923,016149,072641
0000000265,0000264000,080351,090865,077755,055728,015427,063559
0000000266,0000265000,077851,090864,080256,063569,018104,053040
0000000267,0000266000,075924,089976,083072,068665,023921,042127
0000000268,0000267000,074753,088282,085936,070523,032312,031878
0000000269,0000268000,074453,085944,088574,068969,042460,023285
0000000270,0000269000,075051,083203,090717,064152,053358,017203
0000000271,0000270000,076489,080326,092156,056543,063941,014229
0000000272,0000271000,078636,077580,092755,046880,073189,014645
0000000273,0000272000,081273,075244,092455,036116,080189,018409
0000000274,0000273000,084134,073552,091286,025313,084248,025153
0000000275,0000274000,086955,072662,089354,015514,084975,034225
0000000276,0000275000,089458,072660,086853,007674,082304,044735
0000000277,0000276000,091387,073547,084037,002575,076498,055640
0000000278,0000277000,092558,075242,081171,000713,068116,065884
0000000279,0000278000,092861,077579,078531,002261,057977,074475
0000000280,0000279000,092265,080320,076386,007068,047088,080558
0000000281,0000280000,090826,083200,074945,014667,036511,083535
0000000282,0000281000,088679,085947,074344,024321,027267,083126
0000000283,0000282000,086043,088285,074643,035076,020267,079371
0000000284,0000283000,083179,089980,075812,045871,016206,072637
0000000285,0000284000,080357,090872,077743,055666,015472,063574
0000000286,0000285000,077853,090874,080245,063504,018134,053074
0000000287,0000286000,075921,089988,083062,068605,023932,042177
0000000288,0000287000,074747,088295,085929,070472,032303,031939
0000000289,0000288000,074444,085956,088571,068932,042431,023351
0000000290,0000289000,075039,083214,090719,064134,053312,017267
0000000291,0000290000,076477,080334,092161,056546,063882,014285
0000000292,0000291000,078624,077584,092764,046903,073123,014687
0000000293,0000292000,081261,075244,092467,036157,080123,018433
0000000294,0000293000,084125,073548,091299,025370,084187,025157
0000000295,0000294000,086950,072654,089368,015580,084926,034208
0000000296,0000295000,089457,072649,086866,007743,082273,044698
0000000297,0000296000,091389,073535,084047,002640,076486,055587
0000000298,0000297000,092565,075228,081178,000768,068126,065819
0000000299,0000298000,092871,077566,078534,002300,058009,074405
0000000300,0000299000,092277,080309,076385,007087,047137,080489
0000000301,0000300000,090839,083192,074940,014664,036574,083476
