DIgSILENT PowerFactory,21000900,2000
6,06A,00D
1,TTPP_200000_100:Secondary Voltage A,,,V,0.10000000,-8331.284180,0.000000,67657,99998,1,1,P
2,TTPP_200000_100:Secondary Voltage B,,,V,0.10000000,-8389.890625,0.000000,67681,99998,1,1,P
3,TTPP_200000_100:Secondary Voltage C,,,V,0.10000000,-8493.159180,0.000000,66618,99998,1,1,P
4,TTCC_300_1:Secondary Current A,,,A,0.00010000000,-5.599260,0.000000,-10756,99998,1,1,P
5,TTCC_300_1:Secondary Current B,,,A,0.00010000000,-4.498195,0.000000,-7844,99998,1,1,P
6,TTCC_300_1:Secondary Current C,,,A,0.00010000000,-5.091519,0.000000,856,99998,1,1,P
50
1
1000.000000,1101
30/06/2023,06:11:50.000000
30/06/2023,06:11:50.000000
ASCII
1.000000
0000000001,0000000000,090419,085374,076350,035063,030992,085835
0000000002,0000001000,088285,088091,075766,044816,021714,085361
0000000003,0000002000,085644,090422,076077,055654,014717,081518
0000000004,0000003000,082787,092101,077254,066536,010672,074683
0000000005,0000004000,079995,092962,079187,076376,009999,065513
0000000006,0000005000,077507,092954,081684,084227,012749,054914
0000000007,0000006000,075585,092068,084490,089309,018647,043933
0000000008,0000007000,074442,090359,087343,091136,027120,033635
0000000009,0000008000,074155,088022,089965,089508,037363,025019
0000000010,0000009000,074754,085298,092091,084613,048335,018941
0000000011,0000010000,076201,082429,093513,076917,058972,016001
0000000012,0000011000,078355,079690,094098,067159,068255,016474
0000000013,0000012000,080976,077383,093786,056310,075263,020316
0000000014,0000013000,083829,075706,092609,045445,079293,027153
0000000015,0000014000,086641,074825,090677,035601,079968,036321
0000000016,0000015000,089121,074841,088180,027742,077227,046920
0000000017,0000016000,091028,075743,085372,022665,071323,057902
0000000018,0000017000,092191,077432,082521,020845,062845,068200
0000000019,0000018000,092475,079770,079898,022462,052612,076816
0000000020,0000019000,091863,082509,077772,027360,041637,082893
0000000021,0000020000,090425,085368,076350,035063,030993,085834
0000000022,0000021000,088279,088098,075766,044813,021717,085360
0000000023,0000022000,085642,090424,076077,055663,014709,081518
0000000024,0000023000,082796,092093,077253,066535,010673,074682
0000000025,0000024000,079993,092964,079187,076374,010001,065514
0000000026,0000025000,077499,092960,081684,084229,012747,054914
0000000027,0000026000,075592,092062,084490,089317,018640,043932
0000000028,0000027000,074444,090356,087343,091131,027124,033635
0000000029,0000028000,074149,088029,089965,089510,037361,025019
0000000030,0000029000,074754,085298,092091,084618,048330,018941
0000000031,0000030000,076208,082422,093513,076919,058971,016000
0000000032,0000031000,078351,079695,094098,067158,068258,016474
0000000033,0000032000,080973,077385,093786,056316,075258,020316
0000000034,0000033000,083833,075701,092609,045448,079290,027152
0000000035,0000034000,086642,074825,090677,035600,079970,036320
0000000036,0000035000,089117,074846,088180,027746,077225,046919
0000000037,0000036000,091032,075739,085373,022668,071321,057900
0000000038,0000037000,092192,077430,082521,020846,062846,068198
0000000039,0000038000,092472,079773,079898,022462,052613,076814
0000000040,0000039000,091864,082508,077772,027364,041634,082892
0000000041,0000040000,090427,085366,076350,035063,030994,085833
0000000042,0000041000,088277,088101,075766,044813,021718,085359
0000000043,0000042000,085642,090424,076077,055664,014709,081517
0000000044,0000043000,082798,092092,077254,066534,010674,074681
0000000045,0000044000,079991,092966,079187,076374,010002,065514
0000000046,0000045000,077499,092961,081683,084230,012745,054914
0000000047,0000046000,075594,092059,084490,089316,018641,043933
0000000048,0000047000,074442,090359,087343,091131,027124,033636
0000000049,0000048000,074148,088030,089965,089513,037358,025020
0000000050,0000049000,074757,085295,092091,084619,048328,018942
0000000051,0000050000,076206,082423,093514,076918,058971,016001
0000000052,0000051000,078347,079698,094098,067162,068253,016474
0000000053,0000052000,080976,077381,093786,056319,075255,020316
0000000054,0000053000,083834,075700,092610,045449,079290,027151
0000000055,0000054000,086637,074829,090677,035603,079968,036319
0000000056,0000055000,089119,074845,088180,027752,077221,046917
0000000057,0000056000,091035,075735,085373,022669,071322,057898
0000000058,0000057000,092189,077433,082521,020848,062846,068195
0000000059,0000058000,092471,079774,079898,022467,052611,076811
0000000060,0000059000,091869,082503,077772,027365,041636,082889
0000000061,0000060000,090426,085367,076350,035061,030999,085830
0000000062,0000061000,088274,088104,075765,044815,021718,085357
0000000063,0000062000,085646,090420,076076,055665,014710,081516
0000000064,0000063000,082799,092091,077253,066531,010678,074681
0000000065,0000064000,079987,092971,079186,076372,010004,065514
0000000066,0000065000,077501,092960,081683,084230,012744,054916
0000000067,0000066000,075596,092057,084490,089312,018642,043936
0000000068,0000067000,074438,090362,087342,091128,027124,033639
0000000069,0000068000,074147,088032,089965,089513,037354,025023
0000000070,0000069000,074760,085293,092091,084619,048325,018945
0000000071,0000070000,076204,082425,093514,076917,058968,016004
0000000072,0000071000,078345,079701,094098,067165,068248,016476
0000000073,0000072000,080978,077379,093787,056322,075250,020317
0000000074,0000073000,083833,075700,092611,045452,079287,027151
0000000075,0000074000,086635,074831,090678,035609,079964,036317
0000000076,0000075000,089120,074842,088181,027758,077218,046915
0000000077,0000076000,091036,075733,085374,022673,071322,057895
0000000078,0000077000,092187,077435,082522,020852,062847,068191
0000000079,0000078000,092473,079772,079898,022471,052612,076806
0000000080,0000079000,091871,082500,077772,027366,041639,082884
0000000081,0000080000,090425,085369,076350,035061,031003,085826
0000000082,0000081000,088275,088104,075764,044815,021721,085354
0000000083,0000082000,085649,090418,076076,055661,014715,081514
0000000084,0000083000,082798,092093,077253,066526,010683,074680
0000000085,0000084000,079986,092972,079185,076368,010006,065515
0000000086,0000085000,077504,092958,081682,084225,012746,054918
0000000087,0000086000,075595,092059,084489,089306,018644,043940
0000000088,0000087000,074436,090366,087342,091125,027122,033644
0000000089,0000088000,074148,088031,089964,089511,037350,025029
0000000090,0000089000,074759,085293,092091,084616,048322,018951
0000000091,0000090000,076200,082429,093514,076918,058962,016009
0000000092,0000091000,078345,079700,094099,067169,068240,016480
0000000093,0000092000,080979,077377,093788,056326,075244,020319
0000000094,0000093000,083830,075702,092612,045457,079281,027152
0000000095,0000094000,086634,074830,090679,035617,079958,036315
0000000096,0000095000,089123,074839,088182,027765,077214,046911
0000000097,0000096000,091035,075733,085375,022679,071322,057889
0000000098,0000097000,092186,077435,082522,020860,062846,068184
0000000099,0000098000,092476,079769,079899,022477,052614,076799
0000000100,0000099000,091872,082499,077772,027368,041646,082876
0000000101,0000100000,090424,085370,076349,035062,031010,085819
0000000102,0000101000,088278,088102,075763,044814,021728,085348
0000000103,0000102000,085652,090417,076075,055656,014724,081510
0000000104,0000103000,082797,092095,077251,066519,010691,074679
0000000105,0000104000,079987,092973,079183,076362,010011,065517
0000000106,0000105000,077506,092957,081680,084216,012751,054923
0000000107,0000106000,075594,092062,084488,089297,018646,043946
0000000108,0000107000,074434,090368,087341,091119,027119,033652
0000000109,0000108000,074149,088030,089964,089507,037346,025038
0000000110,0000109000,074757,085295,092092,084613,048317,018960
0000000111,0000110000,076197,082431,093515,076920,058953,016017
0000000112,0000111000,078345,079699,094100,067173,068230,016487
0000000113,0000112000,080978,077376,093790,056331,075235,020323
0000000114,0000113000,083827,075703,092613,045466,079272,027152
0000000115,0000114000,086634,074828,090681,035628,079949,036313
0000000116,0000115000,089123,074836,088184,027775,077210,046905
0000000117,0000116000,091034,075733,085376,022689,071320,057880
0000000118,0000117000,092187,077433,082523,020870,062846,068173
0000000119,0000118000,092479,079765,079899,022483,052619,076787
0000000120,0000119000,091873,082499,077772,027371,041654,082865
0000000121,0000120000,090426,085370,076348,035063,031019,085809
0000000122,0000121000,088282,088099,075762,044811,021739,085340
0000000123,0000122000,085653,090417,076073,055648,014737,081505
0000000124,0000123000,082797,092097,077249,066510,010701,074678
0000000125,0000124000,079990,092973,079181,076351,010019,065520
0000000126,0000125000,077506,092959,081678,084202,012758,054929
0000000127,0000126000,075591,092066,084486,089286,018648,043956
0000000128,0000127000,074434,090370,087339,091110,027117,033664
0000000129,0000128000,074148,088031,089964,089498,037341,025051
0000000130,0000129000,074753,085298,092092,084609,048308,018973
0000000131,0000130000,076195,082433,093516,076921,058940,016028
0000000132,0000131000,078344,079698,094102,067178,068216,016496
0000000133,0000132000,080974,077377,093792,056339,075222,020328
0000000134,0000133000,083824,075703,092616,045479,079258,027153
0000000135,0000134000,086635,074825,090683,035643,079938,036310
0000000136,0000135000,089123,074834,088186,027789,077203,046898
0000000137,0000136000,091033,075732,085378,022704,071317,057869
0000000138,0000137000,092190,077429,082524,020883,062847,068159
0000000139,0000138000,092482,079762,079900,022491,052626,076772
0000000140,0000139000,091874,082498,077771,027376,041665,082849
0000000141,0000140000,090429,085368,076347,035064,031032,085795
0000000142,0000141000,088286,088097,075760,044805,021755,085330
0000000143,0000142000,085654,090419,076070,055638,014753,081499
0000000144,0000143000,082799,092099,077246,066498,010715,074677
0000000145,0000144000,079993,092973,079178,076335,010031,065523
0000000146,0000145000,077506,092962,081676,084185,012767,054938
0000000147,0000146000,075590,092070,084484,089270,018651,043969
0000000148,0000147000,074434,090372,087338,091096,027114,033680
0000000149,0000148000,074145,088034,089963,089488,037334,025069
0000000150,0000149000,074749,085302,092092,084604,048295,018991
0000000151,0000150000,076193,082434,093517,076922,058923,016044
0000000152,0000151000,078341,079698,094104,067183,068198,016508
0000000153,0000152000,080970,077379,093795,056351,075203,020336
0000000154,0000153000,083822,075702,092619,045496,079240,027155
0000000155,0000154000,086634,074822,090687,035661,079924,036305
0000000156,0000155000,089121,074832,088190,027809,077194,046887
0000000157,0000156000,091033,075729,085381,022724,071312,057854
0000000158,0000157000,092193,077424,082526,020899,062850,068141
0000000159,0000158000,092484,079759,079901,022502,052636,076751
0000000160,0000159000,091877,082496,077771,027382,041678,082829
0000000161,0000160000,090434,085364,076345,035063,031050,085777
0000000162,0000161000,088289,088096,075758,044797,021777,085316
0000000163,0000162000,085656,090420,076067,055625,014774,081490
0000000164,0000163000,082803,092099,077242,066480,010734,074675
0000000165,0000164000,079995,092975,079174,076313,010048,065528
0000000166,0000165000,077505,092967,081672,084163,012777,054949
0000000167,0000166000,075589,092074,084481,089250,018654,043986
0000000168,0000167000,074433,090375,087336,091078,027111,033701
0000000169,0000168000,074141,088039,089962,089474,037324,025092
0000000170,0000169000,074745,085306,092093,084598,048278,019013
0000000171,0000170000,076189,082435,093519,076923,058902,016064
0000000172,0000171000,078336,079700,094107,067191,068175,016523
0000000173,0000172000,080966,077379,093799,056366,075179,020345
0000000174,0000173000,083820,075699,092624,045516,079217,027157
0000000175,0000174000,086632,074819,090692,035684,079907,036299
0000000176,0000175000,089120,074829,088194,027834,077182,046874
0000000177,0000176000,091035,075724,085384,022748,071307,057835
0000000178,0000177000,092196,077419,082529,020919,062854,068117
0000000179,0000178000,092487,079755,079902,022517,052647,076725
0000000180,0000179000,091881,082492,077770,027391,041696,082804
0000000181,0000180000,090440,085360,076343,035063,031073,085754
0000000182,0000181000,088294,088095,075754,044788,021804,085298
0000000183,0000182000,085660,090420,076062,055609,014801,081480
0000000184,0000183000,082807,092100,077237,066458,010759,074673
0000000185,0000184000,079996,092978,079169,076286,010068,065535
0000000186,0000185000,077505,092972,081667,084135,012790,054964
0000000187,0000186000,075589,092078,084477,089223,018659,044007
0000000188,0000187000,074430,090380,087333,091054,027108,033728
0000000189,0000188000,074136,088045,089961,089458,037312,025120
0000000190,0000189000,074740,085310,092093,084590,048258,019042
0000000191,0000190000,076184,082438,093521,076923,058877,016090
0000000192,0000191000,078330,079703,094111,067201,068146,016543
0000000193,0000192000,080961,077379,093803,056385,075148,020357
0000000194,0000193000,083817,075697,092629,045541,079190,027159
0000000195,0000194000,086629,074816,090697,035714,079885,036292
0000000196,0000195000,089119,074825,088199,027865,077167,046858
0000000197,0000196000,091037,075718,085388,022778,071301,057811
0000000198,0000197000,092199,077413,082532,020943,062858,068088
0000000199,0000198000,092491,079750,079903,022536,052660,076693
0000000200,0000199000,091887,082487,077769,027400,041717,082772
0000000201,0000200000,090446,085356,076341,035061,031102,085727
0000000202,0000201000,088299,088094,075750,044777,021836,085277
0000000203,0000202000,085666,090420,076057,055590,014833,081467
0000000204,0000203000,082812,092101,077231,066430,010790,074670
0000000205,0000204000,079998,092983,079163,076253,010093,065543
0000000206,0000205000,077505,092977,081661,084101,012806,054982
0000000207,0000206000,075588,092083,084472,089191,018666,044034
0000000208,0000207000,074427,090387,087330,091026,027104,033760
0000000209,0000208000,074131,088052,089960,089438,037296,025155
0000000210,0000209000,074735,085315,092094,084581,048233,019076
0000000211,0000210000,076178,082442,093524,076924,058845,016120
0000000212,0000211000,078323,079705,094116,067213,068110,016566
0000000213,0000212000,080955,077379,093809,056408,075111,020371
0000000214,0000213000,083813,075694,092636,045571,079157,027162
0000000215,0000214000,086626,074813,090704,035749,079858,036283
0000000216,0000215000,089119,074819,088205,027903,077148,046838
0000000217,0000216000,091039,075710,085394,022814,071294,057782
0000000218,0000217000,092202,077406,082535,020974,062864,068052
0000000219,0000218000,092496,079744,079904,022558,052677,076655
0000000220,0000219000,091895,082480,077769,027411,041744,082734
0000000221,0000220000,090453,085352,076338,035060,031137,085693
0000000222,0000221000,088306,088092,075745,044764,021875,085251
0000000223,0000222000,085673,090420,076050,055565,014873,081452
0000000224,0000223000,082817,092103,077223,066396,010826,074667
0000000225,0000224000,080001,092988,079155,076214,010123,065552
0000000226,0000225000,077506,092983,081654,084061,012826,055003
0000000227,0000226000,075587,092090,084466,089151,018673,044065
0000000228,0000227000,074422,090395,087326,090993,027098,033798
0000000229,0000228000,074125,088060,089958,089415,037278,025197
0000000230,0000229000,074728,085321,092095,084568,048204,019118
0000000231,0000230000,076169,082447,093528,076925,058808,016156
0000000232,0000231000,078314,079708,094121,067228,068067,016594
0000000233,0000232000,080949,077378,093816,056434,075068,020387
0000000234,0000233000,083807,075692,092644,045607,079117,027165
0000000235,0000234000,086622,074808,090713,035792,079825,036273
0000000236,0000235000,089118,074812,088213,027948,077127,046815
0000000237,0000236000,091041,075702,085400,022856,071286,057747
0000000238,0000237000,092206,077398,082540,021010,062870,068010
0000000239,0000238000,092503,079735,079906,022584,052696,076609
0000000240,0000239000,091903,082473,077768,027424,041776,082690
0000000241,0000240000,090462,085348,076334,035058,031178,085653
0000000242,0000241000,088314,088090,075739,044749,021921,085221
0000000243,0000242000,085681,090419,076042,055536,014919,081434
0000000244,0000243000,082822,092107,077214,066357,010869,074663
0000000245,0000244000,080004,092993,079146,076169,010157,065564
0000000246,0000245000,077508,092990,081646,084012,012848,055029
0000000247,0000246000,075585,092099,084460,089105,018682,044102
0000000248,0000247000,074417,090405,087321,090955,027091,033844
0000000249,0000248000,074119,088068,089956,089387,037256,025247
0000000250,0000249000,074719,085328,092096,084554,048169,019166
0000000251,0000250000,076159,082453,093531,076927,058763,016199
0000000252,0000251000,078305,079711,094127,067246,068017,016627
0000000253,0000252000,080941,077378,093825,056465,075018,020406
0000000254,0000253000,083800,075689,092654,045650,079071,027169
0000000255,0000254000,086618,074803,090722,035842,079788,036260
0000000256,0000255000,089118,074803,088222,028000,077102,046787
0000000257,0000256000,091043,075693,085408,022905,071278,057707
0000000258,0000257000,092210,077388,082545,021052,062877,067961
0000000259,0000258000,092511,079725,079908,022614,052720,076556
0000000260,0000259000,091913,082464,077767,027438,041814,082637
0000000261,0000260000,090472,085342,076330,035057,031226,085608
0000000262,0000261000,088325,088086,075732,044730,021974,085186
0000000263,0000262000,085691,090419,076033,055502,014974,081414
0000000264,0000263000,082829,092110,077204,066311,010919,074660
0000000265,0000264000,080009,093000,079135,076115,010197,065577
0000000266,0000265000,077509,092998,081636,083956,012875,055059
0000000267,0000266000,075582,092110,084452,089052,018692,044146
0000000268,0000267000,074411,090416,087316,090910,027083,033897
0000000269,0000268000,074111,088078,089954,089355,037231,025304
0000000270,0000269000,074709,085337,092097,084538,048129,019222
0000000271,0000270000,076148,082460,093536,076929,058712,016248
0000000272,0000271000,078295,079714,094135,067266,067959,016664
0000000273,0000272000,080931,077378,093835,056502,074960,020428
0000000274,0000273000,083792,075686,092665,045699,079018,027173
0000000275,0000274000,086614,074796,090734,035900,079745,036245
0000000276,0000275000,089117,074794,088233,028060,077074,046755
0000000277,0000276000,091045,075682,085416,022962,071267,057661
0000000278,0000277000,092216,077377,082551,021100,062885,067904
0000000279,0000278000,092520,079714,079911,022648,052747,076494
0000000280,0000279000,091923,082455,077765,027455,041857,082577
0000000281,0000280000,090483,085335,076325,035054,031281,085555
0000000282,0000281000,088337,088082,075724,044709,022036,085146
0000000283,0000282000,085701,090419,076023,055463,015037,081390
0000000284,0000283000,082837,092114,077192,066258,010976,074656
0000000285,0000284000,080014,093006,079123,076054,010243,065593
0000000286,0000285000,077511,093008,081625,083891,012905,055093
0000000287,0000286000,075579,092122,084442,088992,018703,044196
0000000288,0000287000,074405,090428,087309,090859,027073,033958
0000000289,0000288000,074102,088090,089951,089319,037202,025370
0000000290,0000289000,074697,085348,092099,084521,048083,019286
0000000291,0000290000,076135,082468,093541,076932,058653,016304
0000000292,0000291000,078282,079718,094143,067289,067893,016707
0000000293,0000292000,080919,077378,093846,056543,074893,020453
0000000294,0000293000,083783,075682,092678,045756,078957,027177
0000000295,0000294000,086608,074788,090747,035966,079696,036228
0000000296,0000295000,089115,074783,088245,028129,077043,046718
0000000297,0000296000,091048,075669,085426,023027,071256,057607
0000000298,0000297000,092223,077363,082557,021154,062896,067840
0000000299,0000298000,092530,079700,079914,022686,052778,076425
0000000300,0000299000,091935,082444,077764,027474,041906,082509
0000000301,0000300000,090497,085326,076319,035051,031343,085495
