DIgSILENT PowerFactory,21000900,2000
6,06A,00D
1,TTPP_200000_100:Secondary Voltage A,,,V,0.10000000,-8569.958984,0.000000,72819,99998,1,1,P
2,TTPP_200000_100:Secondary Voltage B,,,V,0.10000000,-8614.461914,0.000000,74527,99998,1,1,P
3,TTPP_200000_100:Secondary Voltage C,,,V,0.10000000,-8549.354492,0.000000,69033,99998,1,1,P
4,TTCC_300_1:Secondary Current A,,,A,0.00010000000,-5.300427,0.000000,-14763,99998,1,1,P
5,TTCC_300_1:Secondary Current B,,,A,0.00010000000,-4.868803,0.000000,-2872,99998,1,1,P
6,TTCC_300_1:Secondary Current C,,,A,0.00010000000,-4.971432,0.000000,-683,99998,1,1,P
50
1
1000.000000,1101
30/06/2023,06:12:00.000000
30/06/2023,06:12:00.000000
ASCII
1.000000
0000000001,0000000000,092806,087620,076912,032074,034698,084634
0000000002,0000001000,090672,090337,076327,041827,025421,084160
0000000003,0000002000,088030,092668,076639,052666,018422,080317
0000000004,0000003000,085175,094346,077816,063546,014380,073482
0000000005,0000004000,082381,095208,079749,073388,013704,064313
0000000006,0000005000,079893,095199,082246,081237,016457,053714
0000000007,0000006000,077972,094314,085052,086323,022351,042732
0000000008,0000007000,076828,092605,087905,088146,030827,032435
0000000009,0000008000,076543,090267,090527,086522,041067,023818
0000000010,0000009000,077140,087545,092653,081624,052042,017740
0000000011,0000010000,078589,084674,094075,073930,062676,014800
0000000012,0000011000,080742,081936,094660,064171,071962,015273
0000000013,0000012000,083363,079628,094348,053322,078969,019115
0000000014,0000013000,086214,077953,093171,042457,082999,025951
0000000015,0000014000,089029,077070,091239,032613,083674,035120
0000000016,0000015000,091508,077087,088742,024755,080934,045719
0000000017,0000016000,093415,077988,085934,019676,075030,056700
0000000018,0000017000,094577,079678,083083,017857,066551,066998
0000000019,0000018000,094862,082015,080460,019473,056319,075614
0000000020,0000019000,094250,084755,078334,024372,045343,081691
0000000021,0000020000,092812,087614,076912,032074,034700,084634
0000000022,0000021000,090666,090344,076328,041824,025423,084159
0000000023,0000022000,088029,092669,076639,052674,018416,080317
0000000024,0000023000,085182,094339,077815,063546,014380,073481
0000000025,0000024000,082379,095210,079749,073385,013707,064313
0000000026,0000025000,079886,095206,082246,081240,016453,053713
0000000027,0000026000,077978,094307,085052,086328,022346,042732
0000000028,0000027000,076831,092603,087904,088143,030830,032435
0000000029,0000028000,076536,090274,090527,086522,041066,023818
0000000030,0000029000,077141,087544,092653,081631,052036,017740
0000000031,0000030000,078595,084668,094075,073930,062677,014799
0000000032,0000031000,080737,081941,094660,064170,071963,015273
0000000033,0000032000,083360,079630,094348,053327,078964,019115
0000000034,0000033000,086220,077947,093171,042461,082995,025950
0000000035,0000034000,089028,077071,091239,032612,083677,035118
0000000036,0000035000,091503,077092,088742,024758,080931,045718
0000000037,0000036000,093419,077984,085935,019680,075028,056699
0000000038,0000037000,094579,079676,083083,017858,066552,066997
0000000039,0000038000,094859,082019,080460,019473,056320,075613
0000000040,0000039000,094251,084753,078334,024376,045340,081690
0000000041,0000040000,092814,087611,076912,032074,034701,084632
0000000042,0000041000,090664,090347,076327,041825,025424,084158
0000000043,0000042000,088029,092670,076639,052675,018415,080317
0000000044,0000043000,085185,094337,077816,063546,014379,073481
0000000045,0000044000,082378,095212,079749,073385,013708,064313
0000000046,0000045000,079886,095207,082245,081241,016451,053714
0000000047,0000046000,077980,094305,085052,086327,022346,042733
0000000048,0000047000,076829,092604,087905,088142,030829,032435
0000000049,0000048000,076534,090276,090527,086524,041064,023819
0000000050,0000049000,077144,087541,092653,081631,052034,017742
0000000051,0000050000,078593,084669,094075,073930,062676,014800
0000000052,0000051000,080734,081944,094660,064174,071959,015273
0000000053,0000052000,083363,079627,094348,053331,078961,019115
0000000054,0000053000,086220,077946,093172,042461,082995,025950
0000000055,0000054000,089024,077074,091239,032616,083674,035117
0000000056,0000055000,091505,077090,088742,024763,080928,045716
0000000057,0000056000,093422,077981,085935,019681,075029,056697
0000000058,0000057000,094576,079679,083083,017860,066553,066994
0000000059,0000058000,094858,082019,080460,019478,056318,075610
0000000060,0000059000,094255,084749,078334,024377,045342,081688
0000000061,0000060000,092813,087613,076912,032072,034705,084629
0000000062,0000061000,090661,090349,076327,041826,025424,084156
0000000063,0000062000,088033,092666,076638,052676,018416,080315
0000000064,0000063000,085186,094337,077815,063542,014384,073481
0000000065,0000064000,082374,095216,079748,073383,013709,064314
0000000066,0000065000,079888,095205,082244,081241,016450,053715
0000000067,0000066000,077983,094303,085052,086324,022348,042735
0000000068,0000067000,076825,092608,087904,088139,030829,032438
0000000069,0000068000,076533,090277,090527,086525,041059,023822
0000000070,0000069000,077146,087538,092653,081631,052031,017745
0000000071,0000070000,078591,084671,094076,073929,062674,014803
0000000072,0000071000,080731,081946,094660,064177,071954,015275
0000000073,0000072000,083365,079624,094349,053335,078956,019116
0000000074,0000073000,086220,077945,093172,042464,082993,025950
0000000075,0000074000,089021,077076,091240,032621,083671,035116
0000000076,0000075000,091507,077088,088743,024770,080924,045713
0000000077,0000076000,093423,077979,085936,019685,075029,056693
0000000078,0000077000,094574,079681,083083,017864,066553,066989
0000000079,0000078000,094860,082018,080460,019483,056318,075605
0000000080,0000079000,094258,084746,078334,024378,045346,081683
0000000081,0000080000,092812,087614,076911,032072,034710,084625
0000000082,0000081000,090662,090350,076326,041826,025428,084153
0000000083,0000082000,088036,092664,076638,052673,018421,080313
0000000084,0000083000,085185,094338,077814,063537,014389,073480
0000000085,0000084000,082373,095218,079747,073380,013712,064315
0000000086,0000085000,079890,095204,082243,081236,016452,053718
0000000087,0000086000,077982,094304,085051,086318,022350,042739
0000000088,0000087000,076823,092611,087904,088136,030827,032443
0000000089,0000088000,076535,090277,090526,086523,041056,023828
0000000090,0000089000,077146,087538,092653,081628,052028,017751
0000000091,0000090000,078587,084674,094076,073930,062668,014808
0000000092,0000091000,080731,081946,094661,064181,071946,015279
0000000093,0000092000,083366,079622,094350,053338,078950,019118
0000000094,0000093000,086217,077947,093174,042470,082987,025950
0000000095,0000094000,089021,077076,091241,032629,083664,035114
0000000096,0000095000,091509,077084,088744,024777,080920,045710
0000000097,0000096000,093422,077979,085937,019691,075028,056687
0000000098,0000097000,094573,079681,083084,017871,066553,066982
0000000099,0000098000,094863,082014,080460,019488,056321,075597
0000000100,0000099000,094259,084745,078334,024379,045352,081675
0000000101,0000100000,092811,087616,076911,032073,034716,084618
0000000102,0000101000,090665,090348,076325,041825,025434,084147
0000000103,0000102000,088038,092663,076636,052667,018430,080310
0000000104,0000103000,085184,094341,077813,063530,014397,073479
0000000105,0000104000,082374,095219,079745,073373,013717,064316
0000000106,0000105000,079893,095203,082242,081227,016457,053723
0000000107,0000106000,077980,094307,085050,086309,022352,042746
0000000108,0000107000,076821,092614,087903,088131,030825,032452
0000000109,0000108000,076535,090276,090526,086518,041051,023837
0000000110,0000109000,077144,087540,092654,081625,052022,017760
0000000111,0000110000,078584,084677,094077,073932,062659,014816
0000000112,0000111000,080731,081945,094662,064185,071935,015286
0000000113,0000112000,083365,079622,094351,053344,078941,019122
0000000114,0000113000,086214,077949,093175,042478,082978,025951
0000000115,0000114000,089021,077074,091243,032641,083655,035112
0000000116,0000115000,091510,077082,088746,024787,080916,045704
0000000117,0000116000,093420,077979,085938,019701,075026,056679
0000000118,0000117000,094574,079679,083085,017881,066553,066972
0000000119,0000118000,094866,082011,080461,019494,056326,075586
0000000120,0000119000,094260,084744,078334,024382,045361,081664
0000000121,0000120000,092812,087615,076910,032074,034725,084608
0000000122,0000121000,090668,090345,076324,041822,025446,084140
0000000123,0000122000,088040,092663,076635,052659,018443,080305
0000000124,0000123000,085184,094343,077811,063521,014408,073478
0000000125,0000124000,082377,095219,079743,073362,013725,064319
0000000126,0000125000,079893,095205,082240,081214,016463,053729
0000000127,0000126000,077978,094311,085048,086297,022354,042755
0000000128,0000127000,076821,092615,087901,088121,030822,032464
0000000129,0000128000,076535,090277,090526,086510,041046,023850
0000000130,0000129000,077140,087544,092654,081621,052013,017773
0000000131,0000130000,078582,084678,094078,073933,062646,014828
0000000132,0000131000,080730,081944,094664,064190,071922,015295
0000000133,0000132000,083361,079623,094354,053352,078927,019127
0000000134,0000133000,086211,077949,093178,042491,082964,025952
0000000135,0000134000,089021,077071,091245,032655,083644,035108
0000000136,0000135000,091510,077080,088748,024801,080909,045696
0000000137,0000136000,093420,077978,085940,019716,075023,056667
0000000138,0000137000,094577,079675,083086,017894,066554,066958
0000000139,0000138000,094869,082008,080462,019503,056333,075571
0000000140,0000139000,094261,084744,078333,024387,045371,081648
0000000141,0000140000,092816,087613,076909,032075,034738,084594
0000000142,0000141000,090672,090343,076322,041816,025462,084129
0000000143,0000142000,088041,092664,076632,052649,018460,080298
0000000144,0000143000,085186,094344,077808,063509,014422,073476
0000000145,0000144000,082379,095219,079740,073346,013737,064323
0000000146,0000145000,079893,095208,082238,081196,016472,053738
0000000147,0000146000,077977,094315,085046,086282,022357,042768
0000000148,0000147000,076821,092617,087900,088108,030820,032480
0000000149,0000148000,076532,090280,090525,086499,041039,023868
0000000150,0000149000,077136,087548,092654,081616,052000,017790
0000000151,0000150000,078579,084680,094079,073934,062629,014843
0000000152,0000151000,080728,081944,094666,064196,071904,015307
0000000153,0000152000,083357,079624,094357,053363,078909,019135
0000000154,0000153000,086209,077947,093181,042508,082946,025954
0000000155,0000154000,089021,077068,091249,032673,083630,035104
0000000156,0000155000,091508,077078,088752,024821,080900,045686
0000000157,0000156000,093420,077975,085943,019736,075019,056652
0000000158,0000157000,094580,079670,083088,017910,066557,066939
0000000159,0000158000,094871,082004,080463,019514,056342,075550
0000000160,0000159000,094264,084742,078333,024394,045385,081628
0000000161,0000160000,092821,087610,076907,032075,034756,084576
0000000162,0000161000,090676,090342,076320,041809,025483,084115
0000000163,0000162000,088043,092666,076629,052636,018481,080290
0000000164,0000163000,085189,094345,077804,063491,014441,073474
0000000165,0000164000,082381,095221,079736,073324,013754,064328
0000000166,0000165000,079892,095212,082234,081174,016483,053749
0000000167,0000166000,077976,094319,085043,086261,022360,042785
0000000168,0000167000,076819,092620,087898,088089,030817,032501
0000000169,0000168000,076528,090285,090524,086486,041030,023891
0000000170,0000169000,077131,087552,092655,081610,051984,017813
0000000171,0000170000,078576,084681,094081,073935,062608,014864
0000000172,0000171000,080723,081946,094669,064203,071881,015322
0000000173,0000172000,083352,079625,094361,053378,078884,019144
0000000174,0000173000,086207,077945,093186,042528,082923,025956
0000000175,0000174000,089019,077065,091254,032696,083613,035098
0000000176,0000175000,091507,077075,088756,024846,080888,045673
0000000177,0000176000,093422,077970,085946,019760,075013,056633
0000000178,0000177000,094583,079665,083091,017930,066560,066916
0000000179,0000178000,094874,082001,080464,019529,056353,075524
0000000180,0000179000,094268,084738,078332,024402,045402,081603
0000000181,0000180000,092827,087606,076905,032074,034779,084554
0000000182,0000181000,090680,090341,076316,041800,025510,084097
0000000183,0000182000,088047,092666,076624,052621,018507,080279
0000000184,0000183000,085194,094346,077799,063469,014465,073472
0000000185,0000184000,082383,095224,079731,073297,013774,064334
0000000186,0000185000,079891,095217,082229,081146,016496,053763
0000000187,0000186000,077975,094324,085039,086235,022365,042807
0000000188,0000187000,076817,092625,087895,088066,030814,032527
0000000189,0000188000,076523,090291,090523,086470,041018,023920
0000000190,0000189000,077127,087556,092655,081602,051963,017841
0000000191,0000190000,078571,084684,094083,073935,062582,014889
0000000192,0000191000,080717,081948,094673,064213,071852,015342
0000000193,0000192000,083348,079625,094365,053397,078854,019155
0000000194,0000193000,086204,077942,093191,042553,082896,025958
0000000195,0000194000,089016,077062,091259,032726,083591,035091
0000000196,0000195000,091506,077071,088761,024877,080873,045657
0000000197,0000196000,093424,077963,085950,019790,075007,056609
0000000198,0000197000,094586,079659,083094,017955,066565,066886
0000000199,0000198000,094877,081996,080465,019547,056367,075492
0000000200,0000199000,094274,084732,078331,024411,045424,081571
0000000201,0000200000,092833,087602,076903,032073,034809,084526
0000000202,0000201000,090686,090340,076312,041789,025543,084076
0000000203,0000202000,088053,092666,076619,052601,018539,080267
0000000204,0000203000,085198,094347,077792,063441,014496,073470
0000000205,0000204000,082385,095228,079725,073265,013799,064342
0000000206,0000205000,079892,095223,082223,081113,016512,053781
0000000207,0000206000,077975,094329,085034,086202,022371,042833
0000000208,0000207000,076813,092632,087892,088038,030809,032559
0000000209,0000208000,076518,090298,090522,086450,041002,023955
0000000210,0000209000,077121,087560,092656,081592,051938,017876
0000000211,0000210000,078564,084687,094086,073936,062551,014919
0000000212,0000211000,080709,081951,094678,064225,071816,015365
0000000213,0000212000,083342,079625,094371,053420,078817,019169
0000000214,0000213000,086200,077940,093198,042584,082863,025961
0000000215,0000214000,089013,077058,091266,032761,083564,035082
0000000216,0000215000,091505,077065,088767,024915,080855,045637
0000000217,0000216000,093426,077956,085956,019825,075001,056581
0000000218,0000217000,094589,079652,083097,017985,066570,066851
0000000219,0000218000,094883,081989,080466,019569,056383,075454
0000000220,0000219000,094282,084726,078330,024422,045451,081533
0000000221,0000220000,092840,087598,076900,032071,034844,084492
0000000222,0000221000,090692,090338,076307,041776,025581,084050
0000000223,0000222000,088060,092666,076612,052577,018579,080251
0000000224,0000223000,085204,094349,077785,063407,014532,073467
0000000225,0000224000,082388,095233,079717,073226,013829,064352
0000000226,0000225000,079893,095229,082216,081072,016531,053803
0000000227,0000226000,077973,094336,085028,086163,022379,042865
0000000228,0000227000,076809,092641,087888,088005,030804,032598
0000000229,0000228000,076512,090305,090520,086427,040983,023997
0000000230,0000229000,077114,087566,092657,081580,051909,017917
0000000231,0000230000,078556,084692,094089,073937,062513,014956
0000000232,0000231000,080701,081954,094683,064240,071773,015393
0000000233,0000232000,083336,079624,094378,053446,078774,019186
0000000234,0000233000,086194,077937,093206,042620,082823,025964
0000000235,0000234000,089009,077054,091275,032804,083532,035071
0000000236,0000235000,091505,077058,088775,024960,080833,045613
0000000237,0000236000,093428,077948,085962,019868,074993,056546
0000000238,0000237000,094592,079644,083101,018021,066576,066809
0000000239,0000238000,094889,081981,080468,019595,056403,075408
0000000240,0000239000,094290,084718,078330,024435,045483,081488
0000000241,0000240000,092848,087593,076896,032070,034885,084453
0000000242,0000241000,090701,090335,076301,041760,025627,084020
0000000243,0000242000,088068,092665,076604,052548,018626,080234
0000000244,0000243000,085209,094352,077776,063368,014576,073463
0000000245,0000244000,082391,095239,079708,073180,013863,064363
0000000246,0000245000,079894,095236,082208,081024,016554,053829
0000000247,0000246000,077971,094345,085022,086117,022388,042902
0000000248,0000247000,076804,092651,087883,087966,030797,032644
0000000249,0000248000,076505,090314,090518,086399,040961,024046
0000000250,0000249000,077106,087574,092658,081566,051875,017965
0000000251,0000250000,078546,084699,094093,073939,062469,014998
0000000252,0000251000,080692,081957,094689,064258,071723,015426
0000000253,0000252000,083328,079623,094387,053478,078724,019205
0000000254,0000253000,086187,077935,093216,042662,082777,025968
0000000255,0000254000,089005,077048,091284,032854,083494,035059
0000000256,0000255000,091504,077049,088784,025013,080809,045586
0000000257,0000256000,093430,077938,085970,019917,074984,056506
0000000258,0000257000,094597,079634,083107,018063,066583,066759
0000000259,0000258000,094897,081971,080470,019625,056426,075355
0000000260,0000259000,094299,084710,078329,024450,045521,081436
0000000261,0000260000,092858,087588,076892,032068,034932,084407
0000000262,0000261000,090712,090332,076294,041741,025681,083985
0000000263,0000262000,088077,092665,076595,052514,018680,080213
0000000264,0000263000,085216,094356,077766,063322,014625,073459
0000000265,0000264000,082396,095245,079697,073126,013903,064377
0000000266,0000265000,079896,095244,082198,080967,016581,053858
0000000267,0000266000,077969,094356,085013,086064,022398,042945
0000000268,0000267000,076798,092662,087878,087922,030789,032697
0000000269,0000268000,076498,090324,090516,086367,040936,024104
0000000270,0000269000,077096,087583,092659,081550,051835,018021
0000000271,0000270000,078534,084706,094098,073941,062417,015047
0000000272,0000271000,080681,081960,094697,064278,071665,015463
0000000273,0000272000,083318,079623,094397,053514,078665,019227
0000000274,0000273000,086179,077931,093227,042712,082724,025971
0000000275,0000274000,089000,077041,091296,032912,083451,035044
0000000276,0000275000,091503,077040,088795,025073,080781,045554
0000000277,0000276000,093432,077927,085978,019974,074974,056459
0000000278,0000277000,094603,079622,083112,018111,066592,066703
0000000279,0000278000,094906,081959,080472,019659,056453,075293
0000000280,0000279000,094310,084701,078327,024466,045564,081376
0000000281,0000280000,092870,087581,076887,032066,034987,084354
0000000282,0000281000,090724,090328,076286,041720,025743,083945
0000000283,0000282000,088088,092665,076585,052474,018743,080190
0000000284,0000283000,085224,094360,077754,063269,014682,073455
0000000285,0000284000,082401,095252,079685,073065,013949,064393
0000000286,0000285000,079897,095254,082187,080903,016611,053893
0000000287,0000286000,077966,094368,085004,086003,022408,042995
0000000288,0000287000,076792,092674,087871,087871,030779,032757
0000000289,0000288000,076489,090336,090513,086331,040907,024169
0000000290,0000289000,077084,087594,092661,081532,051789,018085
0000000291,0000290000,078522,084713,094103,073944,062358,015104
0000000292,0000291000,080669,081964,094705,064301,071599,015506
0000000293,0000292000,083306,079624,094408,053556,078599,019252
0000000294,0000293000,086170,077928,093240,042768,082663,025976
0000000295,0000294000,088995,077034,091309,032978,083402,035027
0000000296,0000295000,091502,077029,088807,025141,080749,045517
0000000297,0000296000,093434,077915,085988,020038,074962,056406
0000000298,0000297000,094610,079609,083119,018166,066602,066638
0000000299,0000298000,094916,081946,080476,019698,056485,075223
0000000300,0000299000,094322,084690,078326,024485,045613,081308
0000000301,0000300000,092884,087572,076881,032063,035050,084294
