DIgSILENT PowerFactory,21000900,2000
6,06A,00D
1,TTPP_200000_100:Secondary Voltage A,,,V,0.10000000,-8248.583984,0.000000,65235,99998,1,1,P
2,TTPP_200000_100:Secondary Voltage B,,,V,0.10000000,-8400.253906,0.000000,66941,99998,1,1,P
3,TTPP_200000_100:Secondary Voltage C,,,V,0.10000000,-8111.369141,0.000000,59384,99998,1,1,P
4,TTCC_500_5:Secondary Current A,,,A,0.0010000000,-79.571198,0.000000,66031,99998,1,1,P
5,TTCC_500_5:Secondary Current B,,,A,0.0010000000,-84.245064,0.000000,68279,99998,1,1,P
6,TTCC_500_5:Secondary Current C,,,A,0.0010000000,-84.968330,0.000000,70128,99998,1,1,P
50
1
1000.000000,1101
30/06/2023,06:10:49.000000
30/06/2023,06:10:49.000000
ASCII
1.000000
0000000001,0000000000,087998,087643,071961,085487,088924,074373
0000000002,0000001000,085450,090076,072075,082471,091641,074672
0000000003,0000002000,082598,091932,073074,079173,093634,075977
0000000004,0000003000,079752,092994,074856,075916,094706,078163
0000000005,0000004000,077170,093175,077258,073014,094753,081017
0000000006,0000005000,075094,092471,080036,070751,093777,084257
0000000007,0000006000,073753,090937,082912,069359,091862,087563
0000000008,0000007000,073275,088710,085617,068963,089203,090618
0000000009,0000008000,073688,086028,087886,069603,086060,093121
0000000010,0000009000,074952,083164,089487,071223,082737,094824
0000000011,0000010000,076974,080363,090266,073658,079564,095562
0000000012,0000011000,079534,077916,090152,076674,076847,095263
0000000013,0000012000,082363,076085,089155,079972,074855,093958
0000000014,0000013000,085217,075014,087370,083231,073781,091772
0000000015,0000014000,087814,074819,084969,086133,073733,088918
0000000016,0000015000,089873,075538,082191,088391,074715,085679
0000000017,0000016000,091209,077078,079315,089789,076623,082372
0000000018,0000017000,091707,079286,076610,090184,079284,079317
0000000019,0000018000,091289,081972,074341,089539,082431,076814
0000000020,0000019000,090006,084856,072741,087924,085750,075111
0000000021,0000020000,088003,087637,071961,085488,088923,074374
0000000022,0000021000,085449,090078,072075,082470,091642,074672
0000000023,0000022000,082596,091934,073072,079172,093635,075977
0000000024,0000023000,079753,092993,074856,075916,094705,078163
0000000025,0000024000,077170,093174,077259,073013,094755,081017
0000000026,0000025000,075094,092473,080036,070751,093777,084257
0000000027,0000026000,073753,090937,082912,069358,091863,087563
0000000028,0000027000,073276,088709,085618,068962,089204,090618
0000000029,0000028000,073685,086030,087886,069604,086059,093121
0000000030,0000029000,074954,083162,089486,071222,082738,094824
0000000031,0000030000,076974,080362,090266,073658,079565,095562
0000000032,0000031000,079530,077920,090153,076674,076848,095263
0000000033,0000032000,082365,076082,089155,079972,074855,093958
0000000034,0000033000,085219,075012,087371,083230,073782,091773
0000000035,0000034000,087810,074822,084970,086132,073734,088919
0000000036,0000035000,089872,075538,082191,088392,074714,085679
0000000037,0000036000,091214,077073,079315,089788,076624,082373
0000000038,0000037000,091705,079287,076610,090182,079285,079318
0000000039,0000038000,091285,081976,074341,089540,082430,076815
0000000040,0000039000,090011,084851,072741,087923,085750,075112
0000000041,0000040000,088005,087635,071961,085487,088923,074374
0000000042,0000041000,085443,090084,072075,082470,091642,074672
0000000043,0000042000,082599,091931,073072,079173,093634,075978
0000000044,0000043000,079757,092989,074856,075916,094706,078163
0000000045,0000044000,077166,093179,077258,073012,094756,081017
0000000046,0000045000,075092,092475,080036,070752,093776,084257
0000000047,0000046000,073759,090932,082912,069358,091864,087563
0000000048,0000047000,073274,088711,085617,068961,089205,090618
0000000049,0000048000,073680,086035,087886,069604,086060,093121
0000000050,0000049000,074958,083158,089486,071222,082739,094824
0000000051,0000050000,076975,080361,090266,073657,079566,095562
0000000052,0000051000,079525,077924,090153,076673,076849,095263
0000000053,0000052000,082366,076081,089155,079972,074855,093958
0000000054,0000053000,085222,075009,087371,083229,073783,091773
0000000055,0000054000,087807,074825,084970,086130,073735,088919
0000000056,0000055000,089871,075539,082192,088392,074713,085680
0000000057,0000056000,091218,077069,079316,089787,076624,082373
0000000058,0000057000,091704,079288,076611,090181,079285,079318
0000000059,0000058000,091283,081978,074341,089539,082430,076815
0000000060,0000059000,090014,084847,072741,087923,085749,075112
0000000061,0000060000,088005,087635,071961,085487,088923,074375
0000000062,0000061000,085442,090086,072074,082470,091641,074673
0000000063,0000062000,082602,091929,073071,079174,093633,075978
0000000064,0000063000,079758,092989,074856,075916,094706,078163
0000000065,0000064000,077164,093181,077257,073013,094755,081017
0000000066,0000065000,075093,092474,080035,070753,093775,084256
0000000067,0000066000,073760,090931,082911,069358,091864,087563
0000000068,0000067000,073271,088714,085617,068962,089206,090617
0000000069,0000068000,073680,086036,087886,069605,086060,093120
0000000070,0000069000,074959,083157,089487,071222,082740,094823
0000000071,0000070000,076972,080364,090267,073656,079567,095561
0000000072,0000071000,079524,077926,090153,076673,076849,095263
0000000073,0000072000,082368,076078,089156,079971,074856,093958
0000000074,0000073000,085220,075009,087373,083227,073785,091773
0000000075,0000074000,087804,074827,084971,086129,073736,088919
0000000076,0000075000,089874,075535,082193,088390,074714,085680
0000000077,0000076000,091218,077067,079317,089785,076625,082374
0000000078,0000077000,091701,079290,076611,090180,079285,079320
0000000079,0000078000,091286,081975,074341,089539,082429,076817
0000000080,0000079000,090017,084844,072741,087922,085749,075114
0000000081,0000080000,088003,087638,071961,085486,088922,074376
0000000082,0000081000,085443,090085,072074,082471,091640,074674
0000000083,0000082000,082606,091926,073070,079174,093632,075979
0000000084,0000083000,079757,092991,074854,075916,094705,078164
0000000085,0000084000,077163,093184,077256,073014,094754,081017
0000000086,0000085000,075096,092472,080033,070755,093774,084255
0000000087,0000086000,073759,090932,082910,069359,091864,087561
0000000088,0000087000,073267,088718,085616,068963,089206,090616
0000000089,0000088000,073681,086035,087885,069606,086060,093118
0000000090,0000089000,074959,083156,089487,071222,082741,094822
0000000091,0000090000,076968,080367,090267,073656,079569,095560
0000000092,0000091000,079522,077926,090154,076672,076851,095262
0000000093,0000092000,082369,076076,089158,079969,074858,093957
0000000094,0000093000,085217,075011,087374,083225,073787,091773
0000000095,0000094000,087803,074826,084973,086128,073737,088920
0000000096,0000095000,089876,075532,082194,088388,074715,085682
0000000097,0000096000,091218,077066,079318,089783,076626,082376
0000000098,0000097000,091700,079290,076612,090179,079284,079322
0000000099,0000098000,091289,081971,074342,089538,082428,076819
0000000100,0000099000,090019,084842,072741,087921,085747,075116
0000000101,0000100000,088003,087638,071960,085486,088920,074378
0000000102,0000101000,085446,090084,072072,082472,091637,074676
0000000103,0000102000,082608,091925,073069,079175,093630,075980
0000000104,0000103000,079757,092993,074852,075918,094703,078164
0000000105,0000104000,077164,093185,077253,073017,094752,081016
0000000106,0000105000,075098,092472,080032,070757,093773,084254
0000000107,0000106000,073757,090936,082909,069361,091864,087559
0000000108,0000107000,073266,088721,085615,068965,089206,090613
0000000109,0000108000,073682,086035,087885,069607,086062,093116
0000000110,0000109000,074956,083159,089487,071222,082744,094819
0000000111,0000110000,076964,080370,090268,073656,079571,095557
0000000112,0000111000,079522,077925,090156,076671,076854,095260
0000000113,0000112000,082367,076076,089160,079967,074862,093956
0000000114,0000113000,085213,075012,087377,083223,073789,091773
0000000115,0000114000,087803,074824,084975,086125,073739,088921
0000000116,0000115000,089877,075528,082197,088385,074717,085683
0000000117,0000116000,091216,077066,079320,089779,076627,082378
0000000118,0000117000,091702,079287,076613,090176,079284,079325
0000000119,0000118000,091293,081967,074342,089535,082427,076822
0000000120,0000119000,090020,084841,072741,087920,085745,075119
0000000121,0000120000,088005,087638,071959,085487,088917,074381
0000000122,0000121000,085451,090081,072070,082473,091634,074678
0000000123,0000122000,082610,091925,073066,079177,093627,075981
0000000124,0000123000,079757,092996,074849,075921,094699,078164
0000000125,0000124000,077167,093185,077250,073020,094749,081015
0000000126,0000125000,075099,092474,080029,070760,093772,084252
0000000127,0000126000,073755,090941,082906,069365,091863,087557
0000000128,0000127000,073265,088723,085613,068968,089206,090610
0000000129,0000128000,073680,086037,087884,069609,086063,093112
0000000130,0000129000,074951,083163,089487,071223,082747,094815
0000000131,0000130000,076961,080372,090269,073656,079575,095554
0000000132,0000131000,079520,077924,090158,076670,076858,095257
0000000133,0000132000,082363,076076,089163,079964,074866,093955
0000000134,0000133000,085210,075012,087380,083219,073793,091772
0000000135,0000134000,087803,074820,084979,086121,073742,088922
0000000136,0000135000,089876,075526,082200,088380,074719,085685
0000000137,0000136000,091215,077064,079323,089775,076628,082382
0000000138,0000137000,091705,079282,076615,090173,079283,079329
0000000139,0000138000,091296,081963,074344,089533,082425,076827
0000000140,0000139000,090022,084840,072740,087919,085742,075124
0000000141,0000140000,088010,087635,071957,085487,088913,074385
0000000142,0000141000,085456,090078,072068,082474,091629,074681
0000000143,0000142000,082613,091927,073063,079180,093622,075983
0000000144,0000143000,079760,092997,074845,075925,094695,078164
0000000145,0000144000,077170,093186,077246,073025,094745,081014
0000000146,0000145000,075099,092478,080025,070765,093770,084250
0000000147,0000146000,073753,090946,082903,069369,091862,087553
0000000148,0000147000,073265,088726,085611,068973,089207,090605
0000000149,0000148000,073677,086041,087884,069612,086066,093107
0000000150,0000149000,074946,083168,089488,071224,082750,094810
0000000151,0000150000,076957,080374,090271,073656,079579,095549
0000000152,0000151000,079516,077925,090161,076668,076863,095254
0000000153,0000152000,082357,076078,089167,079961,074871,093953
0000000154,0000153000,085207,075010,087384,083215,073798,091772
0000000155,0000154000,087802,074816,084983,086115,073746,088923
0000000156,0000155000,089874,075523,082205,088374,074722,085688
0000000157,0000156000,091216,077060,079326,089770,076628,082386
0000000158,0000157000,091709,079276,076618,090168,079282,079334
0000000159,0000158000,091299,081958,074345,089529,082423,076833
0000000160,0000159000,090026,084836,072740,087917,085738,075129
0000000161,0000160000,088016,087631,071955,085487,088908,074390
0000000162,0000161000,085461,090076,072065,082476,091624,074685
0000000163,0000162000,082616,091928,073058,079183,093616,075985
0000000164,0000163000,079764,092998,074840,075931,094689,078165
0000000165,0000164000,077173,093188,077241,073031,094741,081013
0000000166,0000165000,075098,092484,080020,070771,093767,084246
0000000167,0000166000,073752,090951,082899,069376,091861,087548
0000000168,0000167000,073263,088731,085608,068978,089208,090599
0000000169,0000168000,073672,086048,087882,069615,086069,093100
0000000170,0000169000,074941,083173,089488,071226,082755,094804
0000000171,0000170000,076953,080377,090273,073656,079585,095544
0000000172,0000171000,079510,077927,090165,076665,076870,095249
0000000173,0000172000,082351,076079,089172,079957,074878,093950
0000000174,0000173000,085204,075008,087390,083209,073804,091771
0000000175,0000174000,087800,074813,084990,086108,073752,088925
0000000176,0000175000,089873,075519,082210,088367,074725,085692
0000000177,0000176000,091218,077053,079331,089763,076630,082392
0000000178,0000177000,091712,079269,076621,090162,079281,079341
0000000179,0000178000,091303,081953,074346,089525,082420,076840
0000000180,0000179000,090032,084831,072739,087915,085733,075137
0000000181,0000180000,088023,087626,071953,085487,088901,074396
0000000182,0000181000,085467,090075,072060,082478,091616,074690
0000000183,0000182000,082621,091928,073053,079188,093608,075988
0000000184,0000183000,079770,092999,074833,075937,094682,078166
0000000185,0000184000,077176,093192,077234,073038,094735,081011
0000000186,0000185000,075098,092490,080014,070779,093763,084242
0000000187,0000186000,073752,090957,082893,069383,091859,087542
0000000188,0000187000,073260,088738,085604,068984,089209,090591
0000000189,0000188000,073666,086055,087881,069620,086073,093092
0000000190,0000189000,074934,083179,089489,071229,082760,094795
0000000191,0000190000,076946,080380,090276,073655,079593,095536
0000000192,0000191000,079502,077930,090170,076662,076879,095244
0000000193,0000192000,082345,076079,089178,079951,074887,093947
0000000194,0000193000,085200,075004,087398,083202,073812,091771
0000000195,0000194000,087796,074809,084997,086099,073758,088927
0000000196,0000195000,089871,075513,082217,088358,074729,085697
0000000197,0000196000,091220,077045,079337,089755,076631,082399
0000000198,0000197000,091716,079261,076625,090155,079280,079350
0000000199,0000198000,091308,081946,074348,089520,082416,076849
0000000200,0000199000,090040,084824,072738,087912,085726,075146
0000000201,0000200000,088032,087620,071949,085487,088893,074404
0000000202,0000201000,085474,090073,072055,082482,091607,074696
0000000203,0000202000,082629,091928,073045,079194,093598,075992
0000000204,0000203000,079776,093001,074825,075945,094673,078166
0000000205,0000204000,077178,093198,077226,073048,094729,081009
0000000206,0000205000,075099,092497,080006,070789,093758,084237
0000000207,0000206000,073751,090964,082887,069393,091858,087534
0000000208,0000207000,073255,088747,085600,068992,089211,090582
0000000209,0000208000,073659,086064,087879,069626,086077,093082
0000000210,0000209000,074927,083186,089490,071232,082767,094785
0000000211,0000210000,076937,080386,090280,073655,079602,095528
0000000212,0000211000,079492,077934,090176,076659,076889,095237
0000000213,0000212000,082337,076079,089186,079945,074897,093943
0000000214,0000213000,085194,075001,087407,083193,073822,091770
0000000215,0000214000,087791,074804,085007,086089,073766,088929
0000000216,0000215000,089870,075506,082226,088347,074734,085703
0000000217,0000216000,091223,077035,079344,089745,076633,082407
0000000218,0000217000,091720,079252,076630,090146,079279,079360
0000000219,0000218000,091315,081937,074350,089514,082411,076860
0000000220,0000219000,090050,084815,072737,087909,085718,075157
0000000221,0000220000,088041,087615,071946,085488,088883,074414
0000000222,0000221000,085483,090070,072048,082486,091595,074703
0000000223,0000222000,082638,091927,073037,079201,093587,075996
0000000224,0000223000,079783,093004,074815,075955,094663,078167
0000000225,0000224000,077182,093204,077216,073059,094720,081006
0000000226,0000225000,075101,092505,079996,070801,093753,084231
0000000227,0000226000,073749,090974,082879,069404,091856,087525
0000000228,0000227000,073249,088758,085595,069001,089212,090571
0000000229,0000228000,073651,086074,087876,069632,086082,093070
0000000230,0000229000,074918,083194,089491,071235,082776,094774
0000000231,0000230000,076926,080392,090284,073654,079613,095517
0000000232,0000231000,079482,077938,090183,076654,076901,095229
0000000233,0000232000,082329,076078,089195,079937,074909,093938
0000000234,0000233000,085186,074998,087418,083182,073833,091769
0000000235,0000234000,087786,074798,085018,086077,073775,088933
0000000236,0000235000,089870,075496,082236,088335,074740,085709
0000000237,0000236000,091225,077024,079353,089732,076635,082417
0000000238,0000237000,091725,079241,076636,090136,079277,079372
0000000239,0000238000,091324,081926,074352,089506,082405,076874
0000000240,0000239000,090061,084806,072736,087906,085709,075170
0000000241,0000240000,088053,087608,071941,085488,088871,074425
0000000242,0000241000,085495,090067,072040,082490,091582,074712
0000000243,0000242000,082649,091927,073026,079210,093574,076001
0000000244,0000243000,079791,093008,074804,075966,094651,078168
0000000245,0000244000,077187,093212,077204,073072,094710,081002
0000000246,0000245000,075103,092514,079985,070815,093746,084223
0000000247,0000246000,073746,090986,082870,069417,091853,087514
0000000248,0000247000,073243,088771,085588,069012,089214,090558
0000000249,0000248000,073642,086086,087874,069640,086088,093056
0000000250,0000249000,074906,083204,089492,071239,082786,094760
0000000251,0000250000,076912,080401,090289,073654,079626,095505
0000000252,0000251000,079469,077942,090191,076649,076915,095220
0000000253,0000252000,082318,076078,089207,079928,074924,093933
0000000254,0000253000,085177,074994,087431,083170,073846,091768
0000000255,0000254000,087781,074791,085031,086063,073786,088936
0000000256,0000255000,089869,075485,082248,088320,074747,085718
0000000257,0000256000,091228,077012,079363,089718,076638,082429
0000000258,0000257000,091732,079228,076643,090124,079275,079386
0000000259,0000258000,091334,081913,074355,089498,082398,076889
0000000260,0000259000,090073,084794,072735,087901,085698,075185
0000000261,0000260000,088066,087600,071935,085489,088857,074439
0000000262,0000261000,085509,090062,072031,082496,091567,074722
0000000263,0000262000,082661,091926,073014,079220,093558,076007
0000000264,0000263000,079800,093012,074790,075979,094637,078169
0000000265,0000264000,077193,093220,077189,073088,094699,080998
0000000266,0000265000,075105,092526,079972,070831,093739,084215
0000000267,0000266000,073743,091000,082859,069432,091851,087501
0000000268,0000267000,073236,088786,085581,069025,089217,090542
0000000269,0000268000,073632,086099,087870,069650,086096,093039
0000000270,0000269000,074893,083216,089494,071243,082798,094744
0000000271,0000270000,076897,080410,090295,073653,079641,095491
0000000272,0000271000,079455,077946,090201,076644,076932,095209
0000000273,0000272000,082305,076078,089220,079917,074941,093926
0000000274,0000273000,085166,074990,087445,083156,073862,091767
0000000275,0000274000,087774,074782,085046,086046,073798,088941
0000000276,0000275000,089867,075472,082263,088302,074755,085727
0000000277,0000276000,091230,076997,079374,089702,076641,082442
0000000278,0000277000,091739,079212,076651,090110,079272,079403
0000000279,0000278000,091346,081898,074359,089488,082390,076907
0000000280,0000279000,090087,084782,072733,087897,085686,075202
0000000281,0000280000,088082,087591,071929,085490,088841,074454
0000000282,0000281000,085525,090056,072021,082502,091549,074733
0000000283,0000282000,082675,091926,073001,079231,093540,076014
0000000284,0000283000,079811,093018,074774,075995,094620,078170
0000000285,0000284000,077200,093229,077173,073106,094685,080994
0000000286,0000285000,075107,092539,079957,070850,093730,084205
0000000287,0000286000,073740,091016,082847,069450,091848,087487
0000000288,0000287000,073228,088802,085572,069040,089220,090525
0000000289,0000288000,073620,086115,087867,069660,086104,093020
0000000290,0000289000,074877,083230,089495,071248,082811,094725
0000000291,0000290000,076881,080420,090302,073652,079658,095475
0000000292,0000291000,079438,077952,090212,076637,076951,095197
0000000293,0000292000,082289,076078,089235,079905,074960,093919
0000000294,0000293000,085154,074985,087462,083139,073879,091766
0000000295,0000294000,087767,074771,085063,086027,073812,088946
0000000296,0000295000,089865,075458,082279,088282,074764,085738
0000000297,0000296000,091234,076981,079388,089683,076644,082458
0000000298,0000297000,091748,079194,076660,090095,079269,079421
0000000299,0000298000,091359,081880,074363,089477,082381,076927
0000000300,0000299000,090103,084767,072732,087891,085672,075221
0000000301,0000300000,088100,087580,071922,085491,088823,074471
