DIgSILENT PowerFactory,21000900,2000
6,06A,00D
1,TTPP_200000_100:Secondary Voltage A,,,V,0.10000000,-8405.947266,0.000000,67969,99998,1,1,P
2,TTPP_200000_100:Secondary Voltage B,,,V,0.10000000,-8408.781250,0.000000,69024,99998,1,1,P
3,TTPP_200000_100:Secondary Voltage C,,,V,0.10000000,-8441.718750,0.000000,66112,99998,1,1,P
4,TTCC_500_5:Secondary Current A,,,A,0.0010000000,-86.105919,0.000000,65884,99998,1,1,P
5,TTCC_500_5:Secondary Current B,,,A,0.0010000000,-85.019081,0.000000,70058,99998,1,1,P
6,TTCC_500_5:Secondary Current C,,,A,0.0010000000,-84.657768,0.000000,69318,99998,1,1,P
50
1
1000.000000,1101
30/06/2023,06:07:04.000000
30/06/2023,06:07:04.000000
ASCII
1.000000
0000000001,0000000000,089571,087728,075265,092021,089699,074063
0000000002,0000001000,087023,090162,075379,089006,092415,074361
0000000003,0000002000,084172,092017,076377,085707,094409,075667
0000000004,0000003000,081326,093078,078160,082452,095479,077853
0000000005,0000004000,078742,093261,080562,079547,095529,080707
0000000006,0000005000,076670,092554,083340,077287,094550,083946
0000000007,0000006000,075324,091024,086215,075893,092637,087253
0000000008,0000007000,074851,088793,088921,075498,089977,090308
0000000009,0000008000,075260,086115,091190,076139,086833,092811
0000000010,0000009000,076527,083248,092790,077757,083512,094514
0000000011,0000010000,078547,080449,093569,080194,080337,095251
0000000012,0000011000,081108,078001,093455,083209,077622,094953
0000000013,0000012000,083936,076170,092458,086507,075629,093647
0000000014,0000013000,086790,075100,090674,089766,074555,091462
0000000015,0000014000,089388,074904,088273,092668,074507,088608
0000000016,0000015000,091447,075622,085495,094926,075489,085368
0000000017,0000016000,092782,077164,082619,096324,077398,082061
0000000018,0000017000,093281,079370,079914,096718,080058,079006
0000000019,0000018000,092862,082058,077644,096074,083205,076503
0000000020,0000019000,091580,084940,076044,094458,086525,074800
0000000021,0000020000,089576,087723,075265,092023,089696,074063
0000000022,0000021000,087023,090163,075379,089004,092417,074362
0000000023,0000022000,084170,092018,076376,085707,094409,075667
0000000024,0000023000,081326,093078,078160,082450,095480,077853
0000000025,0000024000,078744,093259,080562,079547,095529,080707
0000000026,0000025000,076667,092558,083339,077286,094551,083946
0000000027,0000026000,075327,091022,086215,075893,092637,087253
0000000028,0000027000,074849,088794,088921,075497,089978,090308
0000000029,0000028000,075258,086116,091190,076139,086833,092811
0000000030,0000029000,076528,083247,092790,077756,083513,094514
0000000031,0000030000,078548,080447,093569,080193,080338,095252
0000000032,0000031000,081103,078006,093456,083208,077622,094953
0000000033,0000032000,083939,076167,092458,086507,075628,093647
0000000034,0000033000,086793,075097,090674,089765,074556,091462
0000000035,0000034000,089384,074907,088273,092666,074508,088608
0000000036,0000035000,091445,075624,085495,094927,075488,085368
0000000037,0000036000,092789,077158,082619,096323,077398,082062
0000000038,0000037000,093278,079373,079914,096717,080059,079007
0000000039,0000038000,092858,082062,077645,096074,083205,076504
0000000040,0000039000,091585,084935,076044,094458,086524,074801
0000000041,0000040000,089579,087720,075265,092022,089698,074063
0000000042,0000041000,087016,090169,075379,089004,092416,074362
0000000043,0000042000,084172,092016,076376,085708,094408,075667
0000000044,0000043000,081331,093074,078160,082450,095480,077853
0000000045,0000044000,078740,093263,080561,079546,095530,080707
0000000046,0000045000,076665,092560,083339,077287,094550,083946
0000000047,0000046000,075332,091017,086215,075893,092637,087253
0000000048,0000047000,074848,088796,088921,075496,089979,090308
0000000049,0000048000,075254,086121,091190,076139,086833,092811
0000000050,0000049000,076531,083244,092790,077757,083512,094514
0000000051,0000050000,078549,080446,093570,080192,080340,095251
0000000052,0000051000,081099,078010,093456,083208,077622,094953
0000000053,0000052000,083939,076166,092459,086507,075629,093648
0000000054,0000053000,086795,075094,090675,089764,074557,091462
0000000055,0000054000,089381,074910,088274,092665,074509,088608
0000000056,0000055000,091445,075624,085495,094926,075487,085369
0000000057,0000056000,092791,077154,082619,096322,077399,082062
0000000058,0000057000,093277,079373,079914,096716,080059,079008
0000000059,0000058000,092857,082063,077645,096074,083204,076505
0000000060,0000059000,091588,084932,076044,094458,086523,074802
0000000061,0000060000,089578,087721,075265,092021,089697,074064
0000000062,0000061000,087016,090171,075378,089005,092416,074362
0000000063,0000062000,084175,092014,076375,085708,094407,075668
0000000064,0000063000,081332,093074,078159,082450,095480,077853
0000000065,0000064000,078738,093266,080561,079547,095529,080707
0000000066,0000065000,076668,092559,083338,077288,094549,083946
0000000067,0000066000,075333,091016,086215,075893,092638,087252
0000000068,0000067000,074844,088800,088920,075496,089979,090307
0000000069,0000068000,075254,086121,091189,076139,086834,092810
0000000070,0000069000,076533,083242,092790,077757,083513,094513
0000000071,0000070000,078545,080449,093570,080191,080341,095251
0000000072,0000071000,081097,078011,093457,083208,077623,094952
0000000073,0000072000,083942,076163,092459,086506,075630,093647
0000000074,0000073000,086793,075095,090676,089762,074559,091462
0000000075,0000074000,089378,074912,088275,092664,074510,088609
0000000076,0000075000,091448,075620,085496,094925,075488,085370
0000000077,0000076000,092792,077152,082620,096320,077400,082064
0000000078,0000077000,093274,079376,079915,096715,080059,079009
0000000079,0000078000,092859,082060,077645,096074,083203,076506
0000000080,0000079000,091591,084929,076044,094457,086523,074803
0000000081,0000080000,089577,087723,075264,092021,089697,074065
0000000082,0000081000,087016,090171,075377,089005,092414,074363
0000000083,0000082000,084179,092011,076374,085709,094406,075668
0000000084,0000083000,081331,093076,078158,082451,095479,077853
0000000085,0000084000,078736,093269,080559,079549,095528,080706
0000000086,0000085000,076670,092557,083337,077289,094548,083945
0000000087,0000086000,075333,091018,086214,075894,092638,087251
0000000088,0000087000,074841,088803,088920,075498,089980,090305
0000000089,0000088000,075255,086121,091189,076141,086834,092808
0000000090,0000089000,076533,083242,092790,077757,083515,094511
0000000091,0000090000,078542,080453,093571,080191,080343,095249
0000000092,0000091000,081096,078011,093458,083207,077625,094951
0000000093,0000092000,083942,076161,092461,086504,075632,093647
0000000094,0000093000,086790,075096,090678,089760,074561,091462
0000000095,0000094000,089377,074912,088276,092662,074511,088609
0000000096,0000095000,091449,075617,085498,094923,075489,085371
0000000097,0000096000,092791,077152,082622,096317,077400,082065
0000000098,0000097000,093274,079375,079916,096713,080059,079011
0000000099,0000098000,092863,082056,077645,096072,083202,076508
0000000100,0000099000,091593,084928,076044,094456,086522,074805
0000000101,0000100000,089577,087724,075264,092021,089695,074067
0000000102,0000101000,087020,090169,075376,089006,092411,074365
0000000103,0000102000,084182,092010,076372,085710,094404,075669
0000000104,0000103000,081330,093079,078156,082453,095477,077853
0000000105,0000104000,078738,093270,080557,079551,095526,080706
0000000106,0000105000,076672,092557,083335,077292,094547,083944
0000000107,0000106000,075331,091022,086212,075896,092638,087249
0000000108,0000107000,074840,088806,088918,075500,089980,090303
0000000109,0000108000,075255,086120,091188,076142,086835,092805
0000000110,0000109000,076530,083245,092790,077757,083517,094508
0000000111,0000110000,078538,080456,093571,080191,080345,095247
0000000112,0000111000,081096,078010,093459,083206,077627,094949
0000000113,0000112000,083940,076161,092463,086502,075635,093646
0000000114,0000113000,086787,075098,090680,089758,074563,091462
0000000115,0000114000,089377,074909,088278,092660,074513,088610
0000000116,0000115000,091450,075614,085500,094920,075491,085372
0000000117,0000116000,092790,077151,082624,096314,077401,082068
0000000118,0000117000,093275,079372,079917,096711,080058,079014
0000000119,0000118000,092866,082052,077646,096070,083201,076512
0000000120,0000119000,091594,084927,076044,094454,086520,074809
0000000121,0000120000,089579,087723,075262,092021,089691,074070
0000000122,0000121000,087024,090166,075374,089007,092408,074367
0000000123,0000122000,084184,092010,076370,085711,094401,075671
0000000124,0000123000,081331,093081,078153,082456,095474,077854
0000000125,0000124000,078741,093270,080554,079555,095523,080705
0000000126,0000125000,076673,092559,083332,077295,094546,083942
0000000127,0000126000,075329,091026,086210,075899,092637,087246
0000000128,0000127000,074839,088809,088916,075503,089980,090299
0000000129,0000128000,075254,086122,091188,076144,086837,092802
0000000130,0000129000,076525,083249,092791,077758,083520,094505
0000000131,0000130000,078534,080458,093573,080191,080349,095243
0000000132,0000131000,081094,078010,093461,083205,077631,094947
0000000133,0000132000,083936,076162,092466,086499,075640,093644
0000000134,0000133000,086784,075097,090683,089754,074567,091462
0000000135,0000134000,089377,074906,088282,092656,074516,088611
0000000136,0000135000,091449,075611,085504,094915,075493,085375
0000000137,0000136000,092789,077149,082626,096310,077402,082071
0000000138,0000137000,093279,079368,079919,096708,080057,079018
0000000139,0000138000,092870,082048,077647,096067,083199,076516
0000000140,0000139000,091596,084925,076044,094453,086517,074813
0000000141,0000140000,089583,087720,075261,092021,089687,074074
0000000142,0000141000,087029,090163,075371,089009,092404,074370
0000000143,0000142000,084186,092012,076367,085714,094396,075672
0000000144,0000143000,081334,093082,078149,082460,095469,077854
0000000145,0000144000,078744,093271,080550,079560,095519,080704
0000000146,0000145000,076672,092563,083329,077300,094544,083939
0000000147,0000146000,075327,091031,086206,075904,092636,087242
0000000148,0000147000,074838,088812,088914,075507,089981,090295
0000000149,0000148000,075251,086127,091187,076146,086840,092797
0000000150,0000149000,076520,083254,092791,077759,083524,094500
0000000151,0000150000,078531,080459,093574,080191,080353,095239
0000000152,0000151000,081090,078010,093464,083203,077637,094943
0000000153,0000152000,083931,076163,092470,086496,075645,093642
0000000154,0000153000,086781,075096,090688,089750,074572,091461
0000000155,0000154000,089376,074902,088287,092650,074520,088612
0000000156,0000155000,091448,075608,085508,094909,075496,085378
0000000157,0000156000,092790,077145,082630,096305,077403,082075
0000000158,0000157000,093282,079361,079921,096703,080056,079024
0000000159,0000158000,092873,082044,077648,096064,083197,076522
0000000160,0000159000,091600,084922,076043,094452,086512,074819
0000000161,0000160000,089590,087716,075259,092022,089682,074079
0000000162,0000161000,087034,090162,075368,089011,092398,074374
0000000163,0000162000,084190,092013,076362,085718,094390,075675
0000000164,0000163000,081338,093083,078143,082465,095463,077855
0000000165,0000164000,078747,093273,080545,079565,095515,080702
0000000166,0000165000,076672,092569,083324,077306,094541,083936
0000000167,0000166000,075326,091036,086202,075910,092635,087237
0000000168,0000167000,074837,088816,088911,075512,089982,090289
0000000169,0000168000,075246,086133,091186,076150,086843,092790
0000000170,0000169000,076514,083259,092792,077761,083528,094493
0000000171,0000170000,078526,080462,093577,080191,080359,095233
0000000172,0000171000,081084,078013,093468,083200,077644,094939
0000000173,0000172000,083925,076164,092475,086492,075652,093639
0000000174,0000173000,086778,075093,090694,089744,074578,091461
0000000175,0000174000,089373,074898,088293,092643,074526,088614
0000000176,0000175000,091446,075604,085514,094902,075499,085381
0000000177,0000176000,092792,077138,082635,096298,077404,082081
0000000178,0000177000,093286,079354,079925,096697,080056,079030
0000000179,0000178000,092876,082039,077650,096059,083194,076529
0000000180,0000179000,091606,084916,076042,094450,086507,074826
0000000181,0000180000,089597,087711,075256,092022,089675,074086
0000000182,0000181000,087040,090160,075364,089013,092390,074379
0000000183,0000182000,084195,092013,076356,085723,094382,075678
0000000184,0000183000,081344,093084,078137,082472,095456,077855
0000000185,0000184000,078749,093278,080538,079573,095509,080701
0000000186,0000185000,076672,092575,083317,077314,094537,083932
0000000187,0000186000,075326,091042,086197,075918,092633,087231
0000000188,0000187000,074833,088823,088908,075519,089983,090281
0000000189,0000188000,075239,086141,091184,076155,086846,092782
0000000190,0000189000,076508,083264,092792,077764,083534,094485
0000000191,0000190000,078520,080466,093580,080190,080367,095226
0000000192,0000191000,081076,078016,093473,083197,077653,094933
0000000193,0000192000,083919,076164,092482,086486,075660,093636
0000000194,0000193000,086773,075090,090701,089737,074586,091460
0000000195,0000194000,089369,074894,088301,092634,074532,088616
0000000196,0000195000,091445,075599,085521,094893,075504,085386
0000000197,0000196000,092794,077130,082640,096290,077405,082088
0000000198,0000197000,093290,079346,079929,096689,080055,079039
0000000199,0000198000,092882,082032,077651,096054,083190,076539
0000000200,0000199000,091614,084909,076042,094447,086500,074835
0000000201,0000200000,089605,087706,075253,092022,089667,074094
0000000202,0000201000,087047,090158,075358,089016,092381,074385
0000000203,0000202000,084203,092013,076349,085729,094373,075681
0000000204,0000203000,081350,093086,078129,082480,095447,077856
0000000205,0000204000,078752,093283,080529,079582,095503,080698
0000000206,0000205000,076673,092582,083309,077324,094532,083927
0000000207,0000206000,075324,091050,086190,075927,092632,087224
0000000208,0000207000,074829,088832,088903,075526,089984,090272
0000000209,0000208000,075233,086150,091182,076160,086851,092771
0000000210,0000209000,076501,083271,092793,077767,083541,094475
0000000211,0000210000,078511,080471,093583,080190,080376,095217
0000000212,0000211000,081066,078019,093479,083194,077663,094926
0000000213,0000212000,083911,076164,092489,086480,075671,093632
0000000214,0000213000,086767,075087,090710,089728,074596,091459
0000000215,0000214000,089365,074889,088310,092624,074540,088619
0000000216,0000215000,091444,075591,085529,094882,075508,085392
0000000217,0000216000,092796,077120,082648,096279,077407,082096
0000000218,0000217000,093294,079337,079934,096681,080053,079049
0000000219,0000218000,092889,082023,077653,096048,083185,076550
0000000220,0000219000,091623,084901,076041,094444,086493,074846
0000000221,0000220000,089615,087700,075249,092022,089657,074103
0000000222,0000221000,087057,090156,075352,089020,092370,074393
0000000223,0000222000,084212,092012,076340,085736,094361,075686
0000000224,0000223000,081357,093089,078119,082489,095437,077857
0000000225,0000224000,078756,093290,080519,079594,095494,080695
0000000226,0000225000,076674,092590,083300,077336,094527,083920
0000000227,0000226000,075323,091059,086183,075939,092630,087215
0000000228,0000227000,074823,088843,088898,075536,089986,090261
0000000229,0000228000,075225,086160,091180,076167,086856,092759
0000000230,0000229000,076491,083279,092794,077770,083550,094463
0000000231,0000230000,078499,080478,093588,080189,080387,095207
0000000232,0000231000,081055,078023,093486,083189,077675,094918
0000000233,0000232000,083902,076163,092499,086472,075683,093627
0000000234,0000233000,086760,075083,090721,089717,074607,091458
0000000235,0000234000,089360,074883,088321,092612,074549,088622
0000000236,0000235000,091443,075581,085540,094870,075514,085399
0000000237,0000236000,092799,077110,082656,096267,077410,082106
0000000238,0000237000,093299,079326,079940,096670,080051,079061
0000000239,0000238000,092897,082012,077656,096041,083179,076563
0000000240,0000239000,091634,084891,076039,094440,086483,074859
0000000241,0000240000,089626,087694,075245,092023,089645,074115
0000000242,0000241000,087068,090152,075344,089025,092356,074401
0000000243,0000242000,084223,092012,076330,085744,094348,075691
0000000244,0000243000,081365,093093,078107,082500,095425,077858
0000000245,0000244000,078761,093297,080507,079607,095484,080692
0000000246,0000245000,076676,092600,083289,077350,094520,083913
0000000247,0000246000,075320,091071,086173,075952,092627,087204
0000000248,0000247000,074816,088856,088892,075547,089988,090247
0000000249,0000248000,075216,086171,091177,076175,086862,092745
0000000250,0000249000,076480,083289,092796,077774,083560,094449
0000000251,0000250000,078486,080486,093593,080189,080400,095194
0000000252,0000251000,081043,078027,093495,083184,077689,094909
0000000253,0000252000,083891,076163,092510,086463,075698,093622
0000000254,0000253000,086750,075080,090734,089705,074620,091458
0000000255,0000254000,089354,074876,088334,092597,074560,088626
0000000256,0000255000,091442,075570,085552,094854,075521,085407
0000000257,0000256000,092801,077097,082666,096253,077412,082118
0000000258,0000257000,093305,079313,079946,096658,080049,079075
0000000259,0000258000,092908,081998,077659,096032,083172,076578
0000000260,0000259000,091646,084880,076038,094436,086473,074874
0000000261,0000260000,089639,087686,075239,092023,089631,074128
0000000262,0000261000,087082,090147,075335,089030,092341,074411
0000000263,0000262000,084235,092012,076318,085754,094332,075697
0000000264,0000263000,081374,093098,078093,082514,095411,077858
0000000265,0000264000,078767,093305,080493,079622,095473,080688
0000000266,0000265000,076678,092611,083276,077366,094513,083904
0000000267,0000266000,075317,091085,086163,075967,092625,087191
0000000268,0000267000,074809,088871,088884,075560,089991,090232
0000000269,0000268000,075206,086185,091174,076184,086870,092729
0000000270,0000269000,076466,083301,092797,077778,083572,094433
0000000271,0000270000,078471,080495,093598,080188,080415,095180
0000000272,0000271000,081029,078032,093505,083178,077706,094898
0000000273,0000272000,083878,076163,092523,086452,075715,093616
0000000274,0000273000,086740,075076,090749,089691,074636,091456
0000000275,0000274000,089348,074867,088349,092581,074572,088630
0000000276,0000275000,091440,075558,085566,094837,075529,085416
0000000277,0000276000,092804,077083,082678,096236,077415,082131
0000000278,0000277000,093313,079298,079954,096645,080046,079092
0000000279,0000278000,092919,081983,077662,096023,083164,076596
0000000280,0000279000,091661,084867,076037,094431,086460,074891
0000000281,0000280000,089655,087676,075233,092024,089615,074143
0000000282,0000281000,087098,090142,075324,089037,092323,074423
0000000283,0000282000,084249,092011,076304,085765,094314,075703
0000000284,0000283000,081385,093103,078077,082529,095394,077860
0000000285,0000284000,078774,093314,080477,079640,095459,080683
0000000286,0000285000,076680,092624,083261,077384,094504,083894
0000000287,0000286000,075313,091101,086150,075984,092622,087177
0000000288,0000287000,074801,088887,088875,075575,089993,090215
0000000289,0000288000,075194,086201,091170,076195,086878,092710
0000000290,0000289000,076451,083315,092799,077783,083585,094415
0000000291,0000290000,078454,080505,093605,080187,080432,095164
0000000292,0000291000,081012,078037,093516,083172,077725,094886
0000000293,0000292000,083863,076164,092538,086440,075734,093609
0000000294,0000293000,086728,075071,090766,089674,074653,091455
0000000295,0000294000,089341,074857,088367,092562,074586,088635
0000000296,0000295000,091438,075544,085582,094817,075539,085427
0000000297,0000296000,092807,077066,082691,096218,077418,082147
0000000298,0000297000,093322,079280,079964,096629,080043,079111
0000000299,0000298000,092933,081966,077666,096012,083155,076616
0000000300,0000299000,091677,084853,076035,094426,086446,074911
0000000301,0000300000,089673,087665,075226,092025,089597,074160
