DIgSILENT PowerFactory,21000900,2000
6,06A,00D
1,TTPP_200000_100:Secondary Voltage A,,,V,0.10000000,-8252.014648,0.000000,64831,99998,1,1,P
2,TTPP_200000_100:Secondary Voltage B,,,V,0.10000000,-8380.516602,0.000000,66367,99998,1,1,P
3,TTPP_200000_100:Secondary Voltage C,,,V,0.10000000,-8117.517578,0.000000,59524,99998,1,1,P
4,TTCC_500_5:Secondary Current A,,,A,0.0010000000,-79.391457,0.000000,65867,99998,1,1,P
5,TTCC_500_5:Secondary Current B,,,A,0.0010000000,-84.221855,0.000000,68123,99998,1,1,P
6,TTCC_500_5:Secondary Current C,,,A,0.0010000000,-84.965508,0.000000,70141,99998,1,1,P
50
1
1000.000000,1101
30/06/2023,06:09:53.000000
30/06/2023,06:09:53.000000
ASCII
1.000000
0000000001,0000000000,088032,087446,072023,085307,088901,074370
0000000002,0000001000,085484,089879,072137,082292,091618,074669
0000000003,0000002000,082632,091735,073135,078993,093611,075974
0000000004,0000003000,079787,092796,074918,075736,094683,078160
0000000005,0000004000,077204,092978,077319,072834,094730,081014
0000000006,0000005000,075129,092273,080098,070571,093754,084254
0000000007,0000006000,073787,090740,082973,069179,091839,087560
0000000008,0000007000,073309,088513,085679,068783,089180,090615
0000000009,0000008000,073722,085830,087948,069424,086036,093119
0000000010,0000009000,074986,082967,089548,071043,082714,094821
0000000011,0000010000,077008,080165,090327,073479,079541,095559
0000000012,0000011000,079568,077719,090213,076495,076824,095260
0000000013,0000012000,082397,075887,089217,079792,074832,093955
0000000014,0000013000,085251,074816,087432,083052,073757,091769
0000000015,0000014000,087848,074622,085031,085953,073710,088915
0000000016,0000015000,089908,075340,082253,088212,074691,085676
0000000017,0000016000,091243,076881,079377,089610,076600,082369
0000000018,0000017000,091742,079088,076672,090004,079261,079314
0000000019,0000018000,091323,081775,074402,089360,082408,076811
0000000020,0000019000,090040,084658,072802,087743,085727,075108
0000000021,0000020000,088038,087439,072023,085309,088899,074371
0000000022,0000021000,085482,089881,072137,082290,091619,074669
0000000023,0000022000,082631,091736,073134,078992,093612,075975
0000000024,0000023000,079787,092796,074918,075737,094682,078160
0000000025,0000024000,077205,092976,077320,072833,094732,081014
0000000026,0000025000,075128,092275,080097,070572,093753,084254
0000000027,0000026000,073787,090740,082973,069178,091840,087561
0000000028,0000027000,073310,088511,085679,068782,089181,090615
0000000029,0000028000,073719,085833,087948,069424,086036,093118
0000000030,0000029000,074988,082965,089548,071042,082715,094822
0000000031,0000030000,077009,080165,090328,073479,079541,095559
0000000032,0000031000,079564,077723,090214,076494,076825,095261
0000000033,0000032000,082400,075885,089216,079792,074832,093955
0000000034,0000033000,085253,074815,087432,083050,073759,091770
0000000035,0000034000,087845,074624,085031,085952,073711,088916
0000000036,0000035000,089906,075341,082253,088212,074690,085676
0000000037,0000036000,091249,076875,079377,089608,076601,082370
0000000038,0000037000,091739,079090,076672,090003,079261,079315
0000000039,0000038000,091319,081779,074403,089360,082407,076812
0000000040,0000039000,090046,084653,072802,087744,085726,075109
0000000041,0000040000,088039,087438,072023,085307,088900,074371
0000000042,0000041000,085477,089886,072137,082290,091619,074670
0000000043,0000042000,082633,091734,073133,078994,093610,075975
0000000044,0000043000,079792,092792,074917,075736,094683,078160
0000000045,0000044000,077200,092981,077320,072832,094732,081014
0000000046,0000045000,075126,092277,080097,070573,093752,084254
0000000047,0000046000,073793,090734,082973,069178,091840,087560
0000000048,0000047000,073308,088513,085679,068782,089182,090615
0000000049,0000048000,073715,085838,087948,069424,086036,093118
0000000050,0000049000,074992,082961,089548,071042,082715,094821
0000000051,0000050000,077009,080164,090328,073477,079543,095559
0000000052,0000051000,079559,077727,090214,076493,076825,095260
0000000053,0000052000,082400,075883,089217,079792,074831,093955
0000000054,0000053000,085256,074811,087433,083049,073760,091770
0000000055,0000054000,087841,074627,085032,085951,073712,088916
0000000056,0000055000,089905,075341,082253,088212,074690,085677
0000000057,0000056000,091252,076871,079377,089607,076601,082370
0000000058,0000057000,091738,079091,076672,090001,079262,079316
0000000059,0000058000,091318,081780,074403,089359,082407,076813
0000000060,0000059000,090049,084650,072802,087744,085726,075110
0000000061,0000060000,088039,087438,072023,085307,088900,074372
0000000062,0000061000,085476,089888,072136,082290,091618,074670
0000000063,0000062000,082636,091732,073133,078994,093610,075975
0000000064,0000063000,079792,092791,074917,075736,094682,078161
0000000065,0000064000,077198,092984,077319,072833,094732,081014
0000000066,0000065000,075128,092277,080096,070573,093752,084253
0000000067,0000066000,073794,090734,082973,069178,091841,087560
0000000068,0000067000,073305,088517,085679,068782,089182,090614
0000000069,0000068000,073715,085838,087947,069425,086037,093117
0000000070,0000069000,074993,082959,089548,071042,082716,094820
0000000071,0000070000,077006,080166,090328,073477,079544,095558
0000000072,0000071000,079558,077728,090215,076493,076826,095260
0000000073,0000072000,082403,075880,089217,079791,074833,093955
0000000074,0000073000,085254,074812,087434,083047,073761,091770
0000000075,0000074000,087839,074629,085033,085950,073713,088917
0000000076,0000075000,089908,075338,082254,088211,074691,085677
0000000077,0000076000,091252,076870,079378,089605,076602,082372
0000000078,0000077000,091735,079093,076673,090000,079262,079317
0000000079,0000078000,091320,081778,074403,089359,082406,076814
0000000080,0000079000,090052,084647,072802,087742,085725,075111
0000000081,0000080000,088037,087440,072022,085306,088899,074373
0000000082,0000081000,085477,089888,072135,082291,091616,074671
0000000083,0000082000,082640,091729,073132,078994,093608,075976
0000000084,0000083000,079792,092793,074916,075737,094682,078161
0000000085,0000084000,077197,092986,077317,072835,094731,081014
0000000086,0000085000,075131,092275,080095,070575,093751,084253
0000000087,0000086000,073794,090735,082972,069179,091841,087559
0000000088,0000087000,073302,088521,085678,068783,089183,090613
0000000089,0000088000,073716,085838,087947,069426,086037,093116
0000000090,0000089000,074993,082959,089548,071042,082718,094819
0000000091,0000090000,077002,080170,090329,073476,079546,095557
0000000092,0000091000,079557,077728,090216,076493,076828,095259
0000000093,0000092000,082403,075878,089219,079789,074835,093954
0000000094,0000093000,085251,074813,087436,083045,073763,091770
0000000095,0000094000,087837,074629,085034,085948,073714,088917
0000000096,0000095000,089910,075334,082256,088208,074692,085679
0000000097,0000096000,091252,076869,079380,089603,076603,082373
0000000098,0000097000,091735,079093,076673,089999,079261,079319
0000000099,0000098000,091323,081774,074403,089358,082405,076816
0000000100,0000099000,090053,084645,072802,087741,085724,075113
0000000101,0000100000,088038,087441,072022,085307,088897,074375
0000000102,0000101000,085480,089886,072134,082292,091614,074673
0000000103,0000102000,082643,091728,073130,078995,093606,075977
0000000104,0000103000,079791,092796,074914,075738,094680,078161
0000000105,0000104000,077199,092987,077315,072837,094728,081013
0000000106,0000105000,075133,092275,080093,070577,093750,084251
0000000107,0000106000,073791,090739,082970,069181,091841,087557
0000000108,0000107000,073300,088524,085676,068786,089183,090610
0000000109,0000108000,073716,085838,087946,069427,086038,093113
0000000110,0000109000,074990,082962,089549,071042,082720,094816
0000000111,0000110000,076998,080173,090329,073476,079548,095554
0000000112,0000111000,079556,077727,090217,076492,076830,095257
0000000113,0000112000,082401,075878,089221,079787,074838,093953
0000000114,0000113000,085247,074815,087438,083043,073766,091770
0000000115,0000114000,087837,074626,085036,085945,073716,088918
0000000116,0000115000,089911,075331,082258,088205,074693,085680
0000000117,0000116000,091250,076869,079382,089600,076604,082376
0000000118,0000117000,091736,079090,076675,089997,079261,079322
0000000119,0000118000,091327,081769,074404,089356,082404,076820
0000000120,0000119000,090054,084644,072802,087740,085722,075116
0000000121,0000120000,088040,087440,072020,085307,088894,074378
0000000122,0000121000,085485,089883,072132,082293,091611,074675
0000000123,0000122000,082645,091728,073128,078997,093603,075978
0000000124,0000123000,079792,092798,074911,075741,094676,078161
0000000125,0000124000,077201,092987,077312,072841,094726,081013
0000000126,0000125000,075133,092277,080090,070581,093749,084250
0000000127,0000126000,073789,090744,082968,069185,091840,087554
0000000128,0000127000,073300,088526,085674,068789,089183,090607
0000000129,0000128000,073715,085840,087946,069429,086040,093109
0000000130,0000129000,074986,082966,089549,071043,082723,094812
0000000131,0000130000,076995,080175,090331,073476,079551,095551
0000000132,0000131000,079555,077727,090219,076490,076834,095254
0000000133,0000132000,082397,075879,089224,079784,074843,093952
0000000134,0000133000,085244,074815,087441,083040,073770,091769
0000000135,0000134000,087837,074623,085040,085941,073719,088919
0000000136,0000135000,089910,075328,082262,088200,074696,085683
0000000137,0000136000,091250,076866,079384,089596,076604,082379
0000000138,0000137000,091739,079085,076677,089993,079260,079326
0000000139,0000138000,091330,081765,074405,089353,082402,076824
0000000140,0000139000,090057,084642,072802,087739,085719,075121
0000000141,0000140000,088044,087437,072019,085307,088890,074382
0000000142,0000141000,085490,089881,072129,082294,091606,074678
0000000143,0000142000,082647,091729,073125,079000,093599,075980
0000000144,0000143000,079794,092800,074907,075746,094672,078162
0000000145,0000144000,077205,092988,077308,072845,094722,081011
0000000146,0000145000,075133,092281,080087,070585,093747,084247
0000000147,0000146000,073788,090748,082964,069190,091839,087550
0000000148,0000147000,073299,088529,085672,068793,089184,090602
0000000149,0000148000,073711,085844,087945,069432,086043,093104
0000000150,0000149000,074980,082971,089549,071045,082727,094807
0000000151,0000150000,076992,080177,090332,073476,079556,095547
0000000152,0000151000,079551,077728,090223,076488,076840,095251
0000000153,0000152000,082392,075881,089228,079781,074848,093950
0000000154,0000153000,085242,074813,087446,083035,073774,091769
0000000155,0000154000,087836,074619,085045,085935,073723,088920
0000000156,0000155000,089909,075326,082266,088195,074699,085686
0000000157,0000156000,091250,076862,079388,089590,076605,082383
0000000158,0000157000,091743,079079,076679,089988,079259,079331
0000000159,0000158000,091333,081761,074406,089349,082400,076830
0000000160,0000159000,090060,084639,072801,087737,085715,075127
0000000161,0000160000,088050,087433,072017,085307,088884,074387
0000000162,0000161000,085495,089879,072126,082296,091600,074682
0000000163,0000162000,082650,091730,073120,079004,093593,075982
0000000164,0000163000,079799,092801,074901,075751,094666,078162
0000000165,0000164000,077207,092991,077303,072851,094718,081010
0000000166,0000165000,075133,092286,080082,070592,093744,084244
0000000167,0000166000,073787,090754,082960,069196,091838,087545
0000000168,0000167000,073297,088534,085669,068798,089185,090596
0000000169,0000168000,073706,085850,087944,069435,086046,093098
0000000170,0000169000,074975,082976,089550,071047,082731,094801
0000000171,0000170000,076987,080179,090335,073476,079562,095541
0000000172,0000171000,079544,077730,090227,076485,076847,095247
0000000173,0000172000,082386,075881,089233,079777,074855,093947
0000000174,0000173000,085238,074810,087452,083029,073781,091769
0000000175,0000174000,087834,074615,085051,085928,073728,088922
0000000176,0000175000,089907,075322,082272,088187,074702,085689
0000000177,0000176000,091252,076856,079393,089584,076606,082389
0000000178,0000177000,091747,079072,076683,089982,079258,079338
0000000179,0000178000,091337,081756,074408,089345,082397,076837
0000000180,0000179000,090066,084634,072800,087735,085710,075134
0000000181,0000180000,088058,087428,072014,085307,088878,074394
0000000182,0000181000,085501,089878,072122,082299,091593,074687
0000000183,0000182000,082656,091731,073114,079009,093585,075985
0000000184,0000183000,079804,092802,074895,075757,094659,078163
0000000185,0000184000,077210,092995,077296,072859,094712,081008
0000000186,0000185000,075133,092293,080075,070600,093740,084239
0000000187,0000186000,073786,090760,082955,069204,091836,087539
0000000188,0000187000,073294,088540,085666,068804,089186,090589
0000000189,0000188000,073700,085858,087942,069440,086049,093089
0000000190,0000189000,074969,082982,089550,071049,082737,094793
0000000191,0000190000,076980,080183,090338,073476,079570,095534
0000000192,0000191000,079536,077733,090231,076482,076855,095241
0000000193,0000192000,082379,075882,089240,079772,074863,093944
0000000194,0000193000,085234,074807,087459,083022,073789,091768
0000000195,0000194000,087830,074611,085059,085920,073735,088924
0000000196,0000195000,089906,075316,082279,088178,074706,085694
0000000197,0000196000,091255,076847,079398,089575,076608,082396
0000000198,0000197000,091750,079064,076687,089975,079257,079347
0000000199,0000198000,091342,081749,074409,089340,082392,076847
0000000200,0000199000,090074,084627,072799,087733,085703,075143
0000000201,0000200000,088066,087423,072011,085308,088869,074402
0000000202,0000201000,085508,089876,072116,082302,091584,074693
0000000203,0000202000,082663,091731,073107,079015,093575,075989
0000000204,0000203000,079810,092804,074887,075765,094650,078163
0000000205,0000204000,077213,093000,077287,072868,094705,081006
0000000206,0000205000,075133,092300,080067,070610,093735,084234
0000000207,0000206000,073785,090767,082948,069213,091835,087531
0000000208,0000207000,073289,088549,085662,068812,089187,090579
0000000209,0000208000,073693,085867,087940,069446,086054,093079
0000000210,0000209000,074961,082988,089551,071052,082744,094783
0000000211,0000210000,076971,080188,090341,073475,079579,095525
0000000212,0000211000,079527,077737,090237,076479,076866,095234
0000000213,0000212000,082372,075881,089247,079765,074874,093940
0000000214,0000213000,085228,074804,087468,083013,073798,091767
0000000215,0000214000,087826,074607,085068,085909,073743,088927
0000000216,0000215000,089905,075308,082287,088168,074711,085700
0000000217,0000216000,091257,076838,079406,089565,076610,082404
0000000218,0000217000,091754,079055,076692,089966,079256,079357
0000000219,0000218000,091349,081740,074411,089334,082387,076858
0000000220,0000219000,090084,084618,072798,087730,085695,075154
0000000221,0000220000,088076,087417,072007,085308,088860,074411
0000000222,0000221000,085517,089873,072110,082306,091572,074701
0000000223,0000222000,082673,091730,073098,079022,093564,075993
0000000224,0000223000,079817,092807,074877,075775,094640,078164
0000000225,0000224000,077216,093007,077277,072879,094697,081003
0000000226,0000225000,075135,092308,080058,070622,093729,084228
0000000227,0000226000,073783,090777,082941,069224,091833,087522
0000000228,0000227000,073283,088561,085656,068821,089189,090568
0000000229,0000228000,073685,085877,087938,069453,086059,093067
0000000230,0000229000,074952,082996,089552,071055,082753,094771
0000000231,0000230000,076960,080195,090346,073475,079590,095514
0000000232,0000231000,079516,077740,090244,076475,076878,095226
0000000233,0000232000,082363,075881,089257,079757,074886,093935
0000000234,0000233000,085220,074801,087479,083003,073810,091766
0000000235,0000234000,087820,074601,085079,085897,073752,088930
0000000236,0000235000,089904,075299,082298,088155,074717,085707
0000000237,0000236000,091260,076827,079414,089553,076612,082414
0000000238,0000237000,091759,079044,076697,089956,079254,079369
0000000239,0000238000,091358,081729,074414,089327,082382,076871
0000000240,0000239000,090095,084608,072797,087726,085686,075167
0000000241,0000240000,088087,087411,072002,085308,088848,074423
0000000242,0000241000,085529,089869,072102,082311,091559,074709
0000000243,0000242000,082683,091729,073088,079030,093550,075998
0000000244,0000243000,079825,092810,074865,075786,094628,078165
0000000245,0000244000,077221,093014,077265,072893,094687,080999
0000000246,0000245000,075137,092317,080047,070635,093723,084220
0000000247,0000246000,073781,090788,082931,069237,091830,087511
0000000248,0000247000,073277,088574,085650,068833,089191,090555
0000000249,0000248000,073677,085889,087935,069461,086065,093053
0000000250,0000249000,074941,083006,089554,071059,082763,094757
0000000251,0000250000,076947,080203,090351,073474,079603,095502
0000000252,0000251000,079504,077744,090253,076470,076892,095217
0000000253,0000252000,082352,075880,089268,079748,074901,093930
0000000254,0000253000,085211,074797,087492,082990,073823,091765
0000000255,0000254000,087815,074593,085092,085883,073762,088933
0000000256,0000255000,089903,075288,082310,088140,074724,085715
0000000257,0000256000,091262,076814,079424,089538,076615,082426
0000000258,0000257000,091766,079031,076704,089944,079252,079383
0000000259,0000258000,091368,081716,074417,089318,082375,076886
0000000260,0000259000,090107,084597,072796,087722,085675,075182
0000000261,0000260000,088100,087403,071997,085309,088834,074436
0000000262,0000261000,085543,089865,072093,082316,091543,074719
0000000263,0000262000,082696,091729,073076,079040,093535,076004
0000000264,0000263000,079834,092815,074851,075799,094613,078166
0000000265,0000264000,077227,093022,077251,072908,094675,080995
0000000266,0000265000,075139,092328,080034,070652,093716,084212
0000000267,0000266000,073777,090802,082921,069252,091828,087499
0000000268,0000267000,073270,088588,085642,068846,089193,090540
0000000269,0000268000,073666,085902,087932,069470,086073,093036
0000000270,0000269000,074927,083018,089555,071064,082774,094741
0000000271,0000270000,076932,080212,090357,073473,079618,095488
0000000272,0000271000,079489,077749,090263,076464,076909,095206
0000000273,0000272000,082339,075880,089281,079738,074918,093924
0000000274,0000273000,085200,074793,087507,082976,073838,091764
0000000275,0000274000,087809,074584,085107,085866,073775,088938
0000000276,0000275000,089901,075275,082324,088123,074732,085724
0000000277,0000276000,091265,076800,079436,089522,076618,082439
0000000278,0000277000,091773,079015,076712,089930,079249,079400
0000000279,0000278000,091380,081700,074420,089308,082367,076904
0000000280,0000279000,090121,084584,072795,087717,085663,075199
0000000281,0000280000,088116,087394,071991,085310,088818,074451
0000000282,0000281000,085559,089859,072082,082323,091526,074731
0000000283,0000282000,082710,091729,073062,079051,093517,076011
0000000284,0000283000,079845,092820,074835,075815,094597,078167
0000000285,0000284000,077235,093031,077235,072926,094662,080991
0000000286,0000285000,075141,092341,080019,070670,093707,084202
0000000287,0000286000,073774,090818,082908,069270,091825,087484
0000000288,0000287000,073262,088605,085634,068860,089196,090522
0000000289,0000288000,073654,085918,087928,069480,086081,093017
0000000290,0000289000,074911,083033,089557,071068,082788,094722
0000000291,0000290000,076915,080223,090363,073472,079635,095472
0000000292,0000291000,079473,077754,090274,076457,076928,095194
0000000293,0000292000,082324,075881,089296,079725,074937,093917
0000000294,0000293000,085188,074788,087524,082960,073856,091763
0000000295,0000294000,087802,074574,085125,085847,073788,088943
0000000296,0000295000,089899,075261,082340,088103,074741,085735
0000000297,0000296000,091268,076784,079449,089503,076621,082455
0000000298,0000297000,091782,078997,076722,089915,079246,079418
0000000299,0000298000,091393,081683,074424,089297,082358,076924
0000000300,0000299000,090137,084570,072793,087712,085649,075219
0000000301,0000300000,088134,087383,071984,085311,088800,074468
