DIgSILENT PowerFactory,21000900,2000
6,06A,00D
1,TTPP_200000_100:Secondary Voltage A,,,V,0.10000000,-8392.526367,0.000000,67105,99998,1,1,P
2,TTPP_200000_100:Secondary Voltage B,,,V,0.10000000,-8170.928711,0.000000,65307,99998,1,1,P
3,TTPP_200000_100:Secondary Voltage C,,,V,0.10000000,-8391.646484,0.000000,67173,99998,1,1,P
4,TTCC_500_5:Secondary Current A,,,A,0.0010000000,-87.290237,0.000000,68957,99998,1,1,P
5,TTCC_500_5:Secondary Current B,,,A,0.0010000000,-85.139206,0.000000,70248,99998,1,1,P
6,TTCC_500_5:Secondary Current C,,,A,0.0010000000,-84.803139,0.000000,69453,99998,1,1,P
50
1
1000.000000,1101
30/06/2023,06:07:17.000000
30/06/2023,06:07:17.000000
ASCII
1.000000
0000000001,0000000000,089438,085350,074764,093206,089818,074208
0000000002,0000001000,086889,087783,074878,090191,092534,074507
0000000003,0000002000,084038,089639,075876,086891,094529,075812
0000000004,0000003000,081192,090700,077659,083636,095599,077998
0000000005,0000004000,078608,090883,080061,080732,095649,080852
0000000006,0000005000,076536,090176,082839,078471,094670,084091
0000000007,0000006000,075190,088646,085714,077077,092757,087398
0000000008,0000007000,074717,086415,088420,076682,090098,090453
0000000009,0000008000,075125,083737,090689,077323,086953,092956
0000000010,0000009000,076393,080870,092290,078941,083633,094659
0000000011,0000010000,078412,078071,093068,081379,080458,095397
0000000012,0000011000,080973,075623,092955,084392,077742,095098
0000000013,0000012000,083802,073791,091958,087691,075748,093793
0000000014,0000013000,086656,072721,090173,090950,074676,091607
0000000015,0000014000,089253,072526,087772,093852,074627,088753
0000000016,0000015000,091312,073244,084995,096110,075609,085514
0000000017,0000016000,092648,074784,082119,097508,077517,082207
0000000018,0000017000,093147,076992,079413,097902,080178,079152
0000000019,0000018000,092728,079679,077144,097259,083325,076649
0000000020,0000019000,091446,082562,075544,095642,086644,074946
0000000021,0000020000,089443,085343,074764,093208,089816,074208
0000000022,0000021000,086888,087785,074878,090189,092537,074507
0000000023,0000022000,084037,089640,075875,086892,094529,075812
0000000024,0000023000,081192,090700,077659,083635,095600,077998
0000000025,0000024000,078611,090880,080061,080732,095649,080852
0000000026,0000025000,076533,090180,082838,078470,094671,084091
0000000027,0000026000,075193,088643,085714,077077,092757,087398
0000000028,0000027000,074715,086416,088420,076681,090098,090453
0000000029,0000028000,075124,083737,090689,077323,086954,092956
0000000030,0000029000,076393,080870,092289,078941,083633,094659
0000000031,0000030000,078414,078069,093069,081377,080459,095397
0000000032,0000031000,080969,075627,092955,084392,077742,095098
0000000033,0000032000,083804,073789,091958,087691,075749,093793
0000000034,0000033000,086658,072719,090174,090949,074676,091608
0000000035,0000034000,089250,072528,087773,093850,074628,088754
0000000036,0000035000,091311,073245,084995,096111,075608,085514
0000000037,0000036000,092654,074779,082118,097507,077518,082208
0000000038,0000037000,093144,076994,079414,097902,080178,079153
0000000039,0000038000,092724,079682,077144,097259,083325,076649
0000000040,0000039000,091451,082557,075544,095643,086643,074946
0000000041,0000040000,089444,085342,074764,093206,089818,074209
0000000042,0000041000,086883,087790,074878,090189,092536,074507
0000000043,0000042000,084039,089638,075875,086892,094528,075812
0000000044,0000043000,081197,090696,077658,083635,095600,077998
0000000045,0000044000,078606,090885,080061,080731,095650,080852
0000000046,0000045000,076532,090181,082838,078472,094670,084091
0000000047,0000046000,075198,088639,085714,077077,092758,087398
0000000048,0000047000,074713,086418,088420,076680,090099,090453
0000000049,0000048000,075120,083742,090689,077323,086954,092956
0000000050,0000049000,076397,080865,092289,078941,083633,094659
0000000051,0000050000,078414,078068,093069,081376,080460,095397
0000000052,0000051000,080964,075631,092956,084392,077743,095098
0000000053,0000052000,083805,073788,091958,087691,075749,093793
0000000054,0000053000,086661,072715,090174,090948,074677,091608
0000000055,0000054000,089246,072532,087773,093849,074629,088754
0000000056,0000055000,091310,073245,084995,096111,075607,085515
0000000057,0000056000,092657,074775,082119,097506,077518,082208
0000000058,0000057000,093143,076995,079414,097900,080179,079153
0000000059,0000058000,092723,079684,077144,097258,083324,076650
0000000060,0000059000,091454,082553,075544,095642,086643,074947
0000000061,0000060000,089445,085342,074764,093206,089817,074209
0000000062,0000061000,086882,087792,074877,090189,092536,074508
0000000063,0000062000,084041,089636,075874,086893,094527,075813
0000000064,0000063000,081198,090695,077658,083635,095600,077998
0000000065,0000064000,078604,090888,080060,080732,095649,080852
0000000066,0000065000,076533,090181,082837,078472,094669,084091
0000000067,0000066000,075199,088638,085714,077077,092758,087397
0000000068,0000067000,074710,086421,088419,076681,090100,090452
0000000069,0000068000,075120,083743,090688,077324,086954,092955
0000000070,0000069000,076398,080864,092289,078941,083634,094658
0000000071,0000070000,078411,078071,093069,081375,080462,095396
0000000072,0000071000,080963,075633,092956,084392,077744,095098
0000000073,0000072000,083807,073785,091959,087690,075750,093793
0000000074,0000073000,086659,072716,090176,090946,074679,091608
0000000075,0000074000,089243,072533,087774,093848,074630,088754
0000000076,0000075000,091313,073242,084996,096109,075608,085515
0000000077,0000076000,092657,074774,082120,097504,077519,082209
0000000078,0000077000,093140,076997,079414,097899,080179,079155
0000000079,0000078000,092725,079681,077144,097258,083323,076652
0000000080,0000079000,091457,082550,075544,095641,086643,074949
0000000081,0000080000,089443,085344,074764,093205,089816,074211
0000000082,0000081000,086883,087792,074876,090190,092534,074509
0000000083,0000082000,084045,089633,075873,086893,094526,075813
0000000084,0000083000,081197,090697,077657,083636,095599,077998
0000000085,0000084000,078603,090890,080058,080733,095648,080851
0000000086,0000085000,076536,090179,082836,078474,094669,084090
0000000087,0000086000,075199,088639,085713,077078,092758,087396
0000000088,0000087000,074707,086425,088419,076682,090100,090450
0000000089,0000088000,075121,083742,090688,077325,086955,092953
0000000090,0000089000,076398,080864,092289,078941,083636,094656
0000000091,0000090000,078407,078074,093070,081375,080463,095394
0000000092,0000091000,080962,075633,092957,084391,077745,095096
0000000093,0000092000,083808,073783,091960,087688,075752,093792
0000000094,0000093000,086656,072718,090177,090944,074681,091608
0000000095,0000094000,089242,072533,087776,093846,074631,088755
0000000096,0000095000,091315,073238,084998,096107,075609,085516
0000000097,0000096000,092657,074773,082121,097502,077520,082211
0000000098,0000097000,093140,076996,079415,097898,080178,079157
0000000099,0000098000,092729,079678,077145,097257,083322,076654
0000000100,0000099000,091459,082549,075544,095640,086641,074951
0000000101,0000100000,089443,085345,074763,093205,089814,074213
0000000102,0000101000,086886,087790,074875,090191,092531,074510
0000000103,0000102000,084048,089631,075871,086894,094524,075814
0000000104,0000103000,081197,090700,077655,083637,095597,077998
0000000105,0000104000,078604,090891,080056,080736,095646,080851
0000000106,0000105000,076538,090179,082834,078476,094668,084089
0000000107,0000106000,075197,088643,085711,077080,092758,087394
0000000108,0000107000,074706,086428,088417,076684,090100,090448
0000000109,0000108000,075121,083743,090687,077326,086956,092951
0000000110,0000109000,076395,080866,092290,078941,083638,094654
0000000111,0000110000,078403,078077,093071,081375,080466,095392
0000000112,0000111000,080961,075632,092958,084390,077748,095095
0000000113,0000112000,083806,073783,091963,087686,075756,093791
0000000114,0000113000,086652,072719,090180,090942,074683,091607
0000000115,0000114000,089242,072531,087778,093844,074633,088756
0000000116,0000115000,091316,073235,085000,096104,075611,085518
0000000117,0000116000,092655,074772,082123,097498,077521,082213
0000000118,0000117000,093141,076994,079416,097895,080178,079160
0000000119,0000118000,092732,079673,077146,097255,083321,076657
0000000120,0000119000,091460,082548,075544,095639,086639,074954
0000000121,0000120000,089445,085344,074762,093206,089811,074216
0000000122,0000121000,086891,087787,074873,090192,092528,074513
0000000123,0000122000,084050,089632,075869,086896,094521,075816
0000000124,0000123000,081197,090702,077652,083640,095594,077999
0000000125,0000124000,078607,090892,080053,080740,095643,080850
0000000126,0000125000,076539,090181,082831,078479,094666,084087
0000000127,0000126000,075194,088648,085709,077084,092758,087391
0000000128,0000127000,074705,086430,088415,076688,090100,090444
0000000129,0000128000,075120,083744,090687,077328,086958,092947
0000000130,0000129000,076391,080870,092290,078942,083641,094650
0000000131,0000130000,078400,078080,093072,081375,080469,095389
0000000132,0000131000,080959,075631,092961,084389,077752,095092
0000000133,0000132000,083802,073783,091966,087683,075760,093790
0000000134,0000133000,086649,072719,090183,090938,074687,091607
0000000135,0000134000,089242,072527,087782,093840,074636,088757
0000000136,0000135000,091315,073232,085004,096099,075613,085520
0000000137,0000136000,092655,074770,082126,097494,077522,082217
0000000138,0000137000,093144,076989,079418,097892,080177,079164
0000000139,0000138000,092736,079669,077147,097252,083319,076662
0000000140,0000139000,091462,082546,075543,095638,086636,074959
0000000141,0000140000,089449,085341,074760,093206,089807,074220
0000000142,0000141000,086895,087785,074871,090193,092523,074516
0000000143,0000142000,084052,089633,075866,086899,094516,075818
0000000144,0000143000,081200,090704,077648,083644,095589,077999
0000000145,0000144000,078610,090893,080049,080744,095640,080849
0000000146,0000145000,076539,090185,082828,078484,094664,084084
0000000147,0000146000,075193,088653,085705,077089,092757,087387
0000000148,0000147000,074704,086434,088413,076692,090101,090440
0000000149,0000148000,075116,083748,090686,077331,086960,092942
0000000150,0000149000,076385,080875,092290,078943,083644,094645
0000000151,0000150000,078396,078081,093074,081375,080473,095384
0000000152,0000151000,080955,075632,092964,084387,077757,095089
0000000153,0000152000,083796,073785,091970,087680,075765,093787
0000000154,0000153000,086646,072717,090187,090934,074692,091607
0000000155,0000154000,089241,072523,087786,093834,074640,088758
0000000156,0000155000,091313,073230,085008,096093,075616,085523
0000000157,0000156000,092655,074766,082130,097489,077522,082221
0000000158,0000157000,093148,076983,079421,097887,080176,079169
0000000159,0000158000,092739,079665,077148,097248,083317,076668
0000000160,0000159000,091466,082543,075543,095636,086632,074964
0000000161,0000160000,089456,085337,074758,093206,089802,074225
0000000162,0000161000,086901,087783,074867,090195,092518,074520
0000000163,0000162000,084056,089634,075861,086903,094510,075820
0000000164,0000163000,081204,090705,077642,083650,095583,078000
0000000165,0000164000,078613,090895,080044,080750,095635,080847
0000000166,0000165000,076538,090190,082823,078490,094661,084081
0000000167,0000166000,075192,088658,085701,077095,092755,087383
0000000168,0000167000,074702,086438,088410,076697,090102,090434
0000000169,0000168000,075111,083755,090685,077334,086963,092935
0000000170,0000169000,076380,080881,092291,078945,083649,094638
0000000171,0000170000,078392,078084,093076,081375,080479,095378
0000000172,0000171000,080949,075634,092968,084384,077764,095084
0000000173,0000172000,083790,073786,091975,087675,075772,093785
0000000174,0000173000,086643,072715,090193,090928,074698,091606
0000000175,0000174000,089239,072519,087793,093827,074646,088760
0000000176,0000175000,091312,073226,085014,096086,075619,085527
0000000177,0000176000,092657,074760,082134,097482,077524,082227
0000000178,0000177000,093152,076976,079424,097881,080175,079176
0000000179,0000178000,092742,079660,077149,097244,083314,076675
0000000180,0000179000,091472,082538,075542,095634,086627,074972
0000000181,0000180000,089463,085332,074755,093206,089795,074231
0000000182,0000181000,086906,087781,074863,090198,092510,074525
0000000183,0000182000,084061,089635,075855,086907,094502,075823
0000000184,0000183000,081210,090706,077636,083656,095576,078000
0000000185,0000184000,078615,090899,080037,080757,095630,080846
0000000186,0000185000,076538,090197,082816,078499,094657,084077
0000000187,0000186000,075191,088664,085696,077103,092754,087376
0000000188,0000187000,074699,086445,088407,076703,090103,090426
0000000189,0000188000,075105,083762,090683,077339,086967,092927
0000000190,0000189000,076374,080886,092291,078948,083655,094630
0000000191,0000190000,078385,078087,093079,081374,080487,095371
0000000192,0000191000,080941,075637,092973,084381,077773,095079
0000000193,0000192000,083784,073786,091981,087670,075781,093782
0000000194,0000193000,086639,072711,090201,090921,074706,091606
0000000195,0000194000,089235,072515,087800,093818,074652,088762
0000000196,0000195000,091310,073220,085021,096077,075623,085532
0000000197,0000196000,092660,074751,082140,097474,077525,082234
0000000198,0000197000,093155,076968,079428,097874,080174,079185
0000000199,0000198000,092747,079653,077151,097239,083310,076684
0000000200,0000199000,091480,082530,075541,095632,086620,074981
0000000201,0000200000,089472,085327,074752,093207,089787,074239
0000000202,0000201000,086914,087779,074858,090201,092501,074531
0000000203,0000202000,084069,089634,075848,086913,094493,075827
0000000204,0000203000,081216,090708,077628,083664,095567,078001
0000000205,0000204000,078618,090905,080028,080767,095623,080843
0000000206,0000205000,076539,090204,082808,078509,094653,084072
0000000207,0000206000,075190,088671,085689,077112,092752,087369
0000000208,0000207000,074694,086454,088402,076711,090105,090417
0000000209,0000208000,075098,083771,090681,077345,086971,092917
0000000210,0000209000,076366,080893,092292,078951,083662,094620
0000000211,0000210000,078376,078093,093083,081374,080496,095362
0000000212,0000211000,080932,075641,092979,084378,077783,095072
0000000213,0000212000,083776,073786,091989,087664,075791,093778
0000000214,0000213000,086633,072708,090210,090912,074716,091605
0000000215,0000214000,089230,072511,087810,093808,074660,088764
0000000216,0000215000,091309,073212,085029,096066,075628,085538
0000000217,0000216000,092662,074742,082147,097464,077527,082242
0000000218,0000217000,093160,076959,079433,097865,080173,079195
0000000219,0000218000,092754,079644,077153,097233,083305,076695
0000000220,0000219000,091489,082522,075540,095628,086612,074992
0000000221,0000220000,089481,085321,074748,093207,089777,074249
0000000222,0000221000,086923,087777,074851,090205,092490,074538
0000000223,0000222000,084078,089634,075839,086921,094481,075831
0000000224,0000223000,081223,090711,077618,083674,095557,078002
0000000225,0000224000,078622,090911,080018,080778,095614,080840
0000000226,0000225000,076540,090212,082799,078520,094647,084065
0000000227,0000226000,075189,088681,085681,077123,092750,087360
0000000228,0000227000,074689,086465,088397,076720,090107,090406
0000000229,0000228000,075091,083781,090679,077351,086976,092905
0000000230,0000229000,076357,080901,092293,078954,083670,094608
0000000231,0000230000,078365,078100,093087,081373,080507,095352
0000000232,0000231000,080921,075645,092986,084373,077795,095064
0000000233,0000232000,083768,073785,091998,087656,075804,093773
0000000234,0000233000,086625,072705,090221,090901,074727,091604
0000000235,0000234000,089225,072505,087821,093796,074669,088768
0000000236,0000235000,091309,073203,085039,096054,075634,085544
0000000237,0000236000,092665,074731,082156,097451,077529,082252
0000000238,0000237000,093165,076948,079439,097855,080171,079207
0000000239,0000238000,092763,079633,077155,097225,083299,076709
0000000240,0000239000,091500,082512,075539,095625,086603,075005
0000000241,0000240000,089492,085315,074744,093207,089765,074260
0000000242,0000241000,086935,087773,074843,090210,092476,074547
0000000243,0000242000,084089,089633,075829,086929,094468,075836
0000000244,0000243000,081231,090714,077606,083685,095545,078003
0000000245,0000244000,078627,090918,080006,080791,095604,080837
0000000246,0000245000,076542,090221,082788,078534,094640,084058
0000000247,0000246000,075186,088693,085672,077136,092748,087349
0000000248,0000247000,074682,086478,088391,076731,090109,090392
0000000249,0000248000,075082,083793,090676,077359,086983,092890
0000000250,0000249000,076346,080911,092295,078958,083680,094594
0000000251,0000250000,078352,078108,093092,081373,080520,095340
0000000252,0000251000,080908,075649,092994,084368,077810,095055
0000000253,0000252000,083757,073785,092010,087647,075818,093768
0000000254,0000253000,086616,072701,090234,090889,074741,091603
0000000255,0000254000,089220,072497,087834,093782,074680,088771
0000000256,0000255000,091308,073192,085052,096039,075641,085553
0000000257,0000256000,092667,074718,082166,097437,077532,082264
0000000258,0000257000,093171,076934,079446,097843,080169,079221
0000000259,0000258000,092774,079619,077158,097217,083292,076724
0000000260,0000259000,091512,082501,075538,095621,086592,075020
0000000261,0000260000,089506,085307,074738,093208,089751,074273
0000000262,0000261000,086948,087768,074834,090215,092461,074557
0000000263,0000262000,084101,089633,075817,086939,094452,075842
0000000264,0000263000,081240,090719,077592,083698,095531,078004
0000000265,0000264000,078633,090927,079992,080807,095593,080833
0000000266,0000265000,076544,090232,082775,078550,094633,084049
0000000267,0000266000,075183,088707,085662,077151,092745,087336
0000000268,0000267000,074675,086493,088383,076744,090111,090377
0000000269,0000268000,075071,083807,090673,077369,086990,092874
0000000270,0000269000,076332,080923,092296,078962,083692,094578
0000000271,0000270000,078337,078117,093098,081372,080535,095326
0000000272,0000271000,080894,075653,093004,084362,077826,095044
0000000273,0000272000,083744,073785,092023,087636,075835,093761
0000000274,0000273000,086605,072697,090248,090875,074756,091602
0000000275,0000274000,089213,072488,087849,093765,074692,088776
0000000276,0000275000,091306,073179,085066,096021,075649,085562
0000000277,0000276000,092670,074704,082178,097421,077535,082277
0000000278,0000277000,093178,076919,079454,097829,080166,079238
0000000279,0000278000,092785,079604,077162,097207,083284,076742
0000000280,0000279000,091527,082488,075536,095616,086580,075037
0000000281,0000280000,089521,085297,074732,093209,089735,074288
0000000282,0000281000,086964,087763,074824,090221,092443,074568
0000000283,0000282000,084115,089633,075803,086950,094434,075848
0000000284,0000283000,081251,090724,077576,083714,095514,078005
0000000285,0000284000,078640,090936,079976,080825,095580,080828
0000000286,0000285000,076546,090245,082759,078569,094625,084039
0000000287,0000286000,075179,088723,085649,077169,092742,087322
0000000288,0000287000,074667,086509,088374,076759,090114,090360
0000000289,0000288000,075059,083822,090669,077379,086999,092855
0000000290,0000289000,076316,080937,092298,078967,083705,094560
0000000291,0000290000,078320,078127,093104,081371,080552,095309
0000000292,0000291000,080878,075659,093015,084356,077845,095032
0000000293,0000292000,083728,073785,092037,087624,075854,093754
0000000294,0000293000,086593,072692,090265,090858,074773,091601
0000000295,0000294000,089206,072478,087866,093746,074706,088781
0000000296,0000295000,091304,073165,085082,096001,075658,085573
0000000297,0000296000,092673,074687,082191,097402,077538,082292
0000000298,0000297000,093187,076901,079463,097814,080163,079256
0000000299,0000298000,092798,079587,077166,097196,083275,076762
0000000300,0000299000,091543,082474,075535,095611,086566,075056
0000000301,0000300000,089540,085286,074725,093210,089717,074306
