DIgSILENT PowerFactory,21000900,2000
6,06A,00D
1,TTPP_200000_100:Secondary Voltage A,,,V,0.10000000,-8509.608398,0.000000,69053,99998,1,1,P
2,TTPP_200000_100:Secondary Voltage B,,,V,0.10000000,-8391.741211,0.000000,68059,99998,1,1,P
3,TTPP_200000_100:Secondary Voltage C,,,V,0.10000000,-8437.570313,0.000000,68109,99998,1,1,P
4,TTCC_500_5:Secondary Current A,,,A,0.0010000000,-86.564507,0.000000,67059,99998,1,1,P
5,TTCC_500_5:Secondary Current B,,,A,0.0010000000,-85.079704,0.000000,70166,99998,1,1,P
6,TTCC_500_5:Secondary Current C,,,A,0.0010000000,-84.722702,0.000000,69376,99998,1,1,P
50
1
1000.000000,1101
30/06/2023,06:08:26.000000
30/06/2023,06:08:26.000000
ASCII
1.000000
0000000001,0000000000,090608,087558,075223,092480,089759,074128
0000000002,0000001000,088060,089991,075337,089465,092475,074426
0000000003,0000002000,085209,091847,076336,086165,094470,075732
0000000004,0000003000,082363,092908,078118,082910,095539,077917
0000000005,0000004000,079779,093091,080520,080006,095590,080771
0000000006,0000005000,077707,092384,083298,077745,094611,084011
0000000007,0000006000,076361,090854,086173,076352,092698,087317
0000000008,0000007000,075888,088623,088879,075956,090038,090373
0000000009,0000008000,076296,085945,091148,076597,086894,092876
0000000010,0000009000,077564,083078,092749,078215,083573,094579
0000000011,0000010000,079583,080279,093528,080653,080398,095316
0000000012,0000011000,082144,077831,093414,083667,077683,095018
0000000013,0000012000,084973,075999,092417,086966,075689,093712
0000000014,0000013000,087826,074929,090633,090224,074616,091527
0000000015,0000014000,090424,074734,088231,093126,074568,088673
0000000016,0000015000,092483,075452,085454,095384,075549,085433
0000000017,0000016000,093819,076993,082578,096783,077458,082127
0000000018,0000017000,094318,079200,079873,097177,080119,079072
0000000019,0000018000,093899,081887,077603,096533,083265,076569
0000000020,0000019000,092616,084770,076003,094916,086585,074866
0000000021,0000020000,090614,087551,075224,092482,089757,074128
0000000022,0000021000,088059,089993,075337,089463,092477,074426
0000000023,0000022000,085208,091848,076334,086166,094469,075732
0000000024,0000023000,082363,092908,078118,082909,095540,077917
0000000025,0000024000,079782,093088,080520,080006,095589,080771
0000000026,0000025000,077704,092388,083297,077744,094612,084011
0000000027,0000026000,076364,090851,086173,076351,092698,087318
0000000028,0000027000,075886,088624,088879,075955,090039,090373
0000000029,0000028000,076295,085945,091148,076597,086894,092876
0000000030,0000029000,077564,083078,092748,078215,083573,094579
0000000031,0000030000,079584,080277,093528,080651,080399,095317
0000000032,0000031000,082140,077835,093415,083667,077682,095018
0000000033,0000032000,084975,075997,092417,086965,075690,093713
0000000034,0000033000,087829,074927,090633,090223,074616,091527
0000000035,0000034000,090420,074736,088232,093125,074569,088673
0000000036,0000035000,092482,075453,085454,095385,075548,085433
0000000037,0000036000,093825,076987,082578,096781,077459,082127
0000000038,0000037000,094315,079202,079873,097176,080119,079072
0000000039,0000038000,093895,081891,077604,096533,083265,076569
0000000040,0000039000,092622,084765,076003,094917,086584,074866
0000000041,0000040000,090615,087550,075223,092480,089758,074128
0000000042,0000041000,088054,089998,075337,089463,092477,074427
0000000043,0000042000,085210,091846,076334,086166,094469,075732
0000000044,0000043000,082368,092904,078118,082909,095540,077918
0000000045,0000044000,079776,093093,080520,080005,095590,080771
0000000046,0000045000,077702,092389,083297,077746,094610,084011
0000000047,0000046000,076369,090847,086173,076351,092698,087317
0000000048,0000047000,075884,088626,088879,075955,090040,090372
0000000049,0000048000,076291,085950,091148,076597,086894,092875
0000000050,0000049000,077568,083073,092748,078215,083573,094578
0000000051,0000050000,079585,080276,093528,080650,080401,095316
0000000052,0000051000,082135,077839,093415,083666,077683,095018
0000000053,0000052000,084976,075996,092417,086965,075689,093713
0000000054,0000053000,087832,074923,090634,090222,074618,091527
0000000055,0000054000,090417,074740,088232,093123,074570,088673
0000000056,0000055000,092481,075454,085454,095385,075548,085434
0000000057,0000056000,093828,076984,082578,096780,077459,082128
0000000058,0000057000,094314,079203,079873,097174,080120,079073
0000000059,0000058000,093894,081892,077603,096533,083265,076570
0000000060,0000059000,092625,084762,076003,094917,086584,074867
0000000061,0000060000,090615,087550,075223,092480,089758,074129
0000000062,0000061000,088052,090000,075337,089463,092476,074427
0000000063,0000062000,085212,091844,076333,086167,094467,075732
0000000064,0000063000,082369,092903,078117,082909,095540,077918
0000000065,0000064000,079775,093096,080519,080006,095590,080771
0000000066,0000065000,077704,092389,083296,077747,094610,084011
0000000067,0000066000,076370,090846,086173,076352,092699,087317
0000000068,0000067000,075881,088629,088879,075955,090040,090371
0000000069,0000068000,076291,085951,091148,076598,086895,092874
0000000070,0000069000,077569,083072,092748,078215,083574,094578
0000000071,0000070000,079582,080279,093529,080650,080402,095315
0000000072,0000071000,082134,077841,093415,083666,077684,095017
0000000073,0000072000,084978,075993,092418,086964,075691,093712
0000000074,0000073000,087830,074924,090635,090220,074619,091527
0000000075,0000074000,090414,074741,088233,093123,074570,088674
0000000076,0000075000,092484,075450,085455,095384,075548,085435
0000000077,0000076000,093828,076982,082579,096778,077460,082129
0000000078,0000077000,094311,079205,079874,097173,080119,079074
0000000079,0000078000,093896,081890,077604,096532,083264,076571
0000000080,0000079000,092628,084759,076003,094916,086583,074868
0000000081,0000080000,090614,087552,075223,092480,089757,074130
0000000082,0000081000,088053,090000,075336,089464,092474,074428
0000000083,0000082000,085216,091841,076332,086168,094466,075733
0000000084,0000083000,082368,092905,078116,082910,095539,077918
0000000085,0000084000,079773,093099,080518,080008,095588,080771
0000000086,0000085000,077707,092387,083295,077748,094609,084010
0000000087,0000086000,076370,090848,086172,076352,092699,087316
0000000088,0000087000,075878,088633,088878,075956,090041,090370
0000000089,0000088000,076291,085950,091147,076599,086895,092873
0000000090,0000089000,077569,083072,092749,078215,083576,094576
0000000091,0000090000,079578,080282,093529,080649,080404,095314
0000000092,0000091000,082132,077841,093416,083665,077686,095016
0000000093,0000092000,084979,075991,092420,086962,075693,093712
0000000094,0000093000,087827,074926,090636,090218,074621,091527
0000000095,0000094000,090413,074741,088235,093121,074572,088674
0000000096,0000095000,092486,075447,085457,095381,075549,085436
0000000097,0000096000,093828,076981,082581,096776,077461,082130
0000000098,0000097000,094311,079205,079874,097172,080119,079076
0000000099,0000098000,093899,081886,077604,096531,083263,076574
0000000100,0000099000,092629,084757,076003,094914,086582,074870
0000000101,0000100000,090614,087553,075222,092480,089755,074132
0000000102,0000101000,088057,089998,075334,089465,092472,074430
0000000103,0000102000,085219,091840,076331,086169,094464,075734
0000000104,0000103000,082367,092908,078114,082912,095537,077918
0000000105,0000104000,079775,093099,080515,080010,095586,080770
0000000106,0000105000,077709,092387,083293,077750,094608,084008
0000000107,0000106000,076368,090851,086170,076354,092699,087314
0000000108,0000107000,075876,088636,088876,075959,090041,090368
0000000109,0000108000,076292,085951,091147,076600,086896,092870
0000000110,0000109000,077566,083074,092749,078215,083578,094573
0000000111,0000110000,079574,080285,093530,080649,080406,095312
0000000112,0000111000,082132,077840,093418,083665,077688,095014
0000000113,0000112000,084977,075991,092422,086960,075696,093711
0000000114,0000113000,087823,074927,090639,090216,074624,091527
0000000115,0000114000,090413,074739,088237,093118,074574,088675
0000000116,0000115000,092487,075443,085459,095378,075551,085438
0000000117,0000116000,093826,076981,082583,096773,077461,082133
0000000118,0000117000,094312,079202,079876,097170,080118,079079
0000000119,0000118000,093903,081882,077605,096529,083261,076577
0000000120,0000119000,092631,084756,076003,094913,086580,074874
0000000121,0000120000,090616,087552,075221,092480,089752,074135
0000000122,0000121000,088061,089995,075332,089466,092468,074432
0000000123,0000122000,085221,091840,076328,086170,094461,075735
0000000124,0000123000,082368,092910,078111,082915,095534,077918
0000000125,0000124000,079778,093100,080512,080014,095584,080770
0000000126,0000125000,077710,092389,083291,077754,094607,084007
0000000127,0000126000,076365,090856,086168,076358,092698,087311
0000000128,0000127000,075876,088639,088875,075962,090041,090364
0000000129,0000128000,076291,085952,091146,076602,086898,092866
0000000130,0000129000,077562,083079,092749,078216,083581,094570
0000000131,0000130000,079571,080288,093531,080649,080409,095308
0000000132,0000131000,082130,077839,093420,083663,077692,095012
0000000133,0000132000,084973,075992,092425,086957,075700,093709
0000000134,0000133000,087820,074927,090642,090213,074628,091527
0000000135,0000134000,090413,074735,088241,093114,074577,088676
0000000136,0000135000,092486,075441,085463,095373,075554,085440
0000000137,0000136000,093826,076978,082585,096769,077462,082136
0000000138,0000137000,094315,079197,079877,097166,080118,079083
0000000139,0000138000,093906,081877,077606,096526,083260,076581
0000000140,0000139000,092633,084754,076002,094912,086577,074878
0000000141,0000140000,090620,087549,075219,092480,089747,074139
0000000142,0000141000,088066,089993,075330,089468,092464,074435
0000000143,0000142000,085223,091841,076325,086173,094457,075737
0000000144,0000143000,082371,092912,078107,082919,095530,077919
0000000145,0000144000,079781,093101,080508,080018,095580,080769
0000000146,0000145000,077709,092393,083287,077758,094605,084004
0000000147,0000146000,076364,090861,086165,076363,092697,087307
0000000148,0000147000,075875,088642,088872,075966,090042,090359
0000000149,0000148000,076287,085957,091145,076605,086901,092861
0000000150,0000149000,077556,083083,092750,078218,083585,094564
0000000151,0000150000,079567,080289,093533,080649,080414,095304
0000000152,0000151000,082126,077840,093423,083661,077698,095008
0000000153,0000152000,084967,075993,092429,086954,075706,093707
0000000154,0000153000,087817,074925,090647,090208,074632,091526
0000000155,0000154000,090412,074731,088246,093108,074581,088677
0000000156,0000155000,092484,075438,085467,095368,075556,085443
0000000157,0000156000,093826,076974,082589,096763,077463,082140
0000000158,0000157000,094319,079191,079880,097161,080117,079089
0000000159,0000158000,093909,081873,077607,096522,083257,076587
0000000160,0000159000,092636,084751,076002,094910,086573,074884
0000000161,0000160000,090626,087545,075217,092480,089742,074144
0000000162,0000161000,088071,089991,075327,089469,092458,074439
0000000163,0000162000,085227,091842,076320,086177,094451,075740
0000000164,0000163000,082375,092913,078102,082924,095524,077919
0000000165,0000164000,079784,093103,080503,080024,095576,080767
0000000166,0000165000,077709,092399,083282,077765,094602,084001
0000000167,0000166000,076363,090866,086160,076369,092696,087302
0000000168,0000167000,075873,088646,088870,075971,090042,090353
0000000169,0000168000,076282,085963,091144,076608,086904,092855
0000000170,0000169000,077551,083089,092750,078220,083589,094558
0000000171,0000170000,079563,080292,093535,080649,080420,095298
0000000172,0000171000,082120,077842,093427,083658,077705,095004
0000000173,0000172000,084961,075994,092434,086950,075713,093704
0000000174,0000173000,087814,074923,090652,090202,074639,091526
0000000175,0000174000,090410,074728,088252,093101,074586,088679
0000000176,0000175000,092483,075434,085473,095360,075560,085447
0000000177,0000176000,093828,076968,082593,096757,077464,082146
0000000178,0000177000,094322,079184,079883,097155,080116,079096
0000000179,0000178000,093913,081868,077608,096518,083254,076595
0000000180,0000179000,092642,084746,076001,094908,086567,074891
0000000181,0000180000,090634,087540,075215,092481,089735,074151
0000000182,0000181000,088077,089989,075322,089472,092451,074444
0000000183,0000182000,085232,091843,076314,086182,094443,075742
0000000184,0000183000,082380,092914,078095,082931,095517,077920
0000000185,0000184000,079786,093107,080496,080032,095570,080765
0000000186,0000185000,077709,092405,083275,077773,094598,083996
0000000187,0000186000,076362,090872,086155,076377,092694,087296
0000000188,0000187000,075870,088653,088866,075977,090044,090346
0000000189,0000188000,076276,085970,091142,076613,086907,092846
0000000190,0000189000,077544,083094,092751,078222,083595,094550
0000000191,0000190000,079556,080296,093538,080649,080428,095291
0000000192,0000191000,082112,077846,093432,083655,077713,094998
0000000193,0000192000,084955,075994,092440,086945,075721,093701
0000000194,0000193000,087810,074919,090660,090195,074647,091525
0000000195,0000194000,090406,074724,088260,093093,074593,088681
0000000196,0000195000,092481,075428,085480,095351,075564,085451
0000000197,0000196000,093830,076960,082599,096748,077466,082153
0000000198,0000197000,094326,079176,079888,097148,080115,079104
0000000199,0000198000,093918,081861,077610,096513,083250,076604
0000000200,0000199000,092650,084739,076000,094906,086561,074900
0000000201,0000200000,090642,087535,075212,092481,089727,074159
0000000202,0000201000,088084,089988,075317,089475,092441,074450
0000000203,0000202000,085239,091843,076307,086188,094433,075746
0000000204,0000203000,082387,092916,078087,082938,095508,077921
0000000205,0000204000,079789,093113,080488,080041,095563,080763
0000000206,0000205000,077710,092412,083268,077783,094593,083991
0000000207,0000206000,076361,090879,086148,076386,092692,087288
0000000208,0000207000,075865,088662,088862,075985,090045,090336
0000000209,0000208000,076269,085979,091140,076619,086912,092836
0000000210,0000209000,077537,083101,092751,078225,083602,094540
0000000211,0000210000,079547,080301,093542,080648,080437,095282
0000000212,0000211000,082102,077849,093438,083652,077724,094991
0000000213,0000212000,084947,075994,092448,086938,075732,093697
0000000214,0000213000,087804,074916,090669,090186,074656,091524
0000000215,0000214000,090401,074719,088269,093082,074600,088684
0000000216,0000215000,092480,075420,085488,095341,075569,085457
0000000217,0000216000,093833,076950,082606,096738,077468,082161
0000000218,0000217000,094330,079167,079892,097139,080113,079114
0000000219,0000218000,093925,081852,077612,096507,083245,076615
0000000220,0000219000,092660,084730,075999,094903,086553,074911
0000000221,0000220000,090652,087529,075208,092481,089717,074168
0000000222,0000221000,088094,089985,075310,089479,092430,074458
0000000223,0000222000,085249,091842,076299,086195,094422,075750
0000000224,0000223000,082394,092919,078077,082948,095498,077921
0000000225,0000224000,079793,093119,080478,080052,095555,080760
0000000226,0000225000,077711,092420,083258,077795,094587,083985
0000000227,0000226000,076359,090889,086141,076397,092690,087279
0000000228,0000227000,075859,088673,088856,075994,090047,090325
0000000229,0000228000,076261,085990,091138,076626,086917,092824
0000000230,0000229000,077528,083109,092753,078228,083611,094528
0000000231,0000230000,079536,080308,093546,080648,080448,095272
0000000232,0000231000,082092,077853,093445,083648,077736,094983
0000000233,0000232000,084938,075993,092458,086930,075744,093692
0000000234,0000233000,087796,074913,090680,090176,074668,091524
0000000235,0000234000,090396,074713,088280,093070,074610,088687
0000000236,0000235000,092480,075411,085499,095328,075575,085464
0000000237,0000236000,093835,076939,082615,096726,077470,082171
0000000238,0000237000,094335,079156,079898,097129,080112,079126
0000000239,0000238000,093934,081841,077615,096500,083239,076628
0000000240,0000239000,092671,084720,075998,094899,086544,074924
0000000241,0000240000,090663,087523,075203,092482,089706,074180
0000000242,0000241000,088105,089981,075302,089484,092417,074466
0000000243,0000242000,085260,091841,076288,086203,094408,075756
0000000244,0000243000,082401,092923,078065,082959,095485,077922
0000000245,0000244000,079798,093127,080465,080066,095545,080757
0000000246,0000245000,077713,092429,083247,077809,094581,083978
0000000247,0000246000,076357,090901,086132,076410,092688,087268
0000000248,0000247000,075853,088686,088850,076006,090049,090312
0000000249,0000248000,076253,086001,091135,076634,086923,092810
0000000250,0000249000,077516,083119,092754,078232,083621,094514
0000000251,0000250000,079523,080316,093551,080647,080461,095259
0000000252,0000251000,082079,077857,093453,083643,077750,094974
0000000253,0000252000,084928,075993,092469,086921,075759,093687
0000000254,0000253000,087787,074909,090693,090163,074681,091523
0000000255,0000254000,090391,074705,088293,093056,074620,088691
0000000256,0000255000,092479,075400,085511,095313,075582,085472
0000000257,0000256000,093838,076926,082625,096711,077473,082183
0000000258,0000257000,094342,079143,079905,097117,080109,079141
0000000259,0000258000,093944,081828,077617,096491,083232,076643
0000000260,0000259000,092683,084709,075997,094895,086533,074939
0000000261,0000260000,090676,087515,075198,092482,089692,074193
0000000262,0000261000,088119,089977,075293,089489,092401,074476
0000000263,0000262000,085272,091841,076276,086213,094393,075761
0000000264,0000263000,082411,092927,078052,082973,095471,077923
0000000265,0000264000,079804,093135,080451,080081,095533,080753
0000000266,0000265000,077715,092440,083234,077825,094573,083969
0000000267,0000266000,076354,090915,086121,076426,092686,087256
0000000268,0000267000,075846,088701,088842,076019,090051,090297
0000000269,0000268000,076242,086015,091132,076643,086931,092793
0000000270,0000269000,077503,083131,092755,078237,083632,094498
0000000271,0000270000,079508,080325,093557,080646,080476,095245
0000000272,0000271000,082065,077861,093463,083637,077767,094963
0000000273,0000272000,084914,075993,092482,086911,075775,093681
0000000274,0000273000,087776,074905,090708,090149,074696,091522
0000000275,0000274000,090384,074697,088308,093039,074632,088695
0000000276,0000275000,092477,075387,085525,095296,075590,085481
0000000277,0000276000,093840,076912,082637,096695,077475,082197
0000000278,0000277000,094349,079127,079913,097103,080107,079157
0000000279,0000278000,093956,081812,077621,096481,083225,076661
0000000280,0000279000,092697,084696,075995,094890,086521,074956
0000000281,0000280000,090692,087506,075191,092483,089676,074208
0000000282,0000281000,088135,089971,075283,089496,092383,074488
0000000283,0000282000,085286,091841,076263,086224,094375,075768
0000000284,0000283000,082421,092932,078036,082988,095455,077924
0000000285,0000284000,079811,093144,080435,080099,095520,080748
0000000286,0000285000,077717,092453,083219,077843,094565,083959
0000000287,0000286000,076350,090931,086108,076443,092683,087241
0000000288,0000287000,075838,088717,088834,076033,090054,090279
0000000289,0000288000,076230,086030,091128,076653,086939,092775
0000000290,0000289000,077487,083145,092757,078241,083646,094480
0000000291,0000290000,079491,080335,093564,080645,080493,095229
0000000292,0000291000,082048,077867,093474,083630,077786,094951
0000000293,0000292000,084899,075993,092497,086898,075795,093674
0000000294,0000293000,087764,074900,090725,090133,074714,091521
0000000295,0000294000,090377,074686,088325,093020,074646,088700
0000000296,0000295000,092475,075373,085541,095276,075599,085492
0000000297,0000296000,093844,076896,082650,096676,077479,082212
0000000298,0000297000,094358,079109,079922,097088,080103,079176
0000000299,0000298000,093969,081795,077625,096470,083216,076681
0000000300,0000299000,092714,084682,075994,094885,086506,074976
0000000301,0000300000,090710,087494,075184,092484,089657,074225
