DIgSILENT PowerFactory,21000900,2000
6,06A,00D
1,TTPP_200000_100:Secondary Voltage A,,,V,0.10000000,-8508.117188,0.000000,70846,99998,1,1,P
2,TTPP_200000_100:Secondary Voltage B,,,V,0.10000000,-8347.304688,0.000000,67834,99998,1,1,P
3,TTPP_200000_100:Secondary Voltage C,,,V,0.10000000,-8601.535156,0.000000,68600,99998,1,1,P
4,TTCC_500_5:Secondary Current A,,,A,0.0010000000,-78.843765,0.000000,64204,99998,1,1,P
5,TTCC_500_5:Secondary Current B,,,A,0.0010000000,-84.584557,0.000000,69185,99998,1,1,P
6,TTCC_500_5:Secondary Current C,,,A,0.0010000000,-84.797691,0.000000,69615,99998,1,1,P
50
1
1000.000000,1101
30/06/2023,06:12:12.000000
30/06/2023,06:12:12.000000
ASCII
1.000000
0000000001,0000000000,090593,087114,076863,084759,089264,074203
0000000002,0000001000,088045,089547,076977,081744,091980,074501
0000000003,0000002000,085193,091403,077975,078445,093975,075807
0000000004,0000003000,082348,092463,079758,075189,095045,077993
0000000005,0000004000,079764,092646,082160,072285,095094,080847
0000000006,0000005000,077691,091940,084938,070024,094116,084086
0000000007,0000006000,076346,090409,087813,068631,092202,087393
0000000008,0000007000,075872,088179,090519,068235,089543,090448
0000000009,0000008000,076282,085499,092788,068877,086398,092951
0000000010,0000009000,077548,082634,094389,070494,083078,094654
0000000011,0000010000,079569,079833,095167,072932,079902,095391
0000000012,0000011000,082129,077387,095054,075946,077187,095093
0000000013,0000012000,084959,075554,094056,079245,075194,093787
0000000014,0000013000,087811,074486,092272,082504,074120,091601
0000000015,0000014000,090410,074289,089871,085405,074073,088747
0000000016,0000015000,092468,075008,087093,087665,075054,085508
0000000017,0000016000,093804,076549,084217,089061,076964,082201
0000000018,0000017000,094302,078756,081512,089457,079623,079146
0000000019,0000018000,093884,081443,079243,088812,082771,076643
0000000020,0000019000,092602,084325,077643,087196,086090,074940
0000000021,0000020000,090598,087108,076863,084761,089262,074203
0000000022,0000021000,088044,089548,076977,081742,091982,074501
0000000023,0000022000,085192,091404,077974,078445,093974,075807
0000000024,0000023000,082348,092463,079758,075188,095045,077993
0000000025,0000024000,079765,092645,082160,072285,095094,080847
0000000026,0000025000,077689,091943,084937,070024,094116,084086
0000000027,0000026000,076349,090407,087813,068631,092202,087393
0000000028,0000027000,075871,088179,090519,068234,089544,090448
0000000029,0000028000,076280,085501,092788,068877,086399,092951
0000000030,0000029000,077550,082632,094388,070494,083078,094654
0000000031,0000030000,079570,079833,095168,072931,079904,095392
0000000032,0000031000,082125,077391,095054,075946,077187,095093
0000000033,0000032000,084961,075552,094056,079245,075194,093787
0000000034,0000033000,087815,074482,092272,082503,074121,091602
0000000035,0000034000,090405,074293,089871,085404,074074,088748
0000000036,0000035000,092467,075009,087093,087665,075053,085508
0000000037,0000036000,093810,076543,084217,089061,076964,082202
0000000038,0000037000,094300,078758,081512,089455,079624,079147
0000000039,0000038000,093880,081447,079243,088812,082770,076644
0000000040,0000039000,092607,084321,077642,087196,086089,074941
0000000041,0000040000,090600,087106,076863,084759,089263,074203
0000000042,0000041000,088038,089554,076977,081742,091982,074502
0000000043,0000042000,085194,091402,077974,078446,093973,075807
0000000044,0000043000,082353,092459,079758,075188,095045,077993
0000000045,0000044000,079761,092649,082160,072284,095095,080847
0000000046,0000045000,077687,091945,084937,070025,094115,084086
0000000047,0000046000,076354,090402,087813,068631,092203,087393
0000000048,0000047000,075869,088181,090519,068234,089545,090448
0000000049,0000048000,076276,085506,092788,068876,086399,092951
0000000050,0000049000,077553,082629,094388,070495,083078,094654
0000000051,0000050000,079571,079831,095168,072930,079905,095391
0000000052,0000051000,082121,077395,095054,075945,077188,095093
0000000053,0000052000,084961,075551,094057,079244,075194,093787
0000000054,0000053000,087817,074479,092273,082502,074122,091602
0000000055,0000054000,090403,074295,089872,085403,074075,088748
0000000056,0000055000,092467,075009,087094,087664,075053,085509
0000000057,0000056000,093813,076540,084218,089060,076964,082202
0000000058,0000057000,094299,078759,081512,089454,079625,079148
0000000059,0000058000,093879,081448,079243,088812,082770,076645
0000000060,0000059000,092609,084318,077642,087196,086089,074942
0000000061,0000060000,090600,087106,076863,084759,089263,074204
0000000062,0000061000,088037,089556,076976,081742,091981,074502
0000000063,0000062000,085197,091399,077973,078446,093973,075808
0000000064,0000063000,082353,092459,079757,075188,095045,077993
0000000065,0000064000,079759,092652,082159,072285,095095,080847
0000000066,0000065000,077689,091944,084936,070026,094115,084086
0000000067,0000066000,076355,090402,087813,068631,092203,087392
0000000068,0000067000,075866,088185,090519,068234,089545,090447
0000000069,0000068000,076276,085506,092787,068877,086399,092950
0000000070,0000069000,077555,082627,094388,070494,083079,094653
0000000071,0000070000,079567,079835,095168,072929,079907,095390
0000000072,0000071000,082119,077396,095055,075946,077189,095092
0000000073,0000072000,084964,075548,094058,079243,075195,093787
0000000074,0000073000,087815,074480,092274,082500,074124,091602
0000000075,0000074000,090399,074297,089873,085402,074075,088748
0000000076,0000075000,092469,075006,087094,087663,075053,085509
0000000077,0000076000,093814,076538,084218,089058,076965,082203
0000000078,0000077000,094296,078761,081513,089453,079625,079149
0000000079,0000078000,093881,081446,079243,088811,082769,076646
0000000080,0000079000,092613,084314,077642,087195,086088,074943
0000000081,0000080000,090598,087108,076863,084759,089262,074205
0000000082,0000081000,088038,089556,076975,081743,091979,074503
0000000083,0000082000,085201,091396,077972,078447,093971,075808
0000000084,0000083000,082353,092461,079756,075189,095044,077993
0000000085,0000084000,079758,092654,082157,072287,095093,080846
0000000086,0000085000,077692,091943,084935,070027,094114,084085
0000000087,0000086000,076355,090403,087812,068632,092204,087391
0000000088,0000087000,075863,088189,090518,068236,089545,090445
0000000089,0000088000,076277,085506,092787,068878,086400,092948
0000000090,0000089000,077554,082627,094388,070494,083081,094651
0000000091,0000090000,079563,079838,095169,072929,079908,095389
0000000092,0000091000,082118,077396,095056,075945,077190,095091
0000000093,0000092000,084964,075546,094059,079242,075198,093787
0000000094,0000093000,087812,074481,092276,082498,074126,091602
0000000095,0000094000,090398,074297,089874,085400,074077,088749
0000000096,0000095000,092471,075002,087096,087661,075054,085511
0000000097,0000096000,093813,076537,084220,089055,076966,082205
0000000098,0000097000,094296,078760,081514,089451,079624,079151
0000000099,0000098000,093884,081442,079243,088810,082768,076648
0000000100,0000099000,092614,084313,077642,087194,086087,074945
0000000101,0000100000,090598,087109,076862,084759,089260,074207
0000000102,0000101000,088042,089554,076974,081744,091977,074505
0000000103,0000102000,085204,091395,077971,078448,093969,075809
0000000104,0000103000,082352,092464,079754,075191,095042,077993
0000000105,0000104000,079760,092655,082155,072289,095091,080846
0000000106,0000105000,077694,091943,084933,070029,094113,084084
0000000107,0000106000,076352,090407,087810,068634,092203,087389
0000000108,0000107000,075862,088191,090516,068238,089545,090443
0000000109,0000108000,076277,085506,092787,068880,086401,092945
0000000110,0000109000,077551,082630,094389,070495,083083,094648
0000000111,0000110000,079559,079841,095170,072929,079911,095387
0000000112,0000111000,082118,077395,095057,075944,077193,095089
0000000113,0000112000,084962,075546,094061,079240,075201,093785
0000000114,0000113000,087808,074483,092278,082495,074129,091602
0000000115,0000114000,090398,074294,089877,085398,074078,088750
0000000116,0000115000,092472,074999,087099,087657,075056,085512
0000000117,0000116000,093811,076537,084222,089052,076966,082208
0000000118,0000117000,094297,078758,081515,089449,079623,079154
0000000119,0000118000,093888,081437,079244,088808,082767,076652
0000000120,0000119000,092615,084312,077642,087192,086085,074949
0000000121,0000120000,090601,087108,076861,084759,089257,074210
0000000122,0000121000,088046,089551,076972,081745,091973,074507
0000000123,0000122000,085206,091396,077968,078449,093966,075810
0000000124,0000123000,082353,092466,079751,075194,095039,077994
0000000125,0000124000,079762,092655,082152,072293,095088,080845
0000000126,0000125000,077695,091945,084931,070033,094111,084082
0000000127,0000126000,076350,090411,087808,068637,092203,087386
0000000128,0000127000,075861,088194,090515,068241,089545,090439
0000000129,0000128000,076276,085508,092786,068882,086403,092942
0000000130,0000129000,077547,082634,094389,070496,083086,094645
0000000131,0000130000,079556,079843,095171,072929,079914,095383
0000000132,0000131000,082116,077395,095060,075943,077197,095087
0000000133,0000132000,084958,075547,094064,079237,075205,093784
0000000134,0000133000,087805,074483,092282,082492,074132,091601
0000000135,0000134000,090398,074291,089880,085393,074082,088751
0000000136,0000135000,092471,074996,087102,087653,075059,085515
0000000137,0000136000,093811,076534,084225,089048,076967,082211
0000000138,0000137000,094300,078753,081517,089445,079623,079158
0000000139,0000138000,093891,081433,079245,088805,082765,076656
0000000140,0000139000,092617,084310,077642,087191,086082,074953
0000000141,0000140000,090605,087105,076859,084759,089253,074214
0000000142,0000141000,088051,089549,076970,081747,091969,074510
0000000143,0000142000,085208,091397,077965,078452,093962,075812
0000000144,0000143000,082355,092468,079747,075198,095034,077994
0000000145,0000144000,079766,092656,082148,072297,095085,080844
0000000146,0000145000,077694,091949,084927,070037,094109,084079
0000000147,0000146000,076349,090416,087805,068642,092202,087382
0000000148,0000147000,075860,088197,090512,068245,089546,090435
0000000149,0000148000,076272,085512,092785,068884,086405,092936
0000000150,0000149000,077541,082639,094389,070497,083089,094640
0000000151,0000150000,079553,079845,095172,072929,079919,095379
0000000152,0000151000,082112,077396,095063,075941,077202,095083
0000000153,0000152000,084953,075549,094068,079234,075211,093782
0000000154,0000153000,087803,074481,092286,082488,074137,091601
0000000155,0000154000,090397,074287,089885,085388,074086,088752
0000000156,0000155000,092469,074994,087107,087647,075061,085518
0000000157,0000156000,093811,076530,084228,089043,076968,082215
0000000158,0000157000,094304,078747,081519,089441,079622,079163
0000000159,0000158000,093894,081429,079246,088802,082763,076662
0000000160,0000159000,092621,084307,077641,087189,086078,074959
0000000161,0000160000,090611,087101,076857,084759,089247,074219
0000000162,0000161000,088056,089547,076966,081748,091963,074514
0000000163,0000162000,085211,091398,077960,078456,093956,075815
0000000164,0000163000,082360,092468,079742,075203,095029,077994
0000000165,0000164000,079768,092659,082143,072303,095081,080842
0000000166,0000165000,077694,091954,084922,070044,094106,084076
0000000167,0000166000,076348,090421,087800,068648,092200,087377
0000000168,0000167000,075858,088201,090510,068250,089547,090429
0000000169,0000168000,076267,085518,092784,068888,086408,092930
0000000170,0000169000,077536,082644,094390,070499,083094,094633
0000000171,0000170000,079548,079847,095175,072929,079925,095373
0000000172,0000171000,082105,077398,095067,075938,077209,095079
0000000173,0000172000,084947,075549,094073,079229,075217,093779
0000000174,0000173000,087799,074478,092292,082482,074143,091601
0000000175,0000174000,090395,074283,089891,085381,074091,088754
0000000176,0000175000,092468,074990,087112,087640,075065,085521
0000000177,0000176000,093813,076524,084233,089036,076969,082221
0000000178,0000177000,094308,078740,081523,089435,079621,079170
0000000179,0000178000,093898,081424,079248,088797,082759,076669
0000000180,0000179000,092627,084302,077641,087187,086072,074966
0000000181,0000180000,090619,087096,076854,084760,089241,074226
0000000182,0000181000,088062,089545,076962,081751,091956,074519
0000000183,0000182000,085217,091399,077954,078461,093948,075818
0000000184,0000183000,082365,092469,079735,075209,095022,077995
0000000185,0000184000,079771,092663,082136,072311,095075,080840
0000000186,0000185000,077694,091961,084915,070052,094102,084072
0000000187,0000186000,076347,090427,087795,068656,092199,087371
0000000188,0000187000,075855,088208,090506,068256,089548,090421
0000000189,0000188000,076261,085526,092782,068892,086412,092922
0000000190,0000189000,077530,082650,094390,070502,083099,094625
0000000191,0000190000,079541,079851,095178,072928,079932,095366
0000000192,0000191000,082097,077401,095072,075935,077218,095073
0000000193,0000192000,084940,075550,094080,079224,075226,093776
0000000194,0000193000,087795,074475,092299,082475,074151,091600
0000000195,0000194000,090391,074279,089899,085372,074098,088756
0000000196,0000195000,092467,074984,087119,087631,075069,085526
0000000197,0000196000,093816,076515,084239,089028,076971,082228
0000000198,0000197000,094311,078732,081527,089427,079620,079179
0000000199,0000198000,093903,081417,079249,088792,082755,076679
0000000200,0000199000,092635,084295,077640,087185,086066,074975
0000000201,0000200000,090627,087091,076851,084760,089232,074234
0000000202,0000201000,088069,089544,076957,081754,091946,074525
0000000203,0000202000,085224,091398,077947,078467,093938,075821
0000000204,0000203000,082372,092471,079727,075217,095013,077996
0000000205,0000204000,079774,092668,082128,072320,095068,080838
0000000206,0000205000,077695,091968,084907,070062,094098,084067
0000000207,0000206000,076346,090435,087788,068665,092197,087364
0000000208,0000207000,075850,088217,090502,068264,089550,090412
0000000209,0000208000,076254,085535,092780,068898,086416,092911
0000000210,0000209000,077522,082656,094391,070504,083107,094615
0000000211,0000210000,079532,079856,095181,072928,079941,095357
0000000212,0000211000,082088,077405,095077,075931,077228,095066
0000000213,0000212000,084933,075549,094088,079218,075236,093772
0000000214,0000213000,087789,074472,092308,082466,074161,091599
0000000215,0000214000,090387,074275,089908,085362,074105,088759
0000000216,0000215000,092466,074976,087128,087620,075074,085532
0000000217,0000216000,093818,076506,084246,089017,076973,082236
0000000218,0000217000,094315,078723,081532,089419,079619,079189
0000000219,0000218000,093910,081408,079251,088786,082750,076690
0000000220,0000219000,092645,084286,077639,087182,086058,074986
0000000221,0000220000,090637,087085,076847,084760,089222,074243
0000000222,0000221000,088078,089541,076950,081758,091935,074533
0000000223,0000222000,085234,091398,077938,078474,093927,075826
0000000224,0000223000,082378,092474,079717,075227,095003,077997
0000000225,0000224000,079777,092675,082117,072331,095060,080835
0000000226,0000225000,077696,091976,084898,070074,094092,084060
0000000227,0000226000,076344,090444,087781,068676,092195,087354
0000000228,0000227000,075844,088228,090496,068274,089552,090401
0000000229,0000228000,076247,085545,092778,068905,086421,092899
0000000230,0000229000,077513,082664,094392,070508,083115,094603
0000000231,0000230000,079521,079863,095186,072927,079952,095347
0000000232,0000231000,082077,077408,095085,075927,077240,095058
0000000233,0000232000,084924,075549,094097,079210,075249,093767
0000000234,0000233000,087781,074469,092319,082455,074172,091598
0000000235,0000234000,090381,074269,089919,085350,074115,088762
0000000236,0000235000,092465,074967,087138,087607,075080,085539
0000000237,0000236000,093821,076495,084254,089005,076975,082246
0000000238,0000237000,094320,078712,081538,089408,079617,079201
0000000239,0000238000,093919,081397,079254,088779,082744,076703
0000000240,0000239000,092656,084276,077638,087178,086049,074999
0000000241,0000240000,090648,087079,076843,084761,089211,074255
0000000242,0000241000,088090,089537,076942,081763,091922,074541
0000000243,0000242000,085244,091397,077928,078482,093913,075831
0000000244,0000243000,082386,092478,079705,075238,094990,077997
0000000245,0000244000,079782,092682,082105,072345,095050,080832
0000000246,0000245000,077698,091985,084887,070088,094086,084053
0000000247,0000246000,076342,090456,087772,068689,092193,087344
0000000248,0000247000,075838,088241,090490,068285,089554,090387
0000000249,0000248000,076238,085556,092775,068913,086428,092885
0000000250,0000249000,077502,082674,094394,070512,083125,094589
0000000251,0000250000,079508,079871,095191,072927,079965,095334
0000000252,0000251000,082065,077412,095093,075922,077255,095049
0000000253,0000252000,084913,075548,094108,079201,075263,093762
0000000254,0000253000,087772,074465,092332,082443,074186,091597
0000000255,0000254000,090376,074261,089932,085335,074125,088765
0000000256,0000255000,092464,074956,087150,087592,075087,085547
0000000257,0000256000,093823,076482,084264,088991,076978,082258
0000000258,0000257000,094327,078699,081544,089396,079614,079215
0000000259,0000258000,093929,081383,079257,088770,082738,076718
0000000260,0000259000,092668,084265,077636,087174,086038,075014
0000000261,0000260000,090661,087071,076837,084761,089197,074268
0000000262,0000261000,088104,089532,076933,081768,091906,074551
0000000263,0000262000,085257,091397,077916,078492,093898,075836
0000000264,0000263000,082395,092483,079692,075252,094976,077998
0000000265,0000264000,079788,092690,082091,072360,095038,080828
0000000266,0000265000,077700,091996,084874,070104,094078,084044
0000000267,0000266000,076338,090470,087761,068705,092190,087331
0000000268,0000267000,075831,088256,090482,068298,089556,090372
0000000269,0000268000,076228,085570,092772,068922,086435,092869
0000000270,0000269000,077488,082686,094395,070516,083137,094573
0000000271,0000270000,079493,079880,095197,072926,079980,095320
0000000272,0000271000,082050,077417,095103,075916,077271,095038
0000000273,0000272000,084900,075548,094121,079190,075280,093756
0000000274,0000273000,087761,074461,092347,082428,074201,091596
0000000275,0000274000,090370,074252,089947,085319,074137,088770
0000000276,0000275000,092462,074943,087164,087575,075095,085556
0000000277,0000276000,093826,076468,084276,088974,076980,082271
0000000278,0000277000,094334,078683,081552,089383,079612,079232
0000000279,0000278000,093941,081368,079260,088760,082730,076736
0000000280,0000279000,092682,084252,077635,087169,086026,075031
0000000281,0000280000,090677,087062,076831,084762,089181,074283
0000000282,0000281000,088120,089527,076922,081775,091888,074563
0000000283,0000282000,085271,091397,077902,078503,093880,075843
0000000284,0000283000,082406,092488,079676,075267,094960,077999
0000000285,0000284000,079796,092699,082075,072378,095025,080823
0000000286,0000285000,077702,092009,084859,070122,094070,084034
0000000287,0000286000,076335,090486,087748,068722,092187,087317
0000000288,0000287000,075823,088273,090474,068312,089559,090355
0000000289,0000288000,076215,085586,092768,068932,086444,092850
0000000290,0000289000,077472,082701,094397,070521,083150,094555
0000000291,0000290000,079476,079891,095203,072925,079997,095304
0000000292,0000291000,082034,077422,095114,075909,077290,095026
0000000293,0000292000,084885,075549,094136,079178,075299,093749
0000000294,0000293000,087749,074456,092364,082412,074218,091595
0000000295,0000294000,090363,074242,089965,085300,074151,088775
0000000296,0000295000,092460,074929,087180,087555,075104,085567
0000000297,0000296000,093829,076451,084289,088956,076984,082287
0000000298,0000297000,094343,078665,081562,089367,079609,079250
0000000299,0000298000,093954,081351,079265,088749,082721,076756
0000000300,0000299000,092698,084238,077633,087164,086011,075051
0000000301,0000300000,090695,087050,076824,084763,089163,074300
