DIgSILENT PowerFactory,21000900,2000
6,06A,00D
1,TTPP_200000_100:Secondary Voltage A,,,V,0.10000000,-8384.917969,0.000000,69330,99998,1,1,P
2,TTPP_200000_100:Secondary Voltage B,,,V,0.10000000,-8436.662109,0.000000,70456,99998,1,1,P
3,TTPP_200000_100:Secondary Voltage C,,,V,0.10000000,-8436.938477,0.000000,66881,99998,1,1,P
4,TTCC_500_5:Secondary Current A,,,A,0.0010000000,-79.312843,0.000000,65063,99998,1,1,P
5,TTCC_500_5:Secondary Current B,,,A,0.0010000000,-84.508698,0.000000,69096,99998,1,1,P
6,TTCC_500_5:Secondary Current C,,,A,0.0010000000,-84.874084,0.000000,69769,99998,1,1,P
50
1
1000.000000,1101
30/06/2023,06:12:00.000000
30/06/2023,06:12:00.000000
ASCII
1.000000
0000000001,0000000000,089361,088007,075217,085229,089188,074279
0000000002,0000001000,086813,090441,075331,082211,091906,074578
0000000003,0000002000,083964,092293,076329,078916,093897,075883
0000000004,0000003000,081113,093361,078112,075659,094968,078069
0000000005,0000004000,078533,093539,080514,072753,095020,080923
0000000006,0000005000,076460,092833,083292,070493,094040,084163
0000000007,0000006000,075115,091302,086167,069102,092125,087469
0000000008,0000007000,074638,089075,088873,068704,089467,090524
0000000009,0000008000,075051,086392,091142,069344,086324,093027
0000000010,0000009000,076317,083527,092743,070964,083001,094730
0000000011,0000010000,078337,080728,093521,073402,079826,095468
0000000012,0000011000,080896,078281,093408,076415,077112,095169
0000000013,0000012000,083727,076447,092411,079713,075119,093864
0000000014,0000013000,086580,075378,090626,082974,074044,091678
0000000015,0000014000,089177,075183,088225,085875,073997,088824
0000000016,0000015000,091236,075902,085447,088133,074979,085585
0000000017,0000016000,092573,077441,082571,089530,076887,082278
0000000018,0000017000,093071,079649,079866,089926,079547,079223
0000000019,0000018000,092651,082337,077597,089281,082695,076720
0000000020,0000019000,091369,085219,075997,087665,086014,075017
0000000021,0000020000,089367,088000,075217,085230,089186,074279
0000000022,0000021000,086812,090442,075331,082212,091906,074578
0000000023,0000022000,083960,092298,076328,078914,093899,075883
0000000024,0000023000,081116,093357,078112,075658,094969,078069
0000000025,0000024000,078534,093537,080514,072754,095018,080923
0000000026,0000025000,076456,092837,083291,070493,094040,084162
0000000027,0000026000,075116,091301,086167,069099,092127,087469
0000000028,0000027000,074639,089072,088873,068704,089468,090524
0000000029,0000028000,075048,086395,091142,069345,086323,093027
0000000030,0000029000,076317,083526,092742,070963,083002,094730
0000000031,0000030000,078337,080726,093522,073399,079828,095468
0000000032,0000031000,080894,078283,093408,076415,077111,095169
0000000033,0000032000,083728,076446,092410,079714,075118,093864
0000000034,0000033000,086582,075376,090626,082972,074045,091678
0000000035,0000034000,089174,075186,088226,085873,073998,088824
0000000036,0000035000,091235,075902,085447,088134,074977,085585
0000000037,0000036000,092578,077437,082571,089530,076888,082278
0000000038,0000037000,093068,079651,079866,089924,079548,079224
0000000039,0000038000,092648,082340,077597,089281,082694,076720
0000000040,0000039000,091375,085214,075996,087665,086013,075017
0000000041,0000040000,089368,088000,075217,085229,089187,074280
0000000042,0000041000,086806,090448,075331,082211,091906,074578
0000000043,0000042000,083962,092295,076328,078915,093897,075883
0000000044,0000043000,081121,093353,078112,075657,094969,078069
0000000045,0000044000,078529,093543,080514,072754,095019,080923
0000000046,0000045000,076455,092839,083291,070494,094039,084162
0000000047,0000046000,075122,091296,086167,069100,092127,087469
0000000048,0000047000,074637,089075,088873,068703,089469,090524
0000000049,0000048000,075044,086399,091142,069345,086323,093027
0000000050,0000049000,076321,083522,092742,070964,083002,094730
0000000051,0000050000,078338,080725,093522,073398,079830,095468
0000000052,0000051000,080888,078288,093409,076414,077112,095169
0000000053,0000052000,083729,076445,092411,079713,075118,093864
0000000054,0000053000,086585,075373,090627,082970,074047,091679
0000000055,0000054000,089170,075189,088226,085872,073999,088825
0000000056,0000055000,091235,075903,085448,088133,074977,085585
0000000057,0000056000,092581,077433,082572,089529,076888,082279
0000000058,0000057000,093067,079652,079866,089923,079549,079224
0000000059,0000058000,092647,082342,077597,089281,082694,076721
0000000060,0000059000,091378,085211,075996,087665,086013,075018
0000000061,0000060000,089368,088000,075217,085228,089187,074280
0000000062,0000061000,086805,090450,075330,082212,091905,074579
0000000063,0000062000,083965,092293,076327,078915,093897,075884
0000000064,0000063000,081121,093353,078111,075657,094969,078069
0000000065,0000064000,078527,093545,080513,072754,095019,080923
0000000066,0000065000,076457,092838,083290,070495,094039,084162
0000000067,0000066000,075123,091295,086167,069100,092127,087468
0000000068,0000067000,074634,089078,088873,068703,089469,090523
0000000069,0000068000,075044,086400,091142,069346,086323,093026
0000000070,0000069000,076322,083521,092742,070963,083003,094729
0000000071,0000070000,078335,080728,093522,073398,079831,095467
0000000072,0000071000,080887,078290,093409,076414,077113,095168
0000000073,0000072000,083732,076442,092412,079712,075120,093864
0000000074,0000073000,086583,075374,090628,082969,074048,091679
0000000075,0000074000,089168,075191,088227,085871,073999,088825
0000000076,0000075000,091237,075899,085448,088132,074977,085586
0000000077,0000076000,092581,077431,082572,089527,076889,082280
0000000078,0000077000,093064,079654,079867,089922,079548,079226
0000000079,0000078000,092649,082339,077597,089280,082693,076723
0000000080,0000079000,091381,085208,075996,087664,086012,075020
0000000081,0000080000,089367,088002,075217,085228,089186,074282
0000000082,0000081000,086806,090450,075329,082213,091903,074580
0000000083,0000082000,083969,092290,076326,078916,093895,075884
0000000084,0000083000,081121,093355,078110,075658,094968,078069
0000000085,0000084000,078526,093548,080511,072756,095017,080922
0000000086,0000085000,076460,092836,083289,070497,094038,084161
0000000087,0000086000,075123,091297,086166,069101,092128,087467
0000000088,0000087000,074631,089082,088872,068705,089469,090521
0000000089,0000088000,075045,086399,091141,069347,086324,093024
0000000090,0000089000,076322,083520,092742,070963,083005,094727
0000000091,0000090000,078331,080731,093523,073398,079833,095465
0000000092,0000091000,080886,078290,093410,076414,077115,095167
0000000093,0000092000,083732,076440,092413,079711,075122,093863
0000000094,0000093000,086580,075375,090630,082967,074050,091679
0000000095,0000094000,089166,075190,088228,085869,074001,088826
0000000096,0000095000,091239,075896,085450,088130,074978,085587
0000000097,0000096000,092581,077430,082574,089524,076890,082282
0000000098,0000097000,093064,079654,079868,089920,079548,079228
0000000099,0000098000,092652,082335,077597,089279,082692,076725
0000000100,0000099000,091382,085206,075996,087663,086011,075022
0000000101,0000100000,089367,088003,075216,085228,089184,074284
0000000102,0000101000,086809,090448,075328,082213,091901,074581
0000000103,0000102000,083972,092289,076324,078917,093893,075885
0000000104,0000103000,081120,093357,078108,075660,094966,078069
0000000105,0000104000,078528,093549,080509,072759,095015,080922
0000000106,0000105000,076462,092836,083287,070499,094037,084160
0000000107,0000106000,075121,091300,086164,069103,092128,087465
0000000108,0000107000,074629,089085,088870,068707,089470,090519
0000000109,0000108000,075045,086400,091141,069349,086325,093022
0000000110,0000109000,076319,083523,092743,070964,083007,094725
0000000111,0000110000,078327,080734,093524,073398,079835,095463
0000000112,0000111000,080885,078289,093411,076413,077117,095166
0000000113,0000112000,083730,076440,092415,079709,075125,093862
0000000114,0000113000,086577,075376,090632,082964,074053,091678
0000000115,0000114000,089166,075188,088231,085866,074003,088826
0000000116,0000115000,091240,075893,085453,088126,074980,085589
0000000117,0000116000,092579,077430,082576,089521,076890,082284
0000000118,0000117000,093065,079651,079869,089918,079547,079231
0000000119,0000118000,092656,082331,077598,089277,082690,076728
0000000120,0000119000,091384,085205,075996,087662,086009,075025
0000000121,0000120000,089369,088002,075215,085228,089181,074286
0000000122,0000121000,086814,090445,075326,082215,091897,074584
0000000123,0000122000,083974,092289,076322,078919,093890,075887
0000000124,0000123000,081121,093360,078105,075663,094963,078070
0000000125,0000124000,078530,093549,080506,072762,095013,080921
0000000126,0000125000,076462,092838,083285,070502,094036,084158
0000000127,0000126000,075118,091305,086162,069106,092127,087462
0000000128,0000127000,074629,089088,088869,068710,089470,090516
0000000129,0000128000,075044,086401,091140,069351,086327,093018
0000000130,0000129000,076315,083527,092743,070965,083010,094721
0000000131,0000130000,078324,080737,093525,073398,079838,095460
0000000132,0000131000,080883,078288,093414,076411,077121,095163
0000000133,0000132000,083726,076441,092419,079706,075129,093860
0000000134,0000133000,086573,075376,090636,082961,074057,091678
0000000135,0000134000,089166,075184,088234,085862,074006,088827
0000000136,0000135000,091239,075890,085456,088122,074983,085591
0000000137,0000136000,092579,077428,082579,089517,076891,082287
0000000138,0000137000,093068,079646,079871,089914,079547,079235
0000000139,0000138000,092659,082327,077599,089274,082689,076733
0000000140,0000139000,091386,085204,075996,087660,086006,075029
0000000141,0000140000,089373,087999,075213,085229,089177,074290
0000000142,0000141000,086819,090442,075324,082216,091893,074587
0000000143,0000142000,083976,092291,076319,078921,093886,075889
0000000144,0000143000,081123,093361,078101,075667,094959,078070
0000000145,0000144000,078533,093550,080502,072767,095009,080920
0000000146,0000145000,076462,092842,083281,070507,094034,084155
0000000147,0000146000,075117,091310,086159,069111,092126,087458
0000000148,0000147000,074628,089091,088866,068714,089470,090511
0000000149,0000148000,075040,086405,091139,069353,086330,093013
0000000150,0000149000,076310,083532,092743,070966,083014,094716
0000000151,0000150000,078321,080738,093527,073398,079843,095455
0000000152,0000151000,080880,078289,093417,076409,077127,095160
0000000153,0000152000,083721,076442,092423,079702,075135,093858
0000000154,0000153000,086571,075374,090640,082957,074061,091678
0000000155,0000154000,089165,075181,088239,085857,074010,088829
0000000156,0000155000,091238,075887,085461,088116,074985,085594
0000000157,0000156000,092580,077424,082582,089512,076892,082292
0000000158,0000157000,093072,079640,079873,089910,079546,079240
0000000159,0000158000,092663,082322,077600,089271,082686,076738
0000000160,0000159000,091389,085200,075995,087659,086002,075035
0000000161,0000160000,089379,087995,075211,085229,089171,074296
0000000162,0000161000,086824,090440,075320,082218,091887,074591
0000000163,0000162000,083979,092292,076314,078925,093880,075891
0000000164,0000163000,081128,093362,078096,075672,094953,078071
0000000165,0000164000,078536,093552,080497,072773,095005,080918
0000000166,0000165000,076462,092848,083276,070513,094031,084152
0000000167,0000166000,075116,091315,086154,069117,092125,087454
0000000168,0000167000,074626,089095,088864,068719,089471,090505
0000000169,0000168000,075035,086412,091138,069357,086333,093006
0000000170,0000169000,076304,083538,092744,070968,083018,094709
0000000171,0000170000,078316,080741,093529,073397,079849,095449
0000000172,0000171000,080873,078291,093421,076407,077134,095155
0000000173,0000172000,083715,076443,092428,079698,075142,093856
0000000174,0000173000,086567,075372,090646,082951,074068,091677
0000000175,0000174000,089163,075177,088245,085850,074015,088831
0000000176,0000175000,091236,075883,085466,088109,074989,085598
0000000177,0000176000,092581,077417,082587,089505,076893,082297
0000000178,0000177000,093076,079633,079877,089904,079545,079247
0000000179,0000178000,092666,082317,077602,089266,082683,076746
0000000180,0000179000,091395,085195,075994,087657,085996,075043
0000000181,0000180000,089387,087990,075208,085229,089164,074302
0000000182,0000181000,086830,090439,075316,082220,091880,074596
0000000183,0000182000,083985,092292,076308,078930,093872,075894
0000000184,0000183000,081133,093363,078089,075679,094946,078071
0000000185,0000184000,078539,093556,080490,072780,094999,080917
0000000186,0000185000,076462,092854,083269,070521,094027,084148
0000000187,0000186000,075115,091321,086149,069125,092123,087447
0000000188,0000187000,074623,089102,088860,068726,089473,090497
0000000189,0000188000,075029,086419,091136,069361,086336,092998
0000000190,0000189000,076298,083543,092744,070971,083024,094701
0000000191,0000190000,078309,080744,093532,073397,079857,095442
0000000192,0000191000,080865,078294,093426,076404,077142,095150
0000000193,0000192000,083708,076443,092434,079693,075150,093852
0000000194,0000193000,086563,075369,090653,082943,074076,091677
0000000195,0000194000,089159,075173,088253,085841,074022,088833
0000000196,0000195000,091235,075877,085473,088100,074993,085603
0000000197,0000196000,092584,077409,082593,089497,076895,082304
0000000198,0000197000,093079,079625,079881,089896,079544,079255
0000000199,0000198000,092671,082310,077603,089261,082679,076755
0000000200,0000199000,091403,085188,075994,087654,085990,075052
0000000201,0000200000,089395,087985,075205,085229,089156,074310
0000000202,0000201000,086837,090437,075311,082223,091870,074602
0000000203,0000202000,083992,092292,076301,078936,093862,075898
0000000204,0000203000,081139,093365,078081,075687,094937,078072
0000000205,0000204000,078542,093562,080482,072789,094992,080914
0000000206,0000205000,076462,092861,083262,070531,094022,084143
0000000207,0000206000,075114,091329,086142,069134,092121,087440
0000000208,0000207000,074618,089111,088856,068733,089474,090488
0000000209,0000208000,075022,086428,091134,069367,086341,092988
0000000210,0000209000,076290,083550,092745,070973,083031,094691
0000000211,0000210000,078300,080750,093536,073397,079866,095433
0000000212,0000211000,080856,078298,093432,076400,077153,095143
0000000213,0000212000,083701,076443,092442,079687,075161,093849
0000000214,0000213000,086557,075365,090663,082935,074085,091676
0000000215,0000214000,089155,075168,088262,085831,074030,088835
0000000216,0000215000,091234,075870,085482,088089,074998,085608
0000000217,0000216000,092586,077399,082600,089486,076897,082313
0000000218,0000217000,093084,079616,079886,089888,079542,079266
0000000219,0000218000,092678,082302,077605,089255,082674,076766
0000000220,0000219000,091413,085180,075993,087651,085982,075063
0000000221,0000220000,089405,087979,075201,085229,089146,074320
0000000222,0000221000,086847,090434,075304,082227,091859,074609
0000000223,0000222000,084002,092291,076292,078943,093851,075902
0000000224,0000223000,081146,093368,078071,075696,094927,078073
0000000225,0000224000,078546,093568,080471,072801,094984,080911
0000000226,0000225000,076464,092869,083252,070543,094016,084136
0000000227,0000226000,075112,091338,086135,069146,092119,087431
0000000228,0000227000,074613,089122,088850,068743,089476,090477
0000000229,0000228000,075014,086438,091132,069374,086346,092976
0000000230,0000229000,076281,083558,092746,070977,083040,094679
0000000231,0000230000,078289,080756,093540,073396,079877,095423
0000000232,0000231000,080845,078302,093439,076396,077165,095135
0000000233,0000232000,083692,076442,092451,079679,075173,093844
0000000234,0000233000,086549,075362,090673,082924,074097,091675
0000000235,0000234000,089150,075162,088273,085819,074039,088838
0000000236,0000235000,091233,075860,085492,088076,075004,085615
0000000237,0000236000,092589,077388,082608,089474,076899,082323
0000000238,0000237000,093089,079605,079892,089877,079541,079278
0000000239,0000238000,092687,082290,077608,089248,082668,076779
0000000240,0000239000,091424,085170,075992,087647,085973,075076
0000000241,0000240000,089416,087972,075197,085230,089135,074331
0000000242,0000241000,086858,090431,075296,082232,091846,074618
0000000243,0000242000,084012,092291,076282,078952,093837,075907
0000000244,0000243000,081154,093372,078059,075708,094914,078074
0000000245,0000244000,078550,093576,080459,072814,094974,080908
0000000246,0000245000,076466,092879,083241,070557,094010,084129
0000000247,0000246000,075110,091350,086126,069159,092117,087420
0000000248,0000247000,074606,089135,088844,068754,089478,090463
0000000249,0000248000,075006,086450,091129,069382,086352,092961
0000000250,0000249000,076270,083568,092748,070981,083050,094665
0000000251,0000250000,078276,080765,093545,073395,079890,095411
0000000252,0000251000,080833,078306,093447,076391,077179,095126
0000000253,0000252000,083681,076442,092462,079670,075188,093838
0000000254,0000253000,086540,075359,090686,082912,074110,091674
0000000255,0000254000,089144,075155,088286,085804,074049,088842
0000000256,0000255000,091232,075849,085504,088061,075011,085623
0000000257,0000256000,092591,077376,082618,089460,076902,082334
0000000258,0000257000,093095,079592,079898,089865,079538,079292
0000000259,0000258000,092697,082277,077611,089239,082662,076795
0000000260,0000259000,091436,085159,075990,087643,085962,075091
0000000261,0000260000,089429,087965,075191,085231,089121,074344
0000000262,0000261000,086872,090426,075287,082238,091830,074628
0000000263,0000262000,084025,092290,076270,078961,093822,075913
0000000264,0000263000,081163,093377,078046,075721,094900,078075
0000000265,0000264000,078556,093584,080445,072830,094962,080904
0000000266,0000265000,076468,092890,083228,070573,094002,084120
0000000267,0000266000,075106,091364,086115,069174,092115,087407
0000000268,0000267000,074599,089150,088836,068767,089480,090448
0000000269,0000268000,074995,086464,091126,069391,086359,092945
0000000270,0000269000,076256,083580,092749,070985,083061,094649
0000000271,0000270000,078261,080774,093551,073395,079905,095397
0000000272,0000271000,080818,078310,093457,076385,077196,095115
0000000273,0000272000,083668,076442,092475,079659,075204,093832
0000000274,0000273000,086530,075354,090701,082897,074125,091673
0000000275,0000274000,089138,075146,088301,085788,074061,088846
0000000276,0000275000,091230,075837,085518,088044,075019,085633
0000000277,0000276000,092594,077361,082630,089443,076904,082348
0000000278,0000277000,093102,079577,079906,089852,079536,079308
0000000279,0000278000,092709,082262,077614,089230,082654,076812
0000000280,0000279000,091450,085146,075989,087638,085950,075108
0000000281,0000280000,089445,087955,075185,085231,089105,074359
0000000282,0000281000,086888,090420,075276,082244,091812,074639
0000000283,0000282000,084039,092290,076256,078973,093804,075919
0000000284,0000283000,081174,093382,078030,075736,094884,078076
0000000285,0000284000,078564,093593,080429,072847,094949,080899
0000000286,0000285000,076470,092903,083213,070591,093994,084110
0000000287,0000286000,075103,091380,086102,069191,092112,087393
0000000288,0000287000,074591,089166,088828,068782,089483,090431
0000000289,0000288000,074983,086479,091122,069401,086368,092926
0000000290,0000289000,076240,083594,092751,070990,083075,094631
0000000291,0000290000,078244,080784,093557,073394,079922,095380
0000000292,0000291000,080802,078316,093468,076378,077215,095103
0000000293,0000292000,083653,076442,092490,079647,075224,093825
0000000294,0000293000,086517,075350,090718,082881,074143,091672
0000000295,0000294000,089131,075135,088319,085769,074075,088851
0000000296,0000295000,091228,075823,085534,088024,075028,085643
0000000297,0000296000,092597,077345,082643,089425,076908,082363
0000000298,0000297000,093111,079558,079916,089836,079532,079327
0000000299,0000298000,092722,082244,077619,089219,082645,076833
0000000300,0000299000,091467,085131,075987,087633,085935,075127
0000000301,0000300000,089463,087944,075178,085233,089086,074377
