DIgSILENT PowerFactory,21000900,2000
6,06A,00D
1,TTPP_200000_100:Secondary Voltage A,,,V,0.10000000,-8382.245117,0.000000,67169,99998,1,1,P
2,TTPP_200000_100:Secondary Voltage B,,,V,0.10000000,-8089.910156,0.000000,64204,99998,1,1,P
3,TTPP_200000_100:Secondary Voltage C,,,V,0.10000000,-8363.911133,0.000000,66798,99998,1,1,P
4,TTCC_500_5:Secondary Current A,,,A,0.0010000000,-87.411583,0.000000,68938,99998,1,1,P
5,TTCC_500_5:Secondary Current B,,,A,0.0010000000,-85.155617,0.000000,70253,99998,1,1,P
6,TTCC_500_5:Secondary Current C,,,A,0.0010000000,-84.831757,0.000000,69484,99998,1,1,P
50
1
1000.000000,1101
30/06/2023,06:07:28.000000
30/06/2023,06:07:28.000000
ASCII
1.000000
0000000001,0000000000,089335,084539,074487,093327,089835,074237
0000000002,0000001000,086786,086973,074601,090312,092551,074535
0000000003,0000002000,083935,088828,075599,087012,094546,075841
0000000004,0000003000,081090,089890,077381,083757,095615,078026
0000000005,0000004000,078505,090073,079783,080853,095666,080880
0000000006,0000005000,076433,089366,082562,078593,094686,084120
0000000007,0000006000,075087,087836,085437,077199,092774,087427
0000000008,0000007000,074614,085605,088142,076803,090114,090482
0000000009,0000008000,075022,082927,090411,077444,086970,092985
0000000010,0000009000,076290,080059,092012,079062,083649,094688
0000000011,0000010000,078309,077261,092791,081500,080474,095425
0000000012,0000011000,080871,074812,092677,084514,077759,095127
0000000013,0000012000,083699,072981,091681,087813,075765,093821
0000000014,0000013000,086553,071910,089896,091071,074692,091636
0000000015,0000014000,089150,071715,087495,093973,074644,088782
0000000016,0000015000,091209,072434,084717,096232,075625,085542
0000000017,0000016000,092545,073974,081841,097630,077534,082236
0000000018,0000017000,093044,076182,079136,098024,080195,079181
0000000019,0000018000,092625,078869,076867,097380,083341,076678
0000000020,0000019000,091343,081751,075267,095763,086661,074975
0000000021,0000020000,089340,084533,074487,093330,089832,074237
0000000022,0000021000,086785,086974,074600,090310,092553,074535
0000000023,0000022000,083934,088830,075598,087013,094545,075841
0000000024,0000023000,081089,089890,077382,083756,095616,078026
0000000025,0000024000,078508,090070,079784,080853,095665,080880
0000000026,0000025000,076430,089370,082561,078591,094688,084120
0000000027,0000026000,075090,087833,085437,077199,092774,087427
0000000028,0000027000,074612,085606,088143,076802,090115,090482
0000000029,0000028000,075022,082927,090411,077444,086970,092985
0000000030,0000029000,076290,080059,092012,079062,083649,094688
0000000031,0000030000,078311,077259,092791,081498,080475,095426
0000000032,0000031000,080866,074817,092678,084514,077758,095127
0000000033,0000032000,083702,072979,091680,087812,075765,093822
0000000034,0000033000,086555,071909,089896,091070,074692,091636
0000000035,0000034000,089147,071718,087495,093972,074645,088782
0000000036,0000035000,091208,072435,084717,096232,075624,085543
0000000037,0000036000,092551,073969,081841,097628,077535,082236
0000000038,0000037000,093041,076184,079136,098023,080195,079181
0000000039,0000038000,092622,078872,076867,097380,083341,076678
0000000040,0000039000,091348,081747,075266,095764,086660,074975
0000000041,0000040000,089342,084532,074487,093328,089834,074237
0000000042,0000041000,086780,086980,074601,090310,092553,074536
0000000043,0000042000,083936,088827,075597,087014,094544,075841
0000000044,0000043000,081094,089886,077381,083756,095616,078027
0000000045,0000044000,078503,090075,079783,080852,095666,080881
0000000046,0000045000,076429,089371,082561,078593,094686,084120
0000000047,0000046000,075095,087829,085437,077198,092774,087426
0000000048,0000047000,074610,085608,088142,076802,090116,090481
0000000049,0000048000,075017,082932,090411,077444,086970,092984
0000000050,0000049000,076294,080055,092012,079062,083649,094687
0000000051,0000050000,078311,077258,092791,081497,080477,095425
0000000052,0000051000,080862,074821,092678,084513,077759,095127
0000000053,0000052000,083702,072977,091681,087812,075765,093822
0000000054,0000053000,086558,071905,089897,091069,074693,091636
0000000055,0000054000,089143,071722,087496,093971,074646,088782
0000000056,0000055000,091208,072435,084718,096232,075624,085543
0000000057,0000056000,092554,073965,081842,097627,077535,082237
0000000058,0000057000,093040,076184,079136,098022,080196,079182
0000000059,0000058000,092620,078874,076867,097380,083340,076679
0000000060,0000059000,091351,081743,075266,095764,086659,074976
0000000061,0000060000,089342,084532,074487,093327,089834,074238
0000000062,0000061000,086779,086982,074600,090310,092552,074536
0000000063,0000062000,083938,088826,075597,087014,094543,075841
0000000064,0000063000,081095,089885,077381,083756,095616,078027
0000000065,0000064000,078501,090078,079782,080853,095666,080880
0000000066,0000065000,076430,089371,082560,078594,094686,084120
0000000067,0000066000,075096,087828,085436,077199,092774,087426
0000000068,0000067000,074608,085611,088142,076802,090116,090480
0000000069,0000068000,075017,082932,090411,077445,086970,092983
0000000070,0000069000,076296,080054,092012,079062,083650,094687
0000000071,0000070000,078308,077261,092792,081497,080478,095424
0000000072,0000071000,080860,074822,092679,084513,077760,095126
0000000073,0000072000,083704,072975,091682,087811,075767,093821
0000000074,0000073000,086556,071906,089898,091067,074695,091636
0000000075,0000074000,089141,071723,087497,093970,074646,088783
0000000076,0000075000,091210,072432,084718,096231,075624,085544
0000000077,0000076000,092555,073964,081843,097625,077536,082238
0000000078,0000077000,093038,076186,079137,098021,080195,079183
0000000079,0000078000,092623,078871,076867,097379,083340,076680
0000000080,0000079000,091354,081740,075266,095763,086659,074977
0000000081,0000080000,089340,084534,074486,093327,089833,074239
0000000082,0000081000,086780,086982,074599,090311,092550,074537
0000000083,0000082000,083943,088822,075596,087015,094542,075842
0000000084,0000083000,081094,089887,077380,083757,095615,078027
0000000085,0000084000,078500,090080,079781,080855,095664,080880
0000000086,0000085000,076433,089369,082559,078595,094685,084119
0000000087,0000086000,075096,087829,085435,077199,092775,087425
0000000088,0000087000,074604,085615,088141,076803,090116,090479
0000000089,0000088000,075018,082932,090411,077446,086971,092982
0000000090,0000089000,076295,080053,092012,079062,083652,094685
0000000091,0000090000,078304,077264,092793,081496,080480,095423
0000000092,0000091000,080859,074823,092680,084513,077761,095125
0000000093,0000092000,083705,072972,091683,087809,075769,093821
0000000094,0000093000,086553,071908,089900,091065,074697,091636
0000000095,0000094000,089139,071723,087498,093968,074648,088783
0000000096,0000095000,091212,072428,084720,096228,075625,085545
0000000097,0000096000,092554,073963,081844,097623,077537,082239
0000000098,0000097000,093037,076186,079138,098019,080195,079185
0000000099,0000098000,092626,078868,076867,097378,083338,076683
0000000100,0000099000,091356,081738,075266,095762,086658,074980
0000000101,0000100000,089340,084535,074486,093327,089831,074241
0000000102,0000101000,086783,086980,074598,090312,092548,074539
0000000103,0000102000,083945,088821,075594,087016,094540,075843
0000000104,0000103000,081094,089890,077378,083759,095613,078027
0000000105,0000104000,078501,090081,079779,080857,095662,080879
0000000106,0000105000,076435,089369,082557,078597,094684,084118
0000000107,0000106000,075094,087833,085434,077202,092775,087423
0000000108,0000107000,074603,085618,088140,076806,090117,090477
0000000109,0000108000,075018,082932,090410,077447,086972,092979
0000000110,0000109000,076292,080056,092012,079062,083654,094682
0000000111,0000110000,078301,077267,092793,081496,080482,095421
0000000112,0000111000,080858,074822,092681,084512,077764,095123
0000000113,0000112000,083703,072972,091685,087807,075772,093820
0000000114,0000113000,086549,071909,089902,091063,074700,091636
0000000115,0000114000,089139,071720,087501,093965,074650,088784
0000000116,0000115000,091213,072425,084723,096225,075627,085547
0000000117,0000116000,092553,073962,081846,097620,077537,082242
0000000118,0000117000,093039,076183,079139,098017,080194,079188
0000000119,0000118000,092629,078863,076868,097376,083337,076686
0000000120,0000119000,091357,081738,075266,095760,086656,074983
0000000121,0000120000,089342,084534,074484,093327,089828,074244
0000000122,0000121000,086788,086977,074596,090313,092544,074541
0000000123,0000122000,083947,088822,075592,087017,094537,075844
0000000124,0000123000,081094,089892,077375,083762,095610,078027
0000000125,0000124000,078504,090081,079776,080861,095660,080879
0000000126,0000125000,076436,089371,082554,078601,094683,084116
0000000127,0000126000,075092,087838,085431,077205,092774,087420
0000000128,0000127000,074602,085620,088138,076809,090117,090473
0000000129,0000128000,075017,082934,090409,077449,086974,092975
0000000130,0000129000,076288,080060,092013,079063,083657,094679
0000000131,0000130000,078297,077269,092794,081496,080485,095417
0000000132,0000131000,080857,074821,092683,084510,077768,095121
0000000133,0000132000,083699,072973,091688,087804,075776,093818
0000000134,0000133000,086546,071909,089906,091060,074703,091636
0000000135,0000134000,089139,071717,087504,093961,074653,088785
0000000136,0000135000,091212,072422,084726,096220,075630,085549
0000000137,0000136000,092552,073960,081849,097616,077538,082245
0000000138,0000137000,093041,076179,079141,098013,080193,079192
0000000139,0000138000,092633,078859,076869,097373,083336,076690
0000000140,0000139000,091359,081736,075266,095759,086653,074987
0000000141,0000140000,089347,084531,074483,093327,089823,074248
0000000142,0000141000,086793,086974,074593,090315,092540,074544
0000000143,0000142000,083949,088823,075588,087020,094533,075846
0000000144,0000143000,081097,089893,077370,083766,095605,078028
0000000145,0000144000,078507,090082,079772,080865,095656,080878
0000000146,0000145000,076436,089375,082550,078605,094681,084113
0000000147,0000146000,075090,087843,085428,077210,092773,087416
0000000148,0000147000,074601,085623,088136,076813,090117,090469
0000000149,0000148000,075014,082938,090409,077452,086977,092970
0000000150,0000149000,076283,080065,092013,079065,083661,094673
0000000151,0000150000,078294,077271,092796,081496,080490,095413
0000000152,0000151000,080853,074822,092686,084508,077774,095117
0000000153,0000152000,083694,072975,091692,087801,075782,093816
0000000154,0000153000,086543,071907,089910,091055,074708,091635
0000000155,0000154000,089138,071713,087509,093956,074657,088787
0000000156,0000155000,091211,072419,084731,096215,075632,085552
0000000157,0000156000,092553,073956,081852,097611,077539,082250
0000000158,0000157000,093045,076172,079143,098009,080193,079198
0000000159,0000158000,092636,078855,076870,097370,083333,076696
0000000160,0000159000,091363,081733,075265,095757,086649,074993
0000000161,0000160000,089353,084527,074481,093328,089818,074253
0000000162,0000161000,086798,086973,074590,090316,092534,074548
0000000163,0000162000,083953,088824,075584,087024,094526,075849
0000000164,0000163000,081101,089894,077365,083771,095600,078028
0000000165,0000164000,078510,090085,079766,080871,095652,080876
0000000166,0000165000,076435,089380,082545,078612,094678,084110
0000000167,0000166000,075089,087848,085424,077216,092772,087411
0000000168,0000167000,074600,085628,088133,076818,090118,090462
0000000169,0000168000,075009,082944,090407,077456,086980,092964
0000000170,0000169000,076277,080070,092013,079067,083665,094667
0000000171,0000170000,078289,077273,092799,081496,080496,095407
0000000172,0000171000,080846,074824,092690,084506,077781,095113
0000000173,0000172000,083688,072976,091697,087797,075789,093813
0000000174,0000173000,086540,071904,089916,091050,074715,091635
0000000175,0000174000,089136,071709,087515,093948,074662,088788
0000000176,0000175000,091209,072415,084736,096207,075636,085556
0000000177,0000176000,092554,073950,081857,097604,077540,082255
0000000178,0000177000,093049,076165,079147,098003,080192,079205
0000000179,0000178000,092640,078849,076872,097365,083330,076704
0000000180,0000179000,091369,081727,075264,095755,086643,075000
0000000181,0000180000,089360,084522,074478,093328,089811,074260
0000000182,0000181000,086804,086971,074586,090319,092527,074553
0000000183,0000182000,083958,088824,075578,087029,094519,075852
0000000184,0000183000,081107,089896,077359,083778,095593,078029
0000000185,0000184000,078513,090089,079760,080879,095646,080874
0000000186,0000185000,076435,089387,082539,078620,094674,084105
0000000187,0000186000,075088,087854,085418,077224,092770,087405
0000000188,0000187000,074596,085635,088130,076824,090120,090455
0000000189,0000188000,075002,082952,090406,077460,086983,092955
0000000190,0000189000,076271,080076,092014,079069,083671,094659
0000000191,0000190000,078282,077277,092802,081496,080503,095400
0000000192,0000191000,080838,074827,092695,084503,077789,095107
0000000193,0000192000,083681,072976,091704,087792,075797,093810
0000000194,0000193000,086536,071901,089923,091042,074722,091634
0000000195,0000194000,089132,071705,087523,093940,074669,088790
0000000196,0000195000,091208,072410,084743,096199,075640,085560
0000000197,0000196000,092557,073941,081863,097595,077542,082262
0000000198,0000197000,093053,076157,079151,097995,080191,079213
0000000199,0000198000,092645,078843,076873,097360,083326,076713
0000000200,0000199000,091377,081720,075264,095753,086637,075009
0000000201,0000200000,089369,084517,074475,093328,089803,074268
0000000202,0000201000,086811,086969,074580,090322,092517,074559
0000000203,0000202000,083966,088824,075571,087035,094509,075855
0000000204,0000203000,081113,089897,077350,083786,095584,078030
0000000205,0000204000,078515,090094,079751,080888,095639,080872
0000000206,0000205000,076436,089394,082531,078630,094669,084100
0000000207,0000206000,075087,087861,085412,077233,092768,087397
0000000208,0000207000,074592,085644,088125,076832,090121,090445
0000000209,0000208000,074995,082961,090404,077466,086988,092945
0000000210,0000209000,076263,080082,092015,079072,083678,094649
0000000211,0000210000,078273,077282,092805,081495,080513,095391
0000000212,0000211000,080829,074831,092701,084499,077800,095101
0000000213,0000212000,083674,072975,091712,087785,075807,093806
0000000214,0000213000,086530,071898,089932,091033,074732,091634
0000000215,0000214000,089128,071701,087532,093929,074676,088793
0000000216,0000215000,091207,072402,084752,096188,075645,085566
0000000217,0000216000,092559,073932,081870,097585,077544,082271
0000000218,0000217000,093057,076148,079156,097986,080189,079223
0000000219,0000218000,092652,078834,076875,097354,083321,076724
0000000220,0000219000,091386,081712,075263,095750,086629,075020
0000000221,0000220000,089378,084511,074471,093328,089793,074277
0000000222,0000221000,086820,086967,074574,090326,092506,074567
0000000223,0000222000,083975,088824,075562,087042,094498,075859
0000000224,0000223000,081120,089900,077341,083795,095574,078030
0000000225,0000224000,078519,090101,079741,080899,095631,080869
0000000226,0000225000,076438,089402,082521,078642,094663,084094
0000000227,0000226000,075086,087871,085404,077244,092766,087388
0000000228,0000227000,074586,085655,088120,076842,090123,090434
0000000229,0000228000,074988,082971,090402,077473,086993,092933
0000000230,0000229000,076254,080091,092016,079075,083687,094637
0000000231,0000230000,078262,077289,092810,081495,080524,095381
0000000232,0000231000,080818,074835,092708,084495,077812,095093
0000000233,0000232000,083665,072975,091721,087778,075820,093802
0000000234,0000233000,086522,071895,089943,091023,074744,091633
0000000235,0000234000,089122,071695,087543,093917,074686,088796
0000000236,0000235000,091206,072393,084762,096175,075651,085573
0000000237,0000236000,092562,073921,081878,097573,077546,082280
0000000238,0000237000,093062,076137,079162,097976,080187,079236
0000000239,0000238000,092660,078823,076878,097347,083315,076737
0000000240,0000239000,091397,081702,075262,095746,086620,075033
0000000241,0000240000,089389,084505,074466,093329,089781,074289
0000000242,0000241000,086832,086963,074566,090331,092493,074575
0000000243,0000242000,083986,088823,075552,087050,094484,075865
0000000244,0000243000,081128,089904,077329,083806,095561,078031
0000000245,0000244000,078524,090108,079729,080913,095621,080866
0000000246,0000245000,076439,089411,082510,078656,094657,084087
0000000247,0000246000,075083,087882,085395,077257,092764,087377
0000000248,0000247000,074579,085668,088113,076853,090125,090421
0000000249,0000248000,074979,082983,090399,077481,086999,092919
0000000250,0000249000,076243,080101,092017,079079,083697,094623
0000000251,0000250000,078249,077297,092815,081494,080537,095368
0000000252,0000251000,080806,074839,092717,084490,077826,095083
0000000253,0000252000,083654,072975,091732,087768,075834,093796
0000000254,0000253000,086513,071891,089956,091010,074757,091632
0000000255,0000254000,089117,071687,087556,093903,074696,088800
0000000256,0000255000,091205,072382,084774,096160,075658,085581
0000000257,0000256000,092564,073908,081889,097558,077548,082292
0000000258,0000257000,093068,076124,079169,097964,080185,079250
0000000259,0000258000,092671,078809,076881,097338,083308,076752
0000000260,0000259000,091410,081691,075260,095742,086609,075048
0000000261,0000260000,089403,084497,074461,093329,089768,074302
0000000262,0000261000,086846,086958,074557,090336,092477,074585
0000000263,0000262000,083998,088823,075540,087060,094468,075870
0000000264,0000263000,081137,089909,077315,083820,095547,078032
0000000265,0000264000,078530,090116,079715,080928,095609,080862
0000000266,0000265000,076441,089422,082497,078672,094649,084078
0000000267,0000266000,075080,087896,085384,077273,092761,087365
0000000268,0000267000,074572,085682,088106,076866,090127,090406
0000000269,0000268000,074969,082996,090396,077490,087006,092903
0000000270,0000269000,076229,080113,092019,079084,083708,094607
0000000271,0000270000,078234,077307,092820,081493,080551,095354
0000000272,0000271000,080791,074843,092726,084484,077843,095073
0000000273,0000272000,083641,072975,091745,087758,075851,093790
0000000274,0000273000,086502,071887,089971,090996,074772,091631
0000000275,0000274000,089111,071678,087571,093886,074708,088804
0000000276,0000275000,091203,072369,084788,096143,075666,085590
0000000277,0000276000,092567,073894,081900,097542,077551,082306
0000000278,0000277000,093076,076109,079177,097950,080182,079266
0000000279,0000278000,092683,078794,076884,097328,083300,076770
0000000280,0000279000,091424,081678,075259,095737,086596,075065
0000000281,0000280000,089418,084487,074455,093330,089752,074317
0000000282,0000281000,086862,086953,074546,090343,092459,074597
0000000283,0000282000,084012,088823,075526,087071,094451,075877
0000000284,0000283000,081148,089914,077299,083835,095531,078033
0000000285,0000284000,078537,090125,079698,080946,095596,080857
0000000286,0000285000,076443,089435,082482,078690,094641,084068
0000000287,0000286000,075076,087912,085372,077290,092758,087350
0000000288,0000287000,074564,085699,088097,076880,090130,090388
0000000289,0000288000,074957,083012,090392,077500,087015,092884
0000000290,0000289000,076214,080127,092020,079089,083722,094589
0000000291,0000290000,078217,077317,092827,081492,080568,095338
0000000292,0000291000,080775,074848,092738,084477,077862,095060
0000000293,0000292000,083626,072975,091760,087746,075871,093783
0000000294,0000293000,086490,071882,089988,090980,074790,091630
0000000295,0000294000,089104,071668,087589,093867,074722,088809
0000000296,0000295000,091201,072355,084804,096123,075675,085601
0000000297,0000296000,092570,073877,081914,097523,077554,082321
0000000298,0000297000,093085,076091,079186,097935,080179,079285
0000000299,0000298000,092696,078777,076889,097317,083291,076790
0000000300,0000299000,091440,081664,075257,095732,086582,075085
0000000301,0000300000,089437,084476,074448,093331,089733,074334
