DIgSILENT PowerFactory,21000900,2000
6,06A,00D
1,TTPP_200000_100:Secondary Voltage A,,,V,0.10000000,-8233.578125,0.000000,63470,99998,1,1,P
2,TTPP_200000_100:Secondary Voltage B,,,V,0.10000000,-8185.764648,0.000000,66082,99998,1,1,P
3,TTPP_200000_100:Secondary Voltage C,,,V,0.10000000,-8350.316406,0.000000,61423,99998,1,1,P
4,TTCC_300_1:Secondary Current A,,,A,0.00010000000,-3.004005,0.000000,-16211,99998,1,1,P
5,TTCC_300_1:Secondary Current B,,,A,0.00010000000,-5.011490,0.000000,191,99998,1,1,P
6,TTCC_300_1:Secondary Current C,,,A,0.00010000000,-4.891316,0.000000,-2127,99998,1,1,P
50
1
1000.000000,1101
30/06/2023,06:05:22.000000
30/06/2023,06:05:22.000000
ASCII
1.000000
0000000001,0000000000,089442,083333,074922,009111,036125,083833
0000000002,0000001000,087308,086050,074337,018864,026847,083359
0000000003,0000002000,084667,088380,074649,029703,019849,079517
0000000004,0000003000,081811,090060,075825,040582,015806,072680
0000000005,0000004000,079017,090921,077759,050425,015131,063512
0000000006,0000005000,076530,090913,080255,058272,017884,052912
0000000007,0000006000,074609,090026,083062,063359,023779,041931
0000000008,0000007000,073464,088319,085914,065181,032254,031633
0000000009,0000008000,073179,085980,088536,063558,042495,023017
0000000010,0000009000,073776,083258,090662,058659,053469,016939
0000000011,0000010000,075225,080387,092084,050966,064104,013999
0000000012,0000011000,077377,077650,092670,041206,073389,014472
0000000013,0000012000,080000,075341,092358,030358,080396,018315
0000000014,0000013000,082851,073665,091180,019492,084426,025151
0000000015,0000014000,085665,072783,089249,009649,085101,034319
0000000016,0000015000,088144,072801,086751,001790,082360,044918
0000000017,0000016000,090052,073701,083944,-03288,076457,055899
0000000018,0000017000,091214,075391,081092,-05107,067977,066198
0000000019,0000018000,091498,077728,078470,-03491,057745,074813
0000000020,0000019000,090886,080467,076344,001408,046769,080891
0000000021,0000020000,089448,083327,074921,009110,036126,083832
0000000022,0000021000,087302,086057,074337,018861,026850,083358
0000000023,0000022000,084665,088383,074649,029711,019842,079516
0000000024,0000023000,081819,090052,075825,040582,015806,072680
0000000025,0000024000,079016,090923,077758,050422,015134,063512
0000000026,0000025000,076522,090919,080255,058276,017880,052912
0000000027,0000026000,074615,090021,083062,063364,023773,041930
0000000028,0000027000,073467,088315,085914,065179,032257,031633
0000000029,0000028000,073172,085988,088537,063558,042494,023017
0000000030,0000029000,073777,083257,090662,058666,053463,016939
0000000031,0000030000,075231,080381,092085,050966,064104,013998
0000000032,0000031000,077373,077654,092669,041206,073390,014472
0000000033,0000032000,079996,075343,092358,030363,080392,018314
0000000034,0000033000,082856,073660,091181,019496,084422,025150
0000000035,0000034000,085664,072784,089249,009647,085104,034318
0000000036,0000035000,088140,072805,086751,001794,082358,044917
0000000037,0000036000,090055,073698,083944,-03285,076454,055898
0000000038,0000037000,091215,075389,081093,-05106,067978,066196
0000000039,0000038000,091495,077732,078470,-03491,057746,074812
0000000040,0000039000,090887,080466,076344,001412,046767,080890
0000000041,0000040000,089450,083324,074922,009110,036128,083831
0000000042,0000041000,087300,086059,074337,018861,026850,083357
0000000043,0000042000,084665,088383,074648,029711,019842,079515
0000000044,0000043000,081821,090050,075825,040582,015806,072680
0000000045,0000044000,079014,090925,077758,050421,015135,063512
0000000046,0000045000,076523,090920,080254,058277,017878,052912
0000000047,0000046000,074617,090018,083062,063363,023774,041932
0000000048,0000047000,073465,088317,085914,065178,032256,031634
0000000049,0000048000,073171,085989,088536,063560,042491,023018
0000000050,0000049000,073780,083254,090662,058667,053461,016940
0000000051,0000050000,075229,080382,092085,050965,064103,013999
0000000052,0000051000,077370,077657,092670,041209,073386,014472
0000000053,0000052000,079999,075340,092358,030366,080388,018314
0000000054,0000053000,082856,073659,091181,019497,084422,025149
0000000055,0000054000,085660,072787,089249,009651,085101,034317
0000000056,0000055000,088141,072803,086752,001799,082354,044915
0000000057,0000056000,090058,073694,083945,-03283,076455,055896
0000000058,0000057000,091212,075392,081093,-05105,067979,066193
0000000059,0000058000,091494,077733,078470,-03486,057744,074809
0000000060,0000059000,090892,080461,076344,001413,046769,080887
0000000061,0000060000,089449,083326,074921,009108,036132,083828
0000000062,0000061000,087297,086062,074337,018863,026851,083355
0000000063,0000062000,084669,088379,074648,029712,019843,079514
0000000064,0000063000,081822,090049,075825,040578,015811,072679
0000000065,0000064000,079010,090929,077757,050419,015136,063512
0000000066,0000065000,076524,090919,080254,058277,017877,052914
0000000067,0000066000,074619,090016,083061,063360,023775,041934
0000000068,0000067000,073462,088321,085914,065175,032257,031637
0000000069,0000068000,073170,085991,088536,063561,042487,023021
0000000070,0000069000,073782,083251,090662,058666,053458,016943
0000000071,0000070000,075227,080384,092085,050965,064101,014002
0000000072,0000071000,077367,077659,092670,041213,073381,014474
0000000073,0000072000,080001,075337,092358,030370,080383,018315
0000000074,0000073000,082856,073659,091182,019499,084420,025149
0000000075,0000074000,085657,072789,089250,009656,085097,034315
0000000076,0000075000,088143,072801,086752,001805,082351,044913
0000000077,0000076000,090059,073692,083945,-03280,076455,055892
0000000078,0000077000,091210,075393,081093,-05101,067980,066189
0000000079,0000078000,091496,077731,078470,-03481,057745,074804
0000000080,0000079000,090894,080459,076344,001414,046772,080882
0000000081,0000080000,089448,083327,074921,009108,036136,083824
0000000082,0000081000,087298,086062,074336,018863,026854,083351
0000000083,0000082000,084672,088377,074647,029709,019848,079512
0000000084,0000083000,081821,090051,075824,040573,015816,072678
0000000085,0000084000,079010,090931,077756,050416,015139,063513
0000000086,0000085000,076527,090917,080253,058272,017879,052916
0000000087,0000086000,074618,090018,083061,063354,023777,041938
0000000088,0000087000,073459,088324,085913,065172,032255,031642
0000000089,0000088000,073171,085990,088536,063559,042483,023027
0000000090,0000089000,073782,083252,090663,058664,053455,016949
0000000091,0000090000,075223,080388,092086,050966,064095,014007
0000000092,0000091000,077367,077659,092671,041217,073373,014478
0000000093,0000092000,080002,075335,092359,030373,080377,018317
0000000094,0000093000,082853,073661,091183,019505,084414,025149
0000000095,0000094000,085657,072789,089251,009665,085091,034313
0000000096,0000095000,088145,072797,086754,001812,082347,044909
0000000097,0000096000,090058,073692,083947,-03274,076455,055887
0000000098,0000097000,091209,075394,081094,-05093,067979,066182
0000000099,0000098000,091499,077727,078470,-03476,057747,074796
0000000100,0000099000,090895,080458,076344,001415,046779,080874
0000000101,0000100000,089447,083329,074921,009109,036143,083817
0000000102,0000101000,087301,086060,074335,018862,026861,083346
0000000103,0000102000,084675,088375,074646,029703,019857,079508
0000000104,0000103000,081820,090054,075822,040567,015824,072677
0000000105,0000104000,079010,090932,077755,050409,015144,063515
0000000106,0000105000,076529,090916,080252,058263,017884,052921
0000000107,0000106000,074617,090021,083059,063345,023779,041944
0000000108,0000107000,073457,088327,085912,065166,032252,031650
0000000109,0000108000,073172,085989,088536,063554,042479,023036
0000000110,0000109000,073780,083254,090663,058660,053449,016958
0000000111,0000110000,075220,080390,092086,050967,064086,014015
0000000112,0000111000,077367,077658,092672,041221,073362,014485
0000000113,0000112000,080001,075335,092361,030379,080368,018321
0000000114,0000113000,082850,073662,091185,019514,084405,025150
0000000115,0000114000,085657,072787,089252,009676,085082,034311
0000000116,0000115000,088146,072795,086756,001823,082343,044903
0000000117,0000116000,090057,073692,083948,-03263,076453,055878
0000000118,0000117000,091210,075392,081095,-05083,067979,066171
0000000119,0000118000,091502,077724,078471,-03470,057752,074785
0000000120,0000119000,090896,080457,076344,001418,046787,080863
0000000121,0000120000,089449,083328,074920,009110,036152,083807
0000000122,0000121000,087305,086058,074334,018858,026872,083338
0000000123,0000122000,084676,088376,074644,029695,019870,079504
0000000124,0000123000,081820,090056,075820,040558,015834,072676
0000000125,0000124000,079013,090932,077752,050398,015152,063518
0000000126,0000125000,076529,090918,080250,058250,017891,052927
0000000127,0000126000,074614,090025,083058,063333,023781,041954
0000000128,0000127000,073457,088328,085911,065157,032250,031662
0000000129,0000128000,073171,085990,088535,063546,042474,023049
0000000130,0000129000,073776,083257,090663,058656,053440,016971
0000000131,0000130000,075218,080392,092087,050969,064073,014026
0000000132,0000131000,077367,077657,092673,041225,073349,014494
0000000133,0000132000,079997,075336,092363,030387,080355,018326
0000000134,0000133000,082847,073662,091188,019527,084391,025151
0000000135,0000134000,085657,072784,089255,009690,085071,034307
0000000136,0000135000,088146,072793,086758,001837,082336,044896
0000000137,0000136000,090056,073691,083950,-03248,076450,055867
0000000138,0000137000,091213,075388,081096,-05070,067980,066157
0000000139,0000138000,091505,077720,078471,-03461,057759,074770
0000000140,0000139000,090897,080457,076343,001423,046798,080847
0000000141,0000140000,089452,083326,074918,009111,036165,083793
0000000142,0000141000,087309,086056,074332,018852,026888,083328
0000000143,0000142000,084677,088377,074642,029685,019886,079497
0000000144,0000143000,081822,090057,075817,040545,015848,072675
0000000145,0000144000,079016,090932,077749,050382,015164,063522
0000000146,0000145000,076529,090921,080247,058232,017899,052936
0000000147,0000146000,074613,090028,083055,063318,023784,041967
0000000148,0000147000,073457,088330,085909,065143,032247,031678
0000000149,0000148000,073168,085993,088535,063535,042467,023067
0000000150,0000149000,073772,083261,090664,058652,053428,016989
0000000151,0000150000,075215,080393,092089,050970,064056,014042
0000000152,0000151000,077364,077657,092676,041231,073331,014506
0000000153,0000152000,079993,075337,092366,030398,080336,018334
0000000154,0000153000,082845,073661,091191,019543,084372,025153
0000000155,0000154000,085657,072781,089259,009709,085057,034303
0000000156,0000155000,088144,072791,086761,001856,082327,044885
0000000157,0000156000,090056,073688,083952,-03229,076445,055852
0000000158,0000157000,091216,075383,081098,-05054,067983,066139
0000000159,0000158000,091507,077717,078472,-03450,057769,074749
0000000160,0000159000,090900,080454,076343,001430,046811,080827
0000000161,0000160000,089457,083323,074917,009111,036183,083775
0000000162,0000161000,087313,086055,074329,018845,026910,083314
0000000163,0000162000,084680,088378,074638,029673,019907,079488
0000000164,0000163000,081826,090058,075813,040528,015867,072673
0000000165,0000164000,079018,090934,077745,050360,015181,063527
0000000166,0000165000,076528,090925,080243,058210,017910,052947
0000000167,0000166000,074612,090032,083052,063297,023787,041984
0000000168,0000167000,073456,088334,085907,065125,032244,031699
0000000169,0000168000,073164,085998,088534,063522,042457,023090
0000000170,0000169000,073767,083265,090664,058646,053411,017011
0000000171,0000170000,075212,080394,092090,050970,064035,014062
0000000172,0000171000,077359,077659,092679,041238,073308,014521
0000000173,0000172000,079988,075338,092370,030414,080311,018343
0000000174,0000173000,082843,073658,091195,019564,084350,025155
0000000175,0000174000,085655,072778,089263,009732,085040,034297
0000000176,0000175000,088143,072788,086766,001881,082315,044872
0000000177,0000176000,090058,073683,083956,-03204,076440,055832
0000000178,0000177000,091219,075378,081100,-05034,067987,066115
0000000179,0000178000,091510,077714,078473,-03436,057780,074723
0000000180,0000179000,090904,080451,076342,001438,046829,080802
0000000181,0000180000,089463,083319,074915,009110,036206,083752
0000000182,0000181000,087317,086054,074326,018836,026937,083296
0000000183,0000182000,084683,088379,074634,029657,019934,079478
0000000184,0000183000,081830,090058,075808,040505,015892,072671
0000000185,0000184000,079020,090937,077740,050333,015201,063533
0000000186,0000185000,076528,090930,080239,058183,017923,052962
0000000187,0000186000,074612,090037,083048,063271,023792,042005
0000000188,0000187000,073453,088339,085905,065102,032241,031726
0000000189,0000188000,073159,086004,088533,063505,042445,023118
0000000190,0000189000,073763,083269,090665,058638,053391,017040
0000000191,0000190000,075207,080397,092093,050971,064010,014087
0000000192,0000191000,077353,077661,092683,041248,073279,014541
0000000193,0000192000,079984,075338,092375,030432,080281,018354
0000000194,0000193000,082840,073655,091201,019589,084322,025157
0000000195,0000194000,085652,072775,089269,009761,085018,034290
0000000196,0000195000,088142,072784,086771,001913,082299,044856
0000000197,0000196000,090060,073676,083960,-03174,076434,055809
0000000198,0000197000,091222,075372,081103,-05009,067991,066086
0000000199,0000198000,091513,077709,078474,-03417,057793,074691
0000000200,0000199000,090910,080445,076341,001447,046850,080770
0000000201,0000200000,089469,083315,074912,009109,036235,083725
0000000202,0000201000,087322,086053,074322,018825,026969,083275
0000000203,0000202000,084689,088379,074628,029637,019966,079465
0000000204,0000203000,081835,090060,075802,040477,015923,072668
0000000205,0000204000,079021,090941,077734,050301,015226,063541
0000000206,0000205000,076528,090936,080233,058149,017939,052980
0000000207,0000206000,074611,090042,083043,063238,023798,042032
0000000208,0000207000,073450,088345,085901,065074,032237,031758
0000000209,0000208000,073154,086011,088531,063486,042429,023153
0000000210,0000209000,073757,083274,090665,058628,053366,017074
0000000211,0000210000,075201,080401,092096,050971,063978,014118
0000000212,0000211000,077345,077664,092687,041260,073243,014564
0000000213,0000212000,079978,075338,092381,030455,080244,018368
0000000214,0000213000,082836,073653,091208,019619,084290,025160
0000000215,0000214000,085649,072771,089276,009797,084991,034281
0000000216,0000215000,088141,072778,086777,001951,082281,044836
0000000217,0000216000,090062,073669,083965,-03139,076427,055780
0000000218,0000217000,091225,075365,081107,-04979,067997,066050
0000000219,0000218000,091519,077702,078476,-03395,057810,074653
0000000220,0000219000,090918,080439,076340,001459,046877,080732
0000000221,0000220000,089476,083311,074909,009107,036270,083691
0000000222,0000221000,087329,086051,074317,018812,027008,083249
0000000223,0000222000,084696,088378,074622,029613,020006,079450
0000000224,0000223000,081840,090062,075795,040444,015959,072665
0000000225,0000224000,079024,090946,077726,050262,015256,063550
0000000226,0000225000,076529,090942,080226,058108,017959,053001
0000000227,0000226000,074610,090049,083038,063199,023806,042063
0000000228,0000227000,073445,088354,085898,065041,032231,031796
0000000229,0000228000,073148,086018,088530,063462,042411,023196
0000000230,0000229000,073751,083279,090666,058616,053337,017116
0000000231,0000230000,075192,080406,092099,050973,063941,014154
0000000232,0000231000,077337,077667,092693,041275,073200,014592
0000000233,0000232000,079972,075337,092388,030482,080201,018385
0000000234,0000233000,082830,073650,091216,019655,084250,025163
0000000235,0000234000,085645,072767,089284,009840,084958,034271
0000000236,0000235000,088141,072771,086785,001996,082260,044813
0000000237,0000236000,090064,073661,083972,-03097,076419,055745
0000000238,0000237000,091229,075357,081111,-04943,068003,066008
0000000239,0000238000,091525,077694,078477,-03369,057829,074607
0000000240,0000239000,090926,080431,076339,001471,046909,080688
0000000241,0000240000,089485,083306,074906,009106,036311,083651
0000000242,0000241000,087337,086048,074311,018796,027054,083219
0000000243,0000242000,084704,088378,074614,029584,020052,079432
0000000244,0000243000,081846,090065,075786,040404,016002,072662
0000000245,0000244000,079027,090952,077717,050216,015290,063562
0000000246,0000245000,076531,090949,080217,058060,017981,053027
0000000247,0000246000,074608,090058,083031,063153,023815,042101
0000000248,0000247000,073440,088364,085893,065002,032224,031842
0000000249,0000248000,073142,086027,088528,063435,042389,023245
0000000250,0000249000,073742,083287,090668,058602,053302,017164
0000000251,0000250000,075182,080412,092103,050974,063896,014197
0000000252,0000251000,077328,077670,092699,041293,073150,014625
0000000253,0000252000,079964,075337,092397,030513,080151,018404
0000000254,0000253000,082823,073648,091226,019697,084204,025167
0000000255,0000254000,085641,072761,089294,009890,084921,034258
0000000256,0000255000,088140,072762,086794,002048,082235,044785
0000000257,0000256000,090066,073651,083979,-03048,076411,055705
0000000258,0000257000,091233,075347,081116,-04901,068010,065959
0000000259,0000258000,091533,077684,078480,-03339,057853,074554
0000000260,0000259000,090936,080423,076338,001486,046947,080635
0000000261,0000260000,089495,083301,074901,009104,036359,083606
0000000262,0000261000,087348,086045,074304,018778,027107,083184
0000000263,0000262000,084714,088378,074605,029550,020107,079412
0000000264,0000263000,081852,090069,075775,040358,016052,072658
0000000265,0000264000,079032,090958,077707,050162,015330,063575
0000000266,0000265000,076532,090957,080207,058003,018008,053057
0000000267,0000266000,074605,090069,083023,063100,023825,042144
0000000268,0000267000,073434,088375,085887,064958,032216,031895
0000000269,0000268000,073134,086037,088525,063403,042363,023302
0000000270,0000269000,073732,083296,090669,058586,053262,017220
0000000271,0000270000,075171,080419,092107,050977,063845,014246
0000000272,0000271000,077317,077673,092706,041313,073092,014662
0000000273,0000272000,079954,075336,092406,030549,080092,018426
0000000274,0000273000,082815,073645,091237,019747,084151,025171
0000000275,0000274000,085636,072754,089306,009948,084878,034243
0000000276,0000275000,088139,072753,086804,002108,082207,044753
0000000277,0000276000,090068,073640,083988,-02991,076400,055658
0000000278,0000277000,091239,075335,081122,-04853,068018,065902
0000000279,0000278000,091542,077672,078482,-03305,057880,074492
0000000280,0000279000,090946,080414,076337,001502,046990,080575
0000000281,0000280000,089506,083294,074897,009102,036414,083553
0000000282,0000281000,087360,086040,074296,018756,027169,083143
0000000283,0000282000,084724,088378,074594,029510,020170,079388
0000000284,0000283000,081860,090073,075763,040305,016109,072654
0000000285,0000284000,079037,090965,077694,050101,015375,063591
0000000286,0000285000,076534,090967,080196,057939,018038,053091
0000000287,0000286000,074602,090081,083014,063039,023836,042194
0000000288,0000287000,073428,088387,085881,064907,032206,031956
0000000289,0000288000,073125,086049,088523,063366,042334,023368
0000000290,0000289000,073720,083307,090670,058568,053216,017284
0000000291,0000290000,075158,080427,092112,050980,063786,014302
0000000292,0000291000,077305,077677,092715,041337,073026,014705
0000000293,0000292000,079942,075337,092418,030591,080026,018451
0000000294,0000293000,082806,073641,091250,019803,084090,025175
0000000295,0000294000,085631,072747,089319,010013,084829,034226
0000000296,0000295000,088138,072742,086817,002176,082176,044716
0000000297,0000296000,090071,073628,083998,-02926,076389,055605
0000000298,0000297000,091246,075321,081129,-04798,068029,065837
0000000299,0000298000,091552,077659,078485,-03266,057911,074423
0000000300,0000299000,090958,080403,076336,001521,047039,080507
0000000301,0000300000,089520,083285,074891,009099,036477,083493
