DIgSILENT PowerFactory,21000900,2000
6,06A,00D
1,TTPP_200000_100:Secondary Voltage A,,,V,0.010000000,-67.884109,0.000000,-86352,99998,1,1,P
2,TTPP_200000_100:Secondary Voltage B,,,V,0.010000000,40.880917,0.000000,-98042,99998,1,1,P
3,TTPP_200000_100:Secondary Voltage C,,,V,0.10000000,-8953.916016,0.000000,78413,99998,1,1,P
4,TTCC_500_5:Secondary Current A,,,A,0.0010000000,-80.945671,0.000000,51054,99998,1,1,P
5,TTCC_500_5:Secondary Current B,,,A,0.0010000000,-84.672562,0.000000,69367,99998,1,1,P
6,TTCC_500_5:Secondary Current C,,,A,0.0010000000,-84.693192,0.000000,69389,99998,1,1,P
50
1
1000.000000,1101
30/06/2023,06:04:50.000000
30/06/2023,06:04:50.000000
ASCII
1.000000
0000000001,0000000000,061928,032296,080387,086863,089350,074098
0000000002,0000001000,036426,056657,080500,083849,092066,074397
0000000003,0000002000,007925,075200,081498,080548,094063,075701
0000000004,0000003000,-20563,085853,083280,077294,095131,077886
0000000005,0000004000,-46329,087619,085682,074390,095182,080740
0000000006,0000005000,-67091,080594,088459,072125,094207,083980
0000000007,0000006000,-80579,065321,091335,070734,092291,087286
0000000008,0000007000,-85338,043021,094041,070337,089633,090341
0000000009,0000008000,-81177,016162,096310,070978,086488,092845
0000000010,0000009000,-68540,-12473,097911,072595,083168,094548
0000000011,0000010000,-48387,-40430,098690,075031,079994,095287
0000000012,0000011000,-22768,-64920,098578,078048,077275,094989
0000000013,0000012000,005566,-83298,097582,081344,075284,093684
0000000014,0000013000,034075,-93963,095798,084604,074209,091498
0000000015,0000014000,060047,-95925,093397,087506,074161,088645
0000000016,0000015000,080651,-88756,090619,089764,075141,085405
0000000017,0000016000,094015,-73351,087743,091163,077049,082099
0000000018,0000017000,098992,-51274,085037,091558,079710,079044
0000000019,0000018000,094843,-24429,082768,090915,082857,076540
0000000020,0000019000,082018,004402,081167,089299,086176,074837
0000000021,0000020000,061960,032261,080387,086864,089349,074099
0000000022,0000021000,036432,056653,080501,083847,092067,074397
0000000023,0000022000,007943,075182,081497,080548,094062,075701
0000000024,0000023000,-20517,085815,083280,077292,095133,077887
0000000025,0000024000,-46360,087638,085681,074389,095183,080740
0000000026,0000025000,-67126,080626,088459,072127,094205,083980
0000000027,0000026000,-80530,065267,091335,070734,092291,087286
0000000028,0000027000,-85306,042990,094041,070336,089633,090341
0000000029,0000028000,-81227,016214,096310,070977,086489,092845
0000000030,0000029000,-68557,-12461,097911,072595,083168,094548
0000000031,0000030000,-48355,-40462,098691,075031,079994,095287
0000000032,0000031000,-22779,-64912,098578,078047,077276,094989
0000000033,0000032000,005560,-83283,097582,081344,075284,093684
0000000034,0000033000,034085,-93976,095798,084603,074210,091499
0000000035,0000034000,060018,-95900,093397,087505,074161,088645
0000000036,0000035000,080638,-88744,090620,089765,075141,085406
0000000037,0000036000,094058,-73393,087743,091162,077050,082099
0000000038,0000037000,098989,-51270,085038,091557,079711,079044
0000000039,0000038000,094793,-24384,082768,090914,082857,076541
0000000040,0000039000,082034,004386,081167,089299,086175,074837
0000000041,0000040000,061995,032222,080387,086864,089349,074099
0000000042,0000041000,036413,056676,080500,083846,092068,074397
0000000043,0000042000,007934,075194,081496,080549,094061,075702
0000000044,0000043000,-20499,085796,083280,077292,095133,077887
0000000045,0000044000,-46371,087652,085681,074388,095183,080740
0000000046,0000045000,-67126,080630,088459,072127,094205,083980
0000000047,0000046000,-80499,065245,091335,070733,092292,087286
0000000048,0000047000,-85326,043009,094041,070336,089634,090341
0000000049,0000048000,-81257,016246,096310,070978,086489,092845
0000000050,0000049000,-68528,-12489,097911,072595,083168,094548
0000000051,0000050000,-48340,-40478,098691,075030,079995,095286
0000000052,0000051000,-22816,-64876,098579,078045,077278,094989
0000000053,0000052000,005554,-83282,097582,081344,075284,093684
0000000054,0000053000,034106,-94002,095799,084602,074210,091499
0000000055,0000054000,060002,-95891,093398,087504,074162,088646
0000000056,0000055000,080635,-88743,090620,089764,075141,085406
0000000057,0000056000,094076,-73417,087743,091161,077051,082100
0000000058,0000057000,098973,-51260,085038,091556,079711,079045
0000000059,0000058000,094785,-24378,082769,090914,082856,076541
0000000060,0000059000,082071,004351,081167,089299,086175,074838
0000000061,0000060000,062002,032220,080387,086863,089349,074100
0000000062,0000061000,036386,056705,080500,083846,092068,074397
0000000063,0000062000,007954,075182,081496,080550,094060,075702
0000000064,0000063000,-20473,085776,083279,077292,095132,077887
0000000065,0000064000,-46387,087677,085681,074389,095183,080740
0000000066,0000065000,-67128,080642,088458,072128,094204,083979
0000000067,0000066000,-80485,065235,091334,070733,092292,087286
0000000068,0000067000,-85344,043030,094040,070336,089634,090340
0000000069,0000068000,-81268,016259,096310,070978,086489,092844
0000000070,0000069000,-68512,-12504,097911,072595,083169,094547
0000000071,0000070000,-48360,-40463,098692,075029,079996,095286
0000000072,0000071000,-22847,-64852,098579,078045,077278,094988
0000000073,0000072000,005568,-83304,097583,081343,075285,093684
0000000074,0000073000,034110,-94016,095800,084600,074212,091499
0000000075,0000074000,059973,-95872,093399,087502,074163,088646
0000000076,0000075000,080637,-88754,090621,089763,075141,085407
0000000077,0000076000,094094,-73444,087744,091159,077051,082101
0000000078,0000077000,098964,-51258,085039,091555,079711,079046
0000000079,0000078000,094792,-24384,082769,090913,082855,076543
0000000080,0000079000,082098,004325,081167,089298,086174,074839
0000000081,0000080000,062000,032224,080387,086862,089348,074101
0000000082,0000081000,036388,056712,080499,083847,092066,074398
0000000083,0000082000,007987,075160,081495,080551,094058,075703
0000000084,0000083000,-20464,085780,083278,077293,095132,077887
0000000085,0000084000,-46404,087707,085679,074390,095182,080740
0000000086,0000085000,-67114,080641,088457,072130,094203,083978
0000000087,0000086000,-80474,065233,091333,070735,092292,087284
0000000088,0000087000,-85368,043061,094040,070337,089635,090339
0000000089,0000088000,-81278,016274,096309,070979,086490,092842
0000000090,0000089000,-68512,-12506,097911,072595,083170,094546
0000000091,0000090000,-48388,-40442,098692,075029,079998,095284
0000000092,0000091000,-22867,-64841,098580,078045,077280,094987
0000000093,0000092000,005572,-83321,097584,081342,075287,093683
0000000094,0000093000,034090,-94014,095801,084598,074214,091499
0000000095,0000094000,059950,-95865,093400,087500,074165,088646
0000000096,0000095000,080651,-88783,090622,089761,075142,085408
0000000097,0000096000,094104,-73468,087746,091157,077052,082103
0000000098,0000097000,098954,-51257,085040,091553,079711,079048
0000000099,0000098000,094810,-24406,082769,090912,082854,076545
0000000100,0000099000,082127,004296,081167,089297,086173,074842
0000000101,0000100000,062006,032225,080386,086862,089346,074103
0000000102,0000101000,036406,056708,080498,083848,092064,074400
0000000103,0000102000,008019,075144,081493,080552,094056,075704
0000000104,0000103000,-20461,085795,083276,077295,095130,077887
0000000105,0000104000,-46404,087728,085677,074393,095180,080739
0000000106,0000105000,-67094,080642,088455,072133,094202,083977
0000000107,0000106000,-80479,065254,091332,070737,092292,087282
0000000108,0000107000,-85394,043100,094038,070339,089635,090337
0000000109,0000108000,-81284,016286,096309,070981,086491,092839
0000000110,0000109000,-68524,-12497,097911,072596,083173,094543
0000000111,0000110000,-48426,-40413,098693,075029,080001,095282
0000000112,0000111000,-22888,-64833,098582,078044,077283,094985
0000000113,0000112000,005562,-83333,097586,081340,075290,093682
0000000114,0000113000,034062,-94011,095804,084595,074217,091499
0000000115,0000114000,059935,-95875,093403,087497,074167,088647
0000000116,0000115000,080663,-88818,090625,089758,075143,085410
0000000117,0000116000,094102,-73488,087748,091154,077053,082105
0000000118,0000117000,098955,-51272,085041,091550,079710,079051
0000000119,0000118000,094842,-24445,082770,090911,082853,076548
0000000120,0000119000,082156,004269,081167,089296,086171,074845
0000000121,0000120000,062020,032222,080385,086862,089343,074106
0000000122,0000121000,036440,056694,080496,083849,092060,074402
0000000123,0000122000,008054,075134,081490,080554,094053,075705
0000000124,0000123000,-20452,085814,083273,077297,095127,077888
0000000125,0000124000,-46390,087746,085674,074396,095177,080738
0000000126,0000125000,-67079,080654,088452,072136,094200,083975
0000000127,0000126000,-80494,065291,091329,070740,092292,087280
0000000128,0000127000,-85416,043139,094037,070343,089636,090333
0000000129,0000128000,-81294,016305,096308,070983,086493,092836
0000000130,0000129000,-68556,-12470,097912,072597,083176,094539
0000000131,0000130000,-48471,-40380,098695,075029,080004,095279
0000000132,0000131000,-22913,-64830,098584,078042,077287,094982
0000000133,0000132000,005537,-83339,097589,081337,075294,093680
0000000134,0000133000,034026,-94010,095807,084592,074221,091498
0000000135,0000134000,059923,-95896,093406,087493,074170,088648
0000000136,0000135000,080667,-88857,090628,089754,075145,085412
0000000137,0000136000,094100,-73514,087751,091149,077054,082108
0000000138,0000137000,098971,-51305,085043,091547,079709,079055
0000000139,0000138000,094881,-24492,082770,090908,082851,076553
0000000140,0000139000,082185,004241,081166,089294,086168,074849
0000000141,0000140000,062050,032207,080383,086862,089339,074110
0000000142,0000141000,036489,056671,080493,083851,092055,074405
0000000143,0000142000,008090,075131,081487,080556,094048,075707
0000000144,0000143000,-20435,085837,083269,077301,095122,077888
0000000145,0000144000,-46368,087766,085670,074401,095173,080737
0000000146,0000145000,-67067,080680,088448,072141,094198,083973
0000000147,0000146000,-80511,065340,091326,070744,092291,087276
0000000148,0000147000,-85436,043183,094034,070347,089636,090328
0000000149,0000148000,-81317,016337,096307,070986,086495,092831
0000000150,0000149000,-68603,-12427,097912,072598,083179,094534
0000000151,0000150000,-48521,-40348,098696,075029,080009,095274
0000000152,0000151000,-22947,-64825,098587,078041,077292,094979
0000000153,0000152000,005495,-83337,097593,081334,075299,093678
0000000154,0000153000,033986,-94015,095812,084587,074226,091498
0000000155,0000154000,059910,-95930,093411,087488,074174,088650
0000000156,0000155000,080665,-88900,090633,089748,075148,085415
0000000157,0000156000,094100,-73552,087754,091144,077055,082113
0000000158,0000157000,098998,-51357,085045,091542,079708,079061
0000000159,0000158000,094925,-24548,082772,090904,082848,076559
0000000160,0000159000,082224,004207,081166,089292,086164,074855
0000000161,0000160000,062100,032179,080381,086863,089334,074115
0000000162,0000161000,036549,056645,080490,083852,092049,074409
0000000163,0000162000,008132,075134,081483,080560,094042,075709
0000000164,0000163000,-20404,085860,083264,077307,095117,077888
0000000165,0000164000,-46337,087789,085664,074407,095169,080736
0000000166,0000165000,-67060,080722,088443,072147,094195,083969
0000000167,0000166000,-80531,065402,091322,070750,092290,087271
0000000168,0000167000,-85459,043236,094031,070352,089637,090322
0000000169,0000168000,-81354,016385,096306,070989,086498,092824
0000000170,0000169000,-68663,-12373,097913,072600,083184,094528
0000000171,0000170000,-48578,-40312,098698,075029,080015,095268
0000000172,0000171000,-22998,-64814,098591,078038,077299,094975
0000000173,0000172000,005438,-83332,097599,081329,075306,093676
0000000174,0000173000,033941,-94029,095818,084582,074232,091498
0000000175,0000174000,059892,-95973,093417,087481,074179,088651
0000000176,0000175000,080657,-88949,090638,089741,075152,085419
0000000177,0000176000,094106,-73604,087759,091137,077056,082118
0000000178,0000177000,099035,-51425,085049,091537,079707,079068
0000000179,0000178000,094975,-24612,082773,090900,082845,076566
0000000180,0000179000,082276,004162,081165,089290,086159,074862
0000000181,0000180000,062168,032138,080378,086863,089327,074121
0000000182,0000181000,036619,056618,080485,083855,092042,074414
0000000183,0000182000,008184,075139,081477,080565,094035,075712
0000000184,0000183000,-20359,085882,083257,077313,095109,077889
0000000185,0000184000,-46301,087821,085657,074415,095163,080734
0000000186,0000185000,-67056,080781,088437,072155,094191,083965
0000000187,0000186000,-80549,065474,091317,070758,092288,087265
0000000188,0000187000,-85487,043300,094028,070359,089638,090315
0000000189,0000188000,-81406,016452,096304,070994,086502,092816
0000000190,0000189000,-68736,-12307,097914,072602,083190,094520
0000000191,0000190000,-48647,-40272,098701,075028,080022,095261
0000000192,0000191000,-23067,-64794,098596,078035,077307,094969
0000000193,0000192000,005367,-83325,097605,081324,075315,093672
0000000194,0000193000,033891,-94051,095825,084574,074240,091497
0000000195,0000194000,059866,-96023,093425,087473,074185,088653
0000000196,0000195000,080643,-89007,090645,089732,075156,085424
0000000197,0000196000,094120,-73675,087765,091129,077058,082125
0000000198,0000197000,099080,-51511,085053,091529,079706,079076
0000000199,0000198000,095031,-24687,082775,090895,082841,076575
0000000200,0000199000,082344,004102,081165,089288,086152,074872
0000000201,0000200000,062254,032085,080375,086863,089318,074129
0000000202,0000201000,036701,056590,080480,083858,092033,074421
0000000203,0000202000,008250,075144,081470,080570,094025,075716
0000000204,0000203000,-20300,085906,083249,077321,095101,077890
0000000205,0000204000,-46262,087866,085649,074424,095156,080732
0000000206,0000205000,-67052,080854,088429,072165,094187,083960
0000000207,0000206000,-80568,065557,091310,070768,092287,087257
0000000208,0000207000,-85525,043382,094023,070366,089639,090305
0000000209,0000208000,-81474,016539,096303,071000,086506,092806
0000000210,0000209000,-68820,-12231,097914,072605,083197,094510
0000000211,0000210000,-48731,-40223,098705,075028,080031,095252
0000000212,0000211000,-23156,-64766,098602,078032,077318,094962
0000000213,0000212000,005282,-83320,097613,081317,075326,093669
0000000214,0000213000,033832,-94082,095834,084566,074249,091496
0000000215,0000214000,059829,-96080,093434,087462,074193,088656
0000000216,0000215000,080628,-89077,090654,089721,075161,085429
0000000217,0000216000,094140,-73766,087772,091118,077059,082134
0000000218,0000217000,099131,-51611,085058,091521,079705,079086
0000000219,0000218000,095099,-24776,082777,090888,082836,076587
0000000220,0000219000,082432,004025,081163,089285,086144,074882
0000000221,0000220000,062357,032021,080371,086864,089308,074139
0000000222,0000221000,036797,056559,080473,083862,092022,074428
0000000223,0000222000,008334,075148,081461,080578,094014,075720
0000000224,0000223000,-20227,085933,083239,077331,095090,077891
0000000225,0000224000,-46218,087923,085639,074435,095148,080729
0000000226,0000225000,-67045,080942,088420,072177,094181,083954
0000000227,0000226000,-80586,065655,091302,070779,092285,087248
0000000228,0000227000,-85573,043484,094018,070376,089641,090294
0000000229,0000228000,-81556,016643,096300,071006,086512,092793
0000000230,0000229000,-68918,-12143,097915,072608,083205,094498
0000000231,0000230000,-48834,-40163,098709,075028,080042,095242
0000000232,0000231000,-23265,-64729,098609,078027,077330,094954
0000000233,0000232000,005185,-83316,097622,081310,075338,093664
0000000234,0000233000,033761,-94120,095845,084555,074261,091495
0000000235,0000234000,059782,-96145,093445,087450,074202,088659
0000000236,0000235000,080611,-89163,090664,089708,075167,085436
0000000237,0000236000,094166,-73876,087780,091106,077062,082144
0000000238,0000237000,099189,-51728,085063,091510,079703,079099
0000000239,0000238000,095180,-24881,082780,090881,082831,076600
0000000240,0000239000,082539,003930,081162,089281,086135,074895
0000000241,0000240000,062477,031947,080367,086864,089297,074150
0000000242,0000241000,036910,056524,080466,083867,092008,074436
0000000243,0000242000,008436,075149,081451,080586,094000,075725
0000000244,0000243000,-20142,085965,083227,077342,095078,077891
0000000245,0000244000,-46169,087994,085627,074448,095138,080725
0000000246,0000245000,-67034,081043,088408,072191,094175,083946
0000000247,0000246000,-80608,065769,091293,070792,092282,087237
0000000248,0000247000,-85633,043607,094012,070387,089643,090281
0000000249,0000248000,-81652,016766,096298,071014,086518,092779
0000000250,0000249000,-69031,-12042,097917,072612,083215,094484
0000000251,0000250000,-48959,-40090,098714,075027,080055,095230
0000000252,0000251000,-23394,-64685,098617,078022,077344,094945
0000000253,0000252000,005072,-83315,097633,081301,075352,093658
0000000254,0000253000,033676,-94163,095858,084543,074274,091494
0000000255,0000254000,059725,-96219,093458,087435,074213,088663
0000000256,0000255000,080595,-89267,090676,089693,075174,085444
0000000257,0000256000,094196,-74007,087790,091092,077064,082155
0000000258,0000257000,099254,-51863,085070,091498,079701,079113
0000000259,0000258000,095276,-25007,082782,090873,082824,076615
0000000260,0000259000,082666,003816,081161,089277,086124,074910
0000000261,0000260000,062615,031863,080361,086865,089283,074164
0000000262,0000261000,037042,056482,080456,083872,091993,074446
0000000263,0000262000,008559,075147,081439,080596,093985,075731
0000000264,0000263000,-20044,086004,083213,077356,095063,077892
0000000265,0000264000,-46112,088078,085613,074464,095126,080721
0000000266,0000265000,-67018,081159,088395,072207,094167,083938
0000000267,0000266000,-80633,065903,091282,070807,092279,087225
0000000268,0000267000,-85705,043753,094004,070400,089646,090266
0000000269,0000268000,-81761,016908,096294,071023,086525,092763
0000000270,0000269000,-69162,-11925,097918,072617,083227,094468
0000000271,0000270000,-49106,-40001,098720,075026,080070,095215
0000000272,0000271000,-23543,-64633,098627,078016,077361,094934
0000000273,0000272000,004943,-83314,097646,081290,075369,093652
0000000274,0000273000,033574,-94210,095873,084528,074289,091493
0000000275,0000274000,059658,-96304,093474,087419,074225,088667
0000000276,0000275000,080577,-89390,090690,089676,075182,085454
0000000277,0000276000,094229,-74156,087802,091076,077067,082169
0000000278,0000277000,099328,-52018,085078,091484,079698,079129
0000000279,0000278000,095389,-25155,082786,090863,082816,076633
0000000280,0000279000,082812,003685,081159,089272,086112,074928
0000000281,0000280000,062773,031767,080355,086866,089267,074179
0000000282,0000281000,037197,056433,080446,083878,091975,074458
0000000283,0000282000,008701,075144,081425,080607,093967,075738
0000000284,0000283000,-19932,086051,083197,077371,095047,077893
0000000285,0000284000,-46045,088174,085597,074482,095113,080717
0000000286,0000285000,-66998,081290,088380,072225,094159,083928
0000000287,0000286000,-80664,066058,091270,070825,092276,087210
0000000288,0000287000,-85788,043922,093996,070414,089649,090248
0000000289,0000288000,-81884,017069,096290,071034,086534,092744
0000000290,0000289000,-69314,-11789,097920,072622,083240,094449
0000000291,0000290000,-49277,-39897,098727,075025,080087,095199
0000000292,0000291000,-23713,-64575,098638,078009,077380,094922
0000000293,0000292000,004795,-83314,097661,081278,075388,093645
0000000294,0000293000,033455,-94261,095890,084512,074307,091492
0000000295,0000294000,059581,-96401,093491,087400,074239,088672
0000000296,0000295000,080557,-89531,090707,089656,075191,085464
0000000297,0000296000,094264,-74326,087815,091057,077070,082184
0000000298,0000297000,099411,-52194,085088,091469,079695,079148
0000000299,0000298000,095520,-25327,082790,090852,082807,076653
0000000300,0000299000,082978,003534,081158,089267,086097,074947
0000000301,0000300000,062953,031657,080348,086867,089249,074196
