DIgSILENT PowerFactory,21000900,2000
6,06A,00D
1,TTPP_200000_100:Secondary Voltage A,,,V,0.010000000,-67.888489,0.000000,-86352,99998,1,1,P
2,TTPP_200000_100:Secondary Voltage B,,,V,0.010000000,-18.739143,0.000000,-92851,99998,1,1,P
3,TTPP_200000_100:Secondary Voltage C,,,V,0.10000000,-8994.069336,0.000000,79881,99998,1,1,P
4,TTCC_500_5:Secondary Current A,,,A,0.0010000000,-83.482613,0.000000,58579,99998,1,1,P
5,TTCC_500_5:Secondary Current B,,,A,0.0010000000,-84.804199,0.000000,69603,99998,1,1,P
6,TTCC_500_5:Secondary Current C,,,A,0.0010000000,-84.634758,0.000000,69255,99998,1,1,P
50
1
1000.000000,1101
30/06/2023,06:03:23.000000
30/06/2023,06:03:23.000000
ASCII
1.000000
0000000001,0000000000,061935,038250,080788,089400,089481,074040
0000000002,0000001000,036470,062578,080901,086385,092199,074338
0000000003,0000002000,007920,081166,081898,083087,094192,075642
0000000004,0000003000,-20568,091818,083681,079830,095264,077827
0000000005,0000004000,-46307,093559,086082,076928,095312,080681
0000000006,0000005000,-67069,086534,088859,074664,094337,083920
0000000007,0000006000,-80544,071257,091735,073268,092426,087227
0000000008,0000007000,-85354,049003,094441,072875,089764,090283
0000000009,0000008000,-81219,022167,096711,073515,086620,092786
0000000010,0000009000,-68543,-06513,098313,075132,083300,094490
0000000011,0000010000,-48375,-34482,099092,077569,080125,095228
0000000012,0000011000,-22750,-58972,098979,080583,077408,094930
0000000013,0000012000,005556,-77325,097983,083880,075416,093626
0000000014,0000013000,034021,-87956,096200,087140,074341,091441
0000000015,0000014000,060022,-89952,093799,090043,074291,088587
0000000016,0000015000,080672,-82823,091022,092302,075272,085348
0000000017,0000016000,094032,-67415,088145,093699,077182,082041
0000000018,0000017000,098989,-45310,085439,094095,079841,078986
0000000019,0000018000,094818,-18449,083171,093452,082988,076482
0000000020,0000019000,082010,010363,081569,091836,086307,074779
0000000021,0000020000,061979,038204,080789,089403,089478,074040
0000000022,0000021000,036450,062598,080902,086384,092199,074338
0000000023,0000022000,007960,081136,081898,083086,094193,075642
0000000024,0000023000,-20519,091785,083681,079830,095264,077828
0000000025,0000024000,-46359,093612,086082,076926,095314,080681
0000000026,0000025000,-67111,086583,088860,074664,094337,083921
0000000027,0000026000,-80528,071239,091736,073271,092424,087227
0000000028,0000027000,-85306,048961,094442,072874,089765,090282
0000000029,0000028000,-81215,022171,096711,073514,086622,092786
0000000030,0000029000,-68560,-06488,098312,075131,083301,094490
0000000031,0000030000,-48371,-34482,099092,077568,080126,095228
0000000032,0000031000,-22789,-58939,098980,080583,077409,094930
0000000033,0000032000,005552,-77321,097984,083880,075415,093626
0000000034,0000033000,034087,-88020,096200,087139,074341,091441
0000000035,0000034000,060020,-89945,093799,090041,074293,088588
0000000036,0000035000,080630,-82783,091022,092301,075272,085348
0000000037,0000036000,094038,-67421,088146,093699,077181,082042
0000000038,0000037000,098985,-45313,085440,094094,079841,078986
0000000039,0000038000,094818,-18452,083171,093452,082987,076483
0000000040,0000039000,082045,010334,081569,091836,086306,074779
0000000041,0000040000,061990,038193,080788,089401,089480,074041
0000000042,0000041000,036416,062634,080902,086384,092199,074338
0000000043,0000042000,007941,081152,081898,083087,094192,075643
0000000044,0000043000,-20488,091755,083680,079830,095264,077828
0000000045,0000044000,-46351,093604,086082,076926,095315,080681
0000000046,0000045000,-67120,086597,088859,074665,094337,083920
0000000047,0000046000,-80513,071227,091735,073270,092425,087227
0000000048,0000047000,-85328,048980,094441,072873,089766,090282
0000000049,0000048000,-81249,022203,096711,073514,086621,092786
0000000050,0000049000,-68534,-06518,098312,075132,083301,094489
0000000051,0000050000,-48351,-34503,099093,077566,080127,095228
0000000052,0000051000,-22818,-58914,098980,080581,077410,094930
0000000053,0000052000,005543,-77314,097984,083880,075416,093626
0000000054,0000053000,034089,-88031,096201,087138,074342,091441
0000000055,0000054000,060001,-89935,093800,090040,074294,088588
0000000056,0000055000,080635,-82791,091022,092301,075272,085349
0000000057,0000056000,094070,-67455,088146,093697,077182,082042
0000000058,0000057000,098978,-45308,085440,094093,079841,078987
0000000059,0000058000,094791,-18427,083171,093451,082987,076484
0000000060,0000059000,082065,010315,081569,091836,086306,074780
0000000061,0000060000,062009,038174,080788,089401,089479,074041
0000000062,0000061000,036409,062647,080901,086384,092199,074339
0000000063,0000062000,007961,081141,081897,083087,094191,075643
0000000064,0000063000,-20474,091748,083680,079830,095264,077828
0000000065,0000064000,-46377,093637,086081,076926,095314,080681
0000000066,0000065000,-67120,086605,088859,074666,094336,083920
0000000067,0000066000,-80486,071207,091735,073271,092425,087226
0000000068,0000067000,-85337,048994,094441,072873,089767,090281
0000000069,0000068000,-81268,022227,096711,073515,086622,092785
0000000070,0000069000,-68530,-06521,098312,075132,083301,094489
0000000071,0000070000,-48366,-34493,099093,077566,080128,095227
0000000072,0000071000,-22843,-58895,098981,080581,077411,094930
0000000073,0000072000,005555,-77333,097985,083879,075417,093626
0000000074,0000073000,034096,-88046,096202,087136,074344,091441
0000000075,0000074000,059973,-89917,093801,090038,074295,088588
0000000076,0000075000,080630,-82795,091023,092300,075272,085349
0000000077,0000076000,094087,-67482,088147,093696,077182,082043
0000000078,0000077000,098973,-45310,085441,094092,079842,078989
0000000079,0000078000,094798,-18435,083171,093450,082986,076485
0000000080,0000079000,082094,010288,081569,091835,086305,074781
0000000081,0000080000,062010,038176,080788,089400,089479,074043
0000000082,0000081000,036403,062660,080900,086384,092197,074340
0000000083,0000082000,007988,081125,081896,083088,094190,075644
0000000084,0000083000,-20456,091742,083679,079831,095263,077828
0000000085,0000084000,-46385,093658,086080,076928,095314,080681
0000000086,0000085000,-67113,086611,088857,074667,094335,083919
0000000087,0000086000,-80481,071211,091734,073272,092425,087225
0000000088,0000087000,-85361,049023,094440,072874,089767,090280
0000000089,0000088000,-81278,022241,096710,073516,086623,092783
0000000090,0000089000,-68524,-06529,098312,075132,083303,094487
0000000091,0000090000,-48389,-34476,099094,077565,080130,095226
0000000092,0000091000,-22871,-58876,098982,080581,077413,094929
0000000093,0000092000,005553,-77344,097986,083878,075419,093625
0000000094,0000093000,034084,-88052,096204,087134,074346,091441
0000000095,0000094000,059953,-89915,093803,090036,074296,088589
0000000096,0000095000,080641,-82820,091025,092298,075273,085351
0000000097,0000096000,094097,-67506,088148,093694,077183,082045
0000000098,0000097000,098963,-45311,085442,094090,079841,078991
0000000099,0000098000,094811,-18452,083171,093449,082985,076487
0000000100,0000099000,082126,010257,081569,091835,086303,074784
0000000101,0000100000,062021,038172,080787,089400,089477,074045
0000000102,0000101000,036417,062660,080899,086385,092195,074341
0000000103,0000102000,008019,081112,081894,083090,094187,075645
0000000104,0000103000,-20449,091753,083677,079832,095261,077828
0000000105,0000104000,-46388,093683,086078,076930,095312,080680
0000000106,0000105000,-67097,086615,088855,074670,094334,083918
0000000107,0000106000,-80479,071225,091732,073274,092424,087223
0000000108,0000107000,-85385,049060,094439,072876,089768,090277
0000000109,0000108000,-81291,022260,096710,073517,086624,092780
0000000110,0000109000,-68536,-06519,098313,075132,083305,094484
0000000111,0000110000,-48424,-34452,099095,077565,080133,095223
0000000112,0000111000,-22895,-58867,098983,080580,077415,094927
0000000113,0000112000,005545,-77357,097988,083876,075422,093624
0000000114,0000113000,034059,-88052,096206,087132,074349,091441
0000000115,0000114000,059933,-89919,093805,090034,074298,088590
0000000116,0000115000,080649,-82851,091027,092295,075275,085352
0000000117,0000116000,094103,-67534,088150,093690,077184,082047
0000000118,0000117000,098966,-45327,085443,094087,079841,078994
0000000119,0000118000,094839,-18485,083172,093448,082984,076491
0000000120,0000119000,082156,010228,081568,091833,086301,074787
0000000121,0000120000,062036,038167,080786,089400,089474,074048
0000000122,0000121000,036447,062649,080897,086387,092191,074344
0000000123,0000122000,008056,081099,081891,083091,094184,075646
0000000124,0000123000,-20436,091768,083674,079835,095258,077829
0000000125,0000124000,-46380,093706,086075,076933,095309,080679
0000000126,0000125000,-67083,086630,088852,074674,094332,083916
0000000127,0000126000,-80488,071257,091730,073277,092424,087220
0000000128,0000127000,-85409,049101,094437,072879,089768,090274
0000000129,0000128000,-81304,022282,096709,073520,086625,092777
0000000130,0000129000,-68562,-06497,098313,075133,083308,094481
0000000131,0000130000,-48468,-34420,099096,077565,080137,095220
0000000132,0000131000,-22925,-58858,098985,080578,077419,094924
0000000133,0000132000,005523,-77365,097991,083873,075426,093622
0000000134,0000133000,034027,-88054,096210,087128,074353,091441
0000000135,0000134000,059916,-89937,093809,090030,074301,088591
0000000136,0000135000,080654,-82890,091030,092290,075277,085354
0000000137,0000136000,094104,-67564,088153,093686,077185,082051
0000000138,0000137000,098976,-45356,085445,094084,079840,078998
0000000139,0000138000,094876,-18530,083173,093445,082982,076495
0000000140,0000139000,082192,010195,081568,091832,086298,074791
0000000141,0000140000,062066,038153,080785,089400,089470,074051
0000000142,0000141000,036491,062632,080894,086388,092187,074347
0000000143,0000142000,008096,081093,081888,083094,094179,075648
0000000144,0000143000,-20417,091789,083670,079839,095254,077829
0000000145,0000144000,-46361,093729,086070,076938,095305,080678
0000000146,0000145000,-67069,086654,088849,074678,094330,083914
0000000147,0000146000,-80503,071303,091727,073282,092423,087217
0000000148,0000147000,-85434,049149,094435,072884,089769,090269
0000000149,0000148000,-81328,022316,096708,073522,086627,092772
0000000150,0000149000,-68604,-06460,098313,075135,083312,094475
0000000151,0000150000,-48520,-34385,099098,077565,080141,095216
0000000152,0000151000,-22962,-58849,098988,080577,077424,094921
0000000153,0000152000,005485,-77368,097995,083870,075431,093620
0000000154,0000153000,033986,-88059,096214,087124,074358,091440
0000000155,0000154000,059899,-89966,093813,090024,074305,088592
0000000156,0000155000,080655,-82936,091035,092285,075279,085357
0000000157,0000156000,094107,-67604,088157,093681,077186,082055
0000000158,0000157000,098999,-45403,085448,094079,079839,079003
0000000159,0000158000,094920,-18586,083174,093442,082979,076501
0000000160,0000159000,082235,010157,081568,091830,086295,074797
0000000161,0000160000,062111,038128,080783,089400,089465,074057
0000000162,0000161000,036550,062608,080891,086390,092181,074351
0000000163,0000162000,008143,081091,081884,083098,094173,075650
0000000164,0000163000,-20388,091813,083665,079844,095248,077829
0000000165,0000164000,-46335,093757,086065,076944,095301,080677
0000000166,0000165000,-67058,086693,088844,074685,094327,083910
0000000167,0000166000,-80521,071363,091723,073288,092422,087212
0000000168,0000167000,-85461,049206,094432,072889,089769,090263
0000000169,0000168000,-81362,022363,096707,073526,086630,092765
0000000170,0000169000,-68662,-06408,098314,075136,083316,094469
0000000171,0000170000,-48582,-34346,099100,077565,080147,095210
0000000172,0000171000,-23013,-58837,098992,080574,077431,094916
0000000173,0000172000,005432,-77367,098000,083865,075438,093618
0000000174,0000173000,033939,-88071,096220,087118,074364,091440
0000000175,0000174000,059878,-90006,093819,090018,074310,088594
0000000176,0000175000,080651,-82989,091041,092277,075283,085361
0000000177,0000176000,094113,-67656,088162,093674,077187,082061
0000000178,0000177000,099032,-45468,085451,094073,079838,079010
0000000179,0000178000,094973,-18653,083175,093437,082976,076508
0000000180,0000179000,082288,010109,081567,091828,086289,074804
0000000181,0000180000,062175,038091,080780,089401,089458,074063
0000000182,0000181000,036621,062581,080887,086393,092173,074356
0000000183,0000182000,008198,081093,081878,083102,094166,075653
0000000184,0000183000,-20347,091838,083658,079851,095241,077830
0000000185,0000184000,-46300,093791,086058,076952,095295,080675
0000000186,0000185000,-67050,086747,088837,074693,094323,083906
0000000187,0000186000,-80541,071436,091717,073295,092421,087205
0000000188,0000187000,-85493,049274,094429,072895,089770,090256
0000000189,0000188000,-81411,022427,096705,073531,086634,092757
0000000190,0000189000,-68733,-06344,098315,075139,083322,094461
0000000191,0000190000,-48655,-34302,099103,077565,080155,095202
0000000192,0000191000,-23080,-58819,098997,080571,077439,094911
0000000193,0000192000,005364,-77364,098007,083860,075447,093615
0000000194,0000193000,033885,-88091,096227,087111,074372,091439
0000000195,0000194000,059852,-90055,093827,090009,074317,088596
0000000196,0000195000,080641,-83051,091048,092268,075287,085366
0000000197,0000196000,094124,-67726,088167,093665,077189,082068
0000000198,0000197000,099075,-45551,085455,094066,079837,079018
0000000199,0000198000,095033,-18731,083177,093432,082972,076518
0000000200,0000199000,082356,010049,081566,091825,086283,074813
0000000201,0000200000,062258,038042,080777,089401,089449,074071
0000000202,0000201000,036706,062550,080881,086396,092164,074362
0000000203,0000202000,008266,081096,081871,083108,094156,075657
0000000204,0000203000,-20291,091865,083650,079859,095232,077831
0000000205,0000204000,-46260,093835,086050,076961,095288,080673
0000000206,0000205000,-67042,086817,088830,074702,094319,083901
0000000207,0000206000,-80562,071522,091711,073305,092419,087198
0000000208,0000207000,-85531,049358,094424,072903,089772,090246
0000000209,0000208000,-81476,022509,096703,073536,086639,092747
0000000210,0000209000,-68819,-06267,098316,075141,083329,094451
0000000211,0000210000,-48742,-34250,099106,077564,080164,095194
0000000212,0000211000,-23166,-58794,099003,080568,077450,094904
0000000213,0000212000,005280,-77359,098015,083854,075458,093611
0000000214,0000213000,033822,-88118,096236,087102,074381,091438
0000000215,0000214000,059817,-90114,093836,089999,074324,088598
0000000216,0000215000,080628,-83124,091056,092257,075293,085372
0000000217,0000216000,094141,-67813,088174,093655,077191,082076
0000000218,0000217000,099126,-45651,085460,094058,079836,079029
0000000219,0000218000,095104,-18823,083179,093426,082967,076529
0000000220,0000219000,082442,009973,081565,091822,086275,074824
0000000221,0000220000,062359,037980,080773,089401,089439,074081
0000000222,0000221000,036805,062516,080875,086400,092152,074369
0000000223,0000222000,008349,081100,081862,083115,094145,075661
0000000224,0000223000,-20221,091895,083640,079869,095222,077831
0000000225,0000224000,-46214,093890,086040,076973,095279,080670
0000000226,0000225000,-67034,086903,088820,074714,094313,083895
0000000227,0000226000,-80584,071623,091703,073316,092417,087189
0000000228,0000227000,-85578,049459,094419,072913,089773,090235
0000000229,0000228000,-81555,022611,096701,073543,086644,092735
0000000230,0000229000,-68920,-06177,098317,075145,083338,094439
0000000231,0000230000,-48846,-34188,099111,077564,080175,095183
0000000232,0000231000,-23272,-58760,099010,080563,077462,094896
0000000233,0000232000,005181,-77355,098024,083846,075470,093606
0000000234,0000233000,033749,-88153,096247,087091,074393,091438
0000000235,0000234000,059773,-90181,093847,089986,074334,088601
0000000236,0000235000,080612,-83211,091067,092244,075299,085379
0000000237,0000236000,094163,-67920,088183,093643,077193,082086
0000000238,0000237000,099185,-45769,085466,094047,079834,079041
0000000239,0000238000,095187,-18931,083182,093418,082961,076542
0000000240,0000239000,082546,009881,081564,091818,086266,074837
0000000241,0000240000,062479,037906,080768,089402,089427,074092
0000000242,0000241000,036920,062477,080867,086404,092139,074378
0000000243,0000242000,008449,081102,081852,083124,094132,075666
0000000244,0000243000,-20138,091930,083628,079880,095209,077832
0000000245,0000244000,-46161,093958,086028,076986,095269,080666
0000000246,0000245000,-67024,087005,088809,074728,094307,083887
0000000247,0000246000,-80608,071740,091694,073329,092414,087178
0000000248,0000247000,-85636,049580,094412,072924,089776,090222
0000000249,0000248000,-81650,022732,096699,073551,086650,092720
0000000250,0000249000,-69036,-06073,098318,075149,083348,094425
0000000251,0000250000,-48969,-34115,099116,077563,080187,095171
0000000252,0000251000,-23399,-58718,099019,080558,077477,094887
0000000253,0000252000,005066,-77351,098035,083837,075484,093600
0000000254,0000253000,033663,-88194,096260,087079,074406,091437
0000000255,0000254000,059718,-90257,093861,089972,074344,088605
0000000256,0000255000,080594,-83314,091079,092229,075306,085387
0000000257,0000256000,094191,-68048,088193,093629,077195,082098
0000000258,0000257000,099253,-45906,085473,094035,079831,079055
0000000259,0000258000,095283,-19058,083185,093410,082955,076557
0000000260,0000259000,082670,009771,081563,091814,086255,074852
0000000261,0000260000,062619,037821,080763,089403,089414,074105
0000000262,0000261000,037054,062434,080858,086410,092124,074388
0000000263,0000262000,008569,081103,081840,083134,094116,075672
0000000264,0000263000,-20039,091969,083614,079893,095195,077833
0000000265,0000264000,-46102,094040,086013,077001,095258,080662
0000000266,0000265000,-67010,087122,088796,074744,094299,083878
0000000267,0000266000,-80635,071875,091683,073345,092412,087165
0000000268,0000267000,-85706,049724,094405,072937,089778,090207
0000000269,0000268000,-81759,022874,096695,073560,086658,092704
0000000270,0000269000,-69169,-05953,098319,075153,083359,094409
0000000271,0000270000,-49115,-34028,099122,077562,080202,095157
0000000272,0000271000,-23547,-58668,099029,080552,077493,094876
0000000273,0000272000,004934,-77348,098048,083826,075501,093594
0000000274,0000273000,033562,-88242,096275,087065,074421,091436
0000000275,0000274000,059653,-90345,093876,089955,074357,088610
0000000276,0000275000,080574,-83435,091093,092212,075314,085396
0000000277,0000276000,094224,-68197,088204,093612,077198,082111
0000000278,0000277000,099329,-46063,085481,094021,079829,079071
0000000279,0000278000,095396,-19205,083188,093400,082947,076575
0000000280,0000279000,082815,009641,081561,091810,086242,074869
0000000281,0000280000,062779,037723,080757,089403,089398,074120
0000000282,0000281000,037209,062384,080847,086416,092106,074399
0000000283,0000282000,008709,081101,081826,083145,094098,075679
0000000284,0000283000,-19926,092015,083598,079909,095179,077834
0000000285,0000284000,-46033,094134,085997,077019,095245,080658
0000000286,0000285000,-66991,087255,088781,074763,094291,083868
0000000287,0000286000,-80665,072030,091670,073362,092409,087151
0000000288,0000287000,-85787,049891,094396,072951,089781,090189
0000000289,0000288000,-81883,023036,096691,073570,086666,092685
0000000290,0000289000,-69322,-05815,098321,075158,083373,094391
0000000291,0000290000,-49283,-33926,099128,077561,080219,095141
0000000292,0000291000,-23717,-58610,099040,080545,077512,094864
0000000293,0000292000,004784,-77346,098063,083814,075520,093587
0000000294,0000293000,033445,-88295,096292,087048,074439,091435
0000000295,0000294000,059577,-90443,093893,089936,074371,088615
0000000296,0000295000,080552,-83574,091109,092192,075322,085407
0000000297,0000296000,094260,-68367,088218,093594,077201,082127
0000000298,0000297000,099414,-46242,085490,094006,079826,079090
0000000299,0000298000,095525,-19375,083192,093389,082938,076595
0000000300,0000299000,082981,009491,081560,091804,086228,074889
0000000301,0000300000,062961,037612,080749,089404,089380,074138
