DIgSILENT PowerFactory,21000900,2000
6,06A,00D
1,TTPP_200000_100:Secondary Voltage A,,,V,0.10000000,-8438.613281,0.000000,68073,99998,1,1,P
2,TTPP_200000_100:Secondary Voltage B,,,V,0.10000000,-8395.415039,0.000000,68710,99998,1,1,P
3,TTPP_200000_100:Secondary Voltage C,,,V,0.10000000,-8432.691406,0.000000,66961,99998,1,1,P
4,TTCC_500_5:Secondary Current A,,,A,0.0010000000,-86.325531,0.000000,66670,99998,1,1,P
5,TTCC_500_5:Secondary Current B,,,A,0.0010000000,-85.050034,0.000000,70114,99998,1,1,P
6,TTCC_500_5:Secondary Current C,,,A,0.0010000000,-84.683067,0.000000,69332,99998,1,1,P
50
1
1000.000000,1101
30/06/2023,06:05:52.000000
30/06/2023,06:05:52.000000
ASCII
1.000000
0000000001,0000000000,089898,087595,075174,092241,089729,074088
0000000002,0000001000,087350,090028,075289,089226,092445,074387
0000000003,0000002000,084499,091883,076287,085926,094440,075692
0000000004,0000003000,081653,092945,078069,082671,095510,077878
0000000005,0000004000,079069,093128,080471,079767,095560,080732
0000000006,0000005000,076997,092421,083249,077506,094581,083972
0000000007,0000006000,075651,090891,086125,076113,092668,087278
0000000008,0000007000,075178,088659,088830,075717,090008,090333
0000000009,0000008000,075586,085982,091099,076358,086864,092836
0000000010,0000009000,076854,083115,092700,077976,083543,094539
0000000011,0000010000,078873,080316,093479,080414,080368,095277
0000000012,0000011000,081435,077867,093365,083428,077653,094978
0000000013,0000012000,084263,076036,092368,086727,075659,093673
0000000014,0000013000,087117,074966,090584,089985,074586,091487
0000000015,0000014000,089714,074770,088183,092887,074538,088633
0000000016,0000015000,091773,075489,085405,095145,075520,085393
0000000017,0000016000,093109,077030,082529,096544,077428,082087
0000000018,0000017000,093608,079237,079824,096938,080089,079032
0000000019,0000018000,093189,081924,077554,096294,083236,076529
0000000020,0000019000,091906,084807,075954,094677,086555,074826
0000000021,0000020000,089903,087588,075175,092243,089727,074088
0000000022,0000021000,087349,090030,075288,089224,092448,074387
0000000023,0000022000,084498,091884,076286,085927,094439,075692
0000000024,0000023000,081653,092945,078070,082670,095510,077878
0000000025,0000024000,079071,093125,080472,079767,095560,080732
0000000026,0000025000,076994,092425,083249,077505,094582,083971
0000000027,0000026000,075654,090888,086125,076112,092668,087278
0000000028,0000027000,075175,088661,088831,075716,090009,090333
0000000029,0000028000,075585,085982,091099,076358,086864,092836
0000000030,0000029000,076854,083114,092699,077976,083543,094539
0000000031,0000030000,078875,080314,093479,080412,080369,095277
0000000032,0000031000,081430,077872,093366,083428,077653,094978
0000000033,0000032000,084266,076033,092368,086726,075660,093673
0000000034,0000033000,087119,074964,090584,089984,074587,091487
0000000035,0000034000,089710,074773,088183,092886,074539,088633
0000000036,0000035000,091772,075490,085405,095146,075518,085394
0000000037,0000036000,093115,077024,082529,096542,077429,082087
0000000038,0000037000,093605,079239,079824,096937,080089,079032
0000000039,0000038000,093185,081928,077555,096294,083236,076529
0000000040,0000039000,091912,084802,075954,094678,086554,074826
0000000041,0000040000,089905,087587,075175,092241,089729,074089
0000000042,0000041000,087344,090035,075288,089224,092447,074387
0000000043,0000042000,084499,091883,076285,085927,094439,075692
0000000044,0000043000,081658,092940,078069,082670,095511,077878
0000000045,0000044000,079066,093130,080471,079766,095561,080732
0000000046,0000045000,076992,092426,083249,077507,094581,083971
0000000047,0000046000,075659,090884,086125,076112,092669,087278
0000000048,0000047000,075174,088662,088830,075716,090010,090333
0000000049,0000048000,075581,085987,091099,076358,086865,092836
0000000050,0000049000,076858,083110,092699,077976,083543,094539
0000000051,0000050000,078875,080313,093479,080411,080371,095277
0000000052,0000051000,081425,077876,093366,083427,077654,094978
0000000053,0000052000,084266,076033,092369,086726,075660,093673
0000000054,0000053000,087122,074960,090585,089983,074588,091488
0000000055,0000054000,089707,074776,088183,092885,074540,088634
0000000056,0000055000,091771,075490,085405,095146,075518,085394
0000000057,0000056000,093118,077021,082529,096541,077429,082088
0000000058,0000057000,093604,079239,079824,096936,080090,079033
0000000059,0000058000,093184,081929,077555,096294,083235,076530
0000000060,0000059000,091914,084799,075954,094678,086554,074827
0000000061,0000060000,089905,087587,075175,092241,089728,074089
0000000062,0000061000,087342,090037,075288,089224,092446,074388
0000000063,0000062000,084502,091881,076285,085928,094438,075693
0000000064,0000063000,081659,092940,078069,082670,095511,077878
0000000065,0000064000,079065,093133,080470,079767,095560,080732
0000000066,0000065000,076994,092425,083248,077507,094580,083971
0000000067,0000066000,075660,090883,086124,076112,092669,087277
0000000068,0000067000,075171,088666,088830,075716,090011,090332
0000000069,0000068000,075581,085987,091099,076359,086865,092835
0000000070,0000069000,076859,083108,092700,077976,083545,094538
0000000071,0000070000,078872,080316,093480,080411,080372,095276
0000000072,0000071000,081424,077877,093366,083427,077654,094977
0000000073,0000072000,084268,076029,092369,086725,075661,093673
0000000074,0000073000,087120,074961,090586,089981,074590,091488
0000000075,0000074000,089704,074778,088184,092884,074541,088634
0000000076,0000075000,091774,075487,085406,095145,075519,085395
0000000077,0000076000,093118,077019,082530,096539,077430,082089
0000000078,0000077000,093601,079242,079825,096934,080090,079034
0000000079,0000078000,093186,081926,077555,096293,083234,076532
0000000080,0000079000,091918,084795,075954,094677,086554,074829
0000000081,0000080000,089904,087589,075174,092241,089727,074091
0000000082,0000081000,087343,090037,075287,089225,092445,074389
0000000083,0000082000,084506,091877,076284,085928,094437,075693
0000000084,0000083000,081658,092942,078068,082671,095510,077878
0000000085,0000084000,079063,093135,080469,079769,095559,080731
0000000086,0000085000,076997,092424,083247,077509,094579,083970
0000000087,0000086000,075660,090884,086123,076113,092669,087276
0000000088,0000087000,075168,088670,088829,075717,090011,090330
0000000089,0000088000,075581,085987,091099,076360,086865,092833
0000000090,0000089000,076859,083108,092700,077976,083546,094536
0000000091,0000090000,078868,080319,093480,080410,080374,095274
0000000092,0000091000,081423,077878,093367,083427,077656,094976
0000000093,0000092000,084269,076028,092371,086724,075663,093672
0000000094,0000093000,087117,074962,090588,089979,074592,091487
0000000095,0000094000,089703,074778,088186,092882,074542,088635
0000000096,0000095000,091776,075483,085408,095142,075520,085396
0000000097,0000096000,093118,077018,082532,096537,077431,082091
0000000098,0000097000,093601,079241,079825,096933,080089,079036
0000000099,0000098000,093189,081923,077555,096292,083233,076534
0000000100,0000099000,091919,084794,075954,094675,086552,074831
0000000101,0000100000,089904,087590,075173,092241,089725,074093
0000000102,0000101000,087347,090035,075285,089226,092442,074390
0000000103,0000102000,084509,091876,076282,085929,094435,075694
0000000104,0000103000,081657,092945,078066,082673,095508,077878
0000000105,0000104000,079065,093136,080467,079771,095557,080731
0000000106,0000105000,076999,092424,083245,077511,094578,083969
0000000107,0000106000,075658,090888,086122,076115,092669,087274
0000000108,0000107000,075167,088673,088828,075720,090011,090328
0000000109,0000108000,075582,085987,091098,076361,086866,092831
0000000110,0000109000,076856,083111,092700,077976,083549,094534
0000000111,0000110000,078864,080322,093481,080410,080376,095272
0000000112,0000111000,081422,077876,093369,083426,077659,094975
0000000113,0000112000,084267,076027,092373,086721,075666,093671
0000000114,0000113000,087113,074964,090590,089977,074594,091487
0000000115,0000114000,089703,074775,088188,092879,074544,088635
0000000116,0000115000,091777,075480,085410,095139,075522,085398
0000000117,0000116000,093116,077017,082534,096534,077432,082093
0000000118,0000117000,093602,079239,079827,096931,080089,079039
0000000119,0000118000,093193,081918,077556,096290,083232,076537
0000000120,0000119000,091921,084793,075954,094674,086550,074834
0000000121,0000120000,089906,087589,075172,092241,089722,074095
0000000122,0000121000,087351,090032,075284,089227,092439,074393
0000000123,0000122000,084511,091877,076280,085931,094432,075696
0000000124,0000123000,081658,092947,078063,082675,095504,077879
0000000125,0000124000,079068,093136,080463,079775,095554,080730
0000000126,0000125000,077000,092426,083242,077515,094577,083967
0000000127,0000126000,075655,090893,086119,076119,092668,087271
0000000128,0000127000,075166,088675,088826,075723,090011,090325
0000000129,0000128000,075581,085989,091097,076363,086868,092827
0000000130,0000129000,076852,083115,092700,077977,083551,094530
0000000131,0000130000,078861,080324,093482,080410,080380,095269
0000000132,0000131000,081420,077876,093371,083424,077663,094972
0000000133,0000132000,084263,076028,092376,086719,075671,093669
0000000134,0000133000,087110,074964,090593,089974,074598,091487
0000000135,0000134000,089703,074772,088192,092875,074547,088636
0000000136,0000135000,091776,075477,085414,095134,075524,085400
0000000137,0000136000,093116,077015,082536,096530,077433,082096
0000000138,0000137000,093605,079234,079829,096927,080088,079044
0000000139,0000138000,093196,081914,077557,096287,083230,076542
0000000140,0000139000,091923,084791,075954,094673,086547,074838
0000000141,0000140000,089910,087586,075170,092241,089718,074099
0000000142,0000141000,087356,090030,075281,089228,092434,074396
0000000143,0000142000,084513,091878,076276,085934,094427,075698
0000000144,0000143000,081660,092949,078058,082680,095500,077879
0000000145,0000144000,079071,093137,080459,079779,095550,080729
0000000146,0000145000,076999,092430,083238,077519,094575,083965
0000000147,0000146000,075654,090897,086116,076124,092667,087268
0000000148,0000147000,075165,088678,088824,075727,090012,090320
0000000149,0000148000,075577,085993,091097,076366,086871,092822
0000000150,0000149000,076846,083120,092701,077979,083555,094525
0000000151,0000150000,078857,080326,093484,080410,080384,095264
0000000152,0000151000,081416,077877,093374,083422,077668,094969
0000000153,0000152000,084257,076030,092380,086715,075676,093667
0000000154,0000153000,087107,074962,090598,089969,074603,091487
0000000155,0000154000,089702,074768,088197,092870,074551,088638
0000000156,0000155000,091774,075475,085418,095129,075527,085403
0000000157,0000156000,093116,077011,082540,096525,077433,082101
0000000158,0000157000,093609,079228,079831,096922,080087,079049
0000000159,0000158000,093199,081910,077558,096283,083228,076547
0000000160,0000159000,091926,084788,075953,094671,086543,074844
0000000161,0000160000,089916,087582,075168,092241,089713,074105
0000000162,0000161000,087361,090028,075278,089230,092429,074400
0000000163,0000162000,084516,091879,076272,085938,094421,075700
0000000164,0000163000,081665,092950,078053,082685,095494,077880
0000000165,0000164000,079074,093140,080454,079785,095546,080728
0000000166,0000165000,076999,092435,083233,077526,094572,083961
0000000167,0000166000,075653,090903,086112,076130,092666,087263
0000000168,0000167000,075163,088683,088821,075732,090013,090314
0000000169,0000168000,075572,085999,091095,076370,086874,092815
0000000170,0000169000,076841,083125,092701,077981,083559,094518
0000000171,0000170000,078853,080328,093486,080410,080390,095258
0000000172,0000171000,081410,077879,093378,083420,077675,094964
0000000173,0000172000,084252,076031,092385,086711,075683,093665
0000000174,0000173000,087104,074959,090604,089964,074609,091486
0000000175,0000174000,089700,074764,088203,092863,074557,088639
0000000176,0000175000,091773,075471,085424,095121,075530,085407
0000000177,0000176000,093118,077005,082545,096518,077435,082106
0000000178,0000177000,093612,079221,079834,096916,080086,079056
0000000179,0000178000,093203,081905,077560,096279,083225,076555
0000000180,0000179000,091932,084783,075952,094669,086538,074852
0000000181,0000180000,089924,087577,075166,092241,089706,074111
0000000182,0000181000,087367,090026,075274,089233,092421,074405
0000000183,0000182000,084522,091880,076266,085943,094413,075703
0000000184,0000183000,081670,092951,078046,082691,095487,077880
0000000185,0000184000,079076,093144,080447,079793,095540,080726
0000000186,0000185000,076999,092442,083227,077534,094568,083957
0000000187,0000186000,075652,090909,086106,076138,092664,087256
0000000188,0000187000,075160,088690,088817,075738,090014,090306
0000000189,0000188000,075566,086007,091094,076374,086878,092807
0000000190,0000189000,076835,083131,092702,077983,083565,094510
0000000191,0000190000,078846,080332,093489,080410,080398,095251
0000000192,0000191000,081402,077882,093383,083417,077684,094959
0000000193,0000192000,084245,076031,092391,086706,075691,093661
0000000194,0000193000,087100,074956,090611,089956,074617,091485
0000000195,0000194000,089696,074760,088211,092854,074563,088642
0000000196,0000195000,091771,075465,085431,095113,075534,085412
0000000197,0000196000,093121,076996,082550,096509,077436,082113
0000000198,0000197000,093616,079213,079839,096909,080085,079064
0000000199,0000198000,093208,081898,077561,096274,083221,076564
0000000200,0000199000,091940,084775,075951,094667,086531,074861
0000000201,0000200000,089932,087572,075163,092242,089698,074119
0000000202,0000201000,087374,090024,075268,089236,092412,074411
0000000203,0000202000,084529,091879,076258,085949,094403,075707
0000000204,0000203000,081677,092952,078038,082699,095478,077881
0000000205,0000204000,079079,093149,080439,079802,095533,080723
0000000206,0000205000,077000,092449,083219,077544,094563,083952
0000000207,0000206000,075651,090916,086100,076147,092663,087249
0000000208,0000207000,075155,088699,088813,075746,090016,090297
0000000209,0000208000,075559,086016,091092,076380,086882,092797
0000000210,0000209000,076827,083137,092703,077986,083572,094500
0000000211,0000210000,078837,080337,093493,080409,080407,095242
0000000212,0000211000,081393,077886,093389,083413,077694,094952
0000000213,0000212000,084238,076030,092399,086699,075702,093657
0000000214,0000213000,087094,074953,090620,089947,074627,091485
0000000215,0000214000,089691,074756,088220,092843,074571,088644
0000000216,0000215000,091770,075457,085439,095102,075539,085417
0000000217,0000216000,093123,076987,082558,096499,077438,082122
0000000218,0000217000,093620,079204,079844,096900,080084,079075
0000000219,0000218000,093215,081889,077563,096268,083216,076575
0000000220,0000219000,091950,084767,075950,094664,086523,074872
0000000221,0000220000,089942,087566,075159,092242,089688,074129
0000000222,0000221000,087384,090022,075262,089240,092400,074418
0000000223,0000222000,084539,091879,076250,085956,094392,075711
0000000224,0000223000,081684,092955,078028,082709,095468,077882
0000000225,0000224000,079083,093156,080429,079813,095525,080720
0000000226,0000225000,077001,092457,083209,077556,094558,083945
0000000227,0000226000,075649,090926,086092,076158,092661,087240
0000000228,0000227000,075150,088710,088808,075756,090017,090286
0000000229,0000228000,075551,086026,091089,076387,086887,092785
0000000230,0000229000,076818,083145,092704,077989,083581,094488
0000000231,0000230000,078826,080344,093497,080409,080418,095232
0000000232,0000231000,081382,077890,093396,083409,077706,094944
0000000233,0000232000,084229,076030,092409,086692,075714,093653
0000000234,0000233000,087086,074950,090631,089937,074638,091484
0000000235,0000234000,089686,074750,088231,092831,074580,088647
0000000236,0000235000,091770,075448,085450,095089,075545,085424
0000000237,0000236000,093125,076976,082566,096487,077440,082132
0000000238,0000237000,093625,079193,079849,096890,080082,079087
0000000239,0000238000,093224,081878,077566,096261,083210,076588
0000000240,0000239000,091961,084757,075949,094660,086514,074884
0000000241,0000240000,089953,087560,075154,092242,089676,074140
0000000242,0000241000,087395,090018,075254,089245,092387,074427
0000000243,0000242000,084550,091878,076240,085964,094379,075716
0000000244,0000243000,081691,092959,078017,082720,095456,077883
0000000245,0000244000,079088,093163,080417,079827,095515,080717
0000000246,0000245000,077003,092466,083198,077570,094551,083938
0000000247,0000246000,075647,090937,086083,076171,092658,087229
0000000248,0000247000,075143,088723,088801,075767,090019,090273
0000000249,0000248000,075543,086038,091087,076395,086893,092770
0000000250,0000249000,076807,083156,092705,077993,083591,094474
0000000251,0000250000,078813,080352,093502,080408,080431,095220
0000000252,0000251000,081369,077894,093404,083404,077720,094935
0000000253,0000252000,084218,076030,092420,086682,075729,093647
0000000254,0000253000,087077,074946,090644,089924,074651,091483
0000000255,0000254000,089681,074742,088244,092817,074591,088651
0000000256,0000255000,091769,075437,085462,095074,075552,085432
0000000257,0000256000,093128,076963,082576,096472,077443,082143
0000000258,0000257000,093632,079180,079856,096878,080080,079101
0000000259,0000258000,093234,081864,077569,096252,083203,076604
0000000260,0000259000,091973,084746,075948,094656,086503,074899
0000000261,0000260000,089966,087552,075149,092243,089662,074153
0000000262,0000261000,087409,090013,075244,089250,092372,074437
0000000263,0000262000,084562,091878,076228,085974,094363,075722
0000000264,0000263000,081701,092964,078003,082734,095441,077884
0000000265,0000264000,079094,093171,080402,079842,095504,080713
0000000266,0000265000,077005,092477,083185,077586,094544,083929
0000000267,0000266000,075644,090951,086072,076186,092656,087216
0000000268,0000267000,075136,088737,088794,075780,090022,090257
0000000269,0000268000,075532,086051,091083,076404,086901,092754
0000000270,0000269000,076793,083168,092707,077998,083603,094458
0000000271,0000270000,078798,080362,093508,080407,080446,095206
0000000272,0000271000,081355,077898,093414,083398,077737,094924
0000000273,0000272000,084205,076030,092433,086672,075746,093641
0000000274,0000273000,087066,074942,090659,089910,074667,091482
0000000275,0000274000,089675,074733,088259,092800,074603,088655
0000000276,0000275000,091767,075424,085476,095057,075560,085442
0000000277,0000276000,093131,076949,082588,096456,077446,082157
0000000278,0000277000,093639,079164,079864,096864,080077,079117
0000000279,0000278000,093246,081849,077572,096242,083195,076621
0000000280,0000279000,091987,084733,075947,094651,086491,074917
0000000281,0000280000,089982,087542,075142,092244,089646,074168
0000000282,0000281000,087425,090008,075234,089257,092354,074448
0000000283,0000282000,084576,091878,076214,085985,094345,075728
0000000284,0000283000,081711,092969,077987,082749,095425,077885
0000000285,0000284000,079101,093180,080386,079860,095490,080708
0000000286,0000285000,077007,092490,083170,077604,094535,083919
0000000287,0000286000,075640,090967,086060,076204,092653,087202
0000000288,0000287000,075128,088754,088785,075794,090024,090240
0000000289,0000288000,075520,086067,091080,076414,086909,092735
0000000290,0000289000,076777,083182,092708,078003,083616,094440
0000000291,0000290000,078781,080372,093515,080407,080463,095189
0000000292,0000291000,081339,077903,093426,083391,077756,094912
0000000293,0000292000,084189,076030,092448,086660,075765,093634
0000000294,0000293000,087054,074937,090676,089894,074684,091481
0000000295,0000294000,089667,074723,088277,092781,074617,088660
0000000296,0000295000,091765,075410,085492,095037,075569,085452
0000000297,0000296000,093134,076932,082601,096437,077449,082172
0000000298,0000297000,093648,079146,079873,096849,080074,079136
0000000299,0000298000,093259,081832,077576,096231,083186,076641
0000000300,0000299000,092003,084719,075945,094646,086477,074936
0000000301,0000300000,090000,087531,075135,092245,089628,074185
