DIgSILENT PowerFactory,21000900,2000
6,06A,00D
1,TTPP_200000_100:Secondary Voltage A,,,V,0.010000000,-71.465988,0.000000,-85625,99998,1,1,P
2,TTPP_200000_100:Secondary Voltage B,,,V,0.010000000,5.923914,0.000000,-99765,99998,1,1,P
3,TTPP_200000_100:Secondary Voltage C,,,V,0.10000000,-8941.588867,0.000000,78582,99998,1,1,P
4,TTCC_300_1:Secondary Current A,,,A,0.00010000000,-2.616294,0.000000,-83946,99998,1,1,P
5,TTCC_300_1:Secondary Current B,,,A,0.00010000000,-4.997351,0.000000,-123,99998,1,1,P
6,TTCC_300_1:Secondary Current C,,,A,0.00010000000,-4.880412,0.000000,-2277,99998,1,1,P
50
1
1000.000000,1101
30/06/2023,06:04:55.000000
30/06/2023,06:04:55.000000
ASCII
1.000000
0000000001,0000000000,078210,014159,080834,005232,035985,083723
0000000002,0000001000,056866,041335,080250,014986,026707,083251
0000000003,0000002000,030471,064632,080562,025822,019710,079407
0000000004,0000003000,001891,081434,081738,036704,015664,072573
0000000005,0000004000,-26041,090045,083671,046544,014991,063404
0000000006,0000005000,-50919,089956,086168,054398,017739,052805
0000000007,0000006000,-70109,081078,088974,059478,023639,041823
0000000008,0000007000,-81581,064030,091827,061306,032109,031526
0000000009,0000008000,-84432,040639,094450,059679,042354,022909
0000000010,0000009000,-78438,013401,096575,054787,053322,016831
0000000011,0000010000,-63953,-15310,097997,047086,063965,013890
0000000012,0000011000,-42451,-42656,098582,037333,073244,014363
0000000013,0000012000,-16224,-65762,098271,026482,080255,018204
0000000014,0000013000,012314,-82532,097093,015619,084281,025040
0000000015,0000014000,040445,-91336,095161,005770,084963,034208
0000000016,0000015000,065209,-91145,092664,-02084,082218,044808
0000000017,0000016000,084307,-82161,089857,-07164,076316,055788
0000000018,0000017000,095945,-65279,087004,-08983,067837,066087
0000000019,0000018000,098768,-41880,084383,-07371,057608,074703
0000000020,0000019000,092628,-14476,082257,-02469,046629,080781
0000000021,0000020000,078280,014090,080834,005233,035986,083722
0000000022,0000021000,056828,041389,080250,014981,026711,083250
0000000023,0000022000,030423,064671,080561,025830,019703,079408
0000000024,0000023000,001960,081372,081738,036704,015664,072572
0000000025,0000024000,-26035,090040,083671,046544,014992,063404
0000000026,0000025000,-50978,090015,086168,054396,017740,052805
0000000027,0000026000,-70088,081057,088975,059486,023631,041824
0000000028,0000027000,-81549,063989,091827,061303,032112,031526
0000000029,0000028000,-84465,040682,094450,059682,042350,022909
0000000030,0000029000,-78448,013409,096575,054788,053322,016831
0000000031,0000030000,-63923,-15340,097998,047091,063960,013889
0000000032,0000031000,-42469,-42638,098582,037332,073246,014362
0000000033,0000032000,-16232,-65757,098270,026487,080250,018204
0000000034,0000033000,012333,-82553,097093,015620,084282,025039
0000000035,0000034000,040423,-91327,095161,005773,084961,034207
0000000036,0000035000,065203,-91133,092664,-02082,082217,044806
0000000037,0000036000,084341,-82195,089857,-07162,076315,055787
0000000038,0000037000,095931,-65267,087005,-08984,067839,066085
0000000039,0000038000,098741,-41851,084383,-07367,057606,074701
0000000040,0000039000,092667,-14516,082256,-02467,046628,080779
0000000041,0000040000,078292,014081,080834,005231,035989,083721
0000000042,0000041000,056781,041431,080250,014982,026711,083248
0000000043,0000042000,030441,064658,080561,025833,019701,079407
0000000044,0000043000,002005,081331,081738,036703,015666,072572
0000000045,0000044000,-26075,090083,083671,046542,014994,063404
0000000046,0000045000,-50992,090034,086168,054399,017736,052805
0000000047,0000046000,-70047,081015,088974,059486,023630,041824
0000000048,0000047000,-81555,063998,091827,061300,032114,031527
0000000049,0000048000,-84508,040725,094449,059683,042348,022910
0000000050,0000049000,-78422,013380,096575,054791,053318,016832
0000000051,0000050000,-63912,-15352,097998,047091,063959,013890
0000000052,0000051000,-42503,-42606,098582,037333,073244,014363
0000000053,0000052000,-16227,-65761,098270,026491,080246,018204
0000000054,0000053000,012351,-82579,097094,015622,084280,025039
0000000055,0000054000,040400,-91306,095162,005776,084960,034206
0000000056,0000055000,065203,-91135,092664,-02077,082214,044804
0000000057,0000056000,084362,-82222,089857,-07160,076315,055785
0000000058,0000057000,095914,-65254,087006,-08981,067839,066082
0000000059,0000058000,098737,-41847,084383,-07364,057605,074698
0000000060,0000059000,092700,-14545,082256,-02465,046629,080777
0000000061,0000060000,078283,014089,080834,005230,035992,083719
0000000062,0000061000,056764,041451,080249,014984,026711,083246
0000000063,0000062000,030476,064629,080561,025833,019703,079406
0000000064,0000063000,002011,081328,081737,036699,015670,072571
0000000065,0000064000,-26106,090119,083670,046540,014995,063405
0000000066,0000065000,-50975,090022,086167,054399,017735,052807
0000000067,0000066000,-70022,080996,088974,059482,023632,041827
0000000068,0000067000,-81590,064035,091827,061298,032113,031529
0000000069,0000068000,-84518,040736,094449,059684,042344,022913
0000000070,0000069000,-78394,013352,096575,054791,053315,016835
0000000071,0000070000,-63934,-15334,097998,047090,063958,013893
0000000072,0000071000,-42531,-42581,098583,037337,073238,014365
0000000073,0000072000,-16208,-65788,098271,026495,080241,018205
0000000074,0000073000,012349,-82585,097095,015625,084277,025039
0000000075,0000074000,040372,-91284,095162,005780,084956,034204
0000000076,0000075000,065215,-91155,092665,-02071,082210,044802
0000000077,0000076000,084376,-82243,089858,-07156,076315,055781
0000000078,0000077000,095896,-65240,087006,-08977,067840,066078
0000000079,0000078000,098749,-41858,084383,-07359,057606,074694
0000000080,0000079000,092724,-14571,082256,-02464,046633,080772
0000000081,0000080000,078273,014101,080834,005230,035996,083714
0000000082,0000081000,056771,041453,080249,014984,026715,083243
0000000083,0000082000,030506,064606,080560,025830,019708,079403
0000000084,0000083000,002004,081343,081737,036694,015675,072571
0000000085,0000084000,-26116,090140,083669,046537,014998,063406
0000000086,0000085000,-50950,090007,086166,054394,017737,052809
0000000087,0000086000,-70026,081006,088973,059476,023634,041831
0000000088,0000087000,-81619,064070,091826,061295,032112,031535
0000000089,0000088000,-84508,040731,094449,059682,042340,022919
0000000090,0000089000,-78391,013347,096576,054788,053311,016841
0000000091,0000090000,-63970,-15302,097999,047090,063952,013898
0000000092,0000091000,-42540,-42578,098583,037341,073230,014369
0000000093,0000092000,-16196,-65811,098272,026499,080234,018207
0000000094,0000093000,012325,-82573,097096,015630,084272,025039
0000000095,0000094000,040356,-91279,095163,005789,084950,034202
0000000096,0000095000,065236,-91187,092666,-02063,082206,044798
0000000097,0000096000,084374,-82253,089859,-07149,076314,055776
0000000098,0000097000,095885,-65235,087006,-08970,067840,066071
0000000099,0000098000,098774,-41887,084383,-07354,057608,074686
0000000100,0000099000,092742,-14589,082256,-02462,046639,080764
0000000101,0000100000,078269,014112,080833,005230,036003,083707
0000000102,0000101000,056793,041441,080248,014982,026721,083237
0000000103,0000102000,030531,064593,080559,025824,019716,079400
0000000104,0000103000,001997,081364,081735,036688,015683,072570
0000000105,0000104000,-26108,090149,083667,046530,015003,063408
0000000106,0000105000,-50931,090002,086164,054385,017742,052814
0000000107,0000106000,-70042,081033,088972,059467,023636,041837
0000000108,0000107000,-81635,064096,091825,061289,032109,031543
0000000109,0000108000,-84501,040728,094448,059677,042335,022928
0000000110,0000109000,-78411,013364,096576,054785,053306,016850
0000000111,0000110000,-64004,-15275,097999,047091,063943,013906
0000000112,0000111000,-42542,-42587,098584,037345,073220,014375
0000000113,0000112000,-16205,-65819,098274,026504,080225,018211
0000000114,0000113000,012293,-82559,097098,015638,084263,025040
0000000115,0000114000,040354,-91295,095165,005800,084941,034200
0000000116,0000115000,065249,-91218,092668,-02053,082202,044792
0000000117,0000116000,084363,-82256,089861,-07140,076313,055767
0000000118,0000117000,095891,-65249,087007,-08960,067840,066060
0000000119,0000118000,098807,-41924,084383,-07347,057613,074675
0000000120,0000119000,092754,-14599,082256,-02460,046647,080753
0000000121,0000120000,078278,014112,080832,005231,036012,083697
0000000122,0000121000,056829,041420,080246,014979,026732,083230
0000000123,0000122000,030550,064591,080557,025817,019729,079395
0000000124,0000123000,001997,081386,081733,036678,015694,072569
0000000125,0000124000,-26089,090154,083665,046519,015011,063410
0000000126,0000125000,-50922,090012,086163,054372,017748,052820
0000000127,0000126000,-70062,081070,088971,059455,023639,041847
0000000128,0000127000,-81643,064118,091824,061279,032107,031555
0000000129,0000128000,-84507,040737,094448,059669,042330,022941
0000000130,0000129000,-78446,013395,096576,054781,053297,016863
0000000131,0000130000,-64033,-15255,098000,047093,063930,013918
0000000132,0000131000,-42551,-42595,098586,037350,073206,014384
0000000133,0000132000,-16233,-65814,098276,026512,080212,018217
0000000134,0000133000,012265,-82556,097100,015651,084249,025041
0000000135,0000134000,040357,-91324,095168,005815,084930,034197
0000000136,0000135000,065248,-91243,092671,-02039,082195,044785
0000000137,0000136000,084354,-82267,089863,-07125,076310,055756
0000000138,0000137000,095913,-65284,087009,-08947,067841,066046
0000000139,0000138000,098837,-41960,084384,-07339,057620,074659
0000000140,0000139000,092766,-14609,082256,-02455,046658,080737
0000000141,0000140000,078308,014096,080831,005232,036026,083684
0000000142,0000141000,056871,041397,080244,014974,026748,083219
0000000143,0000142000,030567,064600,080554,025806,019746,079389
0000000144,0000143000,002011,081403,081730,036665,015708,072567
0000000145,0000144000,-26064,090159,083662,046503,015023,063414
0000000146,0000145000,-50921,090039,086160,054354,017757,052829
0000000147,0000146000,-70080,081111,088968,059439,023641,041860
0000000148,0000147000,-81650,064141,091822,061266,032104,031571
0000000149,0000148000,-84528,040763,094447,059659,042323,022959
0000000150,0000149000,-78488,013434,096577,054776,053284,016881
0000000151,0000150000,-64061,-15239,098001,047094,063913,013933
0000000152,0000151000,-42576,-42594,098589,037356,073188,014396
0000000153,0000152000,-16274,-65803,098279,026523,080193,018224
0000000154,0000153000,012241,-82565,097104,015668,084231,025042
0000000155,0000154000,040354,-91356,095171,005833,084916,034192
0000000156,0000155000,065237,-91266,092674,-02020,082186,044774
0000000157,0000156000,084355,-82294,089865,-07105,076305,055741
0000000158,0000157000,095943,-65332,087010,-08931,067843,066028
0000000159,0000158000,098863,-41996,084385,-07327,057629,074639
0000000160,0000159000,092790,-14628,082255,-02449,046672,080717
0000000161,0000160000,078354,014066,080829,005232,036043,083666
0000000162,0000161000,056913,041380,080242,014966,026770,083205
0000000163,0000162000,030589,064612,080551,025793,019767,079380
0000000164,0000163000,002041,081414,081726,036648,015727,072565
0000000165,0000164000,-26039,090173,083658,046482,015039,063419
0000000166,0000165000,-50926,090080,086156,054332,017768,052840
0000000167,0000166000,-70091,081155,088965,059419,023645,041877
0000000168,0000167000,-81661,064172,091820,061248,032101,031592
0000000169,0000168000,-84564,040807,094447,059645,042314,022982
0000000170,0000169000,-78535,013476,096577,054769,053268,016903
0000000171,0000170000,-64095,-15223,098003,047095,063892,013954
0000000172,0000171000,-42619,-42582,098592,037363,073165,014412
0000000173,0000172000,-16321,-65794,098283,026538,080169,018233
0000000174,0000173000,012217,-82585,097108,015688,084208,025044
0000000175,0000174000,040341,-91389,095176,005857,084898,034186
0000000176,0000175000,065224,-91295,092678,-01994,082174,044761
0000000177,0000176000,084367,-82340,089868,-07081,076300,055721
0000000178,0000177000,095975,-65388,087013,-08911,067847,066004
0000000179,0000178000,098892,-42035,084386,-07313,057640,074613
0000000180,0000179000,092832,-14662,082254,-02441,046690,080692
0000000181,0000180000,078412,014028,080827,005232,036066,083643
0000000182,0000181000,056958,041367,080239,014957,026797,083187
0000000183,0000182000,030625,064620,080547,025777,019794,079370
0000000184,0000183000,002082,081423,081721,036626,015751,072563
0000000185,0000184000,-26017,090201,083653,046455,015060,063426
0000000186,0000185000,-50930,090131,086151,054304,017781,052855
0000000187,0000186000,-70099,081202,088961,059393,023650,041898
0000000188,0000187000,-81682,064219,091817,061225,032098,031618
0000000189,0000188000,-84612,040865,094446,059629,042301,023011
0000000190,0000189000,-78585,013521,096578,054762,053247,016932
0000000191,0000190000,-64142,-15199,098006,047095,063866,013979
0000000192,0000191000,-42678,-42561,098595,037373,073136,014431
0000000193,0000192000,-16373,-65790,098288,026557,080139,018245
0000000194,0000193000,012188,-82611,097114,015714,084181,025047
0000000195,0000194000,040316,-91423,095182,005886,084876,034179
0000000196,0000195000,065212,-91334,092683,-01963,082159,044745
0000000197,0000196000,084387,-82401,089873,-07051,076294,055698
0000000198,0000197000,096008,-65451,087016,-08886,067851,065975
0000000199,0000198000,098929,-42083,084387,-07295,057654,074581
0000000200,0000199000,092890,-14712,082254,-02431,046711,080660
0000000201,0000200000,078479,013986,080825,005230,036095,083615
0000000202,0000201000,057012,041354,080234,014946,026829,083166
0000000203,0000202000,030677,064623,080541,025758,019826,079357
0000000204,0000203000,002131,081436,081715,036598,015782,072560
0000000205,0000204000,-25995,090241,083647,046422,015085,063433
0000000206,0000205000,-50929,090189,086146,054270,017798,052873
0000000207,0000206000,-70107,081257,088956,059360,023656,041925
0000000208,0000207000,-81715,064283,091814,061197,032093,031651
0000000209,0000208000,-84668,040935,094444,059609,042286,023046
0000000210,0000209000,-78641,013570,096578,054752,053223,016966
0000000211,0000210000,-64206,-15164,098008,047096,063835,014009
0000000212,0000211000,-42751,-42534,098600,037385,073100,014455
0000000213,0000212000,-16431,-65792,098294,026580,080102,018259
0000000214,0000213000,012147,-82639,097120,015744,084147,025050
0000000215,0000214000,040283,-91460,095189,005921,084849,034170
0000000216,0000215000,065203,-91389,092690,-01925,082141,044725
0000000217,0000216000,084409,-82476,089878,-07015,076287,055669
0000000218,0000217000,096041,-65521,087019,-08856,067857,065939
0000000219,0000218000,098978,-42147,084388,-07273,057670,074542
0000000220,0000219000,092963,-14776,082253,-02420,046738,080622
0000000221,0000220000,078553,013941,080822,005229,036130,083582
0000000222,0000221000,057079,041338,080229,014933,026868,083140
0000000223,0000222000,030746,064621,080534,025734,019865,079342
0000000224,0000223000,002185,081456,081707,036565,015818,072557
0000000225,0000224000,-25969,090292,083639,046383,015114,063443
0000000226,0000225000,-50921,090252,086138,054229,017817,052894
0000000227,0000226000,-70118,081326,088951,059321,023663,041956
0000000228,0000227000,-81759,064366,091810,061164,032088,031689
0000000229,0000228000,-84729,041013,094443,059585,042268,023088
0000000230,0000229000,-78710,013629,096579,054740,053193,017008
0000000231,0000230000,-64289,-15116,098012,047097,063797,014046
0000000232,0000231000,-42835,-42503,098605,037400,073057,014483
0000000233,0000232000,-16497,-65797,098301,026607,080059,018275
0000000234,0000233000,012093,-82667,097129,015780,084108,025053
0000000235,0000234000,040244,-91504,095197,005964,084817,034160
0000000236,0000235000,065197,-91459,092697,-01880,082119,044702
0000000237,0000236000,084431,-82561,089884,-06973,076279,055634
0000000238,0000237000,096080,-65603,087024,-08820,067863,065897
0000000239,0000238000,099043,-42228,084390,-07246,057690,074497
0000000240,0000239000,093048,-14852,082252,-02407,046770,080577
0000000241,0000240000,078638,013892,080818,005227,036171,083542
0000000242,0000241000,057163,041314,080223,014917,026914,083110
0000000243,0000242000,030828,064617,080527,025705,019912,079324
0000000244,0000243000,002244,081484,081698,036525,015861,072554
0000000245,0000244000,-25936,090350,083630,046337,015149,063455
0000000246,0000245000,-50908,090324,086130,054181,017839,052920
0000000247,0000246000,-70137,081412,088944,059275,023672,041993
0000000248,0000247000,-81810,064464,091806,061125,032081,031735
0000000249,0000248000,-84798,041102,094441,059558,042246,023137
0000000250,0000249000,-78793,013701,096580,054726,053159,017056
0000000251,0000250000,-64388,-15056,098016,047099,063753,014088
0000000252,0000251000,-42931,-42472,098612,037418,073007,014515
0000000253,0000252000,-16577,-65802,098309,026638,080008,018294
0000000254,0000253000,012025,-82697,097138,015822,084062,025056
0000000255,0000254000,040200,-91558,095207,006014,084780,034147
0000000256,0000255000,065191,-91544,092706,-01828,082095,044674
0000000257,0000256000,084452,-82658,089892,-06924,076270,055594
0000000258,0000257000,096126,-65701,087029,-08778,067870,065848
0000000259,0000258000,099121,-42327,084392,-07216,057713,074443
0000000260,0000259000,093144,-14937,082251,-02392,046807,080525
0000000261,0000260000,078738,013834,080814,005225,036219,083496
0000000262,0000261000,057266,041281,080216,014899,026968,083075
0000000263,0000262000,030922,064614,080518,025671,019967,079303
0000000264,0000263000,002313,081520,081688,036479,015911,072550
0000000265,0000264000,-25894,090414,083619,046283,015189,063468
0000000266,0000265000,-50893,090407,086120,054125,017866,052950
0000000267,0000266000,-70161,081517,088936,059222,023682,042037
0000000268,0000267000,-81867,064577,091800,061080,032073,031788
0000000269,0000268000,-84876,041204,094438,059526,042220,023195
0000000270,0000269000,-78894,013790,096582,054710,053119,017112
0000000271,0000270000,-64503,-14986,098020,047101,063702,014138
0000000272,0000271000,-43039,-42437,098619,037438,072949,014553
0000000273,0000272000,-16672,-65804,098319,026674,079950,018316
0000000274,0000273000,011945,-82729,097150,015872,084009,025060
0000000275,0000274000,040152,-91624,095218,006072,084736,034132
0000000276,0000275000,065182,-91640,092717,-01768,082066,044642
0000000277,0000276000,084474,-82768,089901,-06867,076260,055547
0000000278,0000277000,096183,-65816,087035,-08730,067879,065791
0000000279,0000278000,099211,-42443,084395,-07182,057740,074382
0000000280,0000279000,093253,-15034,082250,-02376,046851,080465
0000000281,0000280000,078855,013766,080809,005223,036274,083443
0000000282,0000281000,057387,041240,080208,014877,027029,083035
0000000283,0000282000,031029,064612,080507,025632,020029,079280
0000000284,0000283000,002392,081560,081676,036426,015968,072546
0000000285,0000284000,-25840,090485,083607,046222,015234,063484
0000000286,0000285000,-50877,090504,086109,054061,017896,052984
0000000287,0000286000,-70189,081638,088926,059161,023693,042087
0000000288,0000287000,-81929,064705,091794,061029,032063,031848
0000000289,0000288000,-84966,041322,094435,059490,042191,023260
0000000290,0000289000,-79012,013895,096583,054692,053073,017176
0000000291,0000290000,-64633,-14906,098025,047104,063643,014194
0000000292,0000291000,-43164,-42398,098628,037461,072883,014596
0000000293,0000292000,-16786,-65804,098330,026716,079883,018341
0000000294,0000293000,011853,-82765,097162,015928,083948,025064
0000000295,0000294000,040098,-91701,095231,006138,084688,034115
0000000296,0000295000,065168,-91749,092729,-01699,082035,044605
0000000297,0000296000,084498,-82892,089911,-06802,076249,055494
0000000298,0000297000,096249,-65952,087042,-08675,067889,065726
0000000299,0000298000,099313,-42575,084398,-07144,057772,074312
0000000300,0000299000,093375,-15144,082248,-02357,046900,080397
0000000301,0000300000,078991,013684,080804,005220,036337,083384
