DIgSILENT PowerFactory,21000900,2000
6,06A,00D
1,TTPP_200000_100:Secondary Voltage A,,,V,0.10000000,-8699.441406,0.000000,72939,99998,1,1,P
2,TTPP_200000_100:Secondary Voltage B,,,V,0.10000000,-8533.535156,0.000000,72110,99998,1,1,P
3,TTPP_200000_100:Secondary Voltage C,,,V,0.10000000,-8711.839844,0.000000,71407,99998,1,1,P
4,TTCC_300_1:Secondary Current A,,,A,0.00010000000,-5.196533,0.000000,-17670,99998,1,1,P
5,TTCC_300_1:Secondary Current B,,,A,0.00010000000,-4.871993,0.000000,-2656,99998,1,1,P
6,TTCC_300_1:Secondary Current C,,,A,0.00010000000,-4.950896,0.000000,-1086,99998,1,1,P
50
1
1000.000000,1101
30/06/2023,06:09:52.000000
30/06/2023,06:09:52.000000
ASCII
1.000000
0000000001,0000000000,094101,086811,078537,031036,034730,084428
0000000002,0000001000,091967,089528,077952,040789,025452,083955
0000000003,0000002000,089326,091858,078264,051627,018455,080112
0000000004,0000003000,086469,093537,079441,062508,014410,073276
0000000005,0000004000,083676,094399,081374,072349,013737,064107
0000000006,0000005000,081189,094389,083871,080199,016488,053508
0000000007,0000006000,079267,093505,086677,085283,022384,042526
0000000008,0000007000,078123,091795,089530,087107,030859,032229
0000000009,0000008000,077837,089459,092152,085483,041100,023612
0000000010,0000009000,078436,086735,094277,080584,052075,017535
0000000011,0000010000,079883,083865,095700,072891,062709,014595
0000000012,0000011000,082036,081127,096285,063131,071995,015068
0000000013,0000012000,084658,078818,095973,052284,079001,018910
0000000014,0000013000,087509,077143,094795,041417,083031,025746
0000000015,0000014000,090323,076261,092864,031574,083706,034915
0000000016,0000015000,092802,076278,090367,023716,080965,045514
0000000017,0000016000,094710,077179,087559,018637,075062,056496
0000000018,0000017000,095873,078869,084708,016818,066582,066794
0000000019,0000018000,096156,081207,082085,018434,056350,075410
0000000020,0000019000,095545,083945,079959,023334,045374,081486
0000000021,0000020000,094107,086805,078536,031036,034731,084428
0000000022,0000021000,091960,089535,077953,040785,025455,083954
0000000023,0000022000,089323,091860,078264,051636,018447,080112
0000000024,0000023000,086478,093530,079440,062507,014411,073275
0000000025,0000024000,083675,094401,081374,072347,013739,064107
0000000026,0000025000,081181,094397,083870,080201,016485,053507
0000000027,0000026000,079273,093498,086677,085290,022378,042526
0000000028,0000027000,078126,091793,089529,087104,030862,032229
0000000029,0000028000,077831,089465,092152,085483,041099,023612
0000000030,0000029000,078435,086735,094278,080591,052068,017535
0000000031,0000030000,079890,083859,095700,072891,062709,014594
0000000032,0000031000,082032,081132,096285,063131,071996,015067
0000000033,0000032000,084655,078821,095973,052288,078997,018910
0000000034,0000033000,087514,077138,094796,041421,083027,025746
0000000035,0000034000,090323,076261,092864,031573,083709,034914
0000000036,0000035000,092798,076283,090366,023719,080963,045513
0000000037,0000036000,094713,077175,087560,018641,075059,056494
0000000038,0000037000,095874,078867,084708,016819,066583,066792
0000000039,0000038000,096154,081209,082085,018435,056351,075408
0000000040,0000039000,095545,083944,079959,023337,045372,081485
0000000041,0000040000,094109,086802,078537,031035,034733,084427
0000000042,0000041000,091959,089537,077952,040787,025455,083953
0000000043,0000042000,089324,091860,078264,051637,018447,080111
0000000044,0000043000,086480,093528,079441,062507,014411,073275
0000000045,0000044000,083672,094403,081373,072347,013740,064107
0000000046,0000045000,081181,094397,083870,080203,016483,053508
0000000047,0000046000,079275,093496,086677,085288,022379,042527
0000000048,0000047000,078123,091795,089529,087103,030862,032230
0000000049,0000048000,077829,089467,092152,085485,041096,023613
0000000050,0000049000,078439,086732,094278,080592,052066,017536
0000000051,0000050000,079888,083860,095700,072890,062709,014595
0000000052,0000051000,082029,081135,096285,063135,071991,015068
0000000053,0000052000,084658,078818,095973,052291,078993,018910
0000000054,0000053000,087515,077136,094796,041422,083027,025745
0000000055,0000054000,090319,076265,092864,031576,083706,034912
0000000056,0000055000,092800,076281,090367,023724,080959,045511
0000000057,0000056000,094717,077172,087560,018642,075060,056492
0000000058,0000057000,095870,078870,084708,016820,066584,066789
0000000059,0000058000,096153,081210,082085,018440,056349,075405
0000000060,0000059000,095550,083939,079959,023338,045373,081483
0000000061,0000060000,094108,086804,078537,031034,034737,084424
0000000062,0000061000,091956,089540,077952,040788,025456,083951
0000000063,0000062000,089328,091857,078263,051637,018447,080109
0000000064,0000063000,086481,093527,079440,062503,014416,073275
0000000065,0000064000,083668,094407,081373,072345,013742,064108
0000000066,0000065000,081183,094396,083869,080203,016482,053509
0000000067,0000066000,079278,093494,086677,085285,022380,042529
0000000068,0000067000,078120,091799,089529,087100,030862,032232
0000000069,0000068000,077828,089468,092152,085486,041092,023616
0000000070,0000069000,078441,086729,094278,080592,052063,017539
0000000071,0000070000,079886,083862,095701,072890,062706,014597
0000000072,0000071000,082026,081137,096285,063138,071986,015070
0000000073,0000072000,084660,078815,095973,052295,078988,018911
0000000074,0000073000,087515,077136,094797,041424,083025,025745
0000000075,0000074000,090316,076267,092865,031581,083702,034911
0000000076,0000075000,092802,076279,090367,023730,080956,045509
0000000077,0000076000,094718,077170,087561,018646,075060,056488
0000000078,0000077000,095869,078871,084708,016825,066584,066785
0000000079,0000078000,096155,081209,082085,018444,056350,075400
0000000080,0000079000,095553,083937,079959,023339,045377,081478
0000000081,0000080000,094107,086805,078536,031034,034741,084420
0000000082,0000081000,091957,089540,077951,040788,025459,083947
0000000083,0000082000,089331,091855,078263,051634,018453,080107
0000000084,0000083000,086480,093529,079439,062499,014421,073274
0000000085,0000084000,083668,094409,081372,072341,013744,064109
0000000086,0000085000,081185,094395,083868,080197,016484,053512
0000000087,0000086000,079277,093495,086676,085279,022382,042533
0000000088,0000087000,078118,091802,089528,087097,030860,032237
0000000089,0000088000,077830,089467,092151,085484,041088,023622
0000000090,0000089000,078441,086729,094278,080589,052060,017545
0000000091,0000090000,079882,083865,095701,072891,062700,014602
0000000092,0000091000,082026,081136,096286,063142,071978,015074
0000000093,0000092000,084661,078813,095975,052298,078982,018913
0000000094,0000093000,087511,077138,094799,041430,083019,025745
0000000095,0000094000,090315,076267,092866,031590,083696,034909
0000000096,0000095000,092804,076275,090369,023738,080952,045505
0000000097,0000096000,094717,077170,087562,018652,075060,056483
0000000098,0000097000,095868,078872,084709,016832,066584,066778
0000000099,0000098000,096158,081205,082085,018449,056352,075392
0000000100,0000099000,095554,083936,079959,023341,045384,081470
0000000101,0000100000,094106,086807,078536,031035,034747,084413
0000000102,0000101000,091959,089538,077950,040787,025466,083942
0000000103,0000102000,089333,091853,078261,051629,018462,080104
0000000104,0000103000,086479,093532,079438,062492,014429,073273
0000000105,0000104000,083669,094410,081370,072335,013749,064110
0000000106,0000105000,081187,094394,083867,080189,016489,053517
0000000107,0000106000,079275,093498,086675,085270,022384,042540
0000000108,0000107000,078116,091805,089527,087092,030857,032246
0000000109,0000108000,077830,089467,092151,085479,041084,023631
0000000110,0000109000,078439,086731,094278,080586,052055,017554
0000000111,0000110000,079879,083868,095702,072892,062691,014611
0000000112,0000111000,082026,081135,096287,063146,071968,015080
0000000113,0000112000,084659,078813,095976,052304,078973,018917
0000000114,0000113000,087508,077139,094800,041439,083010,025746
0000000115,0000114000,090316,076265,092868,031601,083687,034907
0000000116,0000115000,092805,076272,090371,023748,080948,045499
0000000117,0000116000,094715,077170,087563,018662,075058,056474
0000000118,0000117000,095869,078870,084710,016842,066584,066767
0000000119,0000118000,096161,081202,082086,018456,056357,075381
0000000120,0000119000,095554,083935,079959,023344,045392,081459
0000000121,0000120000,094107,086806,078535,031036,034756,084402
0000000122,0000121000,091963,089536,077949,040783,025477,083934
0000000123,0000122000,089334,091854,078260,051621,018474,080099
0000000124,0000123000,086479,093534,079436,062483,014439,073272
0000000125,0000124000,083671,094409,081368,072324,013757,064113
0000000126,0000125000,081188,094395,083865,080175,016496,053523
0000000127,0000126000,079273,093502,086673,085259,022386,042549
0000000128,0000127000,078116,091806,089526,087082,030855,032258
0000000129,0000128000,077830,089468,092151,085471,041079,023645
0000000130,0000129000,078435,086735,094279,080582,052046,017567
0000000131,0000130000,079877,083869,095703,072894,062678,014622
0000000132,0000131000,082025,081134,096289,063150,071954,015089
0000000133,0000132000,084656,078814,095979,052312,078960,018922
0000000134,0000133000,087506,077140,094803,041452,082996,025747
0000000135,0000134000,090316,076262,092870,031615,083676,034903
0000000136,0000135000,092804,076270,090373,023762,080941,045492
0000000137,0000136000,094714,077169,087565,018677,075055,056463
0000000138,0000137000,095872,078866,084711,016855,066585,066753
0000000139,0000138000,096164,081198,082087,018464,056364,075366
0000000140,0000139000,095556,083934,079958,023348,045403,081443
0000000141,0000140000,094111,086804,078533,031036,034769,084389
0000000142,0000141000,091967,089534,077947,040778,025493,083923
0000000143,0000142000,089336,091855,078257,051611,018491,080093
0000000144,0000143000,086481,093535,079432,062470,014453,073270
0000000145,0000144000,083674,094410,081365,072307,013769,064117
0000000146,0000145000,081187,094399,083862,080158,016505,053532
0000000147,0000146000,079271,093506,086671,085243,022389,042562
0000000148,0000147000,078115,091808,089525,087069,030852,032274
0000000149,0000148000,077827,089471,092150,085460,041072,023662
0000000150,0000149000,078430,086739,094279,080577,052033,017584
0000000151,0000150000,079874,083870,095704,072895,062661,014638
0000000152,0000151000,082022,081135,096291,063156,071936,015102
0000000153,0000152000,084652,078815,095982,052324,078941,018929
0000000154,0000153000,087504,077138,094806,041468,082978,025749
0000000155,0000154000,090316,076258,092874,031634,083662,034899
0000000156,0000155000,092803,076269,090376,023781,080932,045481
0000000157,0000156000,094715,077166,087568,018697,075050,056448
0000000158,0000157000,095875,078861,084713,016871,066588,066735
0000000159,0000158000,096166,081195,082087,018475,056374,075345
0000000160,0000159000,095558,083932,079958,023355,045416,081423
0000000161,0000160000,094116,086801,078532,031036,034787,084371
0000000162,0000161000,091971,089532,077944,040770,025515,083910
0000000163,0000162000,089338,091856,078254,051598,018512,080084
0000000164,0000163000,086484,093536,079428,062453,014472,073269
0000000165,0000164000,083676,094411,081361,072286,013786,064122
0000000166,0000165000,081187,094403,083859,080135,016515,053543
0000000167,0000166000,079271,093510,086667,085222,022392,042579
0000000168,0000167000,078114,091811,089523,087050,030849,032295
0000000169,0000168000,077823,089476,092149,085447,041062,023685
0000000170,0000169000,078426,086743,094279,080571,052016,017607
0000000171,0000170000,079871,083872,095706,072895,062640,014658
0000000172,0000171000,082018,081137,096294,063163,071913,015117
0000000173,0000172000,084647,078816,095985,052339,078917,018939
0000000174,0000173000,087502,077136,094810,041489,082955,025751
0000000175,0000174000,090314,076255,092878,031657,083645,034893
0000000176,0000175000,092801,076266,090381,023807,080920,045468
0000000177,0000176000,094717,077161,087571,018721,075045,056428
0000000178,0000177000,095878,078855,084715,016891,066592,066711
0000000179,0000178000,096168,081192,082088,018490,056385,075319
0000000180,0000179000,095563,083928,079957,023363,045433,081397
0000000181,0000180000,094121,086797,078530,031035,034811,084348
0000000182,0000181000,091975,089532,077941,040761,025542,083892
0000000183,0000182000,089342,091857,078249,051582,018538,080074
0000000184,0000183000,086489,093536,079423,062431,014497,073266
0000000185,0000184000,083678,094415,081356,072259,013806,064128
0000000186,0000185000,081186,094408,083854,080108,016529,053557
0000000187,0000186000,079270,093514,086664,085196,022397,042601
0000000188,0000187000,078112,091816,089520,087027,030846,032321
0000000189,0000188000,077818,089482,092148,085431,041050,023714
0000000190,0000189000,078422,086746,094280,080563,051996,017635
0000000191,0000190000,079866,083874,095708,072896,062615,014683
0000000192,0000191000,082011,081139,096298,063173,071884,015136
0000000193,0000192000,084642,078816,095990,052358,078886,018950
0000000194,0000193000,087499,077133,094816,041514,082928,025753
0000000195,0000194000,090311,076253,092884,031686,083623,034886
0000000196,0000195000,092801,076262,090386,023838,080904,045452
0000000197,0000196000,094719,077154,087575,018751,075039,056405
0000000198,0000197000,095880,078849,084718,016916,066596,066682
0000000199,0000198000,096172,081187,082090,018508,056398,075287
0000000200,0000199000,095569,083923,079956,023373,045455,081366
0000000201,0000200000,094128,086793,078527,031034,034840,084320
0000000202,0000201000,091980,089531,077937,040750,025574,083870
0000000203,0000202000,089348,091857,078244,051563,018571,080061
0000000204,0000203000,086493,093538,079417,062403,014527,073264
0000000205,0000204000,083680,094419,081349,072226,013831,064136
0000000206,0000205000,081187,094414,083848,080074,016544,053575
0000000207,0000206000,079270,093520,086659,085163,022404,042627
0000000208,0000207000,078108,091823,089517,086999,030842,032354
0000000209,0000208000,077813,089488,092147,085411,041034,023749
0000000210,0000209000,078416,086751,094281,080553,051971,017670
0000000211,0000210000,079859,083878,095711,072897,062584,014714
0000000212,0000211000,082004,081142,096302,063186,071848,015160
0000000213,0000212000,084637,078815,095996,052380,078850,018964
0000000214,0000213000,087495,077130,094823,041544,082895,025756
0000000215,0000214000,090308,076249,092891,031722,083596,034877
0000000216,0000215000,092800,076256,090392,023876,080886,045432
0000000217,0000216000,094721,077147,087580,018786,075032,056376
0000000218,0000217000,095883,078843,084722,016946,066601,066646
0000000219,0000218000,096177,081180,082091,018531,056415,075249
0000000220,0000219000,095576,083917,079955,023384,045482,081328
0000000221,0000220000,094135,086789,078524,031033,034875,084287
0000000222,0000221000,091987,089529,077932,040737,025613,083845
0000000223,0000222000,089355,091856,078237,051538,018610,080046
0000000224,0000223000,086498,093540,079410,062369,014564,073261
0000000225,0000224000,083682,094424,081342,072187,013861,064146
0000000226,0000225000,081188,094420,083841,080033,016564,053597
0000000227,0000226000,079268,093527,086653,085124,022411,042659
0000000228,0000227000,078104,091832,089513,086966,030836,032392
0000000229,0000228000,077807,089496,092145,085388,041016,023791
0000000230,0000229000,078409,086757,094282,080541,051942,017711
0000000231,0000230000,079851,083883,095714,072898,062546,014750
0000000232,0000231000,081996,081145,096308,063201,071805,015188
0000000233,0000232000,084631,078815,096003,052407,078806,018981
0000000234,0000233000,087489,077128,094831,041580,082855,025759
0000000235,0000234000,090304,076245,092899,031765,083563,034867
0000000236,0000235000,092800,076248,090400,023921,080865,045409
0000000237,0000236000,094723,077138,087587,018828,075024,056341
0000000238,0000237000,095887,078835,084726,016982,066608,066604
0000000239,0000238000,096184,081172,082093,018557,056434,075203
0000000240,0000239000,095585,083909,079954,023397,045514,081283
0000000241,0000240000,094143,086784,078521,031031,034916,084247
0000000242,0000241000,091996,089526,077926,040722,025659,083814
0000000243,0000242000,089363,091856,078229,051509,018657,080028
0000000244,0000243000,086504,093543,079401,062330,014607,073257
0000000245,0000244000,083686,094430,081333,072141,013895,064157
0000000246,0000245000,081189,094426,083833,079985,016586,053623
0000000247,0000246000,079266,093536,086646,085078,022420,042696
0000000248,0000247000,078098,091841,089508,086927,030829,032438
0000000249,0000248000,077800,089505,092143,085360,040994,023841
0000000250,0000249000,078401,086764,094283,080527,051907,017760
0000000251,0000250000,079841,083889,095718,072900,062502,014793
0000000252,0000251000,081987,081147,096314,063218,071755,015220
0000000253,0000252000,084622,078814,096012,052438,078756,019000
0000000254,0000253000,087482,077125,094841,041623,082809,025763
0000000255,0000254000,090300,076239,092909,031815,083526,034854
0000000256,0000255000,092799,076240,090409,023973,080840,045381
0000000257,0000256000,094725,077129,087594,018878,075015,056301
0000000258,0000257000,095892,078825,084731,017024,066615,066555
0000000259,0000258000,096192,081162,082095,018587,056458,075150
0000000260,0000259000,095594,083901,079953,023411,045552,081231
0000000261,0000260000,094153,086778,078517,031029,034964,084201
0000000262,0000261000,092007,089522,077919,040703,025712,083779
0000000263,0000262000,089372,091856,078220,051475,018712,080007
0000000264,0000263000,086511,093547,079391,062284,014657,073253
0000000265,0000264000,083690,094436,081322,072088,013935,064171
0000000266,0000265000,081191,094435,083823,079929,016613,053652
0000000267,0000266000,079264,093546,086638,085025,022430,042739
0000000268,0000267000,078093,091852,089503,086883,030821,032491
0000000269,0000268000,077793,089515,092141,085328,040969,023898
0000000270,0000269000,078390,086774,094284,080511,051867,017816
0000000271,0000270000,079829,083896,095723,072902,062450,014842
0000000272,0000271000,081976,081151,096322,063238,071697,015258
0000000273,0000272000,084613,078814,096022,052474,078698,019022
0000000274,0000273000,087474,077122,094852,041672,082756,025767
0000000275,0000274000,090295,076232,092921,031873,083483,034839
0000000276,0000275000,092798,076230,090419,024033,080812,045349
0000000277,0000276000,094727,077118,087603,018935,075005,056254
0000000278,0000277000,095898,078813,084737,017073,066623,066498
0000000279,0000278000,096201,081150,082097,018621,056485,075088
0000000280,0000279000,095605,083891,079952,023428,045595,081171
0000000281,0000280000,094165,086771,078512,031027,035019,084149
0000000282,0000281000,092019,089518,077911,040681,025774,083739
0000000283,0000282000,089383,091856,078210,051436,018775,079984
0000000284,0000283000,086519,093551,079379,062231,014714,073249
0000000285,0000284000,083696,094443,081310,072026,013980,064187
0000000286,0000285000,081192,094445,083811,079864,016643,053687
0000000287,0000286000,079261,093559,086629,084964,022441,042789
0000000288,0000287000,078087,091865,089496,086832,030811,032551
0000000289,0000288000,077783,089526,092138,085291,040940,023963
0000000290,0000289000,078378,086784,094285,080493,051821,017880
0000000291,0000290000,079816,083904,095728,072905,062391,014898
0000000292,0000291000,081964,081155,096330,063262,071631,015301
0000000293,0000292000,084601,078814,096033,052516,078631,019047
0000000294,0000293000,087465,077118,094865,041729,082695,025771
0000000295,0000294000,090290,076224,092934,031938,083434,034822
0000000296,0000295000,092796,076220,090432,024102,080781,045312
0000000297,0000296000,094729,077106,087613,018999,074994,056201
0000000298,0000297000,095905,078799,084744,017127,066633,066433
0000000299,0000298000,096211,081137,082100,018659,056516,075019
0000000300,0000299000,095617,083881,079951,023447,045644,081103
0000000301,0000300000,094179,086763,078506,031024,035081,084089
