DIgSILENT PowerFactory,21000900,2000
6,06A,00D
1,TTPP_200000_100:Secondary Voltage A,,,V,0.10000000,-8282.705078,0.000000,67605,99998,1,1,P
2,TTPP_200000_100:Secondary Voltage B,,,V,0.10000000,-8379.942383,0.000000,68258,99998,1,1,P
3,TTPP_200000_100:Secondary Voltage C,,,V,0.10000000,-8172.793457,0.000000,59987,99998,1,1,P
4,TTCC_500_5:Secondary Current A,,,A,0.0010000000,-79.822426,0.000000,65996,99998,1,1,P
5,TTCC_500_5:Secondary Current B,,,A,0.0010000000,-84.357559,0.000000,68927,99998,1,1,P
6,TTCC_500_5:Secondary Current C,,,A,0.0010000000,-84.973824,0.000000,70026,99998,1,1,P
50
1
1000.000000,1101
30/06/2023,06:10:01.000000
30/06/2023,06:10:01.000000
ASCII
1.000000
0000000001,0000000000,088339,087440,072575,085738,089037,074379
0000000002,0000001000,085791,089873,072690,082722,091754,074678
0000000003,0000002000,082940,091728,073688,079426,093745,075983
0000000004,0000003000,080091,092793,075470,076167,094819,078168
0000000005,0000004000,077513,092970,077872,073264,094867,081023
0000000006,0000005000,075436,092268,080651,071005,093887,084262
0000000007,0000006000,074092,090735,083526,069609,091976,087569
0000000008,0000007000,073619,088505,086231,069214,089316,090624
0000000009,0000008000,074027,085826,088501,069856,086171,093127
0000000010,0000009000,075293,082961,090101,071473,082851,094830
0000000011,0000010000,077316,080159,090880,073910,079676,095567
0000000012,0000011000,079874,077714,090766,076926,076959,095269
0000000013,0000012000,082704,075881,089769,080222,074968,093964
0000000014,0000013000,085558,074810,087985,083483,073893,091778
0000000015,0000014000,088155,074616,085583,086384,073846,088924
0000000016,0000015000,090214,075335,082806,088642,074827,085684
0000000017,0000016000,091551,076874,079930,090040,076736,082378
0000000018,0000017000,092048,079083,077224,090436,079396,079323
0000000019,0000018000,091629,081770,074955,089790,082544,076820
0000000020,0000019000,090348,084652,073355,088175,085862,075117
0000000021,0000020000,088344,087434,072576,085740,089034,074379
0000000022,0000021000,085790,089875,072689,082721,091755,074678
0000000023,0000022000,082938,091730,073687,079424,093747,075983
0000000024,0000023000,080094,092790,075471,076168,094817,078169
0000000025,0000024000,077512,092971,077873,073263,094868,081023
0000000026,0000025000,075435,092270,080650,071003,093889,084262
0000000027,0000026000,074094,090734,083526,069609,091976,087569
0000000028,0000027000,073617,088505,086232,069213,089317,090624
0000000029,0000028000,074026,085827,088501,069855,086172,093127
0000000030,0000029000,075295,082959,090101,071473,082851,094830
0000000031,0000030000,077315,080159,090880,073909,079677,095568
0000000032,0000031000,079872,077716,090767,076925,076960,095269
0000000033,0000032000,082706,075879,089769,080223,074967,093964
0000000034,0000033000,085560,074809,087985,083481,073894,091778
0000000035,0000034000,088152,074618,085584,086383,073847,088924
0000000036,0000035000,090213,075335,082806,088643,074826,085685
0000000037,0000036000,091555,076870,079929,090039,076737,082378
0000000038,0000037000,092046,079084,077225,090434,079397,079323
0000000039,0000038000,091626,081773,074955,089791,082543,076820
0000000040,0000039000,090352,084647,073355,088175,085862,075117
0000000041,0000040000,088346,087433,072576,085739,089036,074379
0000000042,0000041000,085784,089880,072689,082721,091755,074678
0000000043,0000042000,082940,091728,073686,079424,093746,075983
0000000044,0000043000,080098,092786,075470,076167,094818,078169
0000000045,0000044000,077507,092975,077872,073263,094868,081023
0000000046,0000045000,075433,092271,080650,071004,093888,084262
0000000047,0000046000,074100,090729,083526,069609,091976,087569
0000000048,0000047000,073615,088508,086232,069212,089318,090623
0000000049,0000048000,074022,085832,088501,069855,086172,093126
0000000050,0000049000,075299,082955,090101,071473,082851,094830
0000000051,0000050000,077316,080158,090880,073908,079679,095567
0000000052,0000051000,079866,077721,090767,076924,076961,095269
0000000053,0000052000,082707,075877,089770,080223,074967,093964
0000000054,0000053000,085563,074805,087986,083480,073895,091778
0000000055,0000054000,088148,074622,085584,086381,073848,088925
0000000056,0000055000,090213,075336,082806,088643,074826,085685
0000000057,0000056000,091559,076866,079930,090038,076737,082379
0000000058,0000057000,092045,079085,077225,090432,079398,079324
0000000059,0000058000,091625,081774,074955,089791,082542,076821
0000000060,0000059000,090356,084644,073355,088175,085861,075118
0000000061,0000060000,088346,087432,072575,085738,089036,074380
0000000062,0000061000,085783,089883,072689,082721,091754,074678
0000000063,0000062000,082943,091726,073686,079425,093745,075984
0000000064,0000063000,080099,092785,075470,076167,094818,078169
0000000065,0000064000,077505,092978,077871,073264,094868,081022
0000000066,0000065000,075434,092271,080649,071005,093888,084262
0000000067,0000066000,074101,090728,083525,069609,091976,087568
0000000068,0000067000,073612,088511,086231,069213,089318,090623
0000000069,0000068000,074022,085833,088500,069856,086172,093126
0000000070,0000069000,075300,082954,090101,071473,082852,094829
0000000071,0000070000,077313,080160,090881,073907,079680,095567
0000000072,0000071000,079865,077722,090768,076924,076962,095268
0000000073,0000072000,082709,075875,089770,080222,074969,093963
0000000074,0000073000,085561,074806,087987,083478,073897,091778
0000000075,0000074000,088146,074623,085585,086380,073848,088925
0000000076,0000075000,090215,075332,082807,088641,074826,085686
0000000077,0000076000,091559,076864,079931,090036,076738,082380
0000000078,0000077000,092042,079087,077225,090431,079397,079325
0000000079,0000078000,091627,081772,074956,089790,082541,076822
0000000080,0000079000,090359,084641,073355,088173,085861,075119
0000000081,0000080000,088344,087435,072575,085738,089035,074381
0000000082,0000081000,085784,089882,072688,082722,091752,074679
0000000083,0000082000,082947,091723,073685,079425,093744,075984
0000000084,0000083000,080098,092788,075469,076168,094817,078169
0000000085,0000084000,077504,092981,077870,073266,094866,081022
0000000086,0000085000,075438,092269,080648,071006,093887,084261
0000000087,0000086000,074100,090729,083524,069610,091977,087567
0000000088,0000087000,073609,088515,086230,069214,089318,090621
0000000089,0000088000,074022,085832,088500,069857,086173,093124
0000000090,0000089000,075300,082953,090101,071473,082854,094827
0000000091,0000090000,077309,080164,090882,073907,079682,095565
0000000092,0000091000,079864,077723,090768,076923,076963,095267
0000000093,0000092000,082710,075872,089772,080220,074971,093963
0000000094,0000093000,085558,074808,087989,083476,073899,091778
0000000095,0000094000,088144,074623,085587,086379,073849,088925
0000000096,0000095000,090217,075328,082809,088639,074827,085687
0000000097,0000096000,091559,076863,079933,090034,076739,082382
0000000098,0000097000,092042,079087,077226,090430,079397,079327
0000000099,0000098000,091630,081768,074956,089789,082540,076825
0000000100,0000099000,090360,084639,073355,088172,085860,075122
0000000101,0000100000,088344,087435,072574,085738,089033,074383
0000000102,0000101000,085787,089880,072686,082723,091750,074681
0000000103,0000102000,082950,091722,073683,079427,093742,075985
0000000104,0000103000,080098,092790,075467,076170,094815,078169
0000000105,0000104000,077505,092982,077868,073268,094864,081022
0000000106,0000105000,075440,092269,080646,071008,093886,084260
0000000107,0000106000,074098,090733,083523,069612,091977,087565
0000000108,0000107000,073607,088518,086229,069217,089318,090619
0000000109,0000108000,074023,085832,088499,069858,086174,093121
0000000110,0000109000,075297,082956,090101,071473,082856,094824
0000000111,0000110000,077305,080167,090882,073907,079684,095563
0000000112,0000111000,079863,077722,090770,076922,076966,095265
0000000113,0000112000,082708,075872,089774,080218,074974,093962
0000000114,0000113000,085554,074809,087991,083474,073902,091778
0000000115,0000114000,088144,074621,085589,086376,073851,088926
0000000116,0000115000,090218,075325,082811,088636,074829,085689
0000000117,0000116000,091557,076863,079935,090031,076739,082384
0000000118,0000117000,092043,079084,077227,090427,079396,079330
0000000119,0000118000,091634,081764,074957,089787,082539,076828
0000000120,0000119000,090361,084638,073355,088171,085858,075125
0000000121,0000120000,088347,087435,072573,085738,089030,074386
0000000122,0000121000,085792,089878,072685,082724,091746,074683
0000000123,0000122000,082952,091722,073681,079428,093739,075986
0000000124,0000123000,080098,092793,075464,076173,094812,078169
0000000125,0000124000,077508,092982,077865,073272,094861,081021
0000000126,0000125000,075440,092271,080643,071012,093885,084258
0000000127,0000126000,074096,090738,083520,069616,091976,087562
0000000128,0000127000,073607,088520,086227,069220,089319,090615
0000000129,0000128000,074022,085834,088499,069860,086176,093118
0000000130,0000129000,075293,082960,090102,071474,082859,094821
0000000131,0000130000,077302,080169,090883,073907,079687,095559
0000000132,0000131000,079861,077721,090772,076921,076970,095263
0000000133,0000132000,082704,075873,089777,080215,074978,093960
0000000134,0000133000,085551,074809,087994,083471,073905,091778
0000000135,0000134000,088144,074617,085593,086372,073854,088927
0000000136,0000135000,090217,075322,082815,088631,074831,085691
0000000137,0000136000,091557,076861,079937,090027,076740,082387
0000000138,0000137000,092046,079079,077229,090424,079395,079334
0000000139,0000138000,091637,081760,074958,089784,082538,076832
0000000140,0000139000,090363,084636,073354,088170,085855,075129
0000000141,0000140000,088351,087432,072571,085738,089025,074390
0000000142,0000141000,085797,089875,072682,082726,091742,074686
0000000143,0000142000,082954,091723,073677,079431,093735,075988
0000000144,0000143000,080101,092794,075459,076177,094807,078170
0000000145,0000144000,077511,092983,077861,073276,094858,081020
0000000146,0000145000,075440,092275,080639,071016,093882,084255
0000000147,0000146000,074094,090743,083517,069621,091975,087558
0000000148,0000147000,073606,088523,086225,069224,089319,090611
0000000149,0000148000,074018,085838,088498,069863,086179,093112
0000000150,0000149000,075287,082965,090102,071476,082863,094816
0000000151,0000150000,077298,080171,090885,073907,079692,095555
0000000152,0000151000,079857,077722,090775,076919,076976,095259
0000000153,0000152000,082699,075875,089781,080212,074984,093958
0000000154,0000153000,085548,074807,087999,083466,073910,091777
0000000155,0000154000,088143,074613,085598,086366,073859,088929
0000000156,0000155000,090216,075320,082819,088625,074834,085694
0000000157,0000156000,091557,076856,079941,090021,076741,082392
0000000158,0000157000,092050,079073,077232,090419,079395,079340
0000000159,0000158000,091640,081755,074959,089780,082535,076838
0000000160,0000159000,090367,084633,073354,088168,085851,075135
0000000161,0000160000,088357,087428,072569,085738,089020,074395
0000000162,0000161000,085802,089873,072679,082727,091736,074690
0000000163,0000162000,082957,091725,073673,079435,093728,075991
0000000164,0000163000,080106,092795,075454,076182,094802,078170
0000000165,0000164000,077514,092985,077855,073282,094854,081018
0000000166,0000165000,075439,092281,080634,071023,093879,084252
0000000167,0000166000,074094,090748,083513,069627,091974,087553
0000000168,0000167000,073604,088528,086222,069229,089320,090605
0000000169,0000168000,074013,085844,088497,069866,086182,093106
0000000170,0000169000,075282,082970,090102,071478,082867,094809
0000000171,0000170000,077294,080174,090887,073907,079698,095549
0000000172,0000171000,079851,077724,090779,076916,076983,095255
0000000173,0000172000,082693,075876,089786,080208,074991,093955
0000000174,0000173000,085545,074804,088004,083460,073916,091777
0000000175,0000174000,088141,074609,085604,086359,073864,088930
0000000176,0000175000,090214,075316,082825,088618,074838,085698
0000000177,0000176000,091559,076850,079945,090015,076742,082397
0000000178,0000177000,092053,079066,077235,090413,079394,079347
0000000179,0000178000,091644,081750,074960,089776,082532,076846
0000000180,0000179000,090373,084628,073353,088166,085845,075142
0000000181,0000180000,088365,087423,072567,085739,089013,074402
0000000182,0000181000,085808,089872,072675,082730,091729,074695
0000000183,0000182000,082963,091725,073667,079440,093721,075994
0000000184,0000183000,080111,092796,075448,076188,094794,078171
0000000185,0000184000,077517,092989,077849,073290,094848,081016
0000000186,0000185000,075440,092287,080628,071031,093876,084248
0000000187,0000186000,074093,090754,083507,069635,091972,087547
0000000188,0000187000,073601,088535,086219,069235,089322,090597
0000000189,0000188000,074007,085852,088495,069871,086185,093097
0000000190,0000189000,075276,082976,090103,071480,082873,094801
0000000191,0000190000,077287,080177,090890,073907,079705,095542
0000000192,0000191000,079843,077727,090784,076913,076991,095249
0000000193,0000192000,082686,075876,089792,080203,074999,093952
0000000194,0000193000,085541,074801,088012,083453,073924,091776
0000000195,0000194000,088137,074606,085612,086351,073871,088932
0000000196,0000195000,090212,075310,082832,088609,074842,085702
0000000197,0000196000,091562,076842,079951,090006,076744,082404
0000000198,0000197000,092057,079058,077239,090406,079393,079355
0000000199,0000198000,091649,081743,074962,089771,082528,076855
0000000200,0000199000,090381,084621,073352,088164,085839,075151
0000000201,0000200000,088373,087417,072564,085739,089005,074410
0000000202,0000201000,085815,089870,072669,082733,091719,074701
0000000203,0000202000,082970,091725,073659,079446,093711,075997
0000000204,0000203000,080117,092798,075439,076196,094786,078172
0000000205,0000204000,077520,092995,077840,073299,094841,081014
0000000206,0000205000,075440,092294,080620,071041,093871,084242
0000000207,0000206000,074092,090761,083501,069644,091970,087539
0000000208,0000207000,073596,088544,086214,069243,089323,090588
0000000209,0000208000,074000,085861,088493,069877,086190,093087
0000000210,0000209000,075268,082982,090104,071483,082880,094791
0000000211,0000210000,077278,080182,090894,073906,079715,095533
0000000212,0000211000,079834,077731,090790,076910,077002,095243
0000000213,0000212000,082679,075875,089800,080196,075009,093948
0000000214,0000213000,085535,074798,088021,083444,073934,091776
0000000215,0000214000,088133,074601,085621,086340,073878,088935
0000000216,0000215000,090212,075303,082840,088599,074847,085708
0000000217,0000216000,091564,076832,079958,089996,076746,082413
0000000218,0000217000,092061,079049,077244,090397,079391,079365
0000000219,0000218000,091656,081734,074964,089765,082523,076866
0000000220,0000219000,090391,084612,073351,088161,085831,075162
0000000221,0000220000,088383,087412,072560,085739,088995,074420
0000000222,0000221000,085824,089867,072662,082737,091708,074709
0000000223,0000222000,082979,091724,073651,079453,093699,076002
0000000224,0000223000,080124,092801,075430,076206,094775,078173
0000000225,0000224000,077523,093001,077830,073310,094833,081011
0000000226,0000225000,075442,092302,080611,071053,093865,084236
0000000227,0000226000,074090,090771,083493,069655,091968,087530
0000000228,0000227000,073590,088555,086209,069252,089325,090576
0000000229,0000228000,073992,085871,088491,069884,086195,093075
0000000230,0000229000,075259,082991,090105,071486,082888,094779
0000000231,0000230000,077267,080189,090898,073906,079726,095523
0000000232,0000231000,079823,077735,090797,076906,077014,095235
0000000233,0000232000,082670,075875,089810,080188,075022,093944
0000000234,0000233000,085527,074795,088032,083433,073946,091775
0000000235,0000234000,088127,074595,085632,086328,073887,088938
0000000236,0000235000,090211,075293,082850,088586,074853,085715
0000000237,0000236000,091567,076821,079967,089983,076748,082423
0000000238,0000237000,092066,079038,077250,090387,079389,079378
0000000239,0000238000,091665,081723,074966,089758,082517,076879
0000000240,0000239000,090402,084602,073350,088157,085822,075175
0000000241,0000240000,088394,087405,072555,085739,088983,074431
0000000242,0000241000,085836,089864,072655,082742,091695,074717
0000000243,0000242000,082990,091724,073641,079461,093686,076007
0000000244,0000243000,080132,092805,075418,076217,094763,078173
0000000245,0000244000,077528,093009,077818,073324,094823,081008
0000000246,0000245000,075444,092311,080599,071067,093859,084229
0000000247,0000246000,074088,090783,083484,069668,091966,087519
0000000248,0000247000,073584,088568,086203,069264,089327,090563
0000000249,0000248000,073983,085883,088488,069892,086201,093061
0000000250,0000249000,075248,083001,090106,071490,082899,094765
0000000251,0000250000,077254,080197,090904,073905,079739,095510
0000000252,0000251000,079810,077739,090806,076901,077028,095225
0000000253,0000252000,082659,075875,089821,080179,075036,093938
0000000254,0000253000,085518,074791,088045,083421,073959,091774
0000000255,0000254000,088122,074587,085645,086314,073898,088942
0000000256,0000255000,090210,075282,082863,088571,074860,085723
0000000257,0000256000,091569,076809,079977,089969,076750,082434
0000000258,0000257000,092073,079025,077257,090375,079387,079392
0000000259,0000258000,091675,081710,074969,089749,082510,076895
0000000260,0000259000,090414,084591,073349,088153,085811,075190
0000000261,0000260000,088407,087397,072550,085740,088970,074444
0000000262,0000261000,085850,089859,072645,082747,091679,074727
0000000263,0000262000,083003,091723,073629,079471,093670,076012
0000000264,0000263000,080141,092809,075404,076231,094749,078174
0000000265,0000264000,077534,093017,077804,073339,094811,081004
0000000266,0000265000,075446,092322,080586,071083,093851,084220
0000000267,0000266000,074084,090797,083473,069683,091963,087507
0000000268,0000267000,073577,088582,086195,069276,089329,090548
0000000269,0000268000,073973,085896,088485,069901,086208,093045
0000000270,0000269000,075234,083013,090108,071494,082910,094749
0000000271,0000270000,077239,080207,090909,073904,079753,095496
0000000272,0000271000,079796,077743,090815,076895,077045,095215
0000000273,0000272000,082646,075875,089834,080169,075053,093932
0000000274,0000273000,085507,074787,088060,083407,073974,091773
0000000275,0000274000,088116,074579,085660,086297,073910,088946
0000000276,0000275000,090208,075269,082877,088553,074868,085732
0000000277,0000276000,091572,076794,079989,089953,076753,082448
0000000278,0000277000,092080,079009,077265,090361,079384,079408
0000000279,0000278000,091687,081694,074973,089739,082502,076912
0000000280,0000279000,090428,084579,073347,088148,085798,075207
0000000281,0000280000,088423,087388,072543,085741,088954,074459
0000000282,0000281000,085866,089853,072635,082754,091661,074739
0000000283,0000282000,083017,091723,073615,079482,093653,076019
0000000284,0000283000,080152,092814,075388,076246,094733,078175
0000000285,0000284000,077542,093026,077787,073357,094798,080999
0000000286,0000285000,075448,092336,080571,071101,093843,084210
0000000287,0000286000,074081,090813,083461,069701,091960,087492
0000000288,0000287000,073569,088599,086186,069291,089332,090530
0000000289,0000288000,073961,085912,088481,069911,086217,093026
0000000290,0000289000,075218,083027,090109,071499,082924,094731
0000000291,0000290000,077222,080217,090916,073903,079770,095480
0000000292,0000291000,079780,077748,090827,076888,077064,095202
0000000293,0000292000,082630,075875,089849,080156,075072,093925
0000000294,0000293000,085495,074782,088077,083390,073992,091772
0000000295,0000294000,088108,074568,085677,086278,073924,088951
0000000296,0000295000,090206,075255,082893,088534,074877,085743
0000000297,0000296000,091575,076778,080002,089934,076756,082463
0000000298,0000297000,092089,078991,077274,090346,079381,079427
0000000299,0000298000,091700,081677,074977,089728,082493,076932
0000000300,0000299000,090444,084564,073346,088143,085784,075227
0000000301,0000300000,088441,087377,072536,085742,088935,074476
