DIgSILENT PowerFactory,21000900,2000
6,06A,00D
1,TTPP_200000_100:Secondary Voltage A,,,V,0.010000000,-71.428070,0.000000,-85630,99998,1,1,P
2,TTPP_200000_100:Secondary Voltage B,,,V,0.010000000,-57.670364,0.000000,-87951,99998,1,1,P
3,TTPP_200000_100:Secondary Voltage C,,,V,0.10000000,-8953.112305,0.000000,79452,99998,1,1,P
4,TTCC_300_1:Secondary Current A,,,A,0.00010000000,-4.057579,0.000000,-48030,99998,1,1,P
5,TTCC_300_1:Secondary Current B,,,A,0.00010000000,-4.942204,0.000000,-1162,99998,1,1,P
6,TTCC_300_1:Secondary Current C,,,A,0.00010000000,-4.876890,0.000000,-2407,99998,1,1,P
50
1
1000.000000,1101
30/06/2023,06:01:56.000000
30/06/2023,06:01:56.000000
ASCII
1.000000
0000000001,0000000000,078208,020520,080949,019639,035442,083687
0000000002,0000001000,056861,047706,080365,029393,026158,083216
0000000003,0000002000,030493,070964,080677,040230,019161,079376
0000000004,0000003000,001916,087778,081853,051102,015122,072543
0000000005,0000004000,-26073,096442,083786,060951,014438,063377
0000000006,0000005000,-50956,096343,086283,068804,017185,052778
0000000007,0000006000,-70116,087439,089091,073893,023078,041796
0000000008,0000007000,-81548,070346,091942,075718,031552,031498
0000000009,0000008000,-84424,047002,094565,074093,041794,022880
0000000010,0000009000,-78472,019785,096691,069198,052770,016800
0000000011,0000010000,-63972,-08938,098113,061510,063399,013856
0000000012,0000011000,-42448,-36301,098698,051754,072686,014327
0000000013,0000012000,-16221,-59419,098386,040903,079699,018165
0000000014,0000013000,012313,-76173,097209,030040,083728,024999
0000000015,0000014000,040447,-84988,095276,020191,084411,034166
0000000016,0000015000,065219,-84794,092780,012329,081673,044764
0000000017,0000016000,084276,-75775,089972,007253,075768,055746
0000000018,0000017000,095929,-58908,087120,005433,067289,066044
0000000019,0000018000,098811,-35560,084498,007040,057064,074662
0000000020,0000019000,092643,-08132,082371,011937,046088,080742
0000000021,0000020000,078249,020488,080949,019638,035443,083686
0000000022,0000021000,056812,047757,080365,029387,026165,083216
0000000023,0000022000,030436,071018,080677,040236,019155,079376
0000000024,0000023000,001959,087734,081853,051110,015114,072543
0000000025,0000024000,-26042,096408,083786,060949,014441,063376
0000000026,0000025000,-50968,096363,086283,068803,017186,052778
0000000027,0000026000,-70108,087432,089090,073895,023075,041796
0000000028,0000027000,-81567,070366,091942,075716,031554,031498
0000000029,0000028000,-84466,047032,094565,074098,041790,022880
0000000030,0000029000,-78446,019760,096691,069206,052761,016799
0000000031,0000030000,-63930,-08979,098113,061509,063402,013855
0000000032,0000031000,-42466,-36285,098698,051752,072689,014326
0000000033,0000032000,-16253,-59386,098386,040908,079694,018165
0000000034,0000033000,012317,-76187,097209,030042,083727,024998
0000000035,0000034000,040444,-84989,095277,020194,084409,034164
0000000036,0000035000,065216,-84793,092779,012335,081669,044763
0000000037,0000036000,084318,-75815,089972,007253,075770,055744
0000000038,0000037000,095924,-58904,087120,005431,067292,066043
0000000039,0000038000,098758,-35512,084498,007044,057062,074660
0000000040,0000039000,092655,-08145,082371,011941,046085,080740
0000000041,0000040000,078283,020450,080949,019639,035444,083685
0000000042,0000041000,056806,047766,080365,029387,026165,083214
0000000043,0000042000,030434,071024,080676,040235,019156,079375
0000000044,0000043000,001969,087725,081853,051108,015116,072543
0000000045,0000044000,-26068,096431,083786,060950,014440,063376
0000000046,0000045000,-50979,096375,086283,068806,017183,052778
0000000047,0000046000,-70068,087394,089089,073895,023075,041797
0000000048,0000047000,-81564,070364,091942,075714,031554,031499
0000000049,0000048000,-84502,047070,094565,074097,041789,022881
0000000050,0000049000,-78445,019755,096691,069208,052758,016801
0000000051,0000050000,-63925,-08986,098113,061511,063399,013856
0000000052,0000051000,-42486,-36271,098698,051754,072686,014326
0000000053,0000052000,-16237,-59402,098386,040910,079691,018165
0000000054,0000053000,012332,-76206,097209,030043,083726,024998
0000000055,0000054000,040411,-84961,095277,020196,084408,034163
0000000056,0000055000,065200,-84782,092780,012340,081666,044761
0000000057,0000056000,084346,-75849,089972,007257,075768,055742
0000000058,0000057000,095930,-58912,087120,005432,067294,066040
0000000059,0000058000,098747,-35501,084498,007046,057063,074658
0000000060,0000059000,092673,-08160,082371,011943,046086,080738
0000000061,0000060000,078283,020449,080949,019638,035446,083682
0000000062,0000061000,056788,047786,080364,029388,026167,083212
0000000063,0000062000,030458,071006,080675,040236,019157,079374
0000000064,0000063000,001994,087706,081852,051105,015119,072542
0000000065,0000064000,-26088,096456,083785,060946,014443,063377
0000000066,0000065000,-50987,096389,086282,068805,017182,052779
0000000067,0000066000,-70053,087383,089089,073893,023074,041799
0000000068,0000067000,-81575,070376,091942,075712,031554,031502
0000000069,0000068000,-84511,047082,094565,074097,041786,022884
0000000070,0000069000,-78429,019740,096691,069207,052756,016804
0000000071,0000070000,-63938,-08977,098114,061510,063397,013859
0000000072,0000071000,-42518,-36244,098699,051757,072681,014328
0000000073,0000072000,-16229,-59415,098387,040915,079685,018166
0000000074,0000073000,012343,-76223,097210,030046,083723,024998
0000000075,0000074000,040392,-84950,095278,020200,084405,034162
0000000076,0000075000,065202,-84788,092780,012346,081663,044759
0000000077,0000076000,084358,-75869,089973,007261,075767,055738
0000000078,0000077000,095917,-58904,087121,005437,067294,066035
0000000079,0000078000,098749,-35505,084498,007050,057063,074652
0000000080,0000079000,092704,-08190,082371,011945,046089,080733
0000000081,0000080000,078287,020448,080948,019637,035452,083678
0000000082,0000081000,056779,047801,080364,029388,026171,083209
0000000083,0000082000,030478,070995,080675,040234,019161,079372
0000000084,0000083000,002005,087703,081851,051101,015124,072541
0000000085,0000084000,-26097,096476,083784,060942,014446,063378
0000000086,0000085000,-50975,096388,086281,068800,017184,052782
0000000087,0000086000,-70045,087383,089088,073887,023076,041804
0000000088,0000087000,-81600,070405,091941,075707,031553,031507
0000000089,0000088000,-84521,047096,094564,074096,041782,022890
0000000090,0000089000,-78420,019730,096691,069206,052751,016810
0000000091,0000090000,-63955,-08964,098114,061510,063392,013864
0000000092,0000091000,-42539,-36229,098699,051760,072674,014332
0000000093,0000092000,-16227,-59428,098388,040920,079678,018168
0000000094,0000093000,012331,-76225,097211,030052,083717,024998
0000000095,0000094000,040373,-84944,095279,020208,084400,034160
0000000096,0000095000,065214,-84810,092782,012354,081658,044755
0000000097,0000096000,084370,-75891,089974,007268,075767,055732
0000000098,0000097000,095907,-58901,087122,005443,067295,066028
0000000099,0000098000,098760,-35517,084498,007056,057065,074645
0000000100,0000099000,092729,-08214,082371,011947,046094,080725
0000000101,0000100000,078292,020448,080948,019637,035459,083671
0000000102,0000101000,056790,047801,080363,029386,026178,083203
0000000103,0000102000,030505,070981,080673,040230,019169,079368
0000000104,0000103000,002009,087713,081850,051094,015132,072541
0000000105,0000104000,-26103,096498,083783,060935,014452,063380
0000000106,0000105000,-50961,096389,086280,068793,017187,052786
0000000107,0000106000,-70043,087392,089087,073878,023078,041810
0000000108,0000107000,-81621,070435,091940,075700,031552,031515
0000000109,0000108000,-84529,047108,094564,074091,041777,022899
0000000110,0000109000,-78428,019735,096691,069203,052745,016819
0000000111,0000110000,-63985,-08943,098115,061511,063384,013872
0000000112,0000111000,-42556,-36223,098700,051764,072663,014339
0000000113,0000112000,-16228,-59442,098389,040926,079668,018172
0000000114,0000113000,012312,-76224,097213,030060,083708,024999
0000000115,0000114000,040356,-84944,095281,020219,084391,034157
0000000116,0000115000,065223,-84837,092783,012365,081653,044749
0000000117,0000116000,084375,-75911,089976,007278,075765,055724
0000000118,0000117000,095906,-58910,087123,005452,067296,066018
0000000119,0000118000,098783,-35543,084498,007063,057070,074633
0000000120,0000119000,092753,-08237,082371,011950,046103,080714
0000000121,0000120000,078300,020449,080947,019637,035469,083661
0000000122,0000121000,056812,047794,080361,029383,026189,083195
0000000123,0000122000,030536,070969,080672,040222,019181,079364
0000000124,0000123000,002016,087727,081848,051083,015144,072539
0000000125,0000124000,-26099,096517,083781,060924,014460,063382
0000000126,0000125000,-50948,096397,086277,068780,017193,052793
0000000127,0000126000,-70052,087416,089086,073866,023081,041820
0000000128,0000127000,-81641,070468,091939,075691,031550,031527
0000000129,0000128000,-84537,047122,094563,074084,041771,022912
0000000130,0000129000,-78447,019750,096692,069199,052736,016832
0000000131,0000130000,-64021,-08916,098116,061511,063371,013884
0000000132,0000131000,-42577,-36218,098702,051770,072649,014348
0000000133,0000132000,-16243,-59451,098392,040934,079654,018178
0000000134,0000133000,012285,-76224,097216,030072,083696,025000
0000000135,0000134000,040344,-84958,095283,020233,084380,034154
0000000136,0000135000,065230,-84869,092786,012380,081645,044741
0000000137,0000136000,084374,-75932,089978,007291,075763,055713
0000000138,0000137000,095913,-58931,087124,005465,067298,066004
0000000139,0000138000,098814,-35580,084499,007073,057076,074618
0000000140,0000139000,092780,-08262,082370,011954,046114,080698
0000000141,0000140000,078319,020441,080946,019637,035483,083647
0000000142,0000141000,056847,047780,080359,029379,026204,083185
0000000143,0000142000,030566,070963,080669,040212,019197,079357
0000000144,0000143000,002026,087745,081845,051070,015159,072538
0000000145,0000144000,-26085,096534,083777,060908,014472,063386
0000000146,0000145000,-50936,096413,086275,068763,017202,052802
0000000147,0000146000,-70065,087453,089083,073849,023085,041833
0000000148,0000147000,-81661,070505,091938,075677,031547,031543
0000000149,0000148000,-84552,047144,094563,074074,041763,022930
0000000150,0000149000,-78479,019778,096692,069193,052724,016849
0000000151,0000150000,-64062,-08889,098117,061512,063355,013899
0000000152,0000151000,-42603,-36214,098704,051776,072630,014360
0000000153,0000152000,-16270,-59454,098395,040945,079636,018185
0000000154,0000153000,012253,-76227,097219,030088,083678,025001
0000000155,0000154000,040333,-84981,095287,020253,084365,034150
0000000156,0000155000,065233,-84905,092789,012400,081636,044731
0000000157,0000156000,084375,-75960,089980,007310,075759,055698
0000000158,0000157000,095930,-58965,087126,005482,067300,065985
0000000159,0000158000,098850,-35623,084500,007084,057084,074598
0000000160,0000159000,092811,-08289,082370,011960,046128,080678
0000000161,0000160000,078352,020424,080944,019637,035501,083629
0000000162,0000161000,056892,047761,080357,029372,026224,083171
0000000163,0000162000,030600,070963,080666,040199,019219,079349
0000000164,0000163000,002045,087766,081841,051052,015178,072536
0000000165,0000164000,-26064,096554,083773,060888,014487,063391
0000000166,0000165000,-50928,096441,086271,068741,017213,052813
0000000167,0000166000,-70082,087499,089080,073828,023089,041850
0000000168,0000167000,-81682,070547,091935,075659,031544,031564
0000000169,0000168000,-84577,047177,094562,074061,041753,022953
0000000170,0000169000,-78524,019817,096693,069187,052708,016872
0000000171,0000170000,-64108,-08860,098119,061513,063334,013920
0000000172,0000171000,-42639,-36208,098707,051785,072606,014376
0000000173,0000172000,-16310,-59454,098399,040960,079612,018194
0000000174,0000173000,012218,-76235,097224,030108,083656,025003
0000000175,0000174000,040320,-85013,095291,020277,084347,034144
0000000176,0000175000,065231,-84945,092793,012424,081624,044718
0000000177,0000176000,084379,-75998,089984,007334,075754,055678
0000000178,0000177000,095957,-59014,087128,005502,067302,065961
0000000179,0000178000,098891,-35674,084501,007099,057096,074572
0000000180,0000179000,092850,-08322,082369,011968,046146,080653
0000000181,0000180000,078400,020398,080942,019637,035523,083606
0000000182,0000181000,056947,047739,080353,029363,026251,083153
0000000183,0000182000,030640,070966,080661,040182,019246,079338
0000000184,0000183000,002075,087787,081836,051030,015203,072534
0000000185,0000184000,-26037,096579,083768,060861,014507,063397
0000000186,0000185000,-50923,096483,086266,068712,017226,052828
0000000187,0000186000,-70099,087556,089077,073802,023094,041871
0000000188,0000187000,-81705,070597,091933,075637,031540,031590
0000000189,0000188000,-84614,047224,094561,074044,041741,022982
0000000190,0000189000,-78580,019866,096693,069178,052688,016900
0000000191,0000190000,-64163,-08828,098121,061514,063308,013945
0000000192,0000191000,-42687,-36196,098711,051794,072577,014395
0000000193,0000192000,-16362,-59451,098404,040978,079583,018206
0000000194,0000193000,012178,-76250,097229,030133,083628,025006
0000000195,0000194000,040303,-85053,095297,020306,084324,034137
0000000196,0000195000,065225,-84992,092799,012455,081610,044702
0000000197,0000196000,084387,-76049,089988,007364,075748,055654
0000000198,0000197000,095991,-59077,087131,005528,067306,065932
0000000199,0000198000,098937,-35733,084502,007117,057110,074540
0000000200,0000199000,092900,-08365,082369,011977,046169,080621
0000000201,0000200000,078463,020361,080940,019637,035552,083578
0000000202,0000201000,057011,047716,080349,029352,026283,083132
0000000203,0000202000,030688,070971,080656,040162,019279,079325
0000000204,0000203000,002115,087809,081830,051003,015233,072531
0000000205,0000204000,-26007,096611,083762,060829,014532,063405
0000000206,0000205000,-50920,096536,086261,068678,017243,052845
0000000207,0000206000,-70117,087622,089072,073769,023100,041897
0000000208,0000207000,-81733,070658,091929,075610,031535,031623
0000000209,0000208000,-84663,047285,094560,074024,041726,023017
0000000210,0000209000,-78646,019924,096694,069168,052664,016935
0000000211,0000210000,-64227,-08791,098124,061515,063276,013975
0000000212,0000211000,-42751,-36179,098715,051806,072541,014418
0000000213,0000212000,-16425,-59448,098410,041000,079547,018220
0000000214,0000213000,012132,-76272,097236,030164,083594,025008
0000000215,0000214000,040279,-85098,095304,020342,084297,034128
0000000216,0000215000,065215,-85047,092805,012493,081592,044682
0000000217,0000216000,084401,-76114,089993,007400,075741,055625
0000000218,0000217000,096032,-59154,087134,005558,067311,065897
0000000219,0000218000,098990,-35801,084503,007139,057126,074501
0000000220,0000219000,092963,-08420,082368,011988,046195,080583
0000000221,0000220000,078540,020315,080937,019636,035586,083545
0000000222,0000221000,057085,047691,080344,029338,026323,083106
0000000223,0000222000,030749,070976,080649,040138,019319,079310
0000000224,0000223000,002167,087832,081822,050970,015269,072528
0000000225,0000224000,-25972,096653,083754,060790,014562,063415
0000000226,0000225000,-50916,096602,086254,068637,017263,052867
0000000227,0000226000,-70135,087698,089066,073731,023107,041929
0000000228,0000227000,-81769,070733,091926,075577,031529,031661
0000000229,0000228000,-84724,047362,094558,074000,041708,023059
0000000230,0000229000,-78722,019992,096695,069156,052634,016976
0000000231,0000230000,-64304,-08747,098127,061517,063238,014012
0000000232,0000231000,-42830,-36155,098721,051821,072499,014446
0000000233,0000232000,-16500,-59445,098417,041027,079503,018236
0000000234,0000233000,012079,-76300,097244,030201,083555,025012
0000000235,0000234000,040247,-85150,095312,020384,084265,034117
0000000236,0000235000,065203,-85112,092813,012537,081571,044659
0000000237,0000236000,084420,-76195,090000,007443,075733,055591
0000000238,0000237000,096078,-59244,087139,005594,067318,065855
0000000239,0000238000,099052,-35882,084505,007164,057147,074456
0000000240,0000239000,093042,-08488,082367,012001,046227,080538
0000000241,0000240000,078632,020260,080933,019634,035627,083505
0000000242,0000241000,057172,047664,080338,029322,026369,083076
0000000243,0000242000,030823,070980,080642,040109,019366,079292
0000000244,0000243000,002230,087858,081813,050930,015312,072524
0000000245,0000244000,-25934,096705,083745,060743,014596,063427
0000000246,0000245000,-50910,096680,086245,068588,017286,052892
0000000247,0000246000,-70154,087786,089059,073685,023116,041966
0000000248,0000247000,-81813,070824,091921,075538,031523,031707
0000000249,0000248000,-84796,047454,094556,073972,041687,023108
0000000250,0000249000,-78810,020070,096696,069143,052599,017025
0000000251,0000250000,-64397,-08693,098131,061519,063193,014055
0000000252,0000251000,-42926,-36124,098727,051838,072449,014479
0000000253,0000252000,-16586,-59443,098425,041058,079453,018255
0000000254,0000253000,012016,-76333,097254,030244,083508,025015
0000000255,0000254000,040207,-85209,095322,020434,084228,034105
0000000256,0000255000,065190,-85189,092822,012590,081546,044631
0000000257,0000256000,084443,-76293,090007,007492,075724,055551
0000000258,0000257000,096130,-59347,087144,005636,067325,065805
0000000259,0000258000,099125,-35976,084507,007194,057170,074402
0000000260,0000259000,093136,-08570,082366,012016,046264,080486
0000000261,0000260000,078738,020195,080929,019632,035675,083460
0000000262,0000261000,057272,047632,080331,029304,026423,083041
0000000263,0000262000,030913,070982,080632,040075,019420,079272
0000000264,0000263000,002304,087889,081803,050885,015361,072521
0000000265,0000264000,-25890,096767,083735,060690,014637,063440
0000000266,0000265000,-50901,096770,086235,068532,017312,052922
0000000267,0000266000,-70175,087888,089051,073632,023125,042009
0000000268,0000267000,-81866,070932,091915,075493,031515,031760
0000000269,0000268000,-84881,047561,094554,073940,041661,023165
0000000270,0000269000,-78911,020159,096697,069127,052559,017081
0000000271,0000270000,-64506,-08629,098136,061521,063142,014104
0000000272,0000271000,-43039,-36086,098735,051858,072392,014517
0000000273,0000272000,-16685,-59441,098435,041095,079394,018277
0000000274,0000273000,011941,-76371,097265,030293,083455,025019
0000000275,0000274000,040158,-85275,095334,020492,084185,034090
0000000276,0000275000,065175,-85281,092832,012650,081518,044599
0000000277,0000276000,084469,-76406,090016,007549,075713,055504
0000000278,0000277000,096189,-59466,087150,005684,067334,065749
0000000279,0000278000,099210,-36086,084510,007228,057197,074341
0000000280,0000279000,093246,-08668,082364,012033,046307,080426
0000000281,0000280000,078859,020122,080924,019630,035730,083407
0000000282,0000281000,057389,047596,080323,029282,026485,083001
0000000283,0000282000,031018,070982,080622,040036,019482,079248
0000000284,0000283000,002390,087924,081791,050832,015418,072517
0000000285,0000284000,-25839,096839,083722,060628,014682,063456
0000000286,0000285000,-50888,096871,086224,068468,017342,052957
0000000287,0000286000,-70198,088005,089041,073571,023136,042059
0000000288,0000287000,-81928,071059,091909,075441,031505,031820
0000000289,0000288000,-84976,047684,094551,073904,041632,023231
0000000290,0000289000,-79026,020262,096698,069109,052513,017145
0000000291,0000290000,-64634,-08553,098141,061523,063083,014160
0000000292,0000291000,-43168,-36042,098743,051881,072326,014559
0000000293,0000292000,-16798,-59441,098446,041137,079327,018302
0000000294,0000293000,011854,-76412,097278,030349,083394,025024
0000000295,0000294000,040100,-85350,095347,020557,084137,034073
0000000296,0000295000,065159,-85386,092845,012719,081486,044562
0000000297,0000296000,084498,-76535,090026,007614,075702,055451
0000000298,0000297000,096253,-59601,087157,005738,067344,065684
0000000299,0000298000,099308,-36214,084513,007267,057228,074271
0000000300,0000299000,093373,-08781,082363,012052,046356,080358
0000000301,0000300000,078997,020038,080919,019627,035793,083347
