DIgSILENT PowerFactory,21000900,2000
6,06A,00D
1,TTPP_200000_100:Secondary Voltage A,,,V,0.10000000,-8272.919922,0.000000,66713,99998,1,1,P
2,TTPP_200000_100:Secondary Voltage B,,,V,0.10000000,-7916.717773,0.000000,60557,99998,1,1,P
3,TTPP_200000_100:Secondary Voltage C,,,V,0.10000000,-8233.772461,0.000000,62100,99998,1,1,P
4,TTCC_500_5:Secondary Current A,,,A,0.0010000000,-87.874207,0.000000,70022,99998,1,1,P
5,TTCC_500_5:Secondary Current B,,,A,0.0010000000,-85.155273,0.000000,70168,99998,1,1,P
6,TTCC_500_5:Secondary Current C,,,A,0.0010000000,-83.951996,0.000000,68611,99998,1,1,P
50
1
1000.000000,1101
30/06/2023,06:08:16.000000
30/06/2023,06:08:16.000000
ASCII
1.000000
0000000001,0000000000,088241,082808,073185,093790,089835,073357
0000000002,0000001000,085693,085241,073299,090775,092551,073656
0000000003,0000002000,082841,087097,074298,087475,094546,074961
0000000004,0000003000,079996,088158,076080,084220,095615,077147
0000000005,0000004000,077412,088340,078482,081315,095665,080001
0000000006,0000005000,075339,087634,081260,079055,094686,083241
0000000007,0000006000,073994,086103,084136,077661,092773,086547
0000000008,0000007000,073521,083873,086841,077266,090113,089602
0000000009,0000008000,073929,081194,089110,077907,086969,092105
0000000010,0000009000,075196,078328,090711,079525,083648,093808
0000000011,0000010000,077217,075528,091490,081963,080474,094546
0000000012,0000011000,079778,073080,091376,084977,077758,094247
0000000013,0000012000,082606,071249,090379,088275,075765,092942
0000000014,0000013000,085459,070179,088595,091535,074691,090756
0000000015,0000014000,088058,069983,086193,094436,074644,087902
0000000016,0000015000,090116,070702,083415,096695,075624,084662
0000000017,0000016000,091452,072243,080539,098092,077534,081356
0000000018,0000017000,091950,074450,077834,098487,080194,078301
0000000019,0000018000,091532,077137,075565,097842,083342,075798
0000000020,0000019000,090250,080019,073965,096226,086660,074095
0000000021,0000020000,088246,082802,073186,093791,089833,073357
0000000022,0000021000,085692,085242,073299,090773,092553,073656
0000000023,0000022000,082840,087098,074296,087475,094545,074961
0000000024,0000023000,079996,088158,076080,084219,095616,077147
0000000025,0000024000,077413,088339,078483,081315,095665,080001
0000000026,0000025000,075337,087637,081260,079054,094687,083241
0000000027,0000026000,073997,086102,084136,077661,092773,086547
0000000028,0000027000,073519,083873,086842,077265,090114,089602
0000000029,0000028000,073928,081196,089110,077907,086969,092105
0000000030,0000029000,075198,078326,090710,079525,083649,093808
0000000031,0000030000,077217,075527,091490,081961,080474,094546
0000000032,0000031000,079773,073085,091377,084976,077758,094247
0000000033,0000032000,082608,071247,090379,088275,075765,092942
0000000034,0000033000,085463,070176,088595,091533,074692,090756
0000000035,0000034000,088053,069987,086194,094435,074644,087902
0000000036,0000035000,090115,070703,083416,096695,075624,084662
0000000037,0000036000,091458,072237,080539,098091,077534,081356
0000000038,0000037000,091948,074452,077834,098485,080195,078301
0000000039,0000038000,091528,077141,075565,097843,083341,075798
0000000040,0000039000,090255,080015,073965,096226,086660,074095
0000000041,0000040000,088248,082800,073185,093790,089834,073358
0000000042,0000041000,085686,085248,073299,090773,092553,073656
0000000043,0000042000,082842,087096,074296,087476,094544,074961
0000000044,0000043000,080001,088153,076080,084218,095616,077147
0000000045,0000044000,077409,088343,078482,081315,095666,080001
0000000046,0000045000,075335,087640,081260,079055,094686,083240
0000000047,0000046000,074002,086096,084136,077661,092773,086547
0000000048,0000047000,073517,083875,086841,077264,090115,089602
0000000049,0000048000,073924,081200,089110,077907,086970,092105
0000000050,0000049000,075201,078323,090710,079525,083649,093808
0000000051,0000050000,077219,075526,091490,081960,080476,094546
0000000052,0000051000,079769,073089,091377,084976,077759,094247
0000000053,0000052000,082609,071246,090379,088275,075765,092942
0000000054,0000053000,085465,070173,088596,091532,074693,090756
0000000055,0000054000,088050,069989,086194,094433,074645,087902
0000000056,0000055000,090115,070704,083416,096695,075624,084663
0000000057,0000056000,091461,072234,080540,098090,077535,081357
0000000058,0000057000,091947,074453,077835,098484,080195,078302
0000000059,0000058000,091527,077142,075565,097842,083340,075799
0000000060,0000059000,090257,080012,073965,096226,086659,074096
0000000061,0000060000,088248,082800,073185,093789,089834,073358
0000000062,0000061000,085685,085250,073299,090773,092552,073657
0000000063,0000062000,082845,087094,074295,087476,094543,074962
0000000064,0000063000,080001,088153,076080,084218,095616,077147
0000000065,0000064000,077407,088346,078481,081316,095665,080001
0000000066,0000065000,075337,087638,081259,079056,094685,083240
0000000067,0000066000,074003,086096,084135,077661,092774,086546
0000000068,0000067000,073514,083879,086841,077265,090116,089601
0000000069,0000068000,073924,081200,089110,077908,086970,092104
0000000070,0000069000,075203,078321,090710,079525,083650,093807
0000000071,0000070000,077215,075529,091491,081959,080477,094545
0000000072,0000071000,079767,073090,091377,084976,077759,094246
0000000073,0000072000,082612,071242,090380,088274,075766,092941
0000000074,0000073000,085463,070174,088597,091530,074695,090756
0000000075,0000074000,088047,069991,086195,094432,074646,087903
0000000076,0000075000,090117,070700,083417,096694,075624,084664
0000000077,0000076000,091462,072232,080541,098088,077536,081358
0000000078,0000077000,091944,074455,077835,098483,080195,078303
0000000079,0000078000,091529,077140,075565,097842,083339,075800
0000000080,0000079000,090261,080008,073965,096225,086659,074097
0000000081,0000080000,088247,082802,073185,093789,089833,073360
0000000082,0000081000,085686,085250,073298,090774,092550,073658
0000000083,0000082000,082849,087090,074294,087477,094542,074962
0000000084,0000083000,080001,088155,076078,084219,095615,077147
0000000085,0000084000,077406,088348,078480,081317,095664,080000
0000000086,0000085000,075340,087637,081257,079058,094684,083239
0000000087,0000086000,074003,086097,084134,077662,092774,086545
0000000088,0000087000,073511,083883,086840,077266,090116,089599
0000000089,0000088000,073925,081200,089109,077909,086970,092102
0000000090,0000089000,075202,078321,090711,079525,083651,093805
0000000091,0000090000,077211,075532,091491,081959,080479,094543
0000000092,0000091000,079766,073090,091378,084975,077761,094245
0000000093,0000092000,082612,071240,090382,088272,075768,092941
0000000094,0000093000,085460,070176,088598,091528,074697,090756
0000000095,0000094000,088046,069991,086197,094431,074647,087903
0000000096,0000095000,090119,070696,083419,096691,075625,084665
0000000097,0000096000,091461,072231,080542,098086,077536,081359
0000000098,0000097000,091944,074455,077836,098482,080195,078305
0000000099,0000098000,091533,077136,075566,097840,083338,075803
0000000100,0000099000,090262,080007,073965,096224,086658,074100
0000000101,0000100000,088247,082803,073184,093789,089831,073361
0000000102,0000101000,085690,085248,073296,090775,092547,073659
0000000103,0000102000,082852,087090,074293,087478,094540,074963
0000000104,0000103000,080000,088158,076076,084221,095613,077148
0000000105,0000104000,077408,088349,078478,081320,095662,080000
0000000106,0000105000,075342,087637,081256,079060,094684,083238
0000000107,0000106000,074000,086101,084133,077664,092774,086543
0000000108,0000107000,073510,083886,086839,077268,090116,089597
0000000109,0000108000,073925,081200,089109,077910,086972,092100
0000000110,0000109000,075199,078324,090711,079525,083654,093803
0000000111,0000110000,077207,075535,091492,081959,080481,094541
0000000112,0000111000,079765,073089,091380,084974,077764,094243
0000000113,0000112000,082610,071240,090384,088270,075772,092940
0000000114,0000113000,085456,070177,088601,091526,074699,090756
0000000115,0000114000,088046,069988,086199,094428,074649,087904
0000000116,0000115000,090120,070693,083421,096688,075627,084667
0000000117,0000116000,091459,072231,080544,098082,077537,081362
0000000118,0000117000,091945,074452,077837,098479,080194,078308
0000000119,0000118000,091536,077131,075567,097838,083337,075806
0000000120,0000119000,090263,080006,073965,096223,086656,074103
0000000121,0000120000,088249,082802,073183,093789,089828,073364
0000000122,0000121000,085694,085245,073295,090776,092544,073662
0000000123,0000122000,082854,087090,074291,087480,094537,074965
0000000124,0000123000,080001,088160,076073,084224,095610,077148
0000000125,0000124000,077411,088349,078474,081323,095659,079999
0000000126,0000125000,075343,087639,081253,079063,094682,083236
0000000127,0000126000,073998,086106,084130,077668,092773,086540
0000000128,0000127000,073509,083888,086837,077271,090116,089594
0000000129,0000128000,073924,081202,089108,077912,086973,092096
0000000130,0000129000,075195,078328,090711,079526,083657,093799
0000000131,0000130000,077204,075537,091493,081959,080485,094538
0000000132,0000131000,079764,073089,091382,084973,077768,094241
0000000133,0000132000,082606,071241,090387,088267,075776,092938
0000000134,0000133000,085453,070177,088604,091523,074703,090756
0000000135,0000134000,088046,069985,086203,094424,074652,087905
0000000136,0000135000,090119,070690,083424,096683,075629,084669
0000000137,0000136000,091459,072229,080547,098079,077538,081365
0000000138,0000137000,091948,074447,077839,098476,080193,078312
0000000139,0000138000,091539,077127,075568,097836,083336,075810
0000000140,0000139000,090265,080004,073964,096221,086653,074107
0000000141,0000140000,088253,082799,073181,093790,089823,073368
0000000142,0000141000,085699,085243,073292,090777,092540,073665
0000000143,0000142000,082856,087091,074287,087482,094532,074967
0000000144,0000143000,080003,088162,076069,084228,095605,077148
0000000145,0000144000,077414,088350,078470,081328,095656,079998
0000000146,0000145000,075342,087643,081249,079068,094680,083234
0000000147,0000146000,073997,086110,084127,077672,092772,086537
0000000148,0000147000,073508,083891,086835,077276,090117,089589
0000000149,0000148000,073920,081206,089107,077915,086976,092091
0000000150,0000149000,075189,078333,090712,079528,083660,093794
0000000151,0000150000,077201,075539,091495,081959,080489,094533
0000000152,0000151000,079760,073090,091385,084971,077773,094237
0000000153,0000152000,082601,071243,090391,088264,075781,092936
0000000154,0000153000,085450,070175,088608,091518,074708,090755
0000000155,0000154000,088045,069981,086207,094418,074656,087907
0000000156,0000155000,090117,070688,083429,096677,075632,084672
0000000157,0000156000,091459,072224,080551,098073,077539,081370
0000000158,0000157000,091952,074441,077842,098471,080193,078318
0000000159,0000158000,091542,077123,075569,097832,083333,075816
0000000160,0000159000,090269,080001,073964,096220,086649,074113
0000000161,0000160000,088259,082795,073179,093790,089818,073374
0000000162,0000161000,085704,085241,073289,090779,092534,073669
0000000163,0000162000,082859,087092,074283,087486,094526,074969
0000000164,0000163000,080008,088163,076064,084233,095599,077149
0000000165,0000164000,077416,088353,078465,081334,095651,079997
0000000166,0000165000,075342,087648,081244,079074,094677,083230
0000000167,0000166000,073996,086116,084123,077679,092771,086532
0000000168,0000167000,073506,083896,086832,077281,090118,089583
0000000169,0000168000,073915,081212,089106,077918,086979,092084
0000000170,0000169000,075184,078338,090712,079530,083665,093787
0000000171,0000170000,077196,075541,091497,081959,080495,094527
0000000172,0000171000,079753,073092,091389,084968,077780,094233
0000000173,0000172000,082595,071244,090396,088260,075788,092934
0000000174,0000173000,085447,070172,088614,091512,074714,090755
0000000175,0000174000,088043,069977,086214,094411,074662,087908
0000000176,0000175000,090116,070684,083435,096670,075636,084676
0000000177,0000176000,091461,072218,080555,098066,077540,081375
0000000178,0000177000,091956,074434,077845,098465,080192,078325
0000000179,0000178000,091546,077118,075570,097828,083330,075824
0000000180,0000179000,090275,079996,073963,096218,086643,074120
0000000181,0000180000,088267,082790,073177,093790,089811,073380
0000000182,0000181000,085710,085239,073284,090781,092526,073674
0000000183,0000182000,082865,087093,074277,087491,094518,074972
0000000184,0000183000,080013,088164,076057,084240,095592,077149
0000000185,0000184000,077419,088357,078458,081341,095646,079995
0000000186,0000185000,075342,087655,081238,079082,094673,083226
0000000187,0000186000,073995,086121,084117,077686,092770,086525
0000000188,0000187000,073503,083902,086828,077287,090119,089575
0000000189,0000188000,073909,081220,089105,077923,086983,092076
0000000190,0000189000,075178,078344,090713,079532,083670,093779
0000000191,0000190000,077189,075545,091500,081959,080503,094520
0000000192,0000191000,079745,073095,091394,084965,077789,094227
0000000193,0000192000,082588,071244,090402,088255,075797,092930
0000000194,0000193000,085443,070169,088622,091505,074722,090754
0000000195,0000194000,088039,069973,086221,094403,074668,087910
0000000196,0000195000,090114,070678,083442,096661,075640,084680
0000000197,0000196000,091464,072209,080561,098058,077541,081382
0000000198,0000197000,091959,074426,077849,098458,080191,078333
0000000199,0000198000,091551,077111,075572,097823,083326,075833
0000000200,0000199000,090283,079989,073962,096215,086637,074129
0000000201,0000200000,088275,082785,073174,093790,089803,073388
0000000202,0000201000,085717,085238,073279,090784,092517,073680
0000000203,0000202000,082872,087092,074269,087497,094509,074976
0000000204,0000203000,080020,088165,076049,084248,095584,077150
0000000205,0000204000,077422,088362,078450,081351,095639,079992
0000000206,0000205000,075343,087662,081230,079092,094668,083221
0000000207,0000206000,073994,086129,084111,077696,092768,086518
0000000208,0000207000,073498,083912,086824,077295,090121,089566
0000000209,0000208000,073902,081229,089103,077929,086987,092066
0000000210,0000209000,075170,078350,090714,079535,083677,093769
0000000211,0000210000,077180,075550,091504,081958,080512,094511
0000000212,0000211000,079736,073099,091400,084962,077799,094221
0000000213,0000212000,082581,071243,090410,088248,075807,092926
0000000214,0000213000,085437,070166,088631,091496,074732,090754
0000000215,0000214000,088035,069969,086231,094392,074676,087913
0000000216,0000215000,090114,070670,083450,096651,075645,084686
0000000217,0000216000,091466,072200,080568,098048,077543,081390
0000000218,0000217000,091963,074417,077854,098449,080189,078343
0000000219,0000218000,091558,077102,075574,097816,083321,075844
0000000220,0000219000,090293,079980,073961,096212,086629,074140
0000000221,0000220000,088285,082779,073170,093790,089793,073398
0000000222,0000221000,085727,085235,073272,090788,092506,073687
0000000223,0000222000,082882,087092,074261,087504,094497,074980
0000000224,0000223000,080026,088168,076039,084257,095573,077151
0000000225,0000224000,077426,088369,078440,081362,095630,079990
0000000226,0000225000,075344,087670,081220,079104,094663,083215
0000000227,0000226000,073992,086138,084103,077707,092766,086509
0000000228,0000227000,073493,083923,086819,077304,090122,089555
0000000229,0000228000,073895,081239,089100,077936,086992,092054
0000000230,0000229000,075161,078358,090715,079538,083686,093757
0000000231,0000230000,077169,075557,091508,081958,080523,094501
0000000232,0000231000,079725,073103,091407,084958,077811,094213
0000000233,0000232000,082572,071243,090419,088240,075819,092922
0000000234,0000233000,085429,070163,088642,091485,074743,090753
0000000235,0000234000,088029,069963,086242,094380,074685,087916
0000000236,0000235000,090113,070661,083460,096638,075651,084693
0000000237,0000236000,091469,072189,080577,098035,077546,081400
0000000238,0000237000,091968,074406,077860,098439,080187,078356
0000000239,0000238000,091567,077091,075576,097809,083315,075857
0000000240,0000239000,090304,079970,073960,096209,086620,074153
0000000241,0000240000,088296,082773,073165,093791,089781,073409
0000000242,0000241000,085738,085231,073264,090793,092492,073696
0000000243,0000242000,082892,087091,074250,087513,094484,074985
0000000244,0000243000,080034,088172,076028,084269,095561,077152
0000000245,0000244000,077430,088376,078428,081375,095620,079986
0000000246,0000245000,075346,087679,081209,079118,094656,083207
0000000247,0000246000,073990,086150,084094,077720,092764,086498
0000000248,0000247000,073486,083936,086812,077315,090124,089542
0000000249,0000248000,073886,081251,089098,077944,086998,092039
0000000250,0000249000,075150,078368,090716,079542,083696,093743
0000000251,0000250000,077156,075565,091513,081957,080536,094489
0000000252,0000251000,079713,073106,091415,084953,077826,094203
0000000253,0000252000,082561,071242,090431,088231,075834,092916
0000000254,0000253000,085420,070159,088655,091473,074757,090752
0000000255,0000254000,088024,069955,086255,094366,074696,087920
0000000256,0000255000,090112,070650,083472,096623,075658,084701
0000000257,0000256000,091471,072176,080587,098021,077548,081412
0000000258,0000257000,091975,074393,077867,098427,080185,078370
0000000259,0000258000,091577,077078,075579,097801,083308,075873
0000000260,0000259000,090316,079959,073959,096204,086609,074168
0000000261,0000260000,088309,082765,073160,093792,089767,073422
0000000262,0000261000,085752,085226,073255,090799,092477,073706
0000000263,0000262000,082905,087091,074238,087522,094468,074991
0000000264,0000263000,080043,088177,076014,084282,095547,077153
0000000265,0000264000,077437,088384,078413,081391,095609,079982
0000000266,0000265000,075348,087690,081196,079134,094649,083198
0000000267,0000266000,073987,086164,084083,077735,092761,086485
0000000268,0000267000,073479,083950,086805,077328,090127,089526
0000000269,0000268000,073876,081264,089094,077953,087006,092023
0000000270,0000269000,075136,078381,090717,079546,083708,093727
0000000271,0000270000,077141,075575,091519,081956,080551,094474
0000000272,0000271000,079698,073111,091425,084947,077842,094193
0000000273,0000272000,082548,071243,090444,088221,075851,092910
0000000274,0000273000,085409,070155,088669,091459,074772,090751
0000000275,0000274000,088018,069946,086270,094349,074708,087924
0000000276,0000275000,090110,070637,083487,096605,075666,084710
0000000277,0000276000,091474,072162,080598,098005,077551,081426
0000000278,0000277000,091982,074377,077875,098413,080182,078386
0000000279,0000278000,091589,077062,075583,097791,083300,075890
0000000280,0000279000,090330,079946,073957,096200,086596,074186
0000000281,0000280000,088325,082756,073153,093793,089751,073437
0000000282,0000281000,085768,085221,073245,090805,092459,073717
0000000283,0000282000,082919,087091,074225,087534,094450,074997
0000000284,0000283000,080054,088182,075998,084297,095530,077154
0000000285,0000284000,077444,088393,078397,081409,095596,079977
0000000286,0000285000,075350,087703,081181,079153,094640,083188
0000000287,0000286000,073983,086180,084071,077753,092758,086471
0000000288,0000287000,073471,083967,086796,077343,090130,089509
0000000289,0000288000,073863,081280,089091,077963,087014,092004
0000000290,0000289000,075120,078395,090719,079551,083721,093709
0000000291,0000290000,077124,075585,091526,081955,080568,094458
0000000292,0000291000,079682,073116,091436,084940,077861,094181
0000000293,0000292000,082533,071243,090459,088208,075870,092903
0000000294,0000293000,085397,070150,088686,091443,074789,090750
0000000295,0000294000,088011,069936,086287,094330,074722,087929
0000000296,0000295000,090108,070623,083503,096586,075675,084721
0000000297,0000296000,091477,072146,080612,097986,077554,081441
0000000298,0000297000,091991,074359,077884,098398,080179,078405
0000000299,0000298000,091602,077045,075587,097780,083291,075910
0000000300,0000299000,090346,079932,073956,096194,086582,074205
0000000301,0000300000,088343,082744,073146,093794,089733,073454
