DIgSILENT PowerFactory,21000900,2000
6,06A,00D
1,TTPP_200000_100:Secondary Voltage A,,,V,0.10000000,-8597.315430,0.000000,71155,99998,1,1,P
2,TTPP_200000_100:Secondary Voltage B,,,V,0.10000000,-8391.208008,0.000000,67367,99998,1,1,P
3,TTPP_200000_100:Secondary Voltage C,,,V,0.10000000,-8481.513672,0.000000,69682,99998,1,1,P
4,TTCC_500_5:Secondary Current A,,,A,0.0010000000,-87.159988,0.000000,68368,99998,1,1,P
5,TTCC_500_5:Secondary Current B,,,A,0.0010000000,-85.130798,0.000000,70240,99998,1,1,P
6,TTCC_500_5:Secondary Current C,,,A,0.0010000000,-84.432037,0.000000,69086,99998,1,1,P
50
1
1000.000000,1101
30/06/2023,06:06:25.000000
30/06/2023,06:06:25.000000
ASCII
1.000000
0000000001,0000000000,091485,087552,075663,093076,089810,073837
0000000002,0000001000,088937,089986,075777,090061,092526,074136
0000000003,0000002000,086086,091841,076775,086761,094521,075441
0000000004,0000003000,083240,092902,078557,083506,095590,077627
0000000005,0000004000,080656,093086,080959,080601,095641,080481
0000000006,0000005000,078584,092379,083737,078341,094662,083720
0000000007,0000006000,077238,090849,086613,076947,092749,087027
0000000008,0000007000,076765,088618,089318,076552,090089,090082
0000000009,0000008000,077173,085940,091587,077193,086945,092585
0000000010,0000009000,078441,083072,093188,078811,083624,094288
0000000011,0000010000,080460,080274,093967,081248,080449,095026
0000000012,0000011000,083021,077825,093853,084262,077734,094727
0000000013,0000012000,085850,075994,092857,087561,075740,093422
0000000014,0000013000,088704,074923,091072,090819,074667,091236
0000000015,0000014000,091301,074728,088671,093722,074619,088382
0000000016,0000015000,093360,075447,085893,095980,075600,085143
0000000017,0000016000,094696,076987,083017,097378,077509,081836
0000000018,0000017000,095195,079195,080312,097772,080170,078781
0000000019,0000018000,094776,081882,078043,097129,083316,076278
0000000020,0000019000,093493,084764,076443,095512,086636,074575
0000000021,0000020000,091491,087546,075663,093078,089808,073837
0000000022,0000021000,088936,089987,075776,090058,092528,074136
0000000023,0000022000,086085,091843,076774,086762,094520,075441
0000000024,0000023000,083240,092903,078558,083505,095591,077627
0000000025,0000024000,080659,093083,080960,080602,095641,080481
0000000026,0000025000,078581,092383,083737,078340,094663,083720
0000000027,0000026000,077241,090846,086613,076947,092749,087027
0000000028,0000027000,076763,088619,089319,076551,090090,090082
0000000029,0000028000,077172,085940,091587,077192,086945,092585
0000000030,0000029000,078441,083072,093188,078810,083624,094288
0000000031,0000030000,080462,080272,093967,081247,080450,095026
0000000032,0000031000,083017,077830,093854,084262,077734,094727
0000000033,0000032000,085852,075992,092856,087560,075741,093422
0000000034,0000033000,088706,074922,091072,090819,074667,091236
0000000035,0000034000,091298,074731,088672,093720,074620,088382
0000000036,0000035000,093359,075448,085893,095981,075599,085143
0000000037,0000036000,094701,076982,083017,097376,077510,081836
0000000038,0000037000,095192,079197,080312,097771,080170,078782
0000000039,0000038000,094772,081885,078043,097128,083316,076278
0000000040,0000039000,093499,084760,076442,095512,086635,074575
0000000041,0000040000,091492,087545,075663,093076,089809,073838
0000000042,0000041000,088931,089993,075777,090059,092528,074136
0000000043,0000042000,086087,091840,076773,086762,094520,075441
0000000044,0000043000,083245,092899,078557,083505,095591,077627
0000000045,0000044000,080654,093088,080959,080601,095641,080481
0000000046,0000045000,078580,092384,083737,078341,094661,083720
0000000047,0000046000,077246,090842,086613,076947,092749,087027
0000000048,0000047000,076761,088621,089318,076550,090091,090082
0000000049,0000048000,077168,085945,091587,077193,086945,092585
0000000050,0000049000,078445,083068,093188,078811,083624,094288
0000000051,0000050000,080462,080271,093967,081245,080452,095026
0000000052,0000051000,083012,077834,093854,084261,077734,094727
0000000053,0000052000,085853,075990,092857,087560,075741,093422
0000000054,0000053000,088709,074918,091073,090817,074669,091237
0000000055,0000054000,091294,074735,088672,093719,074621,088383
0000000056,0000055000,093358,075448,085894,095980,075599,085143
0000000057,0000056000,094705,076978,083018,097376,077510,081837
0000000058,0000057000,095191,079197,080312,097770,080171,078782
0000000059,0000058000,094771,081887,078043,097128,083316,076279
0000000060,0000059000,093502,084756,076442,095512,086635,074576
0000000061,0000060000,091493,087545,075663,093075,089809,073838
0000000062,0000061000,088929,089995,075776,090059,092527,074137
0000000063,0000062000,086089,091838,076773,086763,094519,075442
0000000064,0000063000,083246,092898,078557,083505,095591,077627
0000000065,0000064000,080652,093091,080958,080601,095641,080481
0000000066,0000065000,078581,092384,083736,078342,094661,083720
0000000067,0000066000,077247,090841,086612,076947,092750,087026
0000000068,0000067000,076758,088624,089318,076550,090092,090081
0000000069,0000068000,077168,085946,091587,077193,086946,092584
0000000070,0000069000,078446,083067,093188,078810,083626,094287
0000000071,0000070000,080459,080274,093968,081245,080453,095025
0000000072,0000071000,083011,077835,093855,084261,077735,094726
0000000073,0000072000,085855,075988,092858,087559,075742,093422
0000000074,0000073000,088707,074919,091074,090816,074670,091237
0000000075,0000074000,091291,074736,088673,093718,074622,088383
0000000076,0000075000,093361,075445,085895,095979,075600,085144
0000000077,0000076000,094705,076977,083019,097374,077511,081838
0000000078,0000077000,095188,079199,080313,097769,080170,078784
0000000079,0000078000,094773,081884,078043,097128,083315,076281
0000000080,0000079000,093505,084753,076442,095511,086634,074578
0000000081,0000080000,091491,087547,075662,093075,089808,073840
0000000082,0000081000,088931,089995,075775,090060,092525,074138
0000000083,0000082000,086093,091835,076772,086763,094517,075442
0000000084,0000083000,083245,092900,078556,083505,095590,077627
0000000085,0000084000,080651,093093,080957,080603,095639,080480
0000000086,0000085000,078584,092382,083734,078344,094660,083719
0000000087,0000086000,077247,090842,086611,076948,092750,087025
0000000088,0000087000,076755,088628,089317,076552,090092,090079
0000000089,0000088000,077169,085945,091587,077194,086946,092582
0000000090,0000089000,078446,083066,093188,078810,083627,094285
0000000091,0000090000,080455,080277,093969,081245,080455,095023
0000000092,0000091000,083009,077836,093856,084261,077737,094725
0000000093,0000092000,085856,075985,092859,087558,075744,093421
0000000094,0000093000,088704,074920,091076,090814,074672,091237
0000000095,0000094000,091290,074736,088674,093716,074623,088384
0000000096,0000095000,093363,075441,085896,095977,075601,085145
0000000097,0000096000,094705,076976,083020,097371,077512,081840
0000000098,0000097000,095188,079199,080314,097767,080170,078786
0000000099,0000098000,094776,081881,078044,097126,083314,076283
0000000100,0000099000,093507,084751,076442,095510,086633,074580
0000000101,0000100000,091491,087548,075662,093075,089806,073842
0000000102,0000101000,088934,089993,075774,090061,092523,074139
0000000103,0000102000,086096,091834,076770,086764,094515,075443
0000000104,0000103000,083244,092902,078554,083507,095588,077627
0000000105,0000104000,080652,093094,080955,080606,095637,080480
0000000106,0000105000,078586,092382,083733,078346,094659,083718
0000000107,0000106000,077245,090846,086610,076950,092750,087023
0000000108,0000107000,076754,088631,089316,076554,090092,090077
0000000109,0000108000,077169,085945,091586,077196,086947,092579
0000000110,0000109000,078443,083069,093188,078811,083630,094283
0000000111,0000110000,080451,080280,093969,081245,080457,095021
0000000112,0000111000,083009,077835,093857,084260,077739,094724
0000000113,0000112000,085854,075985,092861,087556,075747,093420
0000000114,0000113000,088700,074922,091078,090811,074675,091236
0000000115,0000114000,091290,074733,088677,093713,074625,088385
0000000116,0000115000,093364,075438,085899,095973,075602,085147
0000000117,0000116000,094703,076975,083022,097368,077512,081842
0000000118,0000117000,095189,079196,080315,097765,080169,078789
0000000119,0000118000,094780,081876,078044,097124,083312,076286
0000000120,0000119000,093508,084750,076442,095509,086631,074583
0000000121,0000120000,091493,087547,075660,093075,089803,073844
0000000122,0000121000,088938,089990,075772,090062,092519,074142
0000000123,0000122000,086098,091835,076768,086766,094512,075445
0000000124,0000123000,083245,092905,078551,083510,095585,077628
0000000125,0000124000,080655,093094,080952,080609,095635,080479
0000000126,0000125000,078587,092384,083730,078349,094658,083716
0000000127,0000126000,077242,090851,086607,076953,092749,087020
0000000128,0000127000,076753,088633,089314,076557,090092,090073
0000000129,0000128000,077168,085947,091585,077198,086949,092576
0000000130,0000129000,078439,083073,093189,078812,083632,094279
0000000131,0000130000,080448,080282,093971,081245,080461,095018
0000000132,0000131000,083007,077834,093859,084258,077743,094721
0000000133,0000132000,085850,075986,092864,087553,075752,093418
0000000134,0000133000,088697,074922,091082,090808,074679,091236
0000000135,0000134000,091290,074730,088680,093709,074628,088386
0000000136,0000135000,093363,075435,085902,095969,075605,085149
0000000137,0000136000,094703,076973,083025,097364,077513,081846
0000000138,0000137000,095192,079192,080317,097762,080169,078793
0000000139,0000138000,094783,081872,078045,097122,083311,076291
0000000140,0000139000,093510,084749,076442,095507,086628,074587
0000000141,0000140000,091497,087544,075659,093076,089799,073848
0000000142,0000141000,088943,089987,075769,090063,092515,074145
0000000143,0000142000,086100,091836,076764,086769,094508,075446
0000000144,0000143000,083248,092906,078546,083514,095581,077628
0000000145,0000144000,080658,093095,080947,080614,095631,080478
0000000146,0000145000,078586,092388,083726,078354,094656,083713
0000000147,0000146000,077241,090856,086604,076958,092748,087016
0000000148,0000147000,076752,088636,089312,076561,090093,090069
0000000149,0000148000,077164,085951,091585,077200,086952,092571
0000000150,0000149000,078433,083078,093189,078813,083636,094274
0000000151,0000150000,080444,080284,093972,081245,080465,095013
0000000152,0000151000,083003,077835,093862,084256,077749,094718
0000000153,0000152000,085844,075988,092868,087549,075757,093416
0000000154,0000153000,088694,074920,091086,090804,074683,091236
0000000155,0000154000,091289,074726,088685,093704,074632,088387
0000000156,0000155000,093361,075432,085907,095963,075608,085152
0000000157,0000156000,094703,076969,083028,097359,077514,081850
0000000158,0000157000,095196,079185,080319,097757,080168,078798
0000000159,0000158000,094786,081868,078046,097118,083308,076297
0000000160,0000159000,093514,084746,076441,095506,086624,074593
0000000161,0000160000,091504,087540,075657,093076,089793,073854
0000000162,0000161000,088948,089986,075766,090065,092509,074149
0000000163,0000162000,086104,091837,076760,086772,094502,075449
0000000164,0000163000,083252,092907,078541,083520,095575,077629
0000000165,0000164000,080661,093098,080942,080620,095627,080476
0000000166,0000165000,078586,092393,083721,078360,094653,083710
0000000167,0000166000,077240,090861,086600,076965,092747,087011
0000000168,0000167000,076750,088641,089309,076566,090094,090063
0000000169,0000168000,077159,085957,091583,077204,086955,092564
0000000170,0000169000,078428,083083,093189,078815,083640,094267
0000000171,0000170000,080440,080287,093975,081244,080471,095007
0000000172,0000171000,082997,077837,093866,084254,077756,094713
0000000173,0000172000,085838,075989,092873,087545,075764,093414
0000000174,0000173000,088691,074917,091092,090798,074690,091235
0000000175,0000174000,091287,074722,088691,093697,074637,088389
0000000176,0000175000,093360,075428,085912,095956,075611,085156
0000000177,0000176000,094705,076962,083033,097352,077515,081856
0000000178,0000177000,095199,079178,080323,097751,080167,078805
0000000179,0000178000,094790,081862,078048,097114,083305,076304
0000000180,0000179000,093519,084740,076440,095504,086618,074601
0000000181,0000180000,091511,087535,075654,093076,089786,073860
0000000182,0000181000,088954,089984,075762,090067,092502,074154
0000000183,0000182000,086109,091837,076754,086777,094494,075452
0000000184,0000183000,083258,092909,078534,083526,095568,077629
0000000185,0000184000,080663,093102,080935,080627,095621,080474
0000000186,0000185000,078586,092400,083715,078368,094649,083706
0000000187,0000186000,077239,090867,086594,076972,092745,087005
0000000188,0000187000,076747,088648,089306,076573,090095,090055
0000000189,0000188000,077153,085965,091582,077209,086958,092556
0000000190,0000189000,078421,083089,093190,078818,083646,094259
0000000191,0000190000,080433,080290,093978,081244,080479,095000
0000000192,0000191000,082989,077840,093871,084251,077765,094708
0000000193,0000192000,085832,075989,092880,087540,075772,093410
0000000194,0000193000,088687,074914,091099,090791,074698,091235
0000000195,0000194000,091283,074718,088699,093688,074644,088391
0000000196,0000195000,093358,075423,085919,095947,075615,085161
0000000197,0000196000,094708,076954,083039,097344,077517,081862
0000000198,0000197000,095203,079170,080327,097744,080166,078813
0000000199,0000198000,094795,081856,078050,097109,083301,076313
0000000200,0000199000,093527,084733,076440,095501,086612,074610
0000000201,0000200000,091519,087530,075651,093076,089778,073868
0000000202,0000201000,088962,089982,075756,090071,092492,074160
0000000203,0000202000,086117,091837,076747,086783,094484,075455
0000000204,0000203000,083264,092910,078526,083534,095559,077630
0000000205,0000204000,080666,093107,080927,080637,095614,080472
0000000206,0000205000,078587,092407,083707,078378,094644,083701
0000000207,0000206000,077238,090874,086588,076982,092744,086998
0000000208,0000207000,076742,088657,089301,076581,090096,090046
0000000209,0000208000,077146,085974,091580,077214,086963,092546
0000000210,0000209000,078414,083096,093191,078820,083653,094249
0000000211,0000210000,080424,080295,093981,081244,080488,094991
0000000212,0000211000,082979,077844,093877,084247,077775,094701
0000000213,0000212000,085824,075988,092888,087534,075783,093407
0000000214,0000213000,088681,074911,091109,090782,074707,091234
0000000215,0000214000,091278,074714,088708,093678,074652,088393
0000000216,0000215000,093357,075415,085928,095936,075620,085166
0000000217,0000216000,094710,076945,083046,097333,077519,081871
0000000218,0000217000,095207,079161,080332,097735,080164,078824
0000000219,0000218000,094802,081847,078052,097102,083296,076324
0000000220,0000219000,093537,084725,076439,095498,086604,074621
0000000221,0000220000,091529,087524,075647,093077,089768,073878
0000000222,0000221000,088971,089980,075750,090075,092481,074167
0000000223,0000222000,086126,091837,076738,086790,094473,075460
0000000224,0000223000,083271,092913,078517,083544,095549,077631
0000000225,0000224000,080670,093114,080917,080648,095606,080469
0000000226,0000225000,078588,092415,083697,078390,094638,083694
0000000227,0000226000,077236,090884,086580,076993,092742,086988
0000000228,0000227000,076737,088668,089296,076590,090098,090035
0000000229,0000228000,077138,085984,091577,077221,086968,092533
0000000230,0000229000,078405,083104,093192,078824,083662,094237
0000000231,0000230000,080413,080302,093986,081243,080499,094981
0000000232,0000231000,082969,077848,093884,084243,077787,094693
0000000233,0000232000,085815,075988,092897,087526,075795,093402
0000000234,0000233000,088673,074908,091119,090771,074719,091233
0000000235,0000234000,091273,074708,088719,093666,074661,088396
0000000236,0000235000,093357,075406,085938,095923,075626,085173
0000000237,0000236000,094712,076934,083055,097321,077521,081881
0000000238,0000237000,095212,079150,080338,097724,080163,078836
0000000239,0000238000,094811,081835,078054,097095,083290,076337
0000000240,0000239000,093548,084715,076438,095495,086595,074633
0000000241,0000240000,091540,087517,075642,093077,089757,073889
0000000242,0000241000,088982,089976,075742,090079,092468,074176
0000000243,0000242000,086137,091836,076728,086799,094459,075465
0000000244,0000243000,083279,092917,078505,083555,095536,077632
0000000245,0000244000,080675,093121,080905,080661,095596,080466
0000000246,0000245000,078590,092424,083686,078404,094632,083687
0000000247,0000246000,077234,090895,086571,077006,092739,086978
0000000248,0000247000,076730,088681,089289,076601,090100,090021
0000000249,0000248000,077130,085996,091575,077229,086974,092519
0000000250,0000249000,078393,083114,093193,078828,083672,094223
0000000251,0000250000,080400,080310,093991,081242,080512,094969
0000000252,0000251000,082956,077852,093893,084238,077801,094684
0000000253,0000252000,085805,075988,092908,087517,075810,093396
0000000254,0000253000,088664,074904,091132,090759,074732,091232
0000000255,0000254000,091268,074700,088732,093651,074671,088400
0000000256,0000255000,093356,075395,085950,095908,075633,085181
0000000257,0000256000,094715,076921,083065,097307,077524,081892
0000000258,0000257000,095219,079137,080345,097713,080160,078850
0000000259,0000258000,094821,081822,078057,097087,083284,076353
0000000260,0000259000,093560,084704,076436,095490,086584,074648
0000000261,0000260000,091553,087510,075637,093078,089743,073902
0000000262,0000261000,088996,089971,075733,090085,092452,074186
0000000263,0000262000,086149,091836,076716,086808,094444,075471
0000000264,0000263000,083288,092922,078491,083568,095522,077633
0000000265,0000264000,080681,093129,080891,080677,095584,080462
0000000266,0000265000,078592,092435,083673,078420,094625,083678
0000000267,0000266000,077231,090909,086560,077021,092737,086965
0000000268,0000267000,076723,088695,089282,076614,090103,090006
0000000269,0000268000,077119,086009,091572,077238,086982,092503
0000000270,0000269000,078380,083126,093195,078832,083684,094207
0000000271,0000270000,080385,080320,093996,081242,080527,094954
0000000272,0000271000,082942,077856,093903,084232,077818,094673
0000000273,0000272000,085791,075988,092921,087506,075827,093390
0000000274,0000273000,088653,074900,091147,090744,074747,091231
0000000275,0000274000,091261,074691,088748,093635,074684,088404
0000000276,0000275000,093354,075382,085964,095891,075641,085191
0000000277,0000276000,094718,076907,083076,097290,077526,081906
0000000278,0000277000,095226,079122,080353,097699,080158,078866
0000000279,0000278000,094833,081807,078060,097077,083276,076370
0000000280,0000279000,093575,084691,076435,095486,086572,074666
0000000281,0000280000,091569,087500,075631,093079,089727,073917
0000000282,0000281000,089012,089966,075722,090091,092434,074197
0000000283,0000282000,086163,091835,076702,086820,094426,075477
0000000284,0000283000,083299,092927,078475,083584,095506,077634
0000000285,0000284000,080688,093138,080874,080695,095571,080457
0000000286,0000285000,078594,092448,083658,078439,094616,083668
0000000287,0000286000,077227,090925,086548,077038,092734,086951
0000000288,0000287000,076715,088712,089273,076629,090105,089989
0000000289,0000288000,077107,086025,091568,077249,086990,092484
0000000290,0000289000,078364,083140,093196,078837,083697,094189
0000000291,0000290000,080368,080330,094003,081241,080544,094938
0000000292,0000291000,082925,077861,093914,084225,077837,094661
0000000293,0000292000,085776,075988,092936,087494,075846,093383
0000000294,0000293000,088641,074895,091164,090728,074765,091230
0000000295,0000294000,091254,074681,088765,093616,074697,088410
0000000296,0000295000,093352,075368,085981,095871,075650,085201
0000000297,0000296000,094721,076890,083090,097272,077530,081921
0000000298,0000297000,095235,079104,080362,097683,080154,078885
0000000299,0000298000,094846,081790,078065,097066,083267,076391
0000000300,0000299000,093591,084676,076433,095480,086557,074685
0000000301,0000300000,091587,087489,075624,093080,089709,073934
