DIgSILENT PowerFactory,21000900,2000
6,06A,00D
1,TTPP_200000_100:Secondary Voltage A,,,V,0.010000000,-67.872734,0.000000,-86353,99998,1,1,P
2,TTPP_200000_100:Secondary Voltage B,,,V,0.010000000,-36.664806,0.000000,-91948,99998,1,1,P
3,TTPP_200000_100:Secondary Voltage C,,,V,0.010000000,-12.650239,0.000000,-98066,99998,1,1,P
4,TTCC_500_5:Secondary Current A,,,A,0.0010000000,-85.234451,0.000000,63502,99998,1,1,P
5,TTCC_500_5:Secondary Current B,,,A,0.0010000000,-84.917664,0.000000,69861,99998,1,1,P
6,TTCC_500_5:Secondary Current C,,,A,0.0010000000,-84.626068,0.000000,69244,99998,1,1,P
50
1
1000.000000,1101
30/06/2023,06:04:08.000000
30/06/2023,06:04:08.000000
ASCII
1.000000
0000000001,0000000000,061923,040054,-90258,091151,089596,074031
0000000002,0000001000,036446,064391,-89124,088136,092312,074329
0000000003,0000002000,007911,082967,-79147,084837,094307,075634
0000000004,0000003000,-20531,093571,-61321,081582,095377,077820
0000000005,0000004000,-46338,095378,-37308,078678,095427,080673
0000000006,0000005000,-67089,088340,-09532,076414,094451,083913
0000000007,0000006000,-80584,073071,019231,075023,092536,087219
0000000008,0000007000,-85328,050758,046286,074626,089877,090275
0000000009,0000008000,-81162,023897,068974,075268,086732,092778
0000000010,0000009000,-68560,-04702,084983,076883,083414,094481
0000000011,0000010000,-48386,-32681,092780,079321,080237,095220
0000000012,0000011000,-22769,-57165,091658,082337,077520,094921
0000000013,0000012000,005591,-75562,081687,085633,075528,093616
0000000014,0000013000,034066,-86194,063848,088893,074454,091431
0000000015,0000014000,060033,-88152,039839,091794,074407,088578
0000000016,0000015000,080646,-80995,012066,094055,075385,085338
0000000017,0000016000,094030,-65607,-16697,095451,077296,082031
0000000018,0000017000,098999,-43522,-43759,095847,079955,078976
0000000019,0000018000,094814,-16646,-66445,095203,083102,076473
0000000020,0000019000,082004,012165,-82456,093588,086421,074770
0000000021,0000020000,061962,040008,-90255,091153,089593,074031
0000000022,0000021000,036447,064392,-89124,088135,092314,074329
0000000023,0000022000,007923,082952,-79160,084837,094307,075634
0000000024,0000023000,-20536,093583,-61323,081580,095378,077820
0000000025,0000024000,-46363,095389,-37307,078678,095427,080673
0000000026,0000025000,-67110,088364,-09529,076416,094450,083913
0000000027,0000026000,-80521,073013,019225,075021,092537,087220
0000000028,0000027000,-85327,050761,046284,074625,089878,090275
0000000029,0000028000,-81233,023970,068981,075266,086734,092778
0000000030,0000029000,-68544,-04723,084985,076884,083412,094481
0000000031,0000030000,-48332,-32728,092783,079320,080239,095220
0000000032,0000031000,-22789,-57148,091654,082335,077522,094922
0000000033,0000032000,005546,-75516,081689,085633,075528,093617
0000000034,0000033000,034094,-86231,063852,088892,074454,091432
0000000035,0000034000,060034,-88159,039841,091793,074407,088578
0000000036,0000035000,080642,-80987,012064,094054,075386,085338
0000000037,0000036000,094042,-65622,-16700,095451,077296,082032
0000000038,0000037000,098984,-43509,-43751,095846,079955,078977
0000000039,0000038000,094797,-16634,-66444,095203,083102,076473
0000000040,0000039000,082044,012134,-82458,093587,086421,074770
0000000041,0000040000,061984,039989,-90258,091152,089594,074032
0000000042,0000041000,036393,064447,-89123,088135,092314,074330
0000000043,0000042000,007933,082946,-79160,084838,094306,075635
0000000044,0000043000,-20489,093537,-61329,081580,095378,077820
0000000045,0000044000,-46376,095409,-37311,078676,095428,080673
0000000046,0000045000,-67144,088397,-09536,076416,094449,083913
0000000047,0000046000,-80501,072995,019225,075022,092537,087219
0000000048,0000047000,-85320,050753,046283,074625,089879,090274
0000000049,0000048000,-81252,023993,068977,075266,086734,092778
0000000050,0000049000,-68531,-04733,084984,076884,083413,094481
0000000051,0000050000,-48345,-32722,092788,079319,080240,095219
0000000052,0000051000,-22813,-57125,091661,082335,077522,094921
0000000053,0000052000,005565,-75538,081690,085633,075529,093617
0000000054,0000053000,034111,-86251,063857,088891,074456,091432
0000000055,0000054000,059993,-88126,039848,091792,074407,088578
0000000056,0000055000,080634,-80986,012069,094054,075386,085339
0000000057,0000056000,094084,-65668,-16696,095450,077296,082033
0000000058,0000057000,098974,-43504,-43750,095845,079956,078978
0000000059,0000058000,094776,-16611,-66443,095203,083101,076474
0000000060,0000059000,082066,012109,-82458,093587,086420,074771
0000000061,0000060000,062000,039975,-90258,091151,089594,074033
0000000062,0000061000,036383,064463,-89129,088135,092313,074330
0000000063,0000062000,007950,082937,-79168,084838,094305,075635
0000000064,0000063000,-20480,093534,-61333,081581,095378,077820
0000000065,0000064000,-46396,095434,-37317,078677,095428,080673
0000000066,0000065000,-67127,088391,-09544,076417,094449,083912
0000000067,0000066000,-80482,072981,019217,075022,092537,087219
0000000068,0000067000,-85350,050786,046280,074625,089879,090274
0000000069,0000068000,-81270,024012,068974,075267,086734,092777
0000000070,0000069000,-68506,-04758,084984,076884,083414,094480
0000000071,0000070000,-48358,-32712,092791,079318,080241,095219
0000000072,0000071000,-22848,-57096,091665,082334,077523,094921
0000000073,0000072000,005572,-75552,081699,085632,075529,093616
0000000074,0000073000,034113,-86265,063868,088889,074457,091432
0000000075,0000074000,059972,-88113,039857,091791,074408,088579
0000000076,0000075000,080640,-80999,012077,094052,075386,085340
0000000077,0000076000,094096,-65689,-16686,095448,077296,082034
0000000078,0000077000,098960,-43496,-43742,095843,079956,078979
0000000079,0000078000,094789,-16626,-66443,095202,083100,076476
0000000080,0000079000,082098,012079,-82459,093587,086419,074772
0000000081,0000080000,061993,039984,-90261,091151,089593,074034
0000000082,0000081000,036381,064473,-89137,088135,092311,074331
0000000083,0000082000,007987,082911,-79179,084839,094303,075636
0000000084,0000083000,-20470,093536,-61345,081581,095377,077820
0000000085,0000084000,-46413,095465,-37331,078679,095427,080673
0000000086,0000085000,-67114,088391,-09557,076419,094448,083912
0000000087,0000086000,-80473,072982,019209,075023,092537,087218
0000000088,0000087000,-85373,050817,046272,074626,089880,090272
0000000089,0000088000,-81277,024025,068969,075268,086735,092775
0000000090,0000089000,-68508,-04759,084986,076884,083415,094479
0000000091,0000090000,-48388,-32689,092798,079318,080243,095217
0000000092,0000091000,-22865,-57088,091674,082334,077525,094920
0000000093,0000092000,005578,-75571,081712,085631,075532,093616
0000000094,0000093000,034091,-86259,063885,088887,074459,091432
0000000095,0000094000,059950,-88107,039874,091789,074410,088579
0000000096,0000095000,080657,-81031,012092,094050,075387,085341
0000000097,0000096000,094103,-65711,-16672,095446,077297,082035
0000000098,0000097000,098948,-43494,-43733,095842,079956,078981
0000000099,0000098000,094809,-16650,-66439,095201,083099,076478
0000000100,0000099000,082127,012050,-82459,093586,086418,074774
0000000101,0000100000,061998,039986,-90268,091151,089592,074036
0000000102,0000101000,036400,064467,-89151,088136,092309,074333
0000000103,0000102000,008017,082897,-79195,084840,094301,075637
0000000104,0000103000,-20467,093551,-61363,081583,095375,077820
0000000105,0000104000,-46409,095483,-37353,078681,095425,080672
0000000106,0000105000,-67094,088391,-09578,076421,094447,083910
0000000107,0000106000,-80483,073007,019193,075025,092537,087216
0000000108,0000107000,-85399,050855,046260,074628,089880,090270
0000000109,0000108000,-81279,024033,068963,075270,086736,092773
0000000110,0000109000,-68521,-04748,084989,076885,083417,094476
0000000111,0000110000,-48429,-32657,092807,079318,080246,095215
0000000112,0000111000,-22885,-57082,091688,082333,077528,094918
0000000113,0000112000,005569,-75584,081734,085629,075535,093615
0000000114,0000113000,034062,-86255,063910,088884,074462,091431
0000000115,0000114000,059936,-88117,039898,091786,074412,088580
0000000116,0000115000,080667,-81065,012116,094047,075388,085342
0000000117,0000116000,094101,-65730,-16650,095442,077298,082038
0000000118,0000117000,098953,-43512,-43720,095839,079955,078984
0000000119,0000118000,094843,-16689,-66433,095199,083098,076481
0000000120,0000119000,082152,012027,-82461,093584,086416,074778
0000000121,0000120000,062011,039984,-90279,091151,089589,074039
0000000122,0000121000,036438,064449,-89171,088137,092305,074335
0000000123,0000122000,008051,082887,-79219,084842,094298,075638
0000000124,0000123000,-20461,093574,-61392,081586,095372,077821
0000000125,0000124000,-46395,095501,-37384,078685,095422,080672
0000000126,0000125000,-67078,088403,-09605,076425,094445,083908
0000000127,0000126000,-80497,073044,019170,075028,092537,087213
0000000128,0000127000,-85419,050893,046242,074631,089880,090266
0000000129,0000128000,-81290,024052,068956,075272,086737,092769
0000000130,0000129000,-68555,-04718,084993,076885,083420,094472
0000000131,0000130000,-48471,-32626,092819,079318,080249,095211
0000000132,0000131000,-22907,-57081,091710,082332,077531,094915
0000000133,0000132000,005541,-75587,081764,085626,075539,093613
0000000134,0000133000,034025,-86252,063944,088881,074466,091431
0000000135,0000134000,059926,-88142,039932,091783,074415,088581
0000000136,0000135000,080672,-81104,012150,094043,075391,085345
0000000137,0000136000,094096,-65754,-16622,095438,077299,082041
0000000138,0000137000,098969,-43546,-43701,095836,079955,078988
0000000139,0000138000,094882,-16738,-66424,095197,083096,076486
0000000140,0000139000,082181,012001,-82463,093583,086413,074782
0000000141,0000140000,062043,039968,-90295,091151,089584,074043
0000000142,0000141000,036488,064426,-89197,088139,092301,074338
0000000143,0000142000,008085,082886,-79253,084845,094294,075640
0000000144,0000143000,-20443,093596,-61433,081590,095367,077821
0000000145,0000144000,-46370,095517,-37426,078689,095418,080670
0000000146,0000145000,-67069,088431,-09643,076429,094443,083906
0000000147,0000146000,-80517,073096,019138,075033,092536,087209
0000000148,0000147000,-85437,050935,046219,074636,089881,090261
0000000149,0000148000,-81313,024083,068946,075275,086740,092764
0000000150,0000149000,-68604,-04674,084998,076887,083424,094467
0000000151,0000150000,-48520,-32595,092836,079318,080254,095207
0000000152,0000151000,-22941,-57077,091740,082330,077537,094912
0000000153,0000152000,005497,-75584,081805,085623,075544,093611
0000000154,0000153000,033985,-86258,063989,088876,074471,091431
0000000155,0000154000,059915,-88178,039979,091777,074419,088582
0000000156,0000155000,080667,-81145,012196,094037,075394,085348
0000000157,0000156000,094097,-65790,-16586,095433,077300,082045
0000000158,0000157000,098998,-43600,-43677,095831,079954,078993
0000000159,0000158000,094925,-16792,-66412,095193,083094,076492
0000000160,0000159000,082217,011968,-82468,093581,086409,074788
0000000161,0000160000,062095,039938,-90317,091151,089579,074048
0000000162,0000161000,036548,064399,-89231,088141,092295,074342
0000000163,0000162000,008125,082891,-79297,084848,094288,075642
0000000164,0000163000,-20411,093618,-61486,081595,095362,077822
0000000165,0000164000,-46338,095540,-37480,078696,095414,080669
0000000166,0000165000,-67063,088475,-09692,076436,094440,083903
0000000167,0000166000,-80536,073157,019096,075039,092535,087204
0000000168,0000167000,-85458,050985,046189,074641,089882,090255
0000000169,0000168000,-81352,024134,068935,075278,086743,092757
0000000170,0000169000,-68665,-04619,085004,076889,083429,094461
0000000171,0000170000,-48575,-32562,092858,079318,080259,095201
0000000172,0000171000,-22993,-57065,091779,082327,077544,094907
0000000173,0000172000,005438,-75577,081857,085618,075551,093609
0000000174,0000173000,033943,-86273,064047,088871,074477,091430
0000000175,0000174000,059898,-88221,040040,091770,074424,088584
0000000176,0000175000,080656,-81192,012253,094029,075397,085351
0000000177,0000176000,094103,-65844,-16539,095426,077301,082051
0000000178,0000177000,099037,-43670,-43645,095825,079953,079000
0000000179,0000178000,094972,-16855,-66397,095189,083091,076499
0000000180,0000179000,082269,011923,-82474,093579,086404,074795
0000000181,0000180000,062165,039895,-90343,091152,089572,074054
0000000182,0000181000,036617,064373,-89273,088143,092287,074347
0000000183,0000182000,008176,082898,-79355,084853,094280,075645
0000000184,0000183000,-20364,093638,-61553,081602,095354,077822
0000000185,0000184000,-46302,095572,-37548,078703,095408,080667
0000000186,0000185000,-67061,088535,-09755,076444,094436,083898
0000000187,0000186000,-80553,073227,019043,075047,092533,087198
0000000188,0000187000,-85486,051049,046153,074647,089883,090248
0000000189,0000188000,-81406,024203,068920,075283,086747,092749
0000000190,0000189000,-68737,-04553,085010,076891,083435,094453
0000000191,0000190000,-48642,-32523,092887,079317,080267,095194
0000000192,0000191000,-23063,-57045,091829,082324,077552,094902
0000000193,0000192000,005366,-75569,081922,085613,075560,093605
0000000194,0000193000,033894,-86298,064121,088864,074485,091430
0000000195,0000194000,059870,-88271,040117,091762,074430,088586
0000000196,0000195000,080642,-81248,012324,094020,075401,085356
0000000197,0000196000,094119,-65916,-16482,095417,077303,082058
0000000198,0000197000,099082,-43756,-43604,095818,079951,079009
0000000199,0000198000,095027,-16928,-66379,095183,083087,076508
0000000200,0000199000,082339,011862,-82483,093576,086398,074804
0000000201,0000200000,062252,039840,-90376,091152,089564,074062
0000000202,0000201000,036697,064346,-89327,088147,092278,074353
0000000203,0000202000,008242,082903,-79427,084859,094270,075649
0000000204,0000203000,-20303,093660,-61636,081610,095346,077823
0000000205,0000204000,-46264,095618,-37632,078712,095401,080665
0000000206,0000205000,-67058,088610,-09833,076453,094432,083893
0000000207,0000206000,-80569,073309,018977,075056,092532,087190
0000000208,0000207000,-85524,051131,046109,074655,089884,090239
0000000209,0000208000,-81475,024291,068902,075288,086751,092739
0000000210,0000209000,-68820,-04478,085018,076894,083442,094443
0000000211,0000210000,-48726,-32475,092922,079317,080276,095185
0000000212,0000211000,-23154,-57014,091889,082321,077563,094895
0000000213,0000212000,005283,-75564,082000,085606,075570,093601
0000000214,0000213000,033836,-86331,064211,088855,074494,091429
0000000215,0000214000,059832,-88326,040210,091751,074438,088589
0000000216,0000215000,080626,-81318,012410,094010,075407,085362
0000000217,0000216000,094141,-66009,-16411,095407,077305,082066
0000000218,0000217000,099132,-43856,-43555,095809,079950,079019
0000000219,0000218000,095094,-17015,-66358,095177,083082,076519
0000000220,0000219000,082428,011784,-82494,093573,086390,074815
0000000221,0000220000,062355,039776,-90415,091152,089554,074072
0000000222,0000221000,036791,064317,-89392,088150,092267,074361
0000000223,0000222000,008327,082906,-79514,084866,094259,075653
0000000224,0000223000,-20230,093686,-61735,081619,095335,077824
0000000225,0000224000,-46222,095677,-37733,078724,095393,080662
0000000226,0000225000,-67050,088697,-09927,076465,094426,083887
0000000227,0000226000,-80587,073405,018899,075068,092529,087181
0000000228,0000227000,-85573,051233,046056,074665,089886,090227
0000000229,0000228000,-81558,024396,068879,075295,086756,092727
0000000230,0000229000,-68917,-04392,085028,076897,083450,094431
0000000231,0000230000,-48830,-32415,092966,079317,080287,095175
0000000232,0000231000,-23264,-56976,091962,082316,077575,094887
0000000233,0000232000,005186,-75562,082094,085599,075583,093597
0000000234,0000233000,033766,-86369,064319,088844,074506,091428
0000000235,0000234000,059784,-88390,040322,091739,074447,088592
0000000236,0000235000,080610,-81405,012513,093997,075412,085369
0000000237,0000236000,094168,-66121,-16327,095395,077307,082076
0000000238,0000237000,099189,-43972,-43495,095799,079948,079031
0000000239,0000238000,095174,-17120,-66333,095170,083076,076532
0000000240,0000239000,082536,011687,-82506,093570,086380,074828
0000000241,0000240000,062474,039703,-90461,091153,089542,074083
0000000242,0000241000,036903,064283,-89470,088155,092254,074369
0000000243,0000242000,008431,082906,-79618,084875,094245,075658
0000000244,0000243000,-20144,093718,-61853,081631,095323,077825
0000000245,0000244000,-46174,095749,-37853,078737,095383,080659
0000000246,0000245000,-67038,088798,-10040,076479,094420,083879
0000000247,0000246000,-80608,073519,018806,075081,092527,087170
0000000248,0000247000,-85635,051358,045993,074676,089888,090214
0000000249,0000248000,-81653,024519,068851,075303,086763,092712
0000000250,0000249000,-69029,-04292,085040,076901,083460,094417
0000000251,0000250000,-48955,-32340,093017,079316,080300,095162
0000000252,0000251000,-23394,-56931,092046,082311,077589,094878
0000000253,0000252000,005076,-75562,082205,085590,075597,093591
0000000254,0000253000,033680,-86411,064448,088832,074519,091427
0000000255,0000254000,059725,-88462,040453,091724,074458,088595
0000000256,0000255000,080595,-81510,012633,093982,075419,085377
0000000257,0000256000,094198,-66251,-16226,095381,077309,082088
0000000258,0000257000,099252,-44105,-43426,095787,079946,079045
0000000259,0000258000,095271,-17247,-66304,095161,083069,076548
0000000260,0000259000,082664,011573,-82519,093566,086369,074843
0000000261,0000260000,062611,039620,-90515,091153,089528,074096
0000000262,0000261000,037036,064242,-89561,088161,092238,074379
0000000263,0000262000,008554,082903,-79738,084884,094230,075664
0000000264,0000263000,-20047,093758,-61990,081644,095309,077826
0000000265,0000264000,-46118,095834,-37994,078752,095371,080655
0000000266,0000265000,-67021,088912,-10171,076495,094412,083871
0000000267,0000266000,-80633,073652,018698,075096,092524,087158
0000000268,0000267000,-85708,051506,045919,074688,089891,090199
0000000269,0000268000,-81761,024660,068818,075312,086770,092696
0000000270,0000269000,-69159,-04175,085054,076906,083472,094401
0000000271,0000270000,-49104,-32250,093076,079315,080315,095148
0000000272,0000271000,-23543,-56880,092144,082305,077606,094867
0000000273,0000272000,004948,-75563,082334,085579,075614,093585
0000000274,0000273000,033577,-86457,064596,088817,074535,091426
0000000275,0000274000,059658,-88547,040605,091708,074470,088600
0000000276,0000275000,080578,-81634,012774,093965,075427,085386
0000000277,0000276000,094230,-66400,-16109,095365,077312,082101
0000000278,0000277000,099325,-44259,-43345,095773,079943,079062
0000000279,0000278000,095386,-17396,-66270,095152,083061,076565
0000000280,0000279000,082811,011441,-82534,093561,086357,074860
0000000281,0000280000,062768,039525,-90577,091154,089512,074112
0000000282,0000281000,037191,064191,-89666,088167,092220,074391
0000000283,0000282000,008698,082898,-79877,084896,094212,075671
0000000284,0000283000,-19936,093806,-62149,081659,095292,077827
0000000285,0000284000,-46051,095930,-38158,078770,095358,080650
0000000286,0000285000,-67000,089042,-10323,076514,094404,083861
0000000287,0000286000,-80665,073808,018574,075113,092521,087143
0000000288,0000287000,-85791,051675,045832,074703,089894,090181
0000000289,0000288000,-81883,024820,068780,075323,086779,092677
0000000290,0000289000,-69311,-04039,085070,076911,083485,094382
0000000291,0000290000,-49276,-32145,093143,079314,080332,095132
0000000292,0000291000,-23712,-56822,092255,082298,077625,094855
0000000293,0000292000,004799,-75562,082482,085567,075633,093578
0000000294,0000293000,033457,-86507,064767,088801,074552,091425
0000000295,0000294000,059581,-88644,040779,091689,074484,088605
0000000296,0000295000,080559,-81776,012935,093945,075436,085397
0000000297,0000296000,094265,-66569,-15975,095346,077315,082117
0000000298,0000297000,099409,-44435,-43252,095758,079940,079080
0000000299,0000298000,095518,-17568,-66229,095141,083052,076586
0000000300,0000299000,082976,011291,-82549,093556,086343,074880
0000000301,0000300000,062947,039417,-90648,091155,089494,074129
