DIgSILENT PowerFactory,21000900,2000
6,06A,00D
1,TTPP_200000_100:Secondary Voltage A,,,V,0.10000000,-8194.784180,0.000000,61438,99998,1,1,P
2,TTPP_200000_100:Secondary Voltage B,,,V,0.10000000,-7711.541016,0.000000,57352,99998,1,1,P
3,TTPP_200000_100:Secondary Voltage C,,,V,0.10000000,-7992.901367,0.000000,60291,99998,1,1,P
4,TTCC_300_1:Secondary Current A,,,A,0.00010000000,-3.868490,0.000000,-3096,99998,1,1,P
5,TTCC_300_1:Secondary Current B,,,A,0.00010000000,-5.010863,0.000000,617,99998,1,1,P
6,TTCC_300_1:Secondary Current C,,,A,0.00010000000,-4.875636,0.000000,-2377,99998,1,1,P
50
1
1000.000000,1101
30/06/2023,06:05:59.000000
30/06/2023,06:05:59.000000
ASCII
1.000000
0000000001,0000000000,089054,078590,071348,017755,036119,083676
0000000002,0000001000,086920,081308,070763,027508,026840,083202
0000000003,0000002000,084279,083638,071074,038346,019844,079360
0000000004,0000003000,081423,085317,072251,049227,015799,072523
0000000005,0000004000,078630,086179,074184,059068,015126,063355
0000000006,0000005000,076142,086170,076681,066919,017876,052755
0000000007,0000006000,074220,085284,079487,072002,023773,041774
0000000008,0000007000,073077,083576,082340,073827,032247,031476
0000000009,0000008000,072790,081238,084962,072202,042489,022860
0000000010,0000009000,073389,078515,087088,067304,053463,016782
0000000011,0000010000,074836,075646,088510,059611,064097,013842
0000000012,0000011000,076990,072907,089095,049851,073383,014315
0000000013,0000012000,079611,070599,088783,039004,080389,018157
0000000014,0000013000,082463,068923,087606,028136,084420,024994
0000000015,0000014000,085277,068041,085675,018294,085094,034162
0000000016,0000015000,087756,068058,083177,010435,082354,044761
0000000017,0000016000,089664,068958,080370,005357,076450,055742
0000000018,0000017000,090826,070649,077518,003538,067971,066041
0000000019,0000018000,091110,072986,074896,005154,057739,074657
0000000020,0000019000,090498,075725,072770,010053,046763,080734
0000000021,0000020000,089060,078585,071347,017754,036120,083676
0000000022,0000021000,086914,081315,070763,027505,026843,083201
0000000023,0000022000,084277,083640,071075,038355,019836,079359
0000000024,0000023000,081431,085310,072251,049227,015800,072523
0000000025,0000024000,078628,086181,074184,059067,015128,063355
0000000026,0000025000,076135,086177,076681,066921,017874,052755
0000000027,0000026000,074227,085278,079488,072009,023767,041774
0000000028,0000027000,073079,083573,082340,073823,032251,031476
0000000029,0000028000,072784,081245,084962,072204,042487,022860
0000000030,0000029000,073389,078515,087088,067311,053457,016782
0000000031,0000030000,074843,075639,088510,059611,064097,013841
0000000032,0000031000,076985,072912,089095,049850,073384,014315
0000000033,0000032000,079608,070601,088783,039008,080385,018157
0000000034,0000033000,082468,068918,087607,028141,084416,024993
0000000035,0000034000,085276,068041,085675,018292,085097,034161
0000000036,0000035000,087752,068063,083177,010439,082352,044760
0000000037,0000036000,089667,068955,080370,005360,076448,055741
0000000038,0000037000,090827,070647,077518,003539,067972,066039
0000000039,0000038000,091107,072990,074896,005154,057740,074655
0000000040,0000039000,090499,075724,072770,010056,046761,080733
0000000041,0000040000,089063,078582,071347,017755,036122,083674
0000000042,0000041000,086912,081317,070763,027506,026844,083200
0000000043,0000042000,084277,083640,071074,038356,019836,079358
0000000044,0000043000,081433,085308,072251,049227,015800,072523
0000000045,0000044000,078626,086183,074184,059066,015129,063355
0000000046,0000045000,076135,086177,076680,066922,017872,052756
0000000047,0000046000,074229,085276,079487,072008,023767,041775
0000000048,0000047000,073077,083575,082340,073823,032250,031477
0000000049,0000048000,072783,081247,084962,072205,042484,022861
0000000050,0000049000,073392,078512,087088,067312,053455,016784
0000000051,0000050000,074841,075640,088511,059610,064097,013842
0000000052,0000051000,076982,072915,089095,049854,073380,014315
0000000053,0000052000,079611,070598,088783,039011,080382,018157
0000000054,0000053000,082468,068917,087607,028142,084416,024992
0000000055,0000054000,085272,068045,085675,018296,085095,034159
0000000056,0000055000,087753,068061,083178,010444,082348,044758
0000000057,0000056000,089670,068952,080371,005361,076449,055739
0000000058,0000057000,090824,070650,077519,003540,067973,066036
0000000059,0000058000,091107,072990,074896,005159,057738,074652
0000000060,0000059000,090504,075719,072769,010058,046763,080730
0000000061,0000060000,089061,078583,071347,017753,036126,083671
0000000062,0000061000,086909,081320,070763,027507,026845,083198
0000000063,0000062000,084282,083637,071074,038356,019837,079357
0000000064,0000063000,081435,085307,072251,049223,015805,072522
0000000065,0000064000,078622,086187,074183,059064,015130,063355
0000000066,0000065000,076136,086176,076680,066922,017871,052757
0000000067,0000066000,074232,085274,079487,072004,023769,041777
0000000068,0000067000,073073,083579,082339,073820,032250,031480
0000000069,0000068000,072782,081248,084962,072206,042480,022864
0000000070,0000069000,073395,078509,087088,067311,053452,016787
0000000071,0000070000,074839,075642,088511,059610,064095,013845
0000000072,0000071000,076979,072917,089096,049858,073375,014317
0000000073,0000072000,079613,070595,088784,039015,080377,018158
0000000074,0000073000,082468,068916,087608,028144,084414,024992
0000000075,0000074000,085269,068047,085675,018301,085091,034158
0000000076,0000075000,087755,068059,083178,010450,082344,044756
0000000077,0000076000,089671,068950,080371,005365,076449,055735
0000000078,0000077000,090822,070651,077519,003544,067974,066032
0000000079,0000078000,091108,072989,074896,005163,057739,074647
0000000080,0000079000,090506,075717,072770,010059,046766,080725
0000000081,0000080000,089060,078585,071347,017753,036130,083667
0000000082,0000081000,086910,081320,070762,027507,026848,083195
0000000083,0000082000,084284,083635,071073,038353,019842,079355
0000000084,0000083000,081434,085309,072250,049218,015810,072522
0000000085,0000084000,078622,086189,074182,059060,015133,063356
0000000086,0000085000,076139,086175,076679,066917,017873,052760
0000000087,0000086000,074231,085275,079486,071998,023770,041781
0000000088,0000087000,073071,083582,082339,073817,032248,031485
0000000089,0000088000,072783,081247,084962,072204,042477,022870
0000000090,0000089000,073394,078509,087089,067309,053449,016793
0000000091,0000090000,074835,075645,088512,059611,064089,013850
0000000092,0000091000,076980,072917,089096,049862,073367,014321
0000000093,0000092000,079614,070593,088785,039018,080371,018160
0000000094,0000093000,082465,068918,087609,028150,084408,024993
0000000095,0000094000,085269,068047,085677,018310,085084,034156
0000000096,0000095000,087757,068055,083179,010457,082341,044752
0000000097,0000096000,089670,068950,080372,005371,076449,055730
0000000098,0000097000,090821,070652,077520,003552,067973,066025
0000000099,0000098000,091111,072985,074896,005169,057741,074640
0000000100,0000099000,090507,075715,072770,010060,046773,080717
0000000101,0000100000,089059,078586,071346,017754,036136,083660
0000000102,0000101000,086913,081318,070761,027506,026855,083189
0000000103,0000102000,084287,083633,071072,038348,019851,079352
0000000104,0000103000,081432,085312,072248,049211,015818,072521
0000000105,0000104000,078623,086190,074180,059054,015137,063358
0000000106,0000105000,076141,086174,076677,066908,017877,052764
0000000107,0000106000,074229,085278,079485,071990,023773,041788
0000000108,0000107000,073069,083585,082338,073811,032246,031493
0000000109,0000108000,072784,081247,084961,072199,042472,022879
0000000110,0000109000,073392,078511,087089,067305,053443,016802
0000000111,0000110000,074832,075648,088512,059612,064079,013858
0000000112,0000111000,076979,072916,089098,049866,073356,014328
0000000113,0000112000,079613,070593,088787,039024,080362,018164
0000000114,0000113000,082462,068920,087611,028159,084398,024993
0000000115,0000114000,085269,068045,085678,018321,085076,034154
0000000116,0000115000,087758,068052,083181,010467,082336,044746
0000000117,0000116000,089669,068950,080374,005382,076447,055721
0000000118,0000117000,090822,070650,077521,003562,067973,066014
0000000119,0000118000,091114,072981,074897,005175,057746,074628
0000000120,0000119000,090508,075715,072769,010063,046781,080706
0000000121,0000120000,089061,078586,071345,017755,036146,083650
0000000122,0000121000,086917,081316,070759,027503,026866,083182
0000000123,0000122000,084288,083634,071070,038340,019863,079347
0000000124,0000123000,081433,085314,072246,049202,015828,072519
0000000125,0000124000,078625,086189,074178,059043,015146,063361
0000000126,0000125000,076141,086176,076676,066895,017884,052771
0000000127,0000126000,074226,085282,079484,071978,023775,041797
0000000128,0000127000,073069,083586,082337,073802,032243,031505
0000000129,0000128000,072783,081248,084961,072191,042467,022892
0000000130,0000129000,073388,078515,087089,067301,053434,016814
0000000131,0000130000,074830,075649,088513,059614,064066,013870
0000000132,0000131000,076979,072915,089099,049870,073342,014337
0000000133,0000132000,079609,070594,088789,039032,080348,018170
0000000134,0000133000,082459,068920,087613,028172,084384,024994
0000000135,0000134000,085269,068042,085681,018335,085065,034150
0000000136,0000135000,087758,068050,083184,010482,082330,044739
0000000137,0000136000,089668,068949,080376,005397,076443,055710
0000000138,0000137000,090825,070646,077522,003575,067974,066000
0000000139,0000138000,091117,072978,074897,005183,057753,074613
0000000140,0000139000,090509,075714,072769,010068,046792,080690
0000000141,0000140000,089064,078584,071344,017756,036159,083636
0000000142,0000141000,086921,081314,070758,027497,026882,083171
0000000143,0000142000,084289,083635,071068,038330,019880,079340
0000000144,0000143000,081434,085315,072243,049190,015842,072518
0000000145,0000144000,078628,086190,074175,059027,015158,063365
0000000146,0000145000,076141,086179,076673,066877,017893,052779
0000000147,0000146000,074225,085286,079481,071962,023777,041810
0000000148,0000147000,073069,083588,082335,073788,032241,031522
0000000149,0000148000,072780,081251,084960,072180,042460,022910
0000000150,0000149000,073384,078519,087089,067297,053421,016832
0000000151,0000150000,074827,075651,088514,059615,064050,013885
0000000152,0000151000,076976,072915,089102,049876,073325,014349
0000000153,0000152000,079605,070595,088792,039044,080329,018177
0000000154,0000153000,082457,068918,087617,028188,084366,024996
0000000155,0000154000,085269,068039,085685,018354,085051,034146
0000000156,0000155000,087756,068049,083187,010501,082321,044728
0000000157,0000156000,089668,068945,080378,005416,076439,055695
0000000158,0000157000,090828,070641,077524,003591,067977,065982
0000000159,0000158000,091119,072975,074898,005195,057763,074592
0000000160,0000159000,090512,075712,072768,010074,046805,080670
0000000161,0000160000,089069,078580,071342,017755,036177,083618
0000000162,0000161000,086925,081312,070755,027490,026904,083157
0000000163,0000162000,084292,083636,071064,038317,019901,079332
0000000164,0000163000,081438,085316,072239,049172,015861,072516
0000000165,0000164000,078630,086191,074171,059005,015174,063370
0000000166,0000165000,076140,086183,076669,066855,017904,052791
0000000167,0000166000,074224,085290,079478,071942,023781,041827
0000000168,0000167000,073068,083591,082333,073770,032238,031543
0000000169,0000168000,072776,081256,084960,072167,042451,022933
0000000170,0000169000,073380,078523,087090,067291,053405,016855
0000000171,0000170000,074824,075652,088516,059615,064029,013906
0000000172,0000171000,076971,072917,089105,049883,073302,014364
0000000173,0000172000,079600,070596,088796,039059,080305,018186
0000000174,0000173000,082455,068916,087621,028209,084344,024998
0000000175,0000174000,085267,068036,085689,018377,085033,034140
0000000176,0000175000,087755,068046,083191,010526,082309,044715
0000000177,0000176000,089670,068940,080382,005441,076434,055675
0000000178,0000177000,090831,070635,077526,003611,067981,065958
0000000179,0000178000,091122,072972,074899,005209,057774,074566
0000000180,0000179000,090516,075708,072768,010083,046822,080645
0000000181,0000180000,089075,078577,071341,017755,036200,083596
0000000182,0000181000,086929,081311,070752,027480,026931,083139
0000000183,0000182000,084296,083637,071060,038301,019927,079321
0000000184,0000183000,081442,085316,072234,049150,015886,072514
0000000185,0000184000,078632,086195,074166,058978,015195,063376
0000000186,0000185000,076140,086188,076664,066827,017917,052805
0000000187,0000186000,074224,085294,079474,071916,023786,041849
0000000188,0000187000,073065,083596,082330,073747,032235,031569
0000000189,0000188000,072772,081262,084959,072150,042438,022962
0000000190,0000189000,073375,078527,087090,067283,053384,016883
0000000191,0000190000,074819,075654,088519,059616,064003,013931
0000000192,0000191000,076965,072919,089109,049893,073273,014384
0000000193,0000192000,079596,070596,088801,039078,080275,018198
0000000194,0000193000,082452,068913,087627,028234,084316,025000
0000000195,0000194000,085264,068033,085695,018406,085011,034133
0000000196,0000195000,087754,068042,083197,010558,082293,044699
0000000197,0000196000,089672,068934,080386,005470,076428,055652
0000000198,0000197000,090834,070629,077529,003636,067985,065929
0000000199,0000198000,091126,072967,074900,005228,057787,074534
0000000200,0000199000,090522,075703,072767,010092,046844,080613
0000000201,0000200000,089081,078573,071338,017753,036229,083568
0000000202,0000201000,086934,081310,070748,027470,026963,083118
0000000203,0000202000,084301,083637,071054,038282,019960,079308
0000000204,0000203000,081447,085318,072228,049122,015916,072511
0000000205,0000204000,078633,086199,074160,058945,015220,063384
0000000206,0000205000,076140,086194,076658,066794,017933,052823
0000000207,0000206000,074223,085300,079469,071883,023792,041875
0000000208,0000207000,073062,083603,082327,073719,032230,031601
0000000209,0000208000,072766,081269,084957,072131,042423,022997
0000000210,0000209000,073370,078531,087091,067273,053359,016918
0000000211,0000210000,074813,075658,088521,059616,063972,013961
0000000212,0000211000,076957,072922,089113,049906,073237,014407
0000000213,0000212000,079590,070595,088807,039100,080238,018212
0000000214,0000213000,082448,068911,087634,028264,084283,025003
0000000215,0000214000,085261,068029,085702,018442,084984,034124
0000000216,0000215000,087753,068036,083203,010596,082275,044679
0000000217,0000216000,089674,068927,080391,005506,076421,055623
0000000218,0000217000,090837,070623,077533,003666,067990,065893
0000000219,0000218000,091131,072960,074902,005250,057804,074496
0000000220,0000219000,090530,075696,072766,010103,046871,080575
0000000221,0000220000,089088,078569,071335,017752,036264,083534
0000000222,0000221000,086941,081309,070743,027456,027002,083092
0000000223,0000222000,084308,083636,071048,038257,019999,079293
0000000224,0000223000,081452,085320,072220,049088,015953,072508
0000000225,0000224000,078636,086204,074152,058906,015249,063394
0000000226,0000225000,076142,086200,076651,066753,017952,052845
0000000227,0000226000,074222,085307,079464,071844,023800,041907
0000000228,0000227000,073057,083612,082323,073686,032225,031640
0000000229,0000228000,072760,081276,084955,072107,042404,023039
0000000230,0000229000,073363,078537,087092,067261,053330,016959
0000000231,0000230000,074804,075664,088525,059618,063934,013998
0000000232,0000231000,076949,072925,089118,049920,073194,014435
0000000233,0000232000,079584,070595,088814,039127,080195,018228
0000000234,0000233000,082442,068908,087642,028300,084244,025006
0000000235,0000234000,085257,068025,085710,018485,084952,034113
0000000236,0000235000,087753,068029,083211,010641,082254,044656
0000000237,0000236000,089676,068918,080398,005548,076413,055588
0000000238,0000237000,090841,070615,077537,003702,067997,065851
0000000239,0000238000,091138,072952,074903,005276,057823,074450
0000000240,0000239000,090538,075689,072765,010116,046903,080531
0000000241,0000240000,089097,078564,071331,017750,036305,083495
0000000242,0000241000,086950,081306,070737,027441,027048,083062
0000000243,0000242000,084316,083636,071040,038228,020046,079275
0000000244,0000243000,081458,085323,072212,049049,015996,072505
0000000245,0000244000,078640,086210,074143,058861,015284,063405
0000000246,0000245000,076143,086207,076643,066704,017975,052870
0000000247,0000246000,074220,085316,079457,071798,023808,041944
0000000248,0000247000,073052,083622,082319,073647,032218,031685
0000000249,0000248000,072754,081285,084953,072080,042382,023088
0000000250,0000249000,073354,078545,087093,067247,053296,017007
0000000251,0000250000,074794,075670,088529,059619,063890,014040
0000000252,0000251000,076940,072928,089125,049938,073144,014468
0000000253,0000252000,079576,070594,088822,039158,080144,018247
0000000254,0000253000,082435,068905,087652,028342,084198,025010
0000000255,0000254000,085253,068019,085720,018535,084914,034101
0000000256,0000255000,087752,068020,083220,010693,082229,044628
0000000257,0000256000,089678,068909,080405,005597,076404,055548
0000000258,0000257000,090845,070605,077542,003744,068004,065802
0000000259,0000258000,091146,072941,074906,005306,057847,074397
0000000260,0000259000,090548,075681,072764,010131,046941,080478
0000000261,0000260000,089107,078558,071327,017749,036353,083449
0000000262,0000261000,086960,081302,070730,027422,027101,083027
0000000263,0000262000,084326,083636,071031,038194,020101,079255
0000000264,0000263000,081464,085327,072201,049003,016046,072501
0000000265,0000264000,078644,086216,074132,058807,015323,063419
0000000266,0000265000,076144,086215,076633,066648,018001,052900
0000000267,0000266000,074217,085327,079449,071744,023818,041987
0000000268,0000267000,073046,083633,082313,073602,032210,031738
0000000269,0000268000,072746,081295,084951,072048,042357,023146
0000000270,0000269000,073344,078554,087095,067231,053256,017063
0000000271,0000270000,074783,075677,088533,059622,063838,014089
0000000272,0000271000,076929,072931,089132,049958,073086,014505
0000000273,0000272000,079566,070594,088832,039194,080086,018269
0000000274,0000273000,082427,068902,087663,028392,084144,025014
0000000275,0000274000,085248,068012,085731,018593,084871,034086
0000000276,0000275000,087751,068010,083230,010753,082201,044596
0000000277,0000276000,089680,068898,080414,005654,076394,055501
0000000278,0000277000,090851,070593,077548,003792,068012,065745
0000000279,0000278000,091155,072930,074908,005340,057874,074335
0000000280,0000279000,090558,075671,072763,010147,046984,080418
0000000281,0000280000,089119,078551,071322,017746,036408,083396
0000000282,0000281000,086972,081298,070722,027401,027163,082987
0000000283,0000282000,084336,083636,071020,038155,020164,079231
0000000284,0000283000,081472,085331,072189,048950,016103,072497
0000000285,0000284000,078650,086223,074120,058746,015369,063435
0000000286,0000285000,076146,086225,076622,066584,018032,052934
0000000287,0000286000,074214,085339,079439,071684,023829,042037
0000000288,0000287000,073041,083645,082306,073551,032200,031799
0000000289,0000288000,072737,081307,084948,072011,042328,023211
0000000290,0000289000,073332,078565,087096,067213,053210,017127
0000000291,0000290000,074770,075684,088538,059625,063779,014146
0000000292,0000291000,076917,072935,089141,049982,073020,014548
0000000293,0000292000,079554,070595,088844,039236,080020,018294
0000000294,0000293000,082418,068899,087676,028448,084084,025018
0000000295,0000294000,085243,068004,085745,018658,084823,034069
0000000296,0000295000,087750,068000,083243,010821,082169,044559
0000000297,0000296000,089683,068886,080424,005719,076383,055448
0000000298,0000297000,090858,070579,077555,003847,068022,065680
0000000299,0000298000,091165,072917,074911,005379,057905,074266
0000000300,0000299000,090570,075660,072762,010166,047033,080350
0000000301,0000300000,089132,078543,071317,017743,036470,083336
