DIgSILENT PowerFactory,21000900,2000
6,06A,00D
1,TTPP_200000_100:Secondary Voltage A,,,V,0.10000000,-8402.525391,0.000000,69725,99998,1,1,P
2,TTPP_200000_100:Secondary Voltage B,,,V,0.10000000,-8425.427734,0.000000,70624,99998,1,1,P
3,TTPP_200000_100:Secondary Voltage C,,,V,0.10000000,-8465.556641,0.000000,67124,99998,1,1,P
4,TTCC_500_5:Secondary Current A,,,A,0.0010000000,-79.052917,0.000000,64765,99998,1,1,P
5,TTCC_500_5:Secondary Current B,,,A,0.0010000000,-84.518524,0.000000,69119,99998,1,1,P
6,TTCC_500_5:Secondary Current C,,,A,0.0010000000,-84.860695,0.000000,69742,99998,1,1,P
50
1
1000.000000,1101
30/06/2023,06:12:07.000000
30/06/2023,06:12:07.000000
ASCII
1.000000
0000000001,0000000000,089537,087895,075503,084969,089198,074266
0000000002,0000001000,086989,090328,075617,081952,091916,074564
0000000003,0000002000,084139,092182,076615,078656,093906,075870
0000000004,0000003000,081289,093248,078398,075398,094979,078055
0000000005,0000004000,078710,093426,080800,072493,095029,080909
0000000006,0000005000,076636,092721,083578,070234,094049,084149
0000000007,0000006000,075290,091191,086454,068841,092136,087456
0000000008,0000007000,074815,088961,089159,068444,089478,090511
0000000009,0000008000,075227,086279,091428,069085,086333,093014
0000000010,0000009000,076491,083416,093029,070705,083011,094717
0000000011,0000010000,078512,080616,093808,073141,079838,095454
0000000012,0000011000,081074,078167,093694,076155,077122,095156
0000000013,0000012000,083903,076335,092697,079454,075127,093850
0000000014,0000013000,086754,075267,090912,082713,074054,091665
0000000015,0000014000,089354,075070,088511,085613,074008,088811
0000000016,0000015000,091413,075789,085733,087874,074987,085571
0000000017,0000016000,092748,077330,082857,089271,076897,082264
0000000018,0000017000,093246,079538,080152,089665,079558,079210
0000000019,0000018000,092828,082224,077883,089021,082705,076707
0000000020,0000019000,091546,085107,076283,087406,086023,075004
0000000021,0000020000,089542,087889,075503,084970,089196,074266
0000000022,0000021000,086988,090330,075617,081951,091916,074564
0000000023,0000022000,084137,092185,076614,078654,093908,075870
0000000024,0000023000,081292,093245,078398,075398,094978,078056
0000000025,0000024000,078710,093426,080800,072494,095029,080909
0000000026,0000025000,076633,092724,083578,070233,094050,084149
0000000027,0000026000,075293,091189,086454,068840,092136,087456
0000000028,0000027000,074815,088961,089160,068444,089478,090511
0000000029,0000028000,075224,086282,091428,069085,086333,093014
0000000030,0000029000,076494,083414,093028,070704,083012,094717
0000000031,0000030000,078513,080614,093808,073140,079838,095455
0000000032,0000031000,081069,078171,093695,076155,077121,095156
0000000033,0000032000,083905,076334,092697,079454,075128,093851
0000000034,0000033000,086758,075264,090913,082712,074055,091665
0000000035,0000034000,089350,075074,088512,085613,074008,088811
0000000036,0000035000,091412,075790,085733,087874,074987,085571
0000000037,0000036000,092754,077325,082857,089270,076897,082265
0000000038,0000037000,093244,079539,080152,089664,079558,079210
0000000039,0000038000,092824,082228,077883,089021,082704,076707
0000000040,0000039000,091551,085102,076282,087405,086023,075004
0000000041,0000040000,089544,087887,075503,084969,089197,074266
0000000042,0000041000,086983,090335,075617,081951,091916,074565
0000000043,0000042000,084138,092183,076614,078655,093907,075870
0000000044,0000043000,081297,093241,078398,075397,094979,078056
0000000045,0000044000,078705,093430,080800,072494,095029,080910
0000000046,0000045000,076631,092726,083577,070234,094049,084149
0000000047,0000046000,075298,091184,086453,068840,092137,087455
0000000048,0000047000,074813,088962,089159,068443,089479,090510
0000000049,0000048000,075220,086287,091428,069086,086333,093013
0000000050,0000049000,076497,083410,093028,070704,083012,094716
0000000051,0000050000,078514,080613,093808,073139,079839,095454
0000000052,0000051000,081065,078176,093695,076154,077122,095156
0000000053,0000052000,083906,076332,092697,079453,075128,093851
0000000054,0000053000,086761,075260,090913,082711,074056,091665
0000000055,0000054000,089346,075077,088512,085612,074009,088811
0000000056,0000055000,091411,075791,085734,087873,074987,085572
0000000057,0000056000,092757,077321,082858,089269,076898,082266
0000000058,0000057000,093243,079540,080152,089663,079558,079211
0000000059,0000058000,092823,082229,077883,089021,082704,076708
0000000060,0000059000,091554,085099,076283,087405,086022,075005
0000000061,0000060000,089544,087887,075503,084968,089197,074267
0000000062,0000061000,086981,090337,075616,081952,091915,074565
0000000063,0000062000,084141,092181,076613,078655,093906,075870
0000000064,0000063000,081297,093240,078397,075397,094979,078056
0000000065,0000064000,078703,093433,080799,072494,095029,080909
0000000066,0000065000,076633,092726,083577,070235,094049,084149
0000000067,0000066000,075299,091183,086453,068840,092137,087455
0000000068,0000067000,074810,088966,089159,068443,089479,090510
0000000069,0000068000,075220,086287,091428,069086,086333,093012
0000000070,0000069000,076498,083408,093028,070703,083013,094716
0000000071,0000070000,078511,080615,093809,073138,079841,095453
0000000072,0000071000,081063,078177,093695,076154,077123,095155
0000000073,0000072000,083908,076330,092698,079452,075130,093850
0000000074,0000073000,086759,075261,090915,082709,074058,091665
0000000075,0000074000,089344,075078,088513,085611,074009,088812
0000000076,0000075000,091413,075787,085735,087872,074987,085573
0000000077,0000076000,092758,077319,082859,089267,076899,082267
0000000078,0000077000,093240,079542,080153,089662,079558,079212
0000000079,0000078000,092825,082227,077883,089021,082703,076709
0000000080,0000079000,091557,085096,076282,087404,086022,075006
0000000081,0000080000,089543,087889,075503,084968,089196,074268
0000000082,0000081000,086982,090337,075615,081953,091913,074566
0000000083,0000082000,084145,092178,076612,078656,093905,075871
0000000084,0000083000,081297,093242,078396,075398,094978,078056
0000000085,0000084000,078702,093436,080798,072496,095027,080909
0000000086,0000085000,076636,092724,083575,070237,094048,084148
0000000087,0000086000,075299,091184,086452,068841,092138,087454
0000000088,0000087000,074807,088970,089158,068445,089479,090508
0000000089,0000088000,075221,086287,091427,069087,086334,093011
0000000090,0000089000,076498,083408,093029,070703,083015,094714
0000000091,0000090000,078507,080619,093809,073138,079843,095452
0000000092,0000091000,081062,078177,093696,076154,077124,095154
0000000093,0000092000,083908,076327,092699,079451,075132,093850
0000000094,0000093000,086756,075262,090916,082707,074060,091665
0000000095,0000094000,089342,075078,088514,085609,074010,088812
0000000096,0000095000,091415,075783,085736,087870,074988,085574
0000000097,0000096000,092757,077318,082860,089264,076900,082268
0000000098,0000097000,093240,079542,080154,089660,079558,079214
0000000099,0000098000,092829,082223,077884,089019,082701,076711
0000000100,0000099000,091559,085094,076283,087403,086021,075008
0000000101,0000100000,089543,087890,075502,084968,089194,074270
0000000102,0000101000,086985,090335,075614,081954,091911,074568
0000000103,0000102000,084148,092177,076611,078657,093903,075872
0000000104,0000103000,081296,093245,078394,075400,094976,078056
0000000105,0000104000,078704,093436,080795,072499,095025,080908
0000000106,0000105000,076638,092724,083573,070239,094047,084147
0000000107,0000106000,075297,091188,086450,068843,092137,087452
0000000108,0000107000,074806,088973,089157,068447,089479,090506
0000000109,0000108000,075221,086287,091427,069089,086335,093008
0000000110,0000109000,076495,083411,093029,070704,083017,094711
0000000111,0000110000,078504,080622,093810,073138,079845,095450
0000000112,0000111000,081061,078176,093697,076153,077127,095152
0000000113,0000112000,083906,076327,092702,079449,075135,093849
0000000114,0000113000,086753,075264,090919,082704,074063,091665
0000000115,0000114000,089342,075076,088517,085607,074012,088813
0000000116,0000115000,091416,075780,085739,087866,074990,085576
0000000117,0000116000,092755,077318,082862,089261,076900,082271
0000000118,0000117000,093241,079539,080155,089658,079557,079217
0000000119,0000118000,092832,082219,077884,089017,082700,076715
0000000120,0000119000,091560,085093,076282,087402,086019,075012
0000000121,0000120000,089545,087889,075501,084968,089191,074273
0000000122,0000121000,086990,090332,075612,081955,091907,074570
0000000123,0000122000,084150,092177,076608,078659,093900,075873
0000000124,0000123000,081297,093247,078391,075403,094973,078056
0000000125,0000124000,078706,093437,080792,072502,095022,080908
0000000126,0000125000,076639,092726,083571,070242,094045,084145
0000000127,0000126000,075294,091193,086448,068846,092137,087449
0000000128,0000127000,074805,088975,089155,068450,089480,090502
0000000129,0000128000,075220,086289,091426,069091,086337,093004
0000000130,0000129000,076491,083415,093029,070705,083020,094708
0000000131,0000130000,078500,080624,093811,073138,079848,095446
0000000132,0000131000,081060,078176,093700,076152,077131,095150
0000000133,0000132000,083902,076328,092705,079446,075139,093847
0000000134,0000133000,086749,075264,090922,082701,074066,091665
0000000135,0000134000,089342,075072,088520,085602,074015,088814
0000000136,0000135000,091415,075777,085742,087862,074992,085578
0000000137,0000136000,092755,077315,082865,089257,076901,082274
0000000138,0000137000,093244,079534,080157,089655,079556,079221
0000000139,0000138000,092835,082214,077885,089014,082699,076719
0000000140,0000139000,091562,085091,076282,087400,086016,075016
0000000141,0000140000,089549,087887,075499,084969,089186,074277
0000000142,0000141000,086995,090330,075610,081956,091903,074573
0000000143,0000142000,084152,092178,076605,078661,093896,075875
0000000144,0000143000,081299,093249,078387,075407,094968,078057
0000000145,0000144000,078710,093438,080788,072507,095019,080907
0000000146,0000145000,076638,092730,083567,070247,094043,084142
0000000147,0000146000,075293,091198,086445,068851,092136,087445
0000000148,0000147000,074804,088978,089153,068454,089480,090498
0000000149,0000148000,075216,086293,091425,069093,086339,092999
0000000150,0000149000,076486,083420,093030,070706,083024,094702
0000000151,0000150000,078497,080626,093813,073138,079853,095442
0000000152,0000151000,081056,078177,093703,076149,077137,095146
0000000153,0000152000,083897,076330,092709,079442,075145,093845
0000000154,0000153000,086747,075262,090926,082697,074071,091664
0000000155,0000154000,089341,075068,088525,085597,074020,088815
0000000156,0000155000,091414,075775,085747,087856,074995,085581
0000000157,0000156000,092756,077311,082868,089252,076902,082278
0000000158,0000157000,093248,079528,080160,089650,079556,079227
0000000159,0000158000,092839,082210,077887,089011,082696,076725
0000000160,0000159000,091565,085088,076281,087399,086012,075022
0000000161,0000160000,089555,087882,075497,084969,089181,074282
0000000162,0000161000,087000,090328,075606,081958,091897,074577
0000000163,0000162000,084155,092179,076600,078665,093889,075878
0000000164,0000163000,081304,093250,078382,075412,094963,078057
0000000165,0000164000,078712,093440,080783,072513,095015,080905
0000000166,0000165000,076638,092735,083562,070253,094040,084139
0000000167,0000166000,075292,091203,086440,068857,092134,087440
0000000168,0000167000,074802,088983,089150,068459,089481,090491
0000000169,0000168000,075211,086299,091424,069097,086342,092993
0000000170,0000169000,076480,083425,093030,070708,083028,094696
0000000171,0000170000,078492,080628,093815,073138,079859,095436
0000000172,0000171000,081049,078179,093707,076147,077144,095142
0000000173,0000172000,083891,076331,092714,079438,075152,093842
0000000174,0000173000,086743,075259,090932,082691,074077,091664
0000000175,0000174000,089339,075064,088531,085590,074025,088817
0000000176,0000175000,091412,075771,085752,087849,074999,085585
0000000177,0000176000,092757,077305,082873,089245,076903,082284
0000000178,0000177000,093252,079521,080163,089644,079555,079234
0000000179,0000178000,092842,082205,077888,089007,082693,076733
0000000180,0000179000,091571,085083,076281,087397,086006,075029
0000000181,0000180000,089563,087878,075494,084969,089174,074289
0000000182,0000181000,087006,090327,075602,081960,091890,074582
0000000183,0000182000,084161,092180,076594,078670,093882,075881
0000000184,0000183000,081309,093251,078375,075419,094955,078058
0000000185,0000184000,078715,093444,080776,072520,095009,080903
0000000186,0000185000,076638,092742,083556,070261,094037,084135
0000000187,0000186000,075291,091209,086435,068865,092133,087434
0000000188,0000187000,074799,088990,089146,068466,089483,090484
0000000189,0000188000,075205,086307,091423,069102,086346,092984
0000000190,0000189000,076474,083431,093031,070711,083034,094688
0000000191,0000190000,078485,080632,093818,073137,079866,095429
0000000192,0000191000,081041,078182,093712,076144,077152,095136
0000000193,0000192000,083884,076331,092720,079433,075160,093839
0000000194,0000193000,086739,075256,090940,082684,074085,091663
0000000195,0000194000,089335,075060,088539,085581,074032,088819
0000000196,0000195000,091411,075765,085759,087840,075003,085589
0000000197,0000196000,092760,077297,082879,089237,076905,082291
0000000198,0000197000,093255,079513,080167,089636,079554,079242
0000000199,0000198000,092847,082198,077890,089001,082689,076742
0000000200,0000199000,091579,085076,076280,087394,086000,075038
0000000201,0000200000,089571,087872,075491,084969,089166,074297
0000000202,0000201000,087013,090325,075597,081963,091880,074588
0000000203,0000202000,084168,092180,076587,078676,093872,075884
0000000204,0000203000,081316,093253,078367,075427,094947,078059
0000000205,0000204000,078718,093450,080768,072529,095002,080901
0000000206,0000205000,076639,092749,083548,070271,094032,084129
0000000207,0000206000,075290,091216,086429,068875,092131,087426
0000000208,0000207000,074794,088999,089142,068473,089484,090474
0000000209,0000208000,075198,086316,091421,069107,086350,092974
0000000210,0000209000,076466,083437,093032,070714,083041,094678
0000000211,0000210000,078476,080637,093822,073137,079876,095420
0000000212,0000211000,081032,078186,093718,076140,077162,095129
0000000213,0000212000,083877,076330,092728,079427,075170,093835
0000000214,0000213000,086733,075253,090949,082675,074095,091662
0000000215,0000214000,089331,075056,088548,085571,074039,088822
0000000216,0000215000,091410,075757,085768,087829,075008,085595
0000000217,0000216000,092762,077287,082886,089226,076907,082299
0000000218,0000217000,093260,079504,080172,089628,079552,079252
0000000219,0000218000,092854,082189,077892,088995,082684,076753
0000000220,0000219000,091589,085067,076279,087391,085992,075049
0000000221,0000220000,089581,087867,075487,084969,089156,074306
0000000222,0000221000,087023,090322,075590,081967,091869,074596
0000000223,0000222000,084178,092179,076578,078683,093860,075888
0000000224,0000223000,081322,093256,078357,075436,094936,078059
0000000225,0000224000,078722,093456,080758,072541,094994,080898
0000000226,0000225000,076640,092757,083538,070283,094026,084123
0000000227,0000226000,075288,091226,086421,068886,092129,087417
0000000228,0000227000,074789,089010,089137,068483,089486,090463
0000000229,0000228000,075191,086326,091418,069114,086356,092962
0000000230,0000229000,076457,083445,093033,070717,083049,094666
0000000231,0000230000,078465,080644,093826,073136,079887,095410
0000000232,0000231000,081021,078189,093725,076136,077175,095121
0000000233,0000232000,083868,076330,092737,079419,075183,093830
0000000234,0000233000,086726,075250,090960,082664,074107,091662
0000000235,0000234000,089326,075050,088559,085559,074048,088825
0000000236,0000235000,091409,075748,085778,087816,075014,085602
0000000237,0000236000,092765,077276,082895,089214,076909,082309
0000000238,0000237000,093265,079493,080178,089617,079550,079264
0000000239,0000238000,092863,082178,077894,088988,082678,076766
0000000240,0000239000,091600,085057,076278,087387,085983,075062
0000000241,0000240000,089592,087860,075483,084970,089144,074318
0000000242,0000241000,087034,090318,075582,081972,091856,074604
0000000243,0000242000,084188,092178,076568,078692,093847,075894
0000000244,0000243000,081330,093260,078345,075448,094924,078060
0000000245,0000244000,078726,093463,080745,072554,094984,080895
0000000246,0000245000,076642,092766,083527,070297,094020,084116
0000000247,0000246000,075286,091237,086412,068899,092127,087406
0000000248,0000247000,074782,089023,089130,068494,089488,090450
0000000249,0000248000,075182,086338,091415,069122,086362,092948
0000000250,0000249000,076446,083455,093034,070721,083059,094652
0000000251,0000250000,078452,080652,093831,073135,079899,095397
0000000252,0000251000,081009,078193,093733,076131,077189,095112
0000000253,0000252000,083857,076329,092749,079410,075197,093825
0000000254,0000253000,086716,075246,090972,082652,074120,091661
0000000255,0000254000,089320,075042,088572,085544,074059,088829
0000000256,0000255000,091408,075737,085790,087801,075021,085610
0000000257,0000256000,092767,077263,082905,089200,076911,082321
0000000258,0000257000,093271,079480,080185,089605,079548,079279
0000000259,0000258000,092874,082165,077897,088979,082671,076781
0000000260,0000259000,091612,085046,076276,087383,085972,075077
0000000261,0000260000,089605,087852,075477,084971,089131,074331
0000000262,0000261000,087048,090314,075573,081978,091840,074614
0000000263,0000262000,084201,092178,076556,078701,093831,075899
0000000264,0000263000,081339,093264,078332,075461,094910,078061
0000000265,0000264000,078733,093472,080731,072570,094972,080891
0000000266,0000265000,076644,092777,083514,070313,094012,084107
0000000267,0000266000,075283,091251,086401,068914,092124,087394
0000000268,0000267000,074775,089037,089123,068507,089490,090435
0000000269,0000268000,075171,086351,091412,069131,086369,092931
0000000270,0000269000,076432,083468,093035,070725,083071,094636
0000000271,0000270000,078437,080662,093837,073135,079914,095383
0000000272,0000271000,080994,078198,093743,076125,077206,095101
0000000273,0000272000,083844,076330,092762,079399,075214,093819
0000000274,0000273000,086706,075242,090987,082637,074135,091660
0000000275,0000274000,089314,075033,088588,085528,074071,088833
0000000276,0000275000,091406,075724,085804,087784,075029,085619
0000000277,0000276000,092770,077249,082916,089183,076914,082335
0000000278,0000277000,093279,079464,080193,089592,079545,079295
0000000279,0000278000,092885,082149,077901,088970,082663,076799
0000000280,0000279000,091626,085034,076275,087378,085959,075094
0000000281,0000280000,089621,087843,075471,084971,089115,074346
0000000282,0000281000,087064,090308,075563,081984,091822,074626
0000000283,0000282000,084215,092178,076542,078713,093814,075906
0000000284,0000283000,081350,093269,078316,075476,094894,078062
0000000285,0000284000,078740,093481,080715,072587,094959,080886
0000000286,0000285000,076646,092790,083499,070331,094004,084097
0000000287,0000286000,075279,091267,086388,068931,092121,087379
0000000288,0000287000,074767,089054,089114,068522,089493,090417
0000000289,0000288000,075159,086367,091409,069142,086378,092913
0000000290,0000289000,076416,083482,093037,070730,083085,094618
0000000291,0000290000,078420,080672,093844,073134,079931,095367
0000000292,0000291000,080978,078203,093754,076118,077225,095089
0000000293,0000292000,083829,076330,092776,079387,075233,093812
0000000294,0000293000,086694,075237,091004,082621,074153,091658
0000000295,0000294000,089307,075023,088605,085509,074085,088838
0000000296,0000295000,091404,075710,085821,087764,075038,085630
0000000297,0000296000,092773,077233,082930,089165,076917,082350
0000000298,0000297000,093287,079446,080202,089576,079542,079314
0000000299,0000298000,092898,082132,077905,088959,082654,076819
0000000300,0000299000,091643,085019,076273,087373,085945,075114
0000000301,0000300000,089639,087832,075464,084973,089096,074363
