DIgSILENT PowerFactory,21000900,2000
6,06A,00D
1,TTPP_200000_100:Secondary Voltage A,,,V,0.10000000,-8407.451172,0.000000,67937,99998,1,1,P
2,TTPP_200000_100:Secondary Voltage B,,,V,0.10000000,-8406.465820,0.000000,68993,99998,1,1,P
3,TTPP_200000_100:Secondary Voltage C,,,V,0.10000000,-8441.049805,0.000000,66144,99998,1,1,P
4,TTCC_500_5:Secondary Current A,,,A,0.0010000000,-86.122528,0.000000,65937,99998,1,1,P
5,TTCC_500_5:Secondary Current B,,,A,0.0010000000,-85.021507,0.000000,70062,99998,1,1,P
6,TTCC_500_5:Secondary Current C,,,A,0.0010000000,-84.659019,0.000000,69317,99998,1,1,P
50
1
1000.000000,1101
30/06/2023,06:06:05.000000
30/06/2023,06:06:05.000000
ASCII
1.000000
0000000001,0000000000,089586,087705,075258,092038,089701,074064
0000000002,0000001000,087038,090139,075372,089023,092417,074363
0000000003,0000002000,084187,091994,076370,085723,094412,075668
0000000004,0000003000,081341,093055,078153,082468,095481,077854
0000000005,0000004000,078757,093238,080555,079564,095531,080708
0000000006,0000005000,076685,092531,083333,077303,094552,083948
0000000007,0000006000,075339,091001,086208,075910,092639,087254
0000000008,0000007000,074866,088770,088914,075514,089980,090309
0000000009,0000008000,075275,086092,091183,076155,086836,092812
0000000010,0000009000,076542,083225,092784,077774,083514,094515
0000000011,0000010000,078562,080426,093562,080211,080340,095253
0000000012,0000011000,081123,077977,093449,083225,077624,094954
0000000013,0000012000,083951,076147,092452,086524,075631,093649
0000000014,0000013000,086805,075076,090667,089783,074557,091463
0000000015,0000014000,089403,074881,088266,092684,074510,088609
0000000016,0000015000,091462,075599,085488,094943,075491,085369
0000000017,0000016000,092797,077141,082612,096340,077400,082063
0000000018,0000017000,093296,079347,079907,096735,080061,079008
0000000019,0000018000,092877,082035,077638,096091,083207,076505
0000000020,0000019000,091595,084917,076038,094474,086527,074802
0000000021,0000020000,089591,087699,075258,092040,089699,074064
0000000022,0000021000,087038,090140,075372,089021,092419,074363
0000000023,0000022000,084186,091995,076369,085724,094411,075668
0000000024,0000023000,081341,093055,078153,082467,095482,077854
0000000025,0000024000,078759,093236,080555,079564,095531,080708
0000000026,0000025000,076682,092535,083332,077302,094553,083948
0000000027,0000026000,075342,090999,086208,075909,092639,087254
0000000028,0000027000,074864,088771,088914,075513,089981,090309
0000000029,0000028000,075274,086093,091183,076155,086836,092812
0000000030,0000029000,076543,083224,092783,077773,083515,094515
0000000031,0000030000,078563,080424,093563,080210,080341,095253
0000000032,0000031000,081118,077982,093449,083225,077624,094954
0000000033,0000032000,083954,076144,092451,086523,075631,093649
0000000034,0000033000,086808,075074,090667,089781,074558,091463
0000000035,0000034000,089399,074884,088267,092683,074511,088609
0000000036,0000035000,091460,075601,085488,094943,075490,085369
0000000037,0000036000,092804,077134,082612,096339,077401,082063
0000000038,0000037000,093293,079349,079907,096734,080061,079008
0000000039,0000038000,092873,082039,077638,096091,083207,076505
0000000040,0000039000,091600,084912,076037,094475,086526,074802
0000000041,0000040000,089594,087697,075258,092038,089700,074065
0000000042,0000041000,087031,090146,075372,089021,092419,074363
0000000043,0000042000,084188,091993,076369,085724,094410,075668
0000000044,0000043000,081346,093051,078153,082467,095482,077854
0000000045,0000044000,078755,093240,080555,079563,095532,080708
0000000046,0000045000,076680,092537,083332,077304,094552,083947
0000000047,0000046000,075347,090994,086208,075909,092640,087254
0000000048,0000047000,074863,088773,088914,075513,089981,090309
0000000049,0000048000,075269,086097,091183,076155,086836,092812
0000000050,0000049000,076546,083221,092783,077774,083515,094515
0000000051,0000050000,078564,080423,093563,080208,080342,095253
0000000052,0000051000,081114,077986,093450,083224,077625,094954
0000000053,0000052000,083954,076143,092452,086523,075631,093649
0000000054,0000053000,086810,075071,090668,089780,074559,091463
0000000055,0000054000,089396,074887,088267,092682,074512,088609
0000000056,0000055000,091460,075601,085489,094943,075490,085370
0000000057,0000056000,092806,077131,082613,096338,077401,082064
0000000058,0000057000,093292,079350,079907,096733,080062,079009
0000000059,0000058000,092872,082039,077638,096090,083207,076506
0000000060,0000059000,091603,084909,076037,094474,086526,074803
0000000061,0000060000,089593,087698,075258,092038,089700,074065
0000000062,0000061000,087031,090147,075371,089021,092418,074364
0000000063,0000062000,084190,091991,076368,085725,094410,075669
0000000064,0000063000,081347,093051,078152,082467,095482,077854
0000000065,0000064000,078753,093243,080554,079564,095532,080708
0000000066,0000065000,076683,092536,083331,077304,094552,083947
0000000067,0000066000,075348,090993,086208,075909,092640,087253
0000000068,0000067000,074859,088776,088914,075513,089982,090308
0000000069,0000068000,075269,086098,091183,076156,086836,092811
0000000070,0000069000,076548,083219,092783,077773,083516,094514
0000000071,0000070000,078560,080426,093563,080208,080344,095252
0000000072,0000071000,081112,077988,093450,083224,077626,094953
0000000073,0000072000,083957,076140,092453,086522,075632,093648
0000000074,0000073000,086808,075072,090669,089779,074561,091463
0000000075,0000074000,089393,074889,088268,092681,074512,088610
0000000076,0000075000,091463,075597,085490,094942,075490,085371
0000000077,0000076000,092807,077129,082614,096336,077402,082065
0000000078,0000077000,093289,079353,079908,096731,080061,079010
0000000079,0000078000,092874,082037,077638,096090,083206,076507
0000000080,0000079000,091606,084906,076038,094473,086525,074804
0000000081,0000080000,089592,087700,075258,092037,089699,074067
0000000082,0000081000,087031,090148,075370,089022,092416,074365
0000000083,0000082000,084194,091988,076367,085725,094408,075669
0000000084,0000083000,081346,093053,078151,082467,095481,077854
0000000085,0000084000,078751,093246,080553,079566,095530,080708
0000000086,0000085000,076685,092534,083330,077306,094551,083946
0000000087,0000086000,075348,090994,086207,075910,092641,087252
0000000088,0000087000,074856,088780,088913,075514,089982,090306
0000000089,0000088000,075270,086097,091182,076157,086837,092809
0000000090,0000089000,076548,083219,092783,077773,083518,094512
0000000091,0000090000,078557,080429,093564,080207,080345,095250
0000000092,0000091000,081111,077988,093451,083224,077627,094952
0000000093,0000092000,083957,076138,092454,086521,075635,093648
0000000094,0000093000,086805,075073,090671,089777,074563,091463
0000000095,0000094000,089392,074888,088269,092679,074513,088610
0000000096,0000095000,091464,075594,085491,094940,075491,085372
0000000097,0000096000,092806,077129,082615,096334,077403,082066
0000000098,0000097000,093289,079352,079909,096730,080061,079012
0000000099,0000098000,092878,082033,077639,096089,083205,076510
0000000100,0000099000,091608,084904,076038,094472,086524,074807
0000000101,0000100000,089592,087701,075257,092038,089697,074068
0000000102,0000101000,087035,090145,075369,089023,092414,074366
0000000103,0000102000,084197,091987,076366,085726,094406,075670
0000000104,0000103000,081345,093055,078149,082469,095479,077855
0000000105,0000104000,078753,093247,080550,079568,095528,080707
0000000106,0000105000,076687,092534,083328,077308,094550,083945
0000000107,0000106000,075346,090998,086205,075912,092640,087250
0000000108,0000107000,074855,088783,088912,075517,089982,090304
0000000109,0000108000,075270,086097,091182,076158,086838,092807
0000000110,0000109000,076545,083221,092784,077773,083520,094510
0000000111,0000110000,078553,080432,093565,080208,080348,095248
0000000112,0000111000,081111,077987,093452,083223,077630,094950
0000000113,0000112000,083955,076138,092456,086518,075638,093647
0000000114,0000113000,086802,075074,090673,089774,074566,091463
0000000115,0000114000,089392,074886,088272,092676,074515,088611
0000000116,0000115000,091465,075591,085494,094936,075493,085374
0000000117,0000116000,092805,077128,082617,096331,077403,082069
0000000118,0000117000,093291,079349,079910,096728,080060,079015
0000000119,0000118000,092882,082029,077639,096087,083203,076513
0000000120,0000119000,091609,084903,076037,094471,086522,074810
0000000121,0000120000,089594,087700,075256,092038,089694,074071
0000000122,0000121000,087040,090143,075367,089024,092410,074369
0000000123,0000122000,084199,091987,076363,085728,094403,075672
0000000124,0000123000,081346,093058,078146,082472,095476,077855
0000000125,0000124000,078756,093247,080547,079572,095525,080706
0000000126,0000125000,076688,092536,083326,077311,094548,083943
0000000127,0000126000,075344,091003,086203,075916,092640,087247
0000000128,0000127000,074854,088786,088910,075520,089982,090301
0000000129,0000128000,075269,086099,091181,076160,086840,092803
0000000130,0000129000,076540,083226,092784,077774,083523,094506
0000000131,0000130000,078549,080435,093566,080208,080351,095245
0000000132,0000131000,081109,077986,093455,083221,077634,094948
0000000133,0000132000,083951,076139,092460,086516,075642,093645
0000000134,0000133000,086799,075074,090677,089771,074569,091463
0000000135,0000134000,089392,074882,088275,092672,074518,088612
0000000136,0000135000,091464,075588,085497,094932,075496,085376
0000000137,0000136000,092804,077126,082620,096327,077404,082072
0000000138,0000137000,093294,079344,079912,096724,080060,079019
0000000139,0000138000,092885,082025,077640,096084,083202,076517
0000000140,0000139000,091611,084902,076037,094470,086519,074814
0000000141,0000140000,089599,087697,075254,092038,089690,074075
0000000142,0000141000,087044,090140,075365,089025,092406,074372
0000000143,0000142000,084201,091989,076360,085731,094399,075674
0000000144,0000143000,081349,093059,078142,082477,095471,077855
0000000145,0000144000,078759,093248,080543,079576,095522,080705
0000000146,0000145000,076688,092540,083322,077316,094546,083941
0000000147,0000146000,075342,091008,086200,075921,092639,087244
0000000148,0000147000,074853,088788,088907,075524,089983,090296
0000000149,0000148000,075266,086104,091180,076163,086842,092798
0000000150,0000149000,076535,083231,092784,077776,083526,094501
0000000151,0000150000,078546,080436,093568,080208,080355,095240
0000000152,0000151000,081105,077987,093458,083219,077639,094944
0000000153,0000152000,083946,076140,092464,086512,075648,093643
0000000154,0000153000,086796,075072,090681,089767,074574,091462
0000000155,0000154000,089391,074879,088280,092667,074523,088614
0000000156,0000155000,091463,075585,085502,094926,075498,085379
0000000157,0000156000,092805,077122,082623,096322,077405,082077
0000000158,0000157000,093297,079338,079915,096719,080059,079025
0000000159,0000158000,092888,082020,077642,096080,083200,076523
0000000160,0000159000,091615,084899,076036,094468,086515,074820
0000000161,0000160000,089605,087693,075252,092038,089684,074081
0000000162,0000161000,087050,090138,075362,089027,092400,074376
0000000163,0000162000,084205,091990,076355,085735,094392,075676
0000000164,0000163000,081353,093060,078137,082482,095466,077856
0000000165,0000164000,078762,093250,080538,079582,095518,080704
0000000166,0000165000,076687,092546,083317,077323,094543,083937
0000000167,0000166000,075341,091013,086195,075927,092637,087239
0000000168,0000167000,074852,088793,088905,075529,089984,090290
0000000169,0000168000,075261,086110,091179,076167,086845,092791
0000000170,0000169000,076529,083236,092785,077778,083531,094494
0000000171,0000170000,078541,080439,093570,080207,080362,095234
0000000172,0000171000,081099,077989,093462,083217,077646,094940
0000000173,0000172000,083940,076141,092469,086508,075654,093641
0000000174,0000173000,086793,075070,090687,089761,074580,091462
0000000175,0000174000,089388,074875,088286,092660,074528,088615
0000000176,0000175000,091461,075581,085507,094919,075502,085383
0000000177,0000176000,092807,077115,082628,096315,077406,082082
0000000178,0000177000,093301,079331,079918,096713,080058,079032
0000000179,0000178000,092891,082015,077643,096076,083196,076531
0000000180,0000179000,091621,084893,076036,094466,086509,074827
0000000181,0000180000,089612,087688,075249,092038,089677,074087
0000000182,0000181000,087055,090137,075357,089030,092393,074381
0000000183,0000182000,084210,091990,076349,085739,094385,075679
0000000184,0000183000,081359,093061,078130,082488,095458,077856
0000000185,0000184000,078764,093254,080531,079590,095512,080702
0000000186,0000185000,076687,092552,083311,077331,094539,083933
0000000187,0000186000,075341,091019,086190,075935,092636,087233
0000000188,0000187000,074848,088800,088901,075535,089985,090282
0000000189,0000188000,075254,086118,091177,076171,086849,092783
0000000190,0000189000,076523,083241,092785,077780,083536,094486
0000000191,0000190000,078535,080442,093573,080207,080369,095227
0000000192,0000191000,081091,077993,093467,083214,077655,094934
0000000193,0000192000,083934,076141,092475,086503,075663,093637
0000000194,0000193000,086788,075067,090695,089753,074588,091461
0000000195,0000194000,089384,074871,088294,092651,074535,088617
0000000196,0000195000,091460,075575,085514,094910,075506,085387
0000000197,0000196000,092809,077107,082634,096306,077408,082089
0000000198,0000197000,093305,079323,079922,096706,080057,079040
0000000199,0000198000,092897,082009,077645,096071,083192,076540
0000000200,0000199000,091629,084886,076035,094464,086503,074837
0000000201,0000200000,089621,087683,075246,092039,089669,074095
0000000202,0000201000,087063,090135,075352,089033,092383,074387
0000000203,0000202000,084218,091990,076342,085745,094375,075683
0000000204,0000203000,081365,093063,078122,082496,095450,077857
0000000205,0000204000,078767,093260,080523,079599,095505,080699
0000000206,0000205000,076688,092559,083303,077341,094535,083928
0000000207,0000206000,075340,091026,086184,075944,092634,087225
0000000208,0000207000,074844,088809,088897,075543,089987,090273
0000000209,0000208000,075248,086126,091175,076177,086853,092773
0000000210,0000209000,076516,083248,092786,077783,083544,094476
0000000211,0000210000,078526,080448,093577,080206,080378,095218
0000000212,0000211000,081081,077996,093473,083210,077665,094928
0000000213,0000212000,083926,076141,092483,086497,075673,093633
0000000214,0000213000,086782,075063,090704,089744,074598,091461
0000000215,0000214000,089380,074866,088303,092641,074542,088620
0000000216,0000215000,091459,075568,085523,094899,075511,085393
0000000217,0000216000,092812,077097,082641,096296,077410,082097
0000000218,0000217000,093309,079314,079927,096697,080056,079050
0000000219,0000218000,092904,082000,077647,096065,083187,076551
0000000220,0000219000,091638,084877,076034,094461,086495,074847
0000000221,0000220000,089630,087677,075242,092039,089659,074105
0000000222,0000221000,087072,090132,075345,089037,092372,074394
0000000223,0000222000,084227,091989,076333,085753,094364,075687
0000000224,0000223000,081372,093066,078112,082506,095439,077858
0000000225,0000224000,078771,093266,080513,079610,095497,080697
0000000226,0000225000,076689,092567,083293,077353,094529,083922
0000000227,0000226000,075338,091036,086176,075955,092632,087216
0000000228,0000227000,074838,088820,088891,075553,089989,090262
0000000229,0000228000,075240,086137,091173,076184,086858,092761
0000000230,0000229000,076506,083256,092787,077787,083552,094464
0000000231,0000230000,078514,080455,093581,080206,080389,095208
0000000232,0000231000,081070,078000,093480,083206,077677,094920
0000000233,0000232000,083917,076140,092492,086489,075686,093629
0000000234,0000233000,086775,075060,090715,089734,074609,091460
0000000235,0000234000,089375,074860,088314,092628,074551,088623
0000000236,0000235000,091458,075558,085533,094886,075517,085400
0000000237,0000236000,092814,077086,082650,096284,077412,082107
0000000238,0000237000,093314,079303,079933,096687,080054,079063
0000000239,0000238000,092912,081988,077649,096058,083181,076564
0000000240,0000239000,091649,084868,076033,094457,086486,074860
0000000241,0000240000,089641,087670,075238,092039,089648,074116
0000000242,0000241000,087083,090129,075337,089042,092359,074403
0000000243,0000242000,084238,091989,076323,085761,094350,075692
0000000244,0000243000,081380,093070,078100,082517,095427,077859
0000000245,0000244000,078776,093274,080500,079624,095487,080693
0000000246,0000245000,076691,092576,083282,077366,094523,083914
0000000247,0000246000,075335,091048,086167,075968,092630,087205
0000000248,0000247000,074831,088833,088885,075564,089991,090249
0000000249,0000248000,075231,086148,091170,076192,086865,092746
0000000250,0000249000,076495,083266,092789,077790,083562,094450
0000000251,0000250000,078501,080463,093586,080205,080402,095196
0000000252,0000251000,081058,078004,093488,083201,077692,094910
0000000253,0000252000,083906,076140,092503,086480,075700,093623
0000000254,0000253000,086765,075057,090727,089721,074623,091459
0000000255,0000254000,089369,074853,088327,092614,074562,088627
0000000256,0000255000,091457,075547,085545,094871,075524,085408
0000000257,0000256000,092816,077074,082660,096269,077415,082119
0000000258,0000257000,093320,079290,079940,096675,080051,079077
0000000259,0000258000,092923,081975,077652,096049,083175,076580
0000000260,0000259000,091662,084856,076032,094453,086475,074875
0000000261,0000260000,089655,087663,075232,092040,089634,074129
0000000262,0000261000,087097,090124,075328,089047,092343,074413
0000000263,0000262000,084250,091988,076311,085771,094335,075698
0000000264,0000263000,081389,093075,078087,082530,095413,077860
0000000265,0000264000,078782,093282,080486,079639,095475,080689
0000000266,0000265000,076693,092588,083269,077383,094515,083905
0000000267,0000266000,075332,091062,086156,075983,092627,087192
0000000268,0000267000,074824,088848,088877,075577,089993,090233
0000000269,0000268000,075221,086162,091167,076201,086872,092730
0000000270,0000269000,076481,083278,092790,077795,083574,094434
0000000271,0000270000,078486,080472,093592,080205,080417,095181
0000000272,0000271000,081044,078008,093498,083195,077708,094900
0000000273,0000272000,083893,076140,092516,086469,075717,093617
0000000274,0000273000,086755,075053,090742,089707,074638,091458
0000000275,0000274000,089363,074844,088343,092597,074574,088631
0000000276,0000275000,091456,075535,085559,094854,075532,085417
0000000277,0000276000,092819,077060,082671,096253,077417,082133
0000000278,0000277000,093328,079275,079948,096661,080049,079093
0000000279,0000278000,092935,081960,077656,096039,083167,076597
0000000280,0000279000,091676,084844,076030,094448,086463,074893
0000000281,0000280000,089670,087653,075226,092041,089618,074144
0000000282,0000281000,087113,090118,075318,089053,092325,074424
0000000283,0000282000,084264,091988,076297,085782,094317,075704
0000000284,0000283000,081400,093080,078071,082546,095397,077861
0000000285,0000284000,078789,093291,080470,079657,095462,080684
0000000286,0000285000,076695,092601,083254,077401,094507,083895
0000000287,0000286000,075328,091078,086143,076001,092624,087178
0000000288,0000287000,074816,088864,088869,075591,089996,090216
0000000289,0000288000,075209,086177,091163,076211,086881,092711
0000000290,0000289000,076466,083292,092792,077800,083587,094416
0000000291,0000290000,078469,080482,093598,080204,080434,095165
0000000292,0000291000,081027,078014,093509,083188,077727,094888
0000000293,0000292000,083878,076141,092531,086457,075736,093610
0000000294,0000293000,086743,075048,090759,089691,074655,091457
0000000295,0000294000,089356,074834,088360,092579,074588,088636
0000000296,0000295000,091453,075521,085576,094834,075541,085428
0000000297,0000296000,092822,077043,082685,096235,077421,082148
0000000298,0000297000,093337,079256,079957,096646,080045,079112
0000000299,0000298000,092948,081942,077660,096028,083158,076617
0000000300,0000299000,091692,084829,076028,094443,086448,074912
0000000301,0000300000,089689,087642,075219,092042,089600,074161
