DIgSILENT PowerFactory,21000900,2000
6,06A,00D
1,TTPP_200000_100:Secondary Voltage A,,,V,0.10000000,-8660.607422,0.000000,72907,99998,1,1,P
2,TTPP_200000_100:Secondary Voltage B,,,V,0.10000000,-8542.806641,0.000000,72479,99998,1,1,P
3,TTPP_200000_100:Secondary Voltage C,,,V,0.10000000,-8672.497070,0.000000,70716,99998,1,1,P
4,TTCC_300_1:Secondary Current A,,,A,0.00010000000,-5.220408,0.000000,-17101,99998,1,1,P
5,TTCC_300_1:Secondary Current B,,,A,0.00010000000,-4.871696,0.000000,-2702,99998,1,1,P
6,TTCC_300_1:Secondary Current C,,,A,0.00010000000,-4.954753,0.000000,-1010,99998,1,1,P
50
1
1000.000000,1101
30/06/2023,06:09:08.000000
30/06/2023,06:09:08.000000
ASCII
1.000000
0000000001,0000000000,093712,086903,078144,031275,034727,084467
0000000002,0000001000,091578,089621,077559,041027,025449,083993
0000000003,0000002000,088937,091951,077870,051866,018452,080150
0000000004,0000003000,086081,093630,079047,062746,014408,073315
0000000005,0000004000,083287,094492,080980,072588,013733,064146
0000000006,0000005000,080801,094482,083477,080437,016486,053546
0000000007,0000006000,078878,093597,086283,085523,022380,042565
0000000008,0000007000,077735,091888,089136,087345,030857,032268
0000000009,0000008000,077449,089551,091758,085722,041096,023651
0000000010,0000009000,078047,086828,093884,080823,052072,017573
0000000011,0000010000,079495,083958,095306,073129,062706,014633
0000000012,0000011000,081648,081220,095891,063370,071991,015106
0000000013,0000012000,084270,078911,095579,052522,078998,018949
0000000014,0000013000,087121,077235,094402,041656,083028,025785
0000000015,0000014000,089935,076354,092470,031812,083703,034954
0000000016,0000015000,092414,076371,089973,023954,080962,045552
0000000017,0000016000,094322,077271,087165,018876,075058,056534
0000000018,0000017000,095484,078961,084314,017057,066580,066832
0000000019,0000018000,095768,081299,081692,018673,056347,075448
0000000020,0000019000,095156,084038,079566,023572,045371,081525
0000000021,0000020000,093719,086897,078143,031274,034728,084467
0000000022,0000021000,091572,089628,077559,041025,025452,083993
0000000023,0000022000,088935,091953,077871,051875,018444,080150
0000000024,0000023000,086089,093623,079047,062746,014408,073314
0000000025,0000024000,083286,094494,080980,072586,013736,064146
0000000026,0000025000,080793,094490,083477,080440,016482,053546
0000000027,0000026000,078885,093591,086284,085528,022375,042565
0000000028,0000027000,077737,091886,089136,087343,030859,032267
0000000029,0000028000,077442,089558,091759,085722,041096,023651
0000000030,0000029000,078047,086828,093884,080830,052065,017573
0000000031,0000030000,079501,083951,095306,073130,062706,014632
0000000032,0000031000,081644,081225,095891,063370,071992,015106
0000000033,0000032000,084267,078913,095579,052527,078994,018948
0000000034,0000033000,087126,077230,094403,041660,083024,025784
0000000035,0000034000,089935,076354,092470,031811,083706,034952
0000000036,0000035000,092410,076376,089973,023958,080960,045552
0000000037,0000036000,094325,077268,087166,018879,075056,056533
0000000038,0000037000,095486,078959,084314,017058,066580,066830
0000000039,0000038000,095766,081302,081692,018673,056349,075446
0000000040,0000039000,095157,084037,079565,023576,045369,081524
0000000041,0000040000,093721,086895,078143,031274,034730,084465
0000000042,0000041000,091570,089630,077559,041025,025452,083991
0000000043,0000042000,088935,091953,077870,051875,018444,080149
0000000044,0000043000,086091,093621,079047,062746,014408,073314
0000000045,0000044000,083284,094495,080980,072585,013737,064146
0000000046,0000045000,080793,094490,083476,080441,016480,053547
0000000047,0000046000,078887,093589,086284,085527,022376,042566
0000000048,0000047000,077735,091888,089136,087342,030858,032268
0000000049,0000048000,077441,089560,091758,085724,041093,023652
0000000050,0000049000,078050,086824,093884,080831,052063,017575
0000000051,0000050000,079500,083953,095307,073129,062705,014633
0000000052,0000051000,081640,081227,095892,063373,071988,015106
0000000053,0000052000,084270,078910,095579,052530,078990,018948
0000000054,0000053000,087127,077229,094403,041661,083024,025784
0000000055,0000054000,089930,076358,092471,031815,083703,034951
0000000056,0000055000,092412,076374,089973,023963,080956,045550
0000000057,0000056000,094328,077264,087166,018881,075057,056531
0000000058,0000057000,095482,078962,084315,017059,066581,066828
0000000059,0000058000,095765,081303,081692,018678,056346,075443
0000000060,0000059000,095162,084032,079565,023577,045371,081521
0000000061,0000060000,093719,086896,078143,031272,034734,084463
0000000062,0000061000,091567,089633,077559,041027,025453,083989
0000000063,0000062000,088940,091950,077870,051876,018445,080148
0000000064,0000063000,086093,093620,079047,062742,014413,073313
0000000065,0000064000,083280,094500,080979,072583,013738,064146
0000000066,0000065000,080794,094489,083476,080441,016479,053548
0000000067,0000066000,078890,093586,086283,085524,022377,042568
0000000068,0000067000,077732,091892,089136,087339,030859,032271
0000000069,0000068000,077440,089561,091758,085725,041089,023655
0000000070,0000069000,078053,086822,093884,080831,052060,017578
0000000071,0000070000,079498,083954,095307,073129,062703,014636
0000000072,0000071000,081638,081230,095892,063377,071983,015109
0000000073,0000072000,084271,078908,095580,052534,078985,018949
0000000074,0000073000,087126,077229,094404,041663,083022,025784
0000000075,0000074000,089928,076360,092471,031820,083699,034949
0000000076,0000075000,092413,076371,089974,023969,080953,045547
0000000077,0000076000,094329,077263,087167,018884,075057,056527
0000000078,0000077000,095480,078964,084315,017063,066582,066823
0000000079,0000078000,095766,081301,081692,018683,056347,075439
0000000080,0000079000,095164,084030,079565,023578,045374,081516
0000000081,0000080000,093718,086898,078143,031273,034738,084458
0000000082,0000081000,091568,089633,077558,041027,025456,083986
0000000083,0000082000,088942,091947,077869,051873,018450,080146
0000000084,0000083000,086092,093622,079046,062737,014418,073313
0000000085,0000084000,083280,094501,080978,072580,013741,064147
0000000086,0000085000,080797,094487,083475,080436,016481,053551
0000000087,0000086000,078889,093588,086283,085518,022379,042572
0000000088,0000087000,077729,091895,089135,087336,030857,032276
0000000089,0000088000,077441,089560,091758,085723,041085,023661
0000000090,0000089000,078052,086822,093885,080828,052057,017584
0000000091,0000090000,079494,083958,095308,073130,062697,014641
0000000092,0000091000,081638,081229,095892,063381,071975,015112
0000000093,0000092000,084272,078906,095581,052537,078979,018952
0000000094,0000093000,087123,077231,094405,041669,083016,025784
0000000095,0000094000,089927,076360,092472,031829,083693,034948
0000000096,0000095000,092416,076368,089975,023976,080949,045543
0000000097,0000096000,094328,077263,087168,018890,075057,056521
0000000098,0000097000,095479,078965,084316,017071,066581,066816
0000000099,0000098000,095770,081298,081692,018688,056349,075431
0000000100,0000099000,095166,084028,079565,023579,045381,081508
0000000101,0000100000,093717,086899,078142,031273,034745,084451
0000000102,0000101000,091571,089631,077557,041026,025463,083980
0000000103,0000102000,088945,091946,077868,051867,018459,080143
0000000104,0000103000,086090,093624,079044,062731,014426,073312
0000000105,0000104000,083281,094502,080977,072573,013746,064149
0000000106,0000105000,080799,094487,083474,080427,016486,053555
0000000107,0000106000,078887,093591,086281,085509,022381,042579
0000000108,0000107000,077728,091897,089134,087330,030854,032284
0000000109,0000108000,077442,089559,091757,085718,041081,023670
0000000110,0000109000,078050,086824,093885,080824,052052,017593
0000000111,0000110000,079491,083960,095308,073131,062688,014649
0000000112,0000111000,081638,081228,095894,063385,071964,015119
0000000113,0000112000,084271,078905,095583,052543,078970,018955
0000000114,0000113000,087120,077232,094407,041678,083007,025784
0000000115,0000114000,089927,076358,092474,031840,083684,034945
0000000116,0000115000,092417,076365,089977,023987,080945,045538
0000000117,0000116000,094327,077262,087170,018901,075055,056513
0000000118,0000117000,095481,078962,084316,017081,066581,066806
0000000119,0000118000,095773,081294,081692,018694,056354,075420
0000000120,0000119000,095166,084028,079565,023582,045389,081497
0000000121,0000120000,093719,086899,078141,031274,034754,084441
0000000122,0000121000,091575,089629,077555,041022,025474,083973
0000000123,0000122000,088946,091947,077866,051859,018472,080138
0000000124,0000123000,086091,093626,079042,062722,014436,073311
0000000125,0000124000,083283,094502,080974,072562,013754,064152
0000000126,0000125000,080799,094488,083472,080414,016493,053562
0000000127,0000126000,078885,093595,086280,085497,022383,042588
0000000128,0000127000,077727,091899,089133,087321,030852,032296
0000000129,0000128000,077441,089560,091757,085710,041076,023683
0000000130,0000129000,078046,086827,093885,080821,052043,017606
0000000131,0000130000,079488,083962,095309,073133,062675,014661
0000000132,0000131000,081637,081227,095895,063389,071951,015128
0000000133,0000132000,084268,078906,095585,052551,078957,018961
0000000134,0000133000,087118,077232,094409,041691,082993,025786
0000000135,0000134000,089928,076354,092477,031854,083673,034942
0000000136,0000135000,092416,076363,089980,024001,080938,045530
0000000137,0000136000,094326,077261,087172,018916,075052,056501
0000000138,0000137000,095483,078958,084318,017094,066583,066792
0000000139,0000138000,095775,081291,081693,018703,056361,075404
0000000140,0000139000,095167,084027,079565,023587,045400,081482
0000000141,0000140000,093722,086897,078140,031275,034767,084427
0000000142,0000141000,091579,089626,077553,041016,025491,083962
0000000143,0000142000,088947,091948,077864,051849,018488,080131
0000000144,0000143000,086092,093628,079039,062709,014450,073309
0000000145,0000144000,083286,094502,080971,072546,013766,064156
0000000146,0000145000,080799,094491,083469,080396,016502,053570
0000000147,0000146000,078883,093599,086277,085482,022386,042601
0000000148,0000147000,077727,091901,089131,087307,030849,032313
0000000149,0000148000,077439,089564,091757,085699,041069,023701
0000000150,0000149000,078042,086831,093886,080816,052030,017623
0000000151,0000150000,079486,083963,095310,073134,062658,014676
0000000152,0000151000,081634,081228,095898,063395,071933,015140
0000000153,0000152000,084263,078908,095588,052562,078938,018968
0000000154,0000153000,087116,077231,094413,041707,082975,025787
0000000155,0000154000,089927,076351,092480,031873,083659,034937
0000000156,0000155000,092415,076361,089983,024020,080929,045520
0000000157,0000156000,094327,077258,087174,018935,075047,056486
0000000158,0000157000,095486,078954,084320,017110,066585,066773
0000000159,0000158000,095777,081288,081694,018714,056371,075384
0000000160,0000159000,095170,084025,079564,023594,045413,081461
0000000161,0000160000,093727,086893,078138,031275,034785,084409
0000000162,0000161000,091583,089625,077551,041009,025512,083948
0000000163,0000162000,088950,091949,077860,051837,018509,080123
0000000164,0000163000,086096,093628,079035,062692,014469,073307
0000000165,0000164000,083288,094504,080967,072525,013783,064161
0000000166,0000165000,080798,094496,083465,080374,016512,053582
0000000167,0000166000,078882,093603,086274,085461,022389,042618
0000000168,0000167000,077726,091904,089129,087289,030846,032334
0000000169,0000168000,077435,089568,091756,085686,041059,023724
0000000170,0000169000,078038,086835,093886,080810,052013,017646
0000000171,0000170000,079483,083964,095312,073134,062637,014697
0000000172,0000171000,081629,081229,095901,063402,071910,015156
0000000173,0000172000,084259,078908,095592,052578,078914,018977
0000000174,0000173000,087114,077228,094417,041728,082952,025789
0000000175,0000174000,089926,076348,092485,031896,083642,034932
0000000176,0000175000,092413,076359,089987,024045,080917,045507
0000000177,0000176000,094328,077253,087177,018960,075042,056467
0000000178,0000177000,095489,078948,084322,017130,066589,066749
0000000179,0000178000,095780,081284,081695,018729,056382,075358
0000000180,0000179000,095174,084021,079564,023602,045431,081436
0000000181,0000180000,093733,086890,078136,031274,034808,084387
0000000182,0000181000,091587,089624,077548,041000,025539,083931
0000000183,0000182000,088954,091950,077856,051821,018536,080112
0000000184,0000183000,086100,093629,079030,062669,014494,073305
0000000185,0000184000,083290,094507,080962,072498,013803,064167
0000000186,0000185000,080798,094501,083460,080347,016525,053596
0000000187,0000186000,078882,093607,086270,085435,022394,042640
0000000188,0000187000,077723,091909,089127,087266,030843,032360
0000000189,0000188000,077430,089574,091755,085669,041047,023753
0000000190,0000189000,078033,086839,093887,080802,051993,017674
0000000191,0000190000,079478,083967,095315,073135,062612,014722
0000000192,0000191000,081623,081232,095905,063412,071881,015175
0000000193,0000192000,084254,078909,095597,052596,078883,018989
0000000194,0000193000,087111,077226,094423,041753,082925,025792
0000000195,0000194000,089923,076345,092491,031925,083620,034924
0000000196,0000195000,092412,076354,089992,024077,080902,045490
0000000197,0000196000,094330,077247,087182,018990,075036,056443
0000000198,0000197000,095492,078942,084325,017155,066593,066720
0000000199,0000198000,095784,081280,081696,018747,056395,075326
0000000200,0000199000,095181,084016,079563,023612,045452,081405
0000000201,0000200000,093739,086886,078134,031273,034837,084359
0000000202,0000201000,091592,089623,077544,040989,025571,083909
0000000203,0000202000,088959,091949,077850,051801,018568,080100
0000000204,0000203000,086105,093630,079024,062641,014525,073302
0000000205,0000204000,083292,094512,080956,072465,013828,064175
0000000206,0000205000,080798,094506,083455,080313,016541,053614
0000000207,0000206000,078881,093612,086265,085402,022400,042666
0000000208,0000207000,077720,091916,089123,087238,030839,032392
0000000209,0000208000,077424,089581,091753,085650,041031,023788
0000000210,0000209000,078028,086844,093887,080792,051968,017709
0000000211,0000210000,079471,083971,095317,073135,062580,014752
0000000212,0000211000,081616,081234,095909,063425,071845,015198
0000000213,0000212000,084249,078908,095603,052619,078846,019003
0000000214,0000213000,087106,077223,094430,041783,082892,025794
0000000215,0000214000,089919,076342,092498,031961,083593,034916
0000000216,0000215000,092412,076349,089999,024115,080883,045471
0000000217,0000216000,094333,077239,087187,019025,075029,056414
0000000218,0000217000,095495,078935,084329,017185,066599,066684
0000000219,0000218000,095789,081273,081697,018769,056412,075287
0000000220,0000219000,095188,084009,079562,023623,045479,081367
0000000221,0000220000,093747,086881,078131,031271,034872,084325
0000000222,0000221000,091599,089621,077538,040976,025610,083883
0000000223,0000222000,088966,091949,077844,051777,018608,080084
0000000224,0000223000,086110,093633,079016,062608,014561,073299
0000000225,0000224000,083294,094517,080948,072426,013858,064185
0000000226,0000225000,080800,094512,083447,080272,016561,053636
0000000227,0000226000,078880,093619,086260,085363,022408,042698
0000000228,0000227000,077715,091924,089119,087205,030833,032431
0000000229,0000228000,077419,089589,091752,085626,041013,023830
0000000230,0000229000,078021,086850,093888,080780,051939,017750
0000000231,0000230000,079462,083976,095321,073137,062543,014789
0000000232,0000231000,081608,081237,095914,063439,071802,015226
0000000233,0000232000,084242,078907,095610,052646,078803,019019
0000000234,0000233000,087101,077221,094438,041819,082852,025798
0000000235,0000234000,089915,076337,092506,032004,083560,034905
0000000236,0000235000,092411,076341,090006,024160,080862,045447
0000000237,0000236000,094335,077231,087193,019067,075021,056380
0000000238,0000237000,095499,078927,084333,017221,066605,066642
0000000239,0000238000,095796,081264,081699,018795,056431,075241
0000000240,0000239000,095196,084002,079561,023635,045511,081322
0000000241,0000240000,093755,086877,078127,031270,034913,084286
0000000242,0000241000,091608,089619,077532,040960,025656,083853
0000000243,0000242000,088975,091949,077836,051748,018654,080067
0000000244,0000243000,086116,093636,079008,062568,014604,073296
0000000245,0000244000,083298,094523,080939,072380,013892,064196
0000000246,0000245000,080801,094519,083439,080224,016583,053661
0000000247,0000246000,078878,093628,086253,085317,022417,042735
0000000248,0000247000,077710,091934,089115,087166,030826,032476
0000000249,0000248000,077412,089597,091750,085599,040991,023879
0000000250,0000249000,078012,086857,093889,080766,051904,017798
0000000251,0000250000,079452,083982,095325,073138,062498,014831
0000000252,0000251000,081598,081240,095921,063457,071752,015259
0000000253,0000252000,084234,078907,095618,052677,078753,019039
0000000254,0000253000,087094,077218,094447,041861,082806,025801
0000000255,0000254000,089911,076332,092516,032054,083523,034892
0000000256,0000255000,092411,076333,090015,024212,080837,045420
0000000257,0000256000,094336,077222,087201,019116,075013,056339
0000000258,0000257000,095504,078918,084338,017263,066612,066593
0000000259,0000258000,095804,081254,081701,018825,056455,075188
0000000260,0000259000,095206,083993,079560,023650,045549,081270
0000000261,0000260000,093765,086871,078123,031268,034961,084240
0000000262,0000261000,091618,089615,077525,040942,025709,083818
0000000263,0000262000,088984,091948,077827,051714,018709,080046
0000000264,0000263000,086122,093640,078997,062522,014654,073292
0000000265,0000264000,083302,094529,080929,072327,013932,064210
0000000266,0000265000,080802,094528,083429,080167,016610,053691
0000000267,0000266000,078875,093639,086245,085264,022427,042778
0000000268,0000267000,077705,091945,089109,087122,030818,032529
0000000269,0000268000,077404,089607,091747,085567,040966,023937
0000000270,0000269000,078002,086866,093891,080750,051864,017854
0000000271,0000270000,079441,083989,095329,073141,062447,014881
0000000272,0000271000,081588,081243,095928,063477,071694,015297
0000000273,0000272000,084224,078907,095628,052713,078695,019061
0000000274,0000273000,087086,077215,094459,041911,082753,025805
0000000275,0000274000,089907,076325,092527,032112,083480,034878
0000000276,0000275000,092410,076323,090026,024272,080809,045388
0000000277,0000276000,094338,077211,087210,019173,075002,056293
0000000278,0000277000,095510,078906,084344,017311,066621,066536
0000000279,0000278000,095813,081243,081704,018859,056482,075127
0000000280,0000279000,095216,083984,079559,023667,045592,081210
0000000281,0000280000,093777,086864,078118,031266,035016,084187
0000000282,0000281000,091630,089611,077517,040920,025771,083778
0000000283,0000282000,088994,091948,077816,051675,018772,080023
0000000284,0000283000,086130,093644,078985,062470,014711,073288
0000000285,0000284000,083308,094536,080916,072265,013977,064226
0000000286,0000285000,080804,094537,083418,080103,016640,053725
0000000287,0000286000,078872,093651,086236,085203,022438,042828
0000000288,0000287000,077699,091958,089103,087071,030808,032590
0000000289,0000288000,077395,089619,091745,085530,040937,024002
0000000290,0000289000,077990,086877,093892,080732,051818,017918
0000000291,0000290000,079428,083997,095334,073144,062388,014937
0000000292,0000291000,081575,081247,095937,063501,071628,015339
0000000293,0000292000,084213,078907,095640,052755,078628,019085
0000000294,0000293000,087077,077211,094471,041968,082692,025809
0000000295,0000294000,089901,076317,092540,032177,083431,034861
0000000296,0000295000,092408,076312,090038,024340,080778,045351
0000000297,0000296000,094341,077198,087220,019238,074991,056240
0000000298,0000297000,095516,078892,084351,017366,066631,066472
0000000299,0000298000,095823,081230,081707,018898,056513,075057
0000000300,0000299000,095229,083973,079557,023685,045642,081142
0000000301,0000300000,093791,086856,078113,031263,035079,084128
