DIgSILENT PowerFactory,21000900,2000
6,06A,00D
1,TTPP_200000_100:Secondary Voltage A,,,V,0.10000000,-8359.324219,0.000000,67161,99998,1,1,P
2,TTPP_200000_100:Secondary Voltage B,,,V,0.10000000,-7978.002441,0.000000,62427,99998,1,1,P
3,TTPP_200000_100:Secondary Voltage C,,,V,0.10000000,-8268.992188,0.000000,64468,99998,1,1,P
4,TTCC_500_5:Secondary Current A,,,A,0.0010000000,-87.606071,0.000000,69950,99998,1,1,P
5,TTCC_500_5:Secondary Current B,,,A,0.0010000000,-85.174980,0.000000,70230,99998,1,1,P
6,TTCC_500_5:Secondary Current C,,,A,0.0010000000,-84.644676,0.000000,69254,99998,1,1,P
50
1
1000.000000,1101
30/06/2023,06:05:59.000000
30/06/2023,06:05:59.000000
ASCII
1.000000
0000000001,0000000000,089105,083420,073537,093522,089854,074050
0000000002,0000001000,086557,085854,073652,090507,092570,074348
0000000003,0000002000,083706,087709,074650,087207,094565,075654
0000000004,0000003000,080860,088771,076432,083952,095635,077839
0000000005,0000004000,078276,088953,078834,081047,095685,080693
0000000006,0000005000,076204,088247,081612,078787,094706,083933
0000000007,0000006000,074858,086716,084488,077393,092793,087240
0000000008,0000007000,074385,084485,087193,076998,090133,090295
0000000009,0000008000,074793,081807,089462,077639,086989,092798
0000000010,0000009000,076061,078941,091063,079257,083668,094501
0000000011,0000010000,078080,076142,091842,081694,080493,095238
0000000012,0000011000,080642,073693,091728,084709,077778,094940
0000000013,0000012000,083470,071862,090731,088007,075784,093634
0000000014,0000013000,086324,070791,088947,091266,074711,091449
0000000015,0000014000,088921,070597,086546,094168,074663,088595
0000000016,0000015000,090981,071315,083768,096426,075644,085355
0000000017,0000016000,092316,072856,080892,097824,077553,082048
0000000018,0000017000,092815,075062,078187,098218,080214,078994
0000000019,0000018000,092395,077750,075917,097575,083361,076490
0000000020,0000019000,091114,080632,074317,095958,086680,074787
0000000021,0000020000,089110,083414,073538,093524,089852,074050
0000000022,0000021000,086556,085855,073651,090504,092573,074348
0000000023,0000022000,083704,087711,074649,087207,094564,075654
0000000024,0000023000,080860,088771,076433,083951,095635,077840
0000000025,0000024000,078278,088951,078835,081048,095685,080694
0000000026,0000025000,076201,088250,081612,078786,094707,083933
0000000027,0000026000,074861,086714,084488,077393,092793,087240
0000000028,0000027000,074383,084486,087194,076997,090134,090295
0000000029,0000028000,074792,081808,089462,077639,086989,092798
0000000030,0000029000,076062,078940,091062,079256,083669,094501
0000000031,0000030000,078081,076140,091842,081693,080494,095239
0000000032,0000031000,080637,073698,091729,084708,077778,094940
0000000033,0000032000,083473,071860,090731,088007,075785,093634
0000000034,0000033000,086326,070789,088947,091265,074712,091449
0000000035,0000034000,088918,070599,086546,094167,074664,088595
0000000036,0000035000,090979,071316,083768,096427,075644,085355
0000000037,0000036000,092322,072850,080892,097823,077554,082049
0000000038,0000037000,092812,075065,078187,098217,080215,078994
0000000039,0000038000,092392,077753,075918,097575,083360,076491
0000000040,0000039000,091119,080628,074317,095958,086679,074788
0000000041,0000040000,089112,083413,073538,093522,089853,074050
0000000042,0000041000,086550,085861,073651,090505,092572,074349
0000000043,0000042000,083707,087708,074648,087208,094564,075654
0000000044,0000043000,080865,088766,076432,083950,095636,077840
0000000045,0000044000,078274,088956,078834,081047,095686,080694
0000000046,0000045000,076199,088252,081612,078787,094706,083933
0000000047,0000046000,074866,086709,084488,077393,092793,087240
0000000048,0000047000,074381,084488,087193,076996,090135,090294
0000000049,0000048000,074788,081813,089462,077639,086990,092797
0000000050,0000049000,076065,078936,091062,079257,083668,094500
0000000051,0000050000,078082,076139,091842,081692,080496,095238
0000000052,0000051000,080632,073702,091729,084708,077778,094940
0000000053,0000052000,083473,071858,090732,088007,075785,093635
0000000054,0000053000,086329,070786,088948,091264,074713,091449
0000000055,0000054000,088914,070602,086546,094165,074665,088595
0000000056,0000055000,090978,071316,083768,096426,075643,085356
0000000057,0000056000,092325,072846,080892,097822,077554,082050
0000000058,0000057000,092811,075065,078187,098216,080215,078995
0000000059,0000058000,092391,077755,075918,097574,083360,076492
0000000060,0000059000,091122,080624,074317,095958,086679,074789
0000000061,0000060000,089112,083413,073538,093521,089853,074051
0000000062,0000061000,086550,085863,073651,090505,092571,074349
0000000063,0000062000,083709,087706,074648,087208,094563,075654
0000000064,0000063000,080866,088766,076432,083951,095635,077840
0000000065,0000064000,078272,088959,078833,081047,095685,080693
0000000066,0000065000,076201,088251,081611,078788,094705,083933
0000000067,0000066000,074867,086709,084487,077393,092794,087239
0000000068,0000067000,074378,084492,087193,076997,090135,090294
0000000069,0000068000,074788,081813,089462,077639,086990,092796
0000000070,0000069000,076066,078934,091063,079257,083670,094500
0000000071,0000070000,078079,076142,091843,081691,080497,095237
0000000072,0000071000,080631,073703,091729,084708,077779,094939
0000000073,0000072000,083476,071855,090732,088006,075786,093634
0000000074,0000073000,086327,070787,088949,091262,074714,091449
0000000075,0000074000,088911,070604,086547,094164,074666,088596
0000000076,0000075000,090981,071313,083769,096425,075644,085357
0000000077,0000076000,092325,072845,080893,097820,077555,082051
0000000078,0000077000,092808,075068,078188,098215,080215,078996
0000000079,0000078000,092393,077752,075918,097574,083359,076493
0000000080,0000079000,091125,080621,074317,095957,086679,074790
0000000081,0000080000,089111,083415,073537,093521,089852,074052
0000000082,0000081000,086550,085863,073650,090506,092569,074350
0000000083,0000082000,083713,087703,074647,087209,094562,075655
0000000084,0000083000,080865,088768,076431,083951,095635,077840
0000000085,0000084000,078270,088961,078832,081049,095684,080693
0000000086,0000085000,076204,088250,081610,078790,094704,083932
0000000087,0000086000,074867,086710,084486,077394,092794,087238
0000000088,0000087000,074375,084496,087192,076998,090136,090292
0000000089,0000088000,074789,081813,089462,077641,086990,092795
0000000090,0000089000,076066,078934,091063,079257,083671,094498
0000000091,0000090000,078075,076145,091843,081691,080499,095236
0000000092,0000091000,080630,073703,091730,084707,077781,094938
0000000093,0000092000,083476,071853,090734,088004,075788,093634
0000000094,0000093000,086324,070788,088951,091260,074717,091449
0000000095,0000094000,088910,070604,086549,094162,074667,088596
0000000096,0000095000,090983,071309,083771,096423,075645,085358
0000000097,0000096000,092325,072844,080895,097817,077556,082052
0000000098,0000097000,092808,075067,078188,098213,080214,078998
0000000099,0000098000,092397,077749,075918,097572,083358,076495
0000000100,0000099000,091126,080620,074317,095956,086677,074792
0000000101,0000100000,089111,083416,073536,093521,089850,074054
0000000102,0000101000,086554,085861,073648,090507,092567,074352
0000000103,0000102000,083716,087702,074645,087210,094560,075656
0000000104,0000103000,080864,088771,076429,083953,095633,077840
0000000105,0000104000,078272,088962,078830,081052,095682,080692
0000000106,0000105000,076206,088250,081608,078792,094703,083931
0000000107,0000106000,074865,086714,084485,077396,092794,087236
0000000108,0000107000,074374,084499,087191,077000,090136,090290
0000000109,0000108000,074789,081813,089461,077642,086991,092792
0000000110,0000109000,076063,078937,091063,079257,083674,094495
0000000111,0000110000,078071,076148,091844,081691,080501,095234
0000000112,0000111000,080629,073702,091732,084706,077783,094936
0000000113,0000112000,083474,071853,090736,088002,075791,093633
0000000114,0000113000,086320,070790,088953,091258,074719,091449
0000000115,0000114000,088910,070601,086551,094160,074669,088597
0000000116,0000115000,090984,071306,083773,096420,075647,085359
0000000117,0000116000,092323,072843,080897,097814,077557,082055
0000000118,0000117000,092809,075064,078190,098211,080214,079001
0000000119,0000118000,092400,077744,075919,097570,083357,076499
0000000120,0000119000,091128,080619,074317,095955,086675,074796
0000000121,0000120000,089113,083415,073535,093521,089847,074057
0000000122,0000121000,086558,085858,073647,090508,092564,074354
0000000123,0000122000,083718,087703,074643,087212,094557,075657
0000000124,0000123000,080865,088773,076426,083956,095629,077840
0000000125,0000124000,078275,088962,078826,081055,095679,080692
0000000126,0000125000,076207,088252,081605,078795,094702,083929
0000000127,0000126000,074862,086718,084482,077399,092793,087233
0000000128,0000127000,074373,084501,087189,077003,090136,090286
0000000129,0000128000,074788,081815,089460,077644,086993,092788
0000000130,0000129000,076059,078941,091063,079258,083676,094492
0000000131,0000130000,078068,076150,091845,081691,080505,095230
0000000132,0000131000,080627,073702,091734,084705,077788,094934
0000000133,0000132000,083470,071854,090739,087999,075796,093631
0000000134,0000133000,086317,070790,088956,091254,074723,091449
0000000135,0000134000,088910,070598,086555,094156,074672,088598
0000000136,0000135000,090983,071303,083777,096415,075649,085362
0000000137,0000136000,092323,072841,080899,097810,077557,082058
0000000138,0000137000,092812,075060,078192,098208,080213,079005
0000000139,0000138000,092403,077740,075920,097568,083355,076503
0000000140,0000139000,091130,080617,074317,095953,086672,074800
0000000141,0000140000,089117,083412,073534,093522,089843,074061
0000000142,0000141000,086563,085855,073644,090509,092559,074357
0000000143,0000142000,083720,087704,074639,087214,094552,075659
0000000144,0000143000,080868,088774,076421,083960,095625,077841
0000000145,0000144000,078278,088963,078822,081060,095675,080691
0000000146,0000145000,076206,088256,081601,078800,094700,083926
0000000147,0000146000,074861,086723,084479,077404,092792,087229
0000000148,0000147000,074372,084504,087187,077007,090137,090282
0000000149,0000148000,074784,081819,089460,077646,086996,092783
0000000150,0000149000,076053,078946,091064,079259,083680,094486
0000000151,0000150000,078065,076152,091847,081691,080509,095226
0000000152,0000151000,080623,073703,091737,084703,077793,094930
0000000153,0000152000,083465,071856,090743,087996,075801,093629
0000000154,0000153000,086314,070788,088961,091250,074728,091448
0000000155,0000154000,088909,070594,086560,094150,074676,088599
0000000156,0000155000,090981,071300,083781,096409,075652,085365
0000000157,0000156000,092323,072837,080903,097805,077558,082062
0000000158,0000157000,092816,075053,078194,098203,080212,079011
0000000159,0000158000,092406,077736,075921,097564,083353,076509
0000000160,0000159000,091133,080614,074316,095952,086668,074806
0000000161,0000160000,089124,083408,073531,093522,089837,074066
0000000162,0000161000,086568,085854,073641,090511,092554,074361
0000000163,0000162000,083724,087705,074635,087218,094546,075662
0000000164,0000163000,080872,088775,076416,083965,095619,077841
0000000165,0000164000,078281,088966,078817,081066,095671,080689
0000000166,0000165000,076206,088261,081596,078806,094697,083923
0000000167,0000166000,074860,086729,084475,077411,092791,087224
0000000168,0000167000,074370,084509,087184,077012,090138,090275
0000000169,0000168000,074779,081825,089458,077650,086999,092777
0000000170,0000169000,076048,078951,091064,079261,083684,094480
0000000171,0000170000,078060,076154,091849,081691,080515,095220
0000000172,0000171000,080617,073705,091741,084700,077800,094926
0000000173,0000172000,083459,071856,090748,087991,075808,093626
0000000174,0000173000,086311,070785,088967,091244,074734,091448
0000000175,0000174000,088907,070590,086566,094143,074681,088601
0000000176,0000175000,090980,071296,083787,096402,075655,085368
0000000177,0000176000,092325,072831,080908,097798,077559,082068
0000000178,0000177000,092820,075046,078197,098197,080211,079017
0000000179,0000178000,092410,077731,075923,097560,083350,076516
0000000180,0000179000,091139,080608,074315,095950,086663,074813
0000000181,0000180000,089131,083403,073529,093522,089831,074073
0000000182,0000181000,086574,085852,073637,090513,092546,074366
0000000183,0000182000,083729,087705,074629,087223,094538,075665
0000000184,0000183000,080878,088776,076409,083972,095612,077842
0000000185,0000184000,078283,088970,078810,081073,095665,080687
0000000186,0000185000,076206,088268,081590,078814,094693,083919
0000000187,0000186000,074859,086734,084469,077418,092789,087218
0000000188,0000187000,074367,084515,087180,077019,090139,090268
0000000189,0000188000,074773,081833,089457,077655,087002,092768
0000000190,0000189000,076042,078957,091065,079264,083690,094472
0000000191,0000190000,078053,076158,091852,081690,080523,095213
0000000192,0000191000,080609,073708,091746,084697,077809,094920
0000000193,0000192000,083452,071857,090754,087986,075816,093623
0000000194,0000193000,086307,070782,088974,091237,074742,091447
0000000195,0000194000,088903,070586,086574,094134,074688,088603
0000000196,0000195000,090978,071291,083794,096393,075659,085373
0000000197,0000196000,092328,072822,080913,097790,077561,082075
0000000198,0000197000,092823,075039,078202,098190,080210,079026
0000000199,0000198000,092415,077724,075924,097555,083346,076526
0000000200,0000199000,091147,080601,074314,095947,086656,074822
0000000201,0000200000,089139,083398,073526,093522,089823,074081
0000000202,0000201000,086581,085850,073631,090516,092537,074372
0000000203,0000202000,083736,087705,074621,087229,094528,075668
0000000204,0000203000,080884,088778,076401,083980,095603,077843
0000000205,0000204000,078286,088975,078802,081083,095658,080685
0000000206,0000205000,076207,088275,081582,078824,094688,083913
0000000207,0000206000,074858,086742,084463,077428,092788,087210
0000000208,0000207000,074362,084524,087176,077027,090140,090259
0000000209,0000208000,074766,081842,089455,077660,087007,092758
0000000210,0000209000,076034,078963,091066,079267,083697,094462
0000000211,0000210000,078044,076163,091856,081690,080532,095204
0000000212,0000211000,080600,073712,091752,084694,077819,094913
0000000213,0000212000,083445,071856,090762,087980,075827,093619
0000000214,0000213000,086301,070779,088983,091228,074751,091446
0000000215,0000214000,088898,070582,086583,094124,074696,088606
0000000216,0000215000,090978,071283,083802,096382,075664,085379
0000000217,0000216000,092330,072813,080921,097779,077563,082083
0000000218,0000217000,092827,075029,078207,098181,080209,079036
0000000219,0000218000,092422,077715,075926,097548,083341,076537
0000000220,0000219000,091157,080593,074313,095944,086648,074833
0000000221,0000220000,089149,083392,073522,093522,089813,074090
0000000222,0000221000,086591,085848,073625,090520,092525,074380
0000000223,0000222000,083746,087705,074613,087236,094517,075672
0000000224,0000223000,080891,088781,076391,083989,095593,077843
0000000225,0000224000,078290,088982,078792,081094,095650,080682
0000000226,0000225000,076208,088283,081572,078836,094683,083907
0000000227,0000226000,074856,086751,084455,077439,092786,087201
0000000228,0000227000,074357,084536,087171,077036,090142,090247
0000000229,0000228000,074759,081852,089452,077667,087012,092746
0000000230,0000229000,076025,078971,091067,079270,083706,094450
0000000231,0000230000,078033,076170,091860,081689,080543,095194
0000000232,0000231000,080589,073715,091759,084689,077831,094905
0000000233,0000232000,083436,071856,090772,087972,075839,093614
0000000234,0000233000,086293,070776,088994,091217,074763,091445
0000000235,0000234000,088893,070576,086594,094112,074705,088609
0000000236,0000235000,090977,071274,083813,096370,075670,085386
0000000237,0000236000,092333,072802,080929,097767,077565,082093
0000000238,0000237000,092833,075019,078212,098171,080207,079048
0000000239,0000238000,092431,077704,075929,097541,083335,076550
0000000240,0000239000,091168,080583,074312,095940,086639,074846
0000000241,0000240000,089160,083386,073517,093523,089801,074102
0000000242,0000241000,086602,085844,073617,090525,092512,074388
0000000243,0000242000,083757,087704,074603,087245,094504,075678
0000000244,0000243000,080898,088785,076380,084001,095581,077844
0000000245,0000244000,078295,088989,078780,081107,095640,080679
0000000246,0000245000,076210,088292,081561,078850,094676,083900
0000000247,0000246000,074854,086763,084446,077452,092783,087190
0000000248,0000247000,074350,084549,087164,077047,090144,090234
0000000249,0000248000,074750,081864,089450,077675,087018,092732
0000000250,0000249000,076014,078981,091068,079274,083716,094436
0000000251,0000250000,078020,076178,091865,081689,080556,095181
0000000252,0000251000,080576,073719,091768,084684,077845,094896
0000000253,0000252000,083425,071855,090783,087963,075854,093609
0000000254,0000253000,086284,070772,089007,091205,074776,091445
0000000255,0000254000,088888,070568,086607,094097,074715,088613
0000000256,0000255000,090976,071263,083825,096355,075677,085394
0000000257,0000256000,092335,072789,080939,097753,077568,082105
0000000258,0000257000,092839,075005,078219,098159,080205,079063
0000000259,0000258000,092442,077690,075932,097533,083328,076565
0000000260,0000259000,091180,080572,074311,095936,086628,074861
0000000261,0000260000,089173,083378,073512,093524,089787,074115
0000000262,0000261000,086616,085839,073607,090531,092496,074398
0000000263,0000262000,083769,087704,074591,087254,094488,075683
0000000264,0000263000,080908,088790,076366,084014,095566,077845
0000000265,0000264000,078301,088997,078765,081123,095628,080675
0000000266,0000265000,076212,088303,081548,078866,094669,083891
0000000267,0000266000,074851,086777,084435,077467,092781,087178
0000000268,0000267000,074343,084563,087157,077060,090147,090219
0000000269,0000268000,074740,081877,089446,077684,087026,092716
0000000270,0000269000,076000,078994,091070,079278,083728,094420
0000000271,0000270000,078005,076188,091871,081688,080571,095167
0000000272,0000271000,080562,073724,091777,084678,077862,094885
0000000273,0000272000,083412,071856,090796,087952,075871,093603
0000000274,0000273000,086273,070768,089022,091191,074792,091444
0000000275,0000274000,088882,070559,086622,094081,074728,088617
0000000276,0000275000,090974,071250,083839,096337,075685,085403
0000000277,0000276000,092338,072775,080951,097737,077571,082118
0000000278,0000277000,092846,074990,078227,098145,080202,079079
0000000279,0000278000,092453,077675,075935,097523,083320,076583
0000000280,0000279000,091194,080559,074310,095932,086616,074878
0000000281,0000280000,089189,083368,073505,093525,089771,074130
0000000282,0000281000,086632,085834,073597,090537,092479,074410
0000000283,0000282000,083783,087704,074577,087266,094470,075690
0000000284,0000283000,080918,088795,076350,084029,095550,077846
0000000285,0000284000,078308,089006,078749,081141,095615,080670
0000000286,0000285000,076214,088316,081533,078885,094660,083881
0000000287,0000286000,074847,086793,084423,077484,092778,087163
0000000288,0000287000,074335,084580,087148,077075,090149,090201
0000000289,0000288000,074727,081893,089443,077695,087034,092697
0000000290,0000289000,075984,079008,091071,079283,083741,094402
0000000291,0000290000,077988,076198,091878,081687,080588,095151
0000000292,0000291000,080546,073729,091789,084672,077881,094873
0000000293,0000292000,083396,071856,090811,087940,075890,093596
0000000294,0000293000,086261,070763,089039,091174,074809,091442
0000000295,0000294000,088874,070549,086640,094062,074742,088622
0000000296,0000295000,090972,071236,083855,096317,075694,085414
0000000297,0000296000,092341,072758,080964,097718,077574,082134
0000000298,0000297000,092855,074972,078236,098129,080199,079098
0000000299,0000298000,092466,077658,075939,097512,083311,076603
0000000300,0000299000,091211,080545,074308,095926,086602,074898
0000000301,0000300000,089207,083357,073498,093526,089753,074147
