DIgSILENT PowerFactory,21000900,2000
6,06A,00D
1,TTPP_200000_100:Secondary Voltage A,,,V,0.10000000,-8220.359375,0.000000,63710,99998,1,1,P
2,TTPP_200000_100:Secondary Voltage B,,,V,0.10000000,-8228.446289,0.000000,62953,99998,1,1,P
3,TTPP_200000_100:Secondary Voltage C,,,V,0.10000000,-8190.787598,0.000000,61109,99998,1,1,P
4,TTCC_500_5:Secondary Current A,,,A,0.0010000000,-79.813370,0.000000,66412,99998,1,1,P
5,TTCC_500_5:Secondary Current B,,,A,0.0010000000,-84.139076,0.000000,67335,99998,1,1,P
6,TTCC_500_5:Secondary Current C,,,A,0.0010000000,-84.961899,0.000000,70236,99998,1,1,P
50
1
1000.000000,1101
30/06/2023,06:11:49.000000
30/06/2023,06:11:49.000000
ASCII
1.000000
0000000001,0000000000,087716,085925,072755,085729,088819,074367
0000000002,0000001000,085167,088358,072870,082714,091535,074666
0000000003,0000002000,082316,090214,073868,079414,093529,075971
0000000004,0000003000,079470,091275,075650,076159,094599,078157
0000000005,0000004000,076886,091458,078052,073255,094648,081011
0000000006,0000005000,074814,090751,080831,070994,093670,084251
0000000007,0000006000,073469,089220,083706,069601,091756,087557
0000000008,0000007000,072995,086990,086411,069205,089098,090612
0000000009,0000008000,073404,084311,088680,069846,085953,093115
0000000010,0000009000,074670,081446,090281,071464,082632,094818
0000000011,0000010000,076692,078645,091060,073902,079457,095556
0000000012,0000011000,079251,076198,090946,076916,076742,095257
0000000013,0000012000,082082,074365,089949,080214,074749,093952
0000000014,0000013000,084933,073297,088165,083474,073675,091766
0000000015,0000014000,087533,073100,085763,086375,073628,088912
0000000016,0000015000,089590,073820,082986,088634,074608,085672
0000000017,0000016000,090927,075360,080110,090031,076518,082366
0000000018,0000017000,091425,077567,077404,090426,079177,079311
0000000019,0000018000,091006,080254,075135,089781,082326,076808
0000000020,0000019000,089724,083137,073535,088166,085644,075105
0000000021,0000020000,087720,085919,072756,085731,088817,074367
0000000022,0000021000,085167,088359,072869,082712,091537,074666
0000000023,0000022000,082314,090216,073867,079414,093529,075971
0000000024,0000023000,079471,091275,075651,076158,094599,078157
0000000025,0000024000,076888,091456,078053,073255,094649,081011
0000000026,0000025000,074811,090754,080830,070993,093671,084250
0000000027,0000026000,073471,089219,083706,069600,091757,087557
0000000028,0000027000,072993,086991,086412,069204,089098,090612
0000000029,0000028000,073402,084313,088681,069846,085953,093115
0000000030,0000029000,074672,081444,090280,071464,082633,094818
0000000031,0000030000,076692,078644,091060,073900,079458,095556
0000000032,0000031000,079247,076202,090947,076916,076742,095257
0000000033,0000032000,082083,074364,089949,080214,074749,093952
0000000034,0000033000,084937,073294,088165,083472,073676,091766
0000000035,0000034000,087528,073104,085764,086374,073628,088912
0000000036,0000035000,089589,073821,082986,088634,074608,085672
0000000037,0000036000,090932,075354,080109,090030,076518,082366
0000000038,0000037000,091423,077569,077404,090425,079179,079311
0000000039,0000038000,091002,080258,075136,089782,082325,076808
0000000040,0000039000,089729,083132,073535,088166,085644,075105
0000000041,0000040000,087723,085917,072755,085729,088818,074367
0000000042,0000041000,085161,088366,072869,082712,091536,074666
0000000043,0000042000,082316,090213,073866,079415,093528,075971
0000000044,0000043000,079475,091271,075650,076158,094600,078157
0000000045,0000044000,076884,091460,078052,073254,094650,081011
0000000046,0000045000,074809,090757,080830,070994,093670,084250
0000000047,0000046000,073477,089214,083706,069600,091757,087557
0000000048,0000047000,072992,086992,086411,069203,089099,090612
0000000049,0000048000,073398,084317,088680,069846,085953,093115
0000000050,0000049000,074675,081440,090281,071464,082632,094818
0000000051,0000050000,076693,078643,091060,073899,079460,095555
0000000052,0000051000,079243,076206,090947,076915,076743,095257
0000000053,0000052000,082084,074363,089949,080214,074749,093952
0000000054,0000053000,084940,073291,088166,083471,073677,091766
0000000055,0000054000,087525,073107,085764,086372,073629,088912
0000000056,0000055000,089589,073821,082986,088634,074607,085673
0000000057,0000056000,090935,075351,080110,090029,076519,082367
0000000058,0000057000,091421,077570,077405,090423,079179,079312
0000000059,0000058000,091001,080259,075135,089781,082324,076809
0000000060,0000059000,089732,083129,073535,088165,085643,075106
0000000061,0000060000,087723,085918,072756,085729,088817,074368
0000000062,0000061000,085160,088367,072869,082712,091536,074667
0000000063,0000062000,082319,090211,073866,079416,093527,075972
0000000064,0000063000,079476,091271,075650,076158,094600,078157
0000000065,0000064000,076882,091463,078051,073255,094649,081011
0000000066,0000065000,074811,090756,080829,070995,093669,084250
0000000067,0000066000,073477,089213,083705,069600,091758,087556
0000000068,0000067000,072988,086996,086411,069204,089099,090611
0000000069,0000068000,073398,084317,088680,069847,085954,093114
0000000070,0000069000,074677,081438,090281,071464,082634,094817
0000000071,0000070000,076689,078646,091061,073899,079461,095555
0000000072,0000071000,079241,076208,090947,076915,076743,095256
0000000073,0000072000,082086,074360,089950,080213,074750,093951
0000000074,0000073000,084937,073291,088167,083469,073679,091766
0000000075,0000074000,087522,073109,085765,086372,073630,088913
0000000076,0000075000,089592,073817,082987,088633,074608,085674
0000000077,0000076000,090936,075349,080111,090027,076519,082368
0000000078,0000077000,091419,077572,077405,090422,079179,079313
0000000079,0000078000,091004,080257,075136,089781,082323,076810
0000000080,0000079000,089735,083126,073535,088164,085643,075107
0000000081,0000080000,087721,085920,072755,085728,088817,074369
0000000082,0000081000,085160,088367,072868,082713,091534,074668
0000000083,0000082000,082323,090208,073865,079416,093526,075972
0000000084,0000083000,079475,091272,075649,076158,094599,078157
0000000085,0000084000,076880,091466,078050,073256,094648,081010
0000000086,0000085000,074814,090754,080828,070997,093668,084249
0000000087,0000086000,073477,089214,083704,069601,091758,087555
0000000088,0000087000,072985,087000,086410,069205,089100,090609
0000000089,0000088000,073399,084317,088680,069848,085954,093112
0000000090,0000089000,074677,081438,090281,071464,082635,094815
0000000091,0000090000,076686,078649,091061,073898,079463,095553
0000000092,0000091000,079240,076208,090948,076915,076745,095255
0000000093,0000092000,082087,074358,089952,080211,074752,093951
0000000094,0000093000,084935,073293,088168,083467,073681,091766
0000000095,0000094000,087521,073108,085767,086370,073631,088913
0000000096,0000095000,089594,073814,082989,088630,074609,085675
0000000097,0000096000,090935,075348,080112,090025,076520,082369
0000000098,0000097000,091418,077572,077406,090421,079179,079315
0000000099,0000098000,091007,080253,075136,089780,082322,076813
0000000100,0000099000,089737,083124,073535,088163,085642,075110
0000000101,0000100000,087721,085920,072754,085728,088814,074371
0000000102,0000101000,085164,088365,072866,082714,091531,074669
0000000103,0000102000,082326,090207,073863,079417,093524,075973
0000000104,0000103000,079474,091275,075647,076160,094597,078157
0000000105,0000104000,076882,091466,078048,073259,094646,081010
0000000106,0000105000,074816,090754,080826,070999,093667,084248
0000000107,0000106000,073475,089218,083703,069603,091758,087553
0000000108,0000107000,072984,087003,086409,069208,089100,090607
0000000109,0000108000,073400,084317,088679,069849,085955,093110
0000000110,0000109000,074674,081441,090281,071464,082638,094813
0000000111,0000110000,076682,078652,091062,073898,079465,095551
0000000112,0000111000,079240,076206,090950,076914,076747,095253
0000000113,0000112000,082085,074357,089954,080209,074755,093950
0000000114,0000113000,084931,073294,088171,083465,073683,091766
0000000115,0000114000,087521,073106,085769,086367,073633,088914
0000000116,0000115000,089594,073810,082991,088627,074611,085677
0000000117,0000116000,090934,075348,080114,090022,076521,082372
0000000118,0000117000,091420,077569,077407,090418,079178,079318
0000000119,0000118000,091011,080249,075137,089778,082321,076816
0000000120,0000119000,089738,083123,073535,088162,085640,075113
0000000121,0000120000,087723,085920,072753,085729,088811,074374
0000000122,0000121000,085169,088362,072865,082715,091528,074671
0000000123,0000122000,082328,090207,073861,079419,093521,075975
0000000124,0000123000,079475,091278,075644,076163,094593,078158
0000000125,0000124000,076885,091467,078045,073263,094643,081009
0000000126,0000125000,074817,090756,080823,071002,093666,084246
0000000127,0000126000,073473,089223,083700,069607,091757,087550
0000000128,0000127000,072983,087005,086407,069211,089100,090603
0000000129,0000128000,073398,084319,088679,069851,085957,093106
0000000130,0000129000,074669,081445,090282,071465,082640,094809
0000000131,0000130000,076679,078654,091063,073898,079469,095547
0000000132,0000131000,079238,076206,090952,076912,076752,095251
0000000133,0000132000,082081,074358,089957,080206,074760,093948
0000000134,0000133000,084928,073294,088174,083462,073687,091766
0000000135,0000134000,087521,073102,085773,086363,073636,088915
0000000136,0000135000,089594,073808,082995,088622,074613,085679
0000000137,0000136000,090933,075346,080117,090018,076522,082375
0000000138,0000137000,091423,077564,077409,090415,079177,079322
0000000139,0000138000,091014,080245,075138,089775,082319,076820
0000000140,0000139000,089740,083122,073534,088161,085637,075117
0000000141,0000140000,087728,085917,072751,085729,088807,074378
0000000142,0000141000,085174,088360,072862,082716,091523,074674
0000000143,0000142000,082330,090208,073857,079422,093516,075976
0000000144,0000143000,079478,091279,075639,076167,094589,078158
0000000145,0000144000,076888,091468,078041,073267,094639,081008
0000000146,0000145000,074817,090760,080819,071007,093664,084243
0000000147,0000146000,073471,089228,083697,069612,091756,087546
0000000148,0000147000,072982,087008,086405,069215,089101,090599
0000000149,0000148000,073395,084323,088678,069854,085960,093101
0000000150,0000149000,074664,081450,090282,071467,082644,094804
0000000151,0000150000,076675,078656,091065,073898,079473,095543
0000000152,0000151000,079234,076207,090955,076910,076757,095247
0000000153,0000152000,082075,074360,089961,080203,074765,093946
0000000154,0000153000,084925,073292,088179,083457,073692,091765
0000000155,0000154000,087520,073098,085777,086357,073640,088917
0000000156,0000155000,089592,073805,082999,088617,074616,085682
0000000157,0000156000,090934,075342,080121,090012,076522,082380
0000000158,0000157000,091426,077558,077412,090410,079176,079328
0000000159,0000158000,091017,080240,075139,089771,082317,076826
0000000160,0000159000,089744,083118,073534,088159,085632,075123
0000000161,0000160000,087734,085913,072749,085729,088802,074383
0000000162,0000161000,085179,088358,072859,082718,091518,074678
0000000163,0000162000,082334,090210,073853,079425,093510,075979
0000000164,0000163000,079482,091280,075634,076173,094583,078159
0000000165,0000164000,076891,091470,078035,073273,094635,081006
0000000166,0000165000,074816,090766,080814,071013,093661,084240
0000000167,0000166000,073470,089233,083693,069618,091755,087542
0000000168,0000167000,072981,087013,086402,069220,089102,090593
0000000169,0000168000,073390,084330,088676,069857,085963,093094
0000000170,0000169000,074658,081455,090282,071469,082648,094797
0000000171,0000170000,076670,078658,091067,073898,079479,095537
0000000172,0000171000,079228,076209,090959,076908,076764,095243
0000000173,0000172000,082069,074361,089966,080199,074772,093943
0000000174,0000173000,084922,073289,088184,083452,073698,091765
0000000175,0000174000,087517,073095,085784,086350,073646,088918
0000000176,0000175000,089590,073801,083005,088609,074619,085686
0000000177,0000176000,090936,075335,080125,090006,076524,082385
0000000178,0000177000,091430,077551,077415,090404,079176,079335
0000000179,0000178000,091021,080235,075140,089767,082314,076834
0000000180,0000179000,089750,083113,073533,088157,085627,075130
0000000181,0000180000,087741,085908,072747,085729,088795,074390
0000000182,0000181000,085184,088357,072855,082720,091510,074683
0000000183,0000182000,082339,090210,073847,079430,093502,075982
0000000184,0000183000,079488,091281,075627,076179,094576,078159
0000000185,0000184000,076893,091474,078029,073280,094629,081005
0000000186,0000185000,074816,090772,080808,071022,093657,084236
0000000187,0000186000,073470,089239,083687,069626,091753,087535
0000000188,0000187000,072977,087020,086399,069226,089103,090585
0000000189,0000188000,073384,084337,088675,069862,085966,093086
0000000190,0000189000,074652,081461,090283,071471,082654,094789
0000000191,0000190000,076664,078662,091070,073898,079487,095530
0000000192,0000191000,079220,076212,090964,076905,076773,095237
0000000193,0000192000,082063,074361,089972,080194,074781,093940
0000000194,0000193000,084918,073286,088192,083444,073706,091764
0000000195,0000194000,087514,073091,085791,086342,073652,088920
0000000196,0000195000,089589,073795,083012,088600,074623,085690
0000000197,0000196000,090938,075327,080131,089997,076525,082392
0000000198,0000197000,091434,077543,077419,090397,079174,079343
0000000199,0000198000,091026,080228,075142,089762,082310,076843
0000000200,0000199000,089758,083106,073532,088155,085620,075139
0000000201,0000200000,087750,085902,072744,085729,088787,074398
0000000202,0000201000,085192,088355,072849,082724,091501,074690
0000000203,0000202000,082347,090210,073840,079436,093493,075985
0000000204,0000203000,079494,091283,075619,076187,094567,078160
0000000205,0000204000,076896,091480,078020,073290,094623,081002
0000000206,0000205000,074817,090779,080800,071031,093652,084231
0000000207,0000206000,073469,089246,083681,069635,091752,087528
0000000208,0000207000,072973,087029,086394,069234,089104,090576
0000000209,0000208000,073377,084346,088673,069868,085971,093076
0000000210,0000209000,074645,081467,090284,071474,082661,094779
0000000211,0000210000,076655,078668,091074,073897,079496,095521
0000000212,0000211000,079210,076216,090970,076901,076783,095231
0000000213,0000212000,082055,074361,089980,080187,074791,093936
0000000214,0000213000,084912,073283,088201,083435,073716,091763
0000000215,0000214000,087509,073086,085801,086331,073660,088923
0000000216,0000215000,089588,073788,083020,088590,074628,085696
0000000217,0000216000,090941,075317,080138,089987,076527,082400
0000000218,0000217000,091438,077534,077424,090388,079173,079353
0000000219,0000218000,091033,080219,075144,089756,082305,076854
0000000220,0000219000,089767,083097,073531,088151,085613,075150
0000000221,0000220000,087759,085897,072740,085730,088777,074408
0000000222,0000221000,085201,088352,072842,082728,091490,074697
0000000223,0000222000,082356,090209,073831,079443,093481,075990
0000000224,0000223000,079501,091286,075610,076197,094557,078161
0000000225,0000224000,076900,091486,078010,073301,094614,080999
0000000226,0000225000,074818,090787,080790,071043,093647,084224
0000000227,0000226000,073467,089256,083673,069646,091750,087519
0000000228,0000227000,072967,087040,086389,069243,089106,090565
0000000229,0000228000,073369,084356,088671,069875,085976,093063
0000000230,0000229000,074636,081476,090285,071477,082670,094767
0000000231,0000230000,076643,078674,091078,073897,079507,095511
0000000232,0000231000,079199,076220,090977,076897,076795,095223
0000000233,0000232000,082046,074360,089990,080180,074803,093932
0000000234,0000233000,084904,073280,088212,083425,073727,091763
0000000235,0000234000,087504,073080,085812,086319,073669,088926
0000000236,0000235000,089587,073778,083030,088577,074634,085703
0000000237,0000236000,090943,075306,080147,089974,076529,082410
0000000238,0000237000,091443,077523,077430,090378,079171,079365
0000000239,0000238000,091041,080208,075146,089748,082299,076867
0000000240,0000239000,089778,083087,073530,088148,085603,075163
0000000241,0000240000,087770,085890,072735,085730,088765,074419
0000000242,0000241000,085213,088349,072835,082732,091476,074706
0000000243,0000242000,082367,090209,073821,079452,093468,075995
0000000244,0000243000,079509,091290,075598,076208,094545,078162
0000000245,0000244000,076905,091494,077998,073314,094604,080996
0000000246,0000245000,074820,090796,080779,071057,093640,084217
0000000247,0000246000,073464,089268,083664,069659,091747,087508
0000000248,0000247000,072960,087053,086382,069254,089108,090551
0000000249,0000248000,073360,084368,088668,069883,085982,093049
0000000250,0000249000,074624,081486,090286,071481,082680,094753
0000000251,0000250000,076630,078683,091083,073896,079520,095498
0000000252,0000251000,079187,076224,090985,076892,076809,095213
0000000253,0000252000,082035,074360,090001,080170,074818,093926
0000000254,0000253000,084894,073276,088225,083412,073740,091762
0000000255,0000254000,087498,073073,085825,086305,073680,088930
0000000256,0000255000,089586,073767,083043,088562,074641,085711
0000000257,0000256000,090945,075294,080157,089960,076532,082422
0000000258,0000257000,091449,077510,077437,090366,079169,079380
0000000259,0000258000,091052,080195,075149,089740,082292,076882
0000000260,0000259000,089791,083076,073529,088143,085593,075178
0000000261,0000260000,087784,085882,072730,085731,088751,074432
0000000262,0000261000,085226,088344,072825,082738,091461,074716
0000000263,0000262000,082379,090208,073809,079462,093452,076001
0000000264,0000263000,079518,091294,075584,076221,094531,078163
0000000265,0000264000,076911,091502,077984,073330,094593,080992
0000000266,0000265000,074822,090807,080766,071073,093633,084208
0000000267,0000266000,073461,089282,083653,069674,091745,087495
0000000268,0000267000,072953,087067,086375,069267,089111,090536
0000000269,0000268000,073350,084381,088665,069892,085990,093033
0000000270,0000269000,074610,081498,090288,071485,082692,094737
0000000271,0000270000,076615,078692,091089,073895,079535,095484
0000000272,0000271000,079173,076228,090995,076886,076826,095203
0000000273,0000272000,082022,074360,090014,080160,074835,093920
0000000274,0000273000,084884,073272,088240,083398,073756,091761
0000000275,0000274000,087492,073064,085840,086288,073692,088934
0000000276,0000275000,089585,073754,083057,088545,074649,085720
0000000277,0000276000,090948,075279,080169,089944,076535,082436
0000000278,0000277000,091457,077494,077445,090352,079166,079396
0000000279,0000278000,091064,080180,075153,089730,082284,076900
0000000280,0000279000,089805,083064,073527,088139,085580,075195
0000000281,0000280000,087799,085873,072723,085732,088735,074447
0000000282,0000281000,085243,088338,072815,082744,091443,074727
0000000283,0000282000,082393,090208,073795,079473,093434,076007
0000000284,0000283000,079529,091299,075568,076237,094514,078164
0000000285,0000284000,076918,091511,077967,073348,094579,080987
0000000286,0000285000,074824,090820,080751,071092,093624,084198
0000000287,0000286000,073457,089298,083641,069692,091742,087481
0000000288,0000287000,072945,087084,086366,069282,089113,090519
0000000289,0000288000,073338,084397,088661,069902,085998,093014
0000000290,0000289000,074595,081512,090289,071490,082705,094719
0000000291,0000290000,076598,078702,091096,073894,079552,095468
0000000292,0000291000,079156,076233,091007,076879,076845,095190
0000000293,0000292000,082007,074360,090029,080147,074854,093913
0000000294,0000293000,084872,073267,088256,083382,073773,091760
0000000295,0000294000,087485,073053,085857,086269,073706,088939
0000000296,0000295000,089582,073740,083073,088525,074658,085731
0000000297,0000296000,090951,075263,080182,089925,076538,082451
0000000298,0000297000,091466,077476,077454,090337,079163,079415
0000000299,0000298000,091077,080162,075157,089719,082275,076920
0000000300,0000299000,089821,083049,073526,088134,085566,075215
0000000301,0000300000,087818,085862,072716,085733,088717,074464
