DIgSILENT PowerFactory,21000900,2000
6,06A,00D
1,TTPP_200000_100:Secondary Voltage A,,,V,0.10000000,-8406.190430,0.000000,71162,99998,1,1,P
2,TTPP_200000_100:Secondary Voltage B,,,V,0.10000000,-8504.535156,0.000000,67835,99998,1,1,P
3,TTPP_200000_100:Secondary Voltage C,,,V,0.10000000,-8575.679688,0.000000,72383,99998,1,1,P
4,TTCC_300_1:Secondary Current A,,,A,0.00010000000,-5.673296,0.000000,-9988,99998,1,1,P
5,TTCC_300_1:Secondary Current B,,,A,0.00010000000,-4.312526,0.000000,-9643,99998,1,1,P
6,TTCC_300_1:Secondary Current C,,,A,0.00010000000,-5.098985,0.000000,482,99998,1,1,P
50
1
1000.000000,1101
30/06/2023,06:09:41.000000
30/06/2023,06:09:41.000000
ASCII
1.000000
0000000001,0000000000,091168,086521,077175,035804,029135,085909
0000000002,0000001000,089034,089238,076591,045557,019857,085436
0000000003,0000002000,086393,091568,076902,056395,012860,081593
0000000004,0000003000,083536,093247,078079,067276,008815,074757
0000000005,0000004000,080744,094109,080012,077116,008143,065588
0000000006,0000005000,078256,094100,082509,084968,010893,054988
0000000007,0000006000,076335,093214,085315,090050,016791,044007
0000000008,0000007000,075190,091506,088168,091877,025263,033710
0000000009,0000008000,074905,089168,090790,090248,035507,025093
0000000010,0000009000,075503,086445,092916,085354,046478,019016
0000000011,0000010000,076950,083575,094338,077656,057117,016076
0000000012,0000011000,079104,080837,094923,067901,066398,016549
0000000013,0000012000,081725,078529,094611,057049,073408,020391
0000000014,0000013000,084578,076852,093434,046186,077435,027228
0000000015,0000014000,087390,075972,091502,036340,078112,036396
0000000016,0000015000,089871,075988,089005,028484,075370,046995
0000000017,0000016000,091777,076889,086197,023404,069467,057977
0000000018,0000017000,092941,078578,083346,021586,060987,068275
0000000019,0000018000,093223,080917,080724,023202,050755,076890
0000000020,0000019000,092613,083655,078598,028101,039779,082968
0000000021,0000020000,091174,086515,077175,035803,029136,085909
0000000022,0000021000,089028,089245,076591,045553,019860,085435
0000000023,0000022000,086390,091571,076903,056404,012852,081592
0000000024,0000023000,083545,093240,078079,067275,008817,074756
0000000025,0000024000,080742,094111,080012,077115,008144,065588
0000000026,0000025000,078248,094107,082509,084969,010891,054988
0000000027,0000026000,076341,093208,085316,090058,016784,044007
0000000028,0000027000,075193,091503,088168,091871,025268,033709
0000000029,0000028000,074898,089175,090790,090251,035504,025093
0000000030,0000029000,075503,086445,092916,085359,046474,019016
0000000031,0000030000,076957,083569,094338,077659,057114,016075
0000000032,0000031000,079100,080842,094923,067898,066401,016548
0000000033,0000032000,081722,078531,094611,057055,073402,020391
0000000034,0000033000,084582,076848,093434,046189,077433,027227
0000000035,0000034000,087391,075971,091502,036340,078114,036395
0000000036,0000035000,089866,075993,089005,028486,075368,046994
0000000037,0000036000,091780,076886,086198,023408,069464,057975
0000000038,0000037000,092942,078576,083346,021587,060988,068273
0000000039,0000038000,093221,080920,080723,023203,050756,076889
0000000040,0000039000,092613,083654,078597,028104,039777,082966
0000000041,0000040000,091176,086512,077175,035804,029137,085908
0000000042,0000041000,089026,089247,076591,045554,019861,085434
0000000043,0000042000,086391,091570,076902,056405,012852,081592
0000000044,0000043000,083547,093238,078079,067275,008817,074756
0000000045,0000044000,080740,094113,080012,077115,008145,065588
0000000046,0000045000,078249,094107,082508,084970,010889,054988
0000000047,0000046000,076343,093206,085315,090056,016784,044008
0000000048,0000047000,075191,091505,088168,091871,025267,033710
0000000049,0000048000,074897,089177,090790,090253,035501,025094
0000000050,0000049000,075506,086442,092916,085359,046472,019017
0000000051,0000050000,076955,083570,094339,077658,057114,016076
0000000052,0000051000,079096,080845,094923,067902,066397,016549
0000000053,0000052000,081726,078527,094611,057059,073398,020391
0000000054,0000053000,084583,076846,093435,046189,077433,027226
0000000055,0000054000,087386,075975,091503,036344,078111,036394
0000000056,0000055000,089868,075991,089005,028492,075364,046992
0000000057,0000056000,091784,076882,086198,023409,069465,057973
0000000058,0000057000,092938,078580,083346,021588,060989,068270
0000000059,0000058000,093220,080920,080724,023208,050754,076886
0000000060,0000059000,092618,083649,078597,028106,039779,082964
0000000061,0000060000,091175,086514,077175,035801,029142,085905
0000000062,0000061000,089023,089250,076590,045556,019861,085432
0000000063,0000062000,086395,091567,076902,056405,012853,081590
0000000064,0000063000,083549,093237,078078,067271,008821,074755
0000000065,0000064000,080736,094117,080011,077112,008147,065588
0000000066,0000065000,078250,094106,082508,084970,010887,054990
0000000067,0000066000,076346,093204,085315,090053,016785,044010
0000000068,0000067000,075188,091509,088167,091868,025267,033713
0000000069,0000068000,074896,089178,090790,090254,035498,025097
0000000070,0000069000,075509,086439,092916,085359,046469,019020
0000000071,0000070000,076953,083572,094339,077658,057112,016078
0000000072,0000071000,079094,080847,094924,067905,066392,016551
0000000073,0000072000,081727,078525,094612,057062,073394,020392
0000000074,0000073000,084582,076846,093436,046192,077430,027226
0000000075,0000074000,087384,075977,091503,036349,078108,036392
0000000076,0000075000,089869,075989,089006,028498,075361,046990
0000000077,0000076000,091785,076880,086199,023413,069465,057969
0000000078,0000077000,092936,078581,083347,021592,060990,068266
0000000079,0000078000,093222,080919,080723,023212,050755,076881
0000000080,0000079000,092620,083647,078597,028107,039782,082959
0000000081,0000080000,091174,086515,077175,035802,029146,085900
0000000082,0000081000,089024,089250,076590,045556,019864,085428
0000000083,0000082000,086398,091565,076901,056402,012858,081588
0000000084,0000083000,083547,093239,078078,067267,008826,074755
0000000085,0000084000,080736,094119,080010,077109,008149,065589
0000000086,0000085000,078253,094105,082507,084965,010890,054993
0000000087,0000086000,076344,093205,085314,090047,016788,044014
0000000088,0000087000,075185,091512,088167,091865,025265,033718
0000000089,0000088000,074897,089177,090790,090252,035494,025103
0000000090,0000089000,075508,086439,092916,085356,046466,019026
0000000091,0000090000,076949,083575,094339,077658,057106,016083
0000000092,0000091000,079094,080846,094924,067909,066383,016555
0000000093,0000092000,081728,078523,094613,057066,073388,020394
0000000094,0000093000,084579,076848,093437,046197,077425,027226
0000000095,0000094000,087383,075977,091504,036357,078101,036390
0000000096,0000095000,089872,075985,089007,028505,075357,046986
0000000097,0000096000,091784,076880,086200,023419,069465,057964
0000000098,0000097000,092935,078582,083347,021600,060989,068259
0000000099,0000098000,093225,080915,080724,023217,050757,076873
0000000100,0000099000,092621,083646,078597,028108,039789,082951
0000000101,0000100000,091173,086517,077174,035802,029153,085893
0000000102,0000101000,089027,089248,076589,045555,019871,085423
0000000103,0000102000,086401,091563,076900,056396,012867,081585
0000000104,0000103000,083546,093242,078076,067260,008834,074754
0000000105,0000104000,080736,094120,080008,077102,008154,065591
0000000106,0000105000,078255,094104,082505,084956,010894,054997
0000000107,0000106000,076343,093208,085313,090038,016790,044021
0000000108,0000107000,075184,091515,088166,091859,025263,033726
0000000109,0000108000,074898,089177,090789,090247,035489,025112
0000000110,0000109000,075506,086441,092917,085353,046460,019035
0000000111,0000110000,076946,083578,094340,077660,057097,016091
0000000112,0000111000,079094,080845,094925,067913,066373,016561
0000000113,0000112000,081727,078523,094615,057071,073379,020398
0000000114,0000113000,084576,076849,093439,046206,077415,027227
0000000115,0000114000,087383,075975,091506,036369,078092,036388
0000000116,0000115000,089872,075982,089009,028515,075353,046980
0000000117,0000116000,091783,076880,086202,023430,069463,057955
0000000118,0000117000,092936,078580,083348,021610,060989,068248
0000000119,0000118000,093229,080912,080724,023223,050762,076862
0000000120,0000119000,092622,083645,078597,028111,039797,082940
0000000121,0000120000,091175,086516,077173,035803,029162,085883
0000000122,0000121000,089031,089246,076587,045551,019882,085415
0000000123,0000122000,086402,091564,076898,056389,012880,081580
0000000124,0000123000,083546,093244,078074,067251,008844,074753
0000000125,0000124000,080739,094119,080006,077091,008162,065594
0000000126,0000125000,078255,094105,082504,084943,010901,055004
0000000127,0000126000,076340,093212,085311,090026,016792,044030
0000000128,0000127000,075183,091516,088165,091850,025260,033738
0000000129,0000128000,074897,089178,090789,090239,035484,025125
0000000130,0000129000,075502,086445,092917,085349,046451,019048
0000000131,0000130000,076944,083579,094341,077661,057083,016103
0000000132,0000131000,079093,080844,094927,067918,066360,016570
0000000133,0000132000,081723,078524,094617,057079,073365,020403
0000000134,0000133000,084573,076850,093441,046219,077401,027228
0000000135,0000134000,087384,075972,091509,036383,078081,036384
0000000136,0000135000,089872,075980,089012,028529,075346,046973
0000000137,0000136000,091782,076879,086203,023444,069460,057944
0000000138,0000137000,092939,078576,083349,021623,060991,068234
0000000139,0000138000,093231,080908,080725,023232,050769,076847
0000000140,0000139000,092623,083645,078597,028116,039808,082924
0000000141,0000140000,091178,086514,077172,035804,029175,085870
0000000142,0000141000,089035,089244,076585,045546,019899,085404
0000000143,0000142000,086403,091565,076896,056379,012896,081573
0000000144,0000143000,083548,093245,078071,067238,008859,074751
0000000145,0000144000,080742,094120,080003,077075,008175,065598
0000000146,0000145000,078255,094109,082501,084925,010910,055012
0000000147,0000146000,076339,093216,085309,090011,016794,044043
0000000148,0000147000,075183,091518,088163,091836,025258,033755
0000000149,0000148000,074895,089181,090788,090228,035477,025143
0000000150,0000149000,075498,086449,092917,085345,046438,019065
0000000151,0000150000,076942,083580,094342,077662,057067,016119
0000000152,0000151000,079090,080845,094929,067923,066342,016582
0000000153,0000152000,081719,078525,094620,057091,073346,020410
0000000154,0000153000,084572,076848,093444,046236,077383,027230
0000000155,0000154000,087383,075968,091512,036401,078067,036380
0000000156,0000155000,089870,075979,089015,028549,075337,046962
0000000157,0000156000,091783,076876,086206,023464,069455,057929
0000000158,0000157000,092942,078571,083351,021639,060993,068216
0000000159,0000158000,093233,080905,080726,023243,050779,076826
0000000160,0000159000,092626,083642,078596,028123,039821,082904
0000000161,0000160000,091183,086511,077170,035804,029193,085852
0000000162,0000161000,089039,089242,076583,045538,019920,085390
0000000163,0000162000,086405,091566,076892,056366,012917,081565
0000000164,0000163000,083552,093246,078067,067221,008878,074749
0000000165,0000164000,080744,094121,079999,077054,008191,065603
0000000166,0000165000,078254,094113,082497,084903,010921,055024
0000000167,0000166000,076338,093220,085306,089990,016798,044060
0000000168,0000167000,075182,091521,088161,091818,025255,033776
0000000169,0000168000,074890,089186,090788,090214,035468,025166
0000000170,0000169000,075494,086453,092918,085338,046422,019088
0000000171,0000170000,076938,083582,094344,077663,057046,016139
0000000172,0000171000,079085,080847,094933,067931,066319,016598
0000000173,0000172000,081715,078526,094624,057106,073322,020420
0000000174,0000173000,084569,076846,093449,046256,077360,027232
0000000175,0000174000,087381,075965,091517,036424,078050,036374
0000000176,0000175000,089869,075976,089019,028574,075325,046949
0000000177,0000176000,091784,076871,086209,023489,069450,057910
0000000178,0000177000,092945,078565,083354,021659,060997,068192
0000000179,0000178000,093236,080902,080727,023258,050790,076800
0000000180,0000179000,092630,083638,078595,028131,039839,082878
0000000181,0000180000,091189,086507,077168,035803,029216,085829
0000000182,0000181000,089043,089242,076580,045529,019947,085373
0000000183,0000182000,086409,091567,076888,056350,012944,081554
0000000184,0000183000,083556,093246,078062,067199,008902,074747
0000000185,0000184000,080746,094125,079994,077027,008212,065609
0000000186,0000185000,078254,094118,082492,084876,010934,055038
0000000187,0000186000,076338,093224,085302,089964,016803,044082
0000000188,0000187000,075179,091526,088158,091795,025252,033802
0000000189,0000188000,074886,089192,090787,090198,035456,025195
0000000190,0000189000,075489,086456,092918,085331,046401,019116
0000000191,0000190000,076934,083584,094346,077663,057020,016164
0000000192,0000191000,079079,080849,094936,067941,066290,016617
0000000193,0000192000,081710,078526,094629,057125,073292,020431
0000000194,0000193000,084567,076843,093454,046281,077333,027234
0000000195,0000194000,087379,075963,091523,036454,078028,036367
0000000196,0000195000,089868,075972,089024,028606,075310,046933
0000000197,0000196000,091786,076864,086214,023518,069444,057886
0000000198,0000197000,092948,078559,083357,021684,061001,068163
0000000199,0000198000,093240,080897,080728,023276,050803,076768
0000000200,0000199000,092637,083633,078595,028141,039860,082847
0000000201,0000200000,091195,086503,077166,035802,029245,085801
0000000202,0000201000,089048,089241,076575,045518,019979,085351
0000000203,0000202000,086415,091567,076882,056330,012976,081542
0000000204,0000203000,083561,093248,078056,067171,008933,074744
0000000205,0000204000,080747,094129,079988,076994,008237,065617
0000000206,0000205000,078254,094124,082486,084842,010950,055056
0000000207,0000206000,076337,093230,085297,089931,016809,044108
0000000208,0000207000,075176,091533,088155,091767,025247,033834
0000000209,0000208000,074880,089198,090785,090179,035440,025230
0000000210,0000209000,075484,086461,092919,085321,046377,019151
0000000211,0000210000,076927,083588,094349,077664,056989,016195
0000000212,0000211000,079072,080852,094941,067953,066254,016641
0000000213,0000212000,081705,078525,094634,057148,073255,020445
0000000214,0000213000,084562,076840,093461,046311,077300,027237
0000000215,0000214000,087375,075959,091530,036489,078001,036358
0000000216,0000215000,089868,075966,089030,028644,075291,046913
0000000217,0000216000,091788,076857,086219,023554,069437,057857
0000000218,0000217000,092951,078553,083360,021714,061007,068127
0000000219,0000218000,093245,080890,080729,023298,050820,076730
0000000220,0000219000,092644,083626,078594,028152,039887,082809
0000000221,0000220000,091202,086499,077163,035801,029280,085768
0000000222,0000221000,089055,089239,076570,045505,020018,085326
0000000223,0000222000,086422,091566,076875,056306,013016,081526
0000000224,0000223000,083566,093250,078048,067137,008969,074741
0000000225,0000224000,080750,094134,079980,076955,008266,065627
0000000226,0000225000,078255,094130,082479,084801,010969,055078
0000000227,0000226000,076336,093237,085292,089892,016817,044140
0000000228,0000227000,075171,091542,088151,091734,025242,033873
0000000229,0000228000,074874,089206,090783,090155,035421,025272
0000000230,0000229000,075477,086467,092920,085309,046347,019192
0000000231,0000230000,076918,083593,094353,077665,056952,016231
0000000232,0000231000,079064,080855,094946,067968,066211,016669
0000000233,0000232000,081698,078525,094642,057174,073212,020462
0000000234,0000233000,084556,076838,093470,046347,077261,027240
0000000235,0000234000,087371,075955,091538,036532,077969,036348
0000000236,0000235000,089867,075958,089038,028689,075270,046890
0000000237,0000236000,091790,076848,086225,023596,069430,057822
0000000238,0000237000,092955,078545,083365,021750,061013,068085
0000000239,0000238000,093252,080882,080731,023324,050839,076684
0000000240,0000239000,092652,083619,078593,028164,039919,082764
0000000241,0000240000,091211,086494,077159,035799,029321,085728
0000000242,0000241000,089063,089236,076564,045489,020064,085295
0000000243,0000242000,086430,091566,076868,056277,013063,081509
0000000244,0000243000,083571,093253,078040,067097,009013,074738
0000000245,0000244000,080753,094140,079971,076909,008300,065638
0000000246,0000245000,078257,094136,082471,084753,010992,055103
0000000247,0000246000,076334,093246,085285,089846,016826,044177
0000000248,0000247000,075166,091551,088147,091695,025235,033918
0000000249,0000248000,074868,089215,090781,090128,035399,025321
0000000250,0000249000,075468,086474,092921,085295,046313,019241
0000000251,0000250000,076908,083599,094357,077667,056907,016274
0000000252,0000251000,079054,080857,094953,067986,066161,016701
0000000253,0000252000,081690,078524,094650,057206,073161,020481
0000000254,0000253000,084549,076835,093479,046390,077215,027244
0000000255,0000254000,087367,075949,091548,036582,077931,036335
0000000256,0000255000,089867,075950,089047,028741,075245,046862
0000000257,0000256000,091792,076839,086233,023645,069421,057782
0000000258,0000257000,092960,078535,083370,021792,061020,068036
0000000259,0000258000,093260,080872,080733,023354,050863,076631
0000000260,0000259000,092662,083611,078592,028179,039957,082712
0000000261,0000260000,091221,086488,077155,035797,029369,085682
0000000262,0000261000,089074,089232,076557,045471,020117,085260
0000000263,0000262000,086440,091566,076859,056243,013117,081488
0000000264,0000263000,083578,093257,078029,067051,009062,074734
0000000265,0000264000,080758,094146,079960,076856,008340,065652
0000000266,0000265000,078258,094145,082461,084697,011018,055133
0000000267,0000266000,076331,093256,085277,089793,016835,044220
0000000268,0000267000,075160,091562,088141,091651,025227,033971
0000000269,0000268000,074860,089225,090779,090096,035374,025379
0000000270,0000269000,075458,086484,092922,085279,046273,019297
0000000271,0000270000,076897,083606,094361,077669,056855,016323
0000000272,0000271000,079044,080861,094960,068006,066103,016739
0000000273,0000272000,081680,078524,094660,057242,073103,020503
0000000274,0000273000,084541,076832,093490,046439,077161,027248
0000000275,0000274000,087363,075942,091559,036640,077888,036320
0000000276,0000275000,089866,075940,089058,028801,075218,046830
0000000277,0000276000,091794,076828,086242,023702,069410,057736
0000000278,0000277000,092965,078523,083376,021840,061029,067979
0000000279,0000278000,093269,080860,080736,023388,050890,076569
0000000280,0000279000,092672,083601,078591,028196,040000,082652
0000000281,0000280000,091232,086481,077150,035795,029424,085630
0000000282,0000281000,089086,089228,076549,045449,020179,085220
0000000283,0000282000,086450,091566,076848,056204,013180,081465
0000000284,0000283000,083586,093261,078017,066999,009119,074730
0000000285,0000284000,080764,094153,079948,076794,008386,065668
0000000286,0000285000,078260,094155,082450,084632,011048,055167
0000000287,0000286000,076328,093269,085267,089732,016846,044270
0000000288,0000287000,075155,091575,088134,091600,025217,034032
0000000289,0000288000,074851,089236,090776,090059,035345,025444
0000000290,0000289000,075446,086494,092924,085261,046227,019361
0000000291,0000290000,076884,083614,094366,077672,056796,016379
0000000292,0000291000,079031,080864,094969,068029,066037,016782
0000000293,0000292000,081668,078524,094671,057283,073037,020528
0000000294,0000293000,084532,076828,093503,046496,077100,027252
0000000295,0000294000,087357,075934,091572,036706,077839,036303
0000000296,0000295000,089864,075930,089070,028869,075186,046793
0000000297,0000296000,091797,076816,086252,023767,069399,057682
0000000298,0000297000,092972,078509,083383,021895,061039,067914
0000000299,0000298000,093279,080847,080739,023427,050921,076500
0000000300,0000299000,092684,083591,078589,028214,040049,082584
0000000301,0000300000,091246,086473,077145,035792,029486,085570
