DIgSILENT PowerFactory,21000900,2000
6,06A,00D
1,TTPP_200000_100:Secondary Voltage A,,,V,0.10000000,-8416.351563,0.000000,70092,99998,1,1,P
2,TTPP_200000_100:Secondary Voltage B,,,V,0.10000000,-8406.782227,0.000000,69985,99998,1,1,P
3,TTPP_200000_100:Secondary Voltage C,,,V,0.10000000,-8496.339844,0.000000,67389,99998,1,1,P
4,TTCC_500_5:Secondary Current A,,,A,0.0010000000,-78.885994,0.000000,64559,99998,1,1,P
5,TTCC_500_5:Secondary Current B,,,A,0.0010000000,-84.529472,0.000000,69128,99998,1,1,P
6,TTCC_500_5:Secondary Current C,,,A,0.0010000000,-84.848137,0.000000,69717,99998,1,1,P
50
1
1000.000000,1101
30/06/2023,06:09:48.000000
30/06/2023,06:09:48.000000
ASCII
1.000000
0000000001,0000000000,089676,087708,075811,084802,089209,074253
0000000002,0000001000,087128,090141,075925,081785,091926,074552
0000000003,0000002000,084277,091996,076923,078490,093917,075857
0000000004,0000003000,081427,093062,078706,075230,094991,078043
0000000005,0000004000,078849,093238,081108,072327,095040,080897
0000000006,0000005000,076773,092536,083886,070068,094059,084137
0000000007,0000006000,075428,091004,086761,068673,092148,087443
0000000008,0000007000,074955,088773,089467,068277,089488,090498
0000000009,0000008000,075365,086093,091736,068920,086343,093001
0000000010,0000009000,076629,083230,093337,070537,083023,094704
0000000011,0000010000,078652,080428,094115,072973,079849,095442
0000000012,0000011000,081212,077981,094002,075989,077131,095143
0000000013,0000012000,084040,076150,093005,079287,075139,093838
0000000014,0000013000,086894,075080,091220,082546,074066,091652
0000000015,0000014000,089493,074883,088819,085448,074017,088798
0000000016,0000015000,091550,075604,086041,087707,074999,085558
0000000017,0000016000,092887,077143,083165,089103,076909,082252
0000000018,0000017000,093385,079350,080460,089499,079568,079197
0000000019,0000018000,092966,082038,078191,088854,082715,076694
0000000020,0000019000,091684,084920,076591,087238,086035,074991
0000000021,0000020000,089681,087702,075811,084804,089207,074253
0000000022,0000021000,087126,090144,075925,081785,091927,074552
0000000023,0000022000,084274,091999,076922,078487,093920,075857
0000000024,0000023000,081431,093058,078706,075231,094989,078043
0000000025,0000024000,078848,093239,081108,072328,095039,080897
0000000026,0000025000,076771,092538,083885,070066,094061,084137
0000000027,0000026000,075431,091002,086761,068673,092148,087443
0000000028,0000027000,074953,088774,089467,068277,089488,090498
0000000029,0000028000,075362,086096,091736,068918,086344,093001
0000000030,0000029000,076632,083227,093336,070537,083023,094704
0000000031,0000030000,078652,080428,094116,072973,079849,095442
0000000032,0000031000,081207,077985,094002,075988,077132,095143
0000000033,0000032000,084043,076147,093004,079287,075139,093838
0000000034,0000033000,086897,075077,091220,082545,074066,091652
0000000035,0000034000,089488,074887,088820,085446,074019,088798
0000000036,0000035000,091550,075604,086041,087707,074998,085559
0000000037,0000036000,092892,077138,083165,089103,076908,082252
0000000038,0000037000,093382,079353,080460,089497,079569,079198
0000000039,0000038000,092962,082041,078191,088854,082715,076694
0000000040,0000039000,091689,084916,076590,087238,086034,074991
0000000041,0000040000,089682,087701,075811,084802,089208,074254
0000000042,0000041000,087121,090149,075925,081785,091927,074552
0000000043,0000042000,084277,091996,076922,078488,093918,075857
0000000044,0000043000,081435,093054,078706,075230,094990,078043
0000000045,0000044000,078844,093244,081108,072327,095040,080897
0000000046,0000045000,076769,092540,083885,070067,094060,084136
0000000047,0000046000,075436,090997,086761,068673,092148,087443
0000000048,0000047000,074952,088776,089467,068276,089490,090498
0000000049,0000048000,075358,086100,091736,068919,086344,093001
0000000050,0000049000,076635,083224,093336,070537,083023,094704
0000000051,0000050000,078653,080426,094116,072972,079850,095442
0000000052,0000051000,081203,077990,094003,075988,077133,095143
0000000053,0000052000,084044,076146,093005,079287,075139,093838
0000000054,0000053000,086899,075074,091221,082544,074067,091653
0000000055,0000054000,089485,074890,088820,085445,074020,088799
0000000056,0000055000,091549,075604,086042,087706,074998,085559
0000000057,0000056000,092895,077134,083166,089102,076909,082253
0000000058,0000057000,093381,079353,080460,089496,079569,079198
0000000059,0000058000,092961,082043,078191,088854,082714,076695
0000000060,0000059000,091692,084912,076590,087238,086033,074992
0000000061,0000060000,089683,087701,075811,084801,089208,074254
0000000062,0000061000,087120,090151,075924,081785,091926,074553
0000000063,0000062000,084279,091994,076921,078488,093917,075858
0000000064,0000063000,081436,093054,078705,075230,094990,078043
0000000065,0000064000,078842,093246,081107,072327,095040,080897
0000000066,0000065000,076771,092539,083884,070068,094060,084136
0000000067,0000066000,075437,090997,086761,068673,092148,087442
0000000068,0000067000,074948,088779,089467,068277,089490,090497
0000000069,0000068000,075358,086101,091736,068919,086344,093000
0000000070,0000069000,076637,083222,093336,070537,083024,094703
0000000071,0000070000,078649,080429,094116,072971,079852,095441
0000000072,0000071000,081201,077991,094003,075987,077134,095143
0000000073,0000072000,084046,076143,093006,079285,075140,093838
0000000074,0000073000,086897,075075,091222,082542,074069,091653
0000000075,0000074000,089482,074892,088821,085444,074020,088799
0000000076,0000075000,091552,075601,086042,087705,074998,085560
0000000077,0000076000,092896,077133,083166,089100,076910,082254
0000000078,0000077000,093379,079356,080461,089495,079569,079200
0000000079,0000078000,092964,082040,078191,088854,082713,076697
0000000080,0000079000,091695,084909,076590,087237,086033,074994
0000000081,0000080000,089681,087703,075811,084801,089207,074256
0000000082,0000081000,087120,090151,075923,081786,091924,074554
0000000083,0000082000,084283,091991,076920,078489,093916,075859
0000000084,0000083000,081435,093056,078704,075231,094989,078043
0000000085,0000084000,078840,093249,081105,072329,095038,080896
0000000086,0000085000,076774,092538,083883,070070,094059,084135
0000000087,0000086000,075437,090998,086760,068674,092149,087441
0000000088,0000087000,074945,088783,089466,068278,089490,090495
0000000089,0000088000,075359,086101,091735,068921,086345,092998
0000000090,0000089000,076637,083222,093336,070536,083026,094701
0000000091,0000090000,078646,080433,094117,072971,079854,095439
0000000092,0000091000,081200,077991,094004,075987,077135,095141
0000000093,0000092000,084046,076141,093007,079284,075143,093837
0000000094,0000093000,086895,075076,091224,082540,074071,091653
0000000095,0000094000,089481,074892,088822,085442,074021,088800
0000000096,0000095000,091554,075597,086044,087703,074999,085561
0000000097,0000096000,092895,077132,083168,089097,076911,082256
0000000098,0000097000,093378,079355,080462,089493,079569,079202
0000000099,0000098000,092967,082037,078191,088852,082712,076699
0000000100,0000099000,091697,084908,076590,087236,086032,074996
0000000101,0000100000,089681,087704,075810,084801,089205,074258
0000000102,0000101000,087124,090149,075922,081787,091922,074555
0000000103,0000102000,084286,091990,076919,078490,093914,075859
0000000104,0000103000,081434,093058,078702,075233,094987,078044
0000000105,0000104000,078842,093250,081103,072332,095036,080896
0000000106,0000105000,076776,092538,083881,070072,094058,084134
0000000107,0000106000,075435,091001,086758,068676,092148,087439
0000000108,0000107000,074944,088786,089464,068280,089490,090493
0000000109,0000108000,075359,086101,091735,068922,086346,092996
0000000110,0000109000,076634,083224,093337,070537,083028,094699
0000000111,0000110000,078642,080435,094118,072971,079856,095437
0000000112,0000111000,081200,077990,094005,075986,077138,095140
0000000113,0000112000,084044,076141,093009,079282,075146,093836
0000000114,0000113000,086891,075077,091226,082537,074074,091652
0000000115,0000114000,089481,074889,088825,085440,074023,088800
0000000116,0000115000,091554,075594,086047,087699,075001,085563
0000000117,0000116000,092894,077131,083170,089094,076911,082258
0000000118,0000117000,093380,079352,080463,089491,079568,079205
0000000119,0000118000,092971,082032,078192,088850,082711,076702
0000000120,0000119000,091698,084907,076590,087235,086030,074999
0000000121,0000120000,089683,087703,075809,084801,089202,074261
0000000122,0000121000,087128,090146,075920,081788,091918,074558
0000000123,0000122000,084288,091991,076916,078492,093911,075861
0000000124,0000123000,081435,093061,078699,075236,094984,078044
0000000125,0000124000,078845,093250,081100,072335,095033,080895
0000000126,0000125000,076777,092539,083879,070075,094056,084132
0000000127,0000126000,075433,091006,086756,068679,092148,087436
0000000128,0000127000,074943,088789,089463,068283,089491,090490
0000000129,0000128000,075358,086102,091734,068924,086348,092992
0000000130,0000129000,076629,083229,093337,070538,083031,094695
0000000131,0000130000,078638,080438,094119,072971,079859,095434
0000000132,0000131000,081198,077990,094008,075985,077142,095137
0000000133,0000132000,084040,076142,093013,079279,075150,093834
0000000134,0000133000,086888,075077,091230,082534,074077,091652
0000000135,0000134000,089481,074886,088828,085436,074026,088801
0000000136,0000135000,091554,075591,086050,087695,075003,085565
0000000137,0000136000,092893,077129,083173,089090,076912,082261
0000000138,0000137000,093383,079348,080465,089488,079567,079209
0000000139,0000138000,092974,082028,078193,088847,082710,076707
0000000140,0000139000,091700,084905,076590,087233,086027,075003
0000000141,0000140000,089687,087700,075807,084802,089197,074264
0000000142,0000141000,087133,090144,075918,081789,091914,074561
0000000143,0000142000,084290,091992,076913,078494,093907,075863
0000000144,0000143000,081438,093062,078695,075240,094979,078044
0000000145,0000144000,078848,093251,081096,072340,095030,080894
0000000146,0000145000,076776,092543,083875,070080,094054,084130
0000000147,0000146000,075431,091011,086753,068684,092147,087433
0000000148,0000147000,074942,088792,089460,068287,089491,090485
0000000149,0000148000,075355,086107,091733,068926,086350,092987
0000000150,0000149000,076624,083234,093337,070539,083034,094690
0000000151,0000150000,078635,080440,094121,072971,079864,095429
0000000152,0000151000,081194,077990,094011,075983,077148,095134
0000000153,0000152000,084035,076143,093016,079276,075156,093832
0000000154,0000153000,086885,075076,091234,082530,074082,091652
0000000155,0000154000,089480,074882,088833,085430,074031,088803
0000000156,0000155000,091552,075588,086055,087689,075006,085568
0000000157,0000156000,092894,077125,083176,089085,076913,082266
0000000158,0000157000,093386,079341,080467,089483,079567,079214
0000000159,0000158000,092977,082024,078194,088844,082707,076713
0000000160,0000159000,091704,084902,076589,087232,086023,075009
0000000161,0000160000,089694,087696,075805,084802,089192,074270
0000000162,0000161000,087139,090142,075914,081791,091908,074565
0000000163,0000162000,084294,091993,076908,078498,093900,075865
0000000164,0000163000,081442,093063,078690,075245,094974,078045
0000000165,0000164000,078851,093253,081091,072346,095025,080893
0000000166,0000165000,076776,092549,083870,070086,094051,084126
0000000167,0000166000,075430,091016,086748,068691,092145,087428
0000000168,0000167000,074941,088796,089458,068292,089492,090479
0000000169,0000168000,075350,086113,091732,068930,086353,092980
0000000170,0000169000,076618,083239,093338,070541,083039,094683
0000000171,0000170000,078630,080442,094123,072971,079870,095423
0000000172,0000171000,081188,077992,094015,075980,077155,095129
0000000173,0000172000,084029,076144,093022,079271,075162,093830
0000000174,0000173000,086882,075073,091240,082524,074088,091651
0000000175,0000174000,089477,074878,088839,085423,074036,088805
0000000176,0000175000,091550,075584,086060,087682,075010,085572
0000000177,0000176000,092896,077118,083181,089078,076914,082271
0000000178,0000177000,093390,079334,080471,089477,079566,079221
0000000179,0000178000,092981,082018,078196,088840,082704,076720
0000000180,0000179000,091710,084896,076588,087230,086017,075017
0000000181,0000180000,089701,087691,075802,084802,089185,074276
0000000182,0000181000,087144,090140,075910,081793,091901,074570
0000000183,0000182000,084299,091993,076902,078503,093893,075868
0000000184,0000183000,081448,093064,078683,075252,094966,078045
0000000185,0000184000,078853,093258,081084,072353,095020,080891
0000000186,0000185000,076776,092555,083863,070094,094047,084122
0000000187,0000186000,075429,091022,086743,068698,092144,087421
0000000188,0000187000,074937,088803,089454,068299,089493,090471
0000000189,0000188000,075343,086121,091730,068935,086357,092972
0000000190,0000189000,076612,083244,093338,070544,083045,094675
0000000191,0000190000,078624,080446,094126,072970,079877,095416
0000000192,0000191000,081180,077996,094020,075977,077163,095124
0000000193,0000192000,084023,076144,093028,079266,075171,093826
0000000194,0000193000,086877,075070,091247,082517,074096,091651
0000000195,0000194000,089474,074874,088847,085414,074043,088807
0000000196,0000195000,091549,075579,086067,087673,075014,085577
0000000197,0000196000,092898,077110,083187,089070,076916,082278
0000000198,0000197000,093394,079326,080475,089470,079565,079229
0000000199,0000198000,092986,082012,078197,088834,082700,076729
0000000200,0000199000,091718,084889,076588,087227,086011,075026
0000000201,0000200000,089710,087686,075799,084802,089177,074284
0000000202,0000201000,087152,090138,075905,081796,091891,074576
0000000203,0000202000,084307,091993,076895,078509,093883,075872
0000000204,0000203000,081454,093066,078675,075260,094958,078046
0000000205,0000204000,078856,093263,081076,072362,095013,080888
0000000206,0000205000,076777,092562,083856,070104,094043,084117
0000000207,0000206000,075428,091030,086737,068708,092142,087414
0000000208,0000207000,074933,088812,089450,068307,089495,090462
0000000209,0000208000,075337,086130,091728,068940,086361,092962
0000000210,0000209000,076605,083251,093339,070547,083052,094665
0000000211,0000210000,078615,080451,094130,072970,079887,095407
0000000212,0000211000,081170,077999,094026,075974,077173,095117
0000000213,0000212000,084015,076144,093036,079260,075181,093823
0000000214,0000213000,086871,075067,091257,082508,074106,091650
0000000215,0000214000,089469,074869,088856,085404,074050,088809
0000000216,0000215000,091548,075571,086076,087662,075019,085582
0000000217,0000216000,092901,077100,083194,089059,076918,082287
0000000218,0000217000,093398,079317,080480,089461,079563,079240
0000000219,0000218000,092993,082003,078199,088828,082695,076740
0000000220,0000219000,091727,084881,076587,087224,086003,075037
0000000221,0000220000,089719,087680,075795,084802,089167,074294
0000000222,0000221000,087161,090136,075898,081800,091880,074583
0000000223,0000222000,084316,091993,076886,078516,093871,075876
0000000224,0000223000,081461,093069,078665,075269,094947,078047
0000000225,0000224000,078860,093270,081065,072374,095004,080885
0000000226,0000225000,076778,092570,083846,070116,094037,084111
0000000227,0000226000,075427,091039,086729,068719,092140,087405
0000000228,0000227000,074927,088823,089444,068316,089497,090451
0000000229,0000228000,075329,086140,091726,068947,086367,092950
0000000230,0000229000,076595,083259,093340,070550,083060,094653
0000000231,0000230000,078603,080458,094134,072969,079898,095397
0000000232,0000231000,081159,078003,094033,075969,077186,095109
0000000233,0000232000,084006,076143,093045,079252,075194,093818
0000000234,0000233000,086864,075063,091267,082497,074117,091649
0000000235,0000234000,089464,074863,088867,085392,074059,088812
0000000236,0000235000,091547,075561,086086,087649,075025,085589
0000000237,0000236000,092903,077090,083202,089047,076920,082297
0000000238,0000237000,093403,079306,080486,089450,079561,079252
0000000239,0000238000,093001,081992,078202,088821,082689,076753
0000000240,0000239000,091738,084871,076586,087220,085994,075050
0000000241,0000240000,089730,087674,075791,084803,089155,074305
0000000242,0000241000,087172,090132,075890,081805,091867,074592
0000000243,0000242000,084327,091992,076876,078525,093858,075881
0000000244,0000243000,081469,093073,078653,075281,094935,078048
0000000245,0000244000,078865,093277,081053,072387,094995,080882
0000000246,0000245000,076780,092580,083835,070130,094031,084103
0000000247,0000246000,075424,091051,086720,068732,092138,087394
0000000248,0000247000,074920,088836,089438,068327,089499,090438
0000000249,0000248000,075320,086151,091723,068955,086373,092935
0000000250,0000249000,076584,083269,093342,070554,083070,094640
0000000251,0000250000,078590,080466,094139,072969,079910,095385
0000000252,0000251000,081147,078007,094041,075964,077200,095100
0000000253,0000252000,083995,076143,093056,079243,075208,093812
0000000254,0000253000,086855,075060,091280,082485,074131,091648
0000000255,0000254000,089458,074856,088880,085377,074070,088816
0000000256,0000255000,091546,075550,086098,087634,075032,085597
0000000257,0000256000,092905,077077,083212,089033,076922,082308
0000000258,0000257000,093409,079293,080493,089439,079559,079266
0000000259,0000258000,093012,081978,078205,088813,082682,076769
0000000260,0000259000,091751,084860,076584,087216,085983,075065
0000000261,0000260000,089744,087666,075785,084804,089142,074318
0000000262,0000261000,087186,090127,075881,081811,091851,074602
0000000263,0000262000,084339,091992,076864,078534,093842,075887
0000000264,0000263000,081478,093078,078640,075294,094921,078049
0000000265,0000264000,078871,093285,081039,072403,094983,080878
0000000266,0000265000,076782,092591,083822,070146,094023,084094
0000000267,0000266000,075421,091065,086709,068747,092135,087381
0000000268,0000267000,074913,088851,089430,068340,089501,090422
0000000269,0000268000,075310,086165,091720,068964,086380,092919
0000000270,0000269000,076570,083281,093343,070558,083082,094623
0000000271,0000270000,078575,080475,094145,072968,079925,095371
0000000272,0000271000,081133,078012,094051,075958,077216,095089
0000000273,0000272000,083982,076143,093069,079232,075225,093806
0000000274,0000273000,086844,075056,091295,082470,074146,091647
0000000275,0000274000,089452,074847,088895,085361,074082,088820
0000000276,0000275000,091545,075538,086112,087617,075040,085607
0000000277,0000276000,092908,077063,083224,089016,076925,082322
0000000278,0000277000,093417,079278,080500,089425,079556,079282
0000000279,0000278000,093024,081963,078208,088803,082674,076786
0000000280,0000279000,091765,084847,076583,087211,085970,075082
0000000281,0000280000,089759,087656,075779,084805,089126,074333
0000000282,0000281000,087202,090122,075870,081817,091833,074613
0000000283,0000282000,084353,091992,076850,078546,093825,075893
0000000284,0000283000,081489,093083,078624,075309,094905,078050
0000000285,0000284000,078878,093294,081023,072420,094970,080873
0000000286,0000285000,076784,092604,083807,070165,094015,084084
0000000287,0000286000,075417,091081,086696,068764,092132,087367
0000000288,0000287000,074905,088867,089422,068355,089504,090405
0000000289,0000288000,075298,086181,091716,068975,086389,092900
0000000290,0000289000,076555,083295,093345,070563,083096,094605
0000000291,0000290000,078558,080485,094151,072967,079942,095355
0000000292,0000291000,081116,078017,094062,075952,077235,095077
0000000293,0000292000,083967,076144,093084,079220,075244,093799
0000000294,0000293000,086832,075051,091312,082454,074163,091646
0000000295,0000294000,089445,074837,088913,085342,074096,088825
0000000296,0000295000,091542,075524,086128,087597,075049,085617
0000000297,0000296000,092911,077046,083237,088998,076928,082337
0000000298,0000297000,093426,079260,080510,089409,079553,079301
0000000299,0000298000,093037,081946,078213,088792,082665,076807
0000000300,0000299000,091781,084833,076581,087206,085956,075101
0000000301,0000300000,089778,087645,075772,084806,089107,074351
