DIgSILENT PowerFactory,21000900,2000
6,06A,00D
1,TTPP_200000_100:Secondary Voltage A,,,V,0.10000000,-8257.586914,0.000000,62044,99998,1,1,P
2,TTPP_200000_100:Secondary Voltage B,,,V,0.10000000,-7917.256836,0.000000,61264,99998,1,1,P
3,TTPP_200000_100:Secondary Voltage C,,,V,0.10000000,-8354.553711,0.000000,64614,99998,1,1,P
4,TTCC_300_1:Secondary Current A,,,A,0.00010000000,-3.636436,0.000000,-6834,99998,1,1,P
5,TTCC_300_1:Secondary Current B,,,A,0.00010000000,-5.028024,0.000000,663,99998,1,1,P
6,TTCC_300_1:Secondary Current C,,,A,0.00010000000,-4.889349,0.000000,-1749,99998,1,1,P
50
1
1000.000000,1101
30/06/2023,06:08:36.000000
30/06/2023,06:08:36.000000
ASCII
1.000000
0000000001,0000000000,089682,080647,074964,015434,036291,083813
0000000002,0000001000,087548,083364,074379,025187,027012,083338
0000000003,0000002000,084908,085696,074691,036026,020014,079497
0000000004,0000003000,082051,087375,075867,046905,015972,072661
0000000005,0000004000,079258,088236,077801,056749,015296,063492
0000000006,0000005000,076770,088228,080297,064596,018049,052894
0000000007,0000006000,074849,087341,083104,069683,023944,041912
0000000008,0000007000,073704,085633,085957,071506,032419,031614
0000000009,0000008000,073419,083295,088579,069882,042659,022998
0000000010,0000009000,074016,080573,090704,064984,053634,016920
0000000011,0000010000,075465,077702,092127,057291,064268,013979
0000000012,0000011000,077617,074965,092712,047531,073553,014452
0000000013,0000012000,080240,072656,092400,036683,080561,018294
0000000014,0000013000,083090,070981,091223,025817,084591,025131
0000000015,0000014000,085905,070098,089291,015974,085266,034299
0000000016,0000015000,088384,070115,086794,008115,082526,044898
0000000017,0000016000,090291,071016,083986,003036,076623,055879
0000000018,0000017000,091453,072706,081135,001217,068143,066177
0000000019,0000018000,091738,075043,078513,002833,057911,074793
0000000020,0000019000,091126,077782,076386,007732,046936,080870
0000000021,0000020000,089688,080642,074964,015434,036292,083813
0000000022,0000021000,087542,083372,074380,025184,027015,083339
0000000023,0000022000,084906,085697,074691,036034,020008,079496
0000000024,0000023000,082059,087367,075867,046905,015972,072661
0000000025,0000024000,079256,088238,077800,056745,015299,063493
0000000026,0000025000,076763,088234,080297,064600,018045,052893
0000000027,0000026000,074855,087335,083104,069688,023938,041911
0000000028,0000027000,073707,085631,085956,071503,032422,031614
0000000029,0000028000,073412,083303,088579,069883,042658,022998
0000000030,0000029000,074017,080572,090705,064991,053628,016920
0000000031,0000030000,075471,077696,092127,057291,064269,013979
0000000032,0000031000,077613,074970,092712,047531,073555,014452
0000000033,0000032000,080236,072658,092400,036688,080556,018294
0000000034,0000033000,083096,070975,091223,025821,084588,025129
0000000035,0000034000,085904,070099,089291,015972,085269,034297
0000000036,0000035000,088380,070120,086794,008119,082523,044897
0000000037,0000036000,090295,071012,083987,003040,076620,055878
0000000038,0000037000,091455,072704,081135,001218,068144,066176
0000000039,0000038000,091735,075047,078512,002833,057912,074792
0000000040,0000039000,091127,077781,076386,007736,046933,080869
0000000041,0000040000,089691,080639,074964,015434,036294,083811
0000000042,0000041000,087540,083374,074379,025184,027016,083337
0000000043,0000042000,084906,085698,074691,036035,020007,079496
0000000044,0000043000,082062,087365,075867,046906,015972,072660
0000000045,0000044000,079254,088240,077800,056745,015301,063493
0000000046,0000045000,076763,088235,080297,064601,018043,052893
0000000047,0000046000,074857,087333,083104,069687,023938,041913
0000000048,0000047000,073705,085632,085956,071502,032421,031615
0000000049,0000048000,073411,083304,088579,069884,042656,022998
0000000050,0000049000,074020,080570,090705,064992,053625,016921
0000000051,0000050000,075469,077697,092127,057291,064268,013979
0000000052,0000051000,077610,074972,092712,047534,073551,014452
0000000053,0000052000,080239,072656,092400,036691,080553,018294
0000000054,0000053000,083096,070974,091224,025822,084587,025129
0000000055,0000054000,085900,070102,089292,015976,085267,034296
0000000056,0000055000,088381,070118,086794,008124,082520,044895
0000000057,0000056000,090298,071009,083987,003041,076621,055876
0000000058,0000057000,091452,072707,081136,001220,068145,066173
0000000059,0000058000,091735,075047,078512,002838,057911,074789
0000000060,0000059000,091132,077776,076386,007737,046935,080867
0000000061,0000060000,089689,080640,074964,015432,036298,083809
0000000062,0000061000,087538,083377,074379,025186,027017,083335
0000000063,0000062000,084910,085694,074690,036035,020009,079494
0000000064,0000063000,082063,087364,075867,046902,015976,072660
0000000065,0000064000,079251,088244,077800,056743,015301,063493
0000000066,0000065000,076765,088233,080296,064601,018042,052895
0000000067,0000066000,074859,087331,083103,069684,023940,041915
0000000068,0000067000,073702,085636,085956,071500,032421,031618
0000000069,0000068000,073410,083305,088578,069886,042651,023002
0000000070,0000069000,074023,080567,090705,064991,053623,016924
0000000071,0000070000,075467,077700,092128,057290,064266,013982
0000000072,0000071000,077607,074975,092712,047538,073546,014454
0000000073,0000072000,080241,072652,092401,036695,080548,018295
0000000074,0000073000,083096,070974,091225,025824,084585,025129
0000000075,0000074000,085897,070104,089292,015981,085263,034295
0000000076,0000075000,088383,070116,086795,008130,082516,044892
0000000077,0000076000,090299,071007,083988,003045,076621,055872
0000000078,0000077000,091450,072708,081136,001224,068146,066168
0000000079,0000078000,091736,075046,078513,002843,057911,074784
0000000080,0000079000,091134,077774,076386,007738,046938,080862
0000000081,0000080000,089688,080642,074964,015432,036302,083804
0000000082,0000081000,087538,083377,074378,025186,027020,083332
0000000083,0000082000,084913,085692,074690,036032,020013,079492
0000000084,0000083000,082062,087366,075866,046897,015982,072659
0000000085,0000084000,079250,088246,077798,056739,015304,063494
0000000086,0000085000,076767,088232,080295,064596,018044,052898
0000000087,0000086000,074859,087332,083103,069678,023942,041919
0000000088,0000087000,073699,085639,085955,071496,032419,031623
0000000089,0000088000,073411,083305,088578,069883,042648,023007
0000000090,0000089000,074022,080567,090705,064989,053620,016930
0000000091,0000090000,075463,077702,092128,057291,064260,013987
0000000092,0000091000,077607,074974,092713,047542,073538,014458
0000000093,0000092000,080242,072651,092402,036699,080542,018297
0000000094,0000093000,083093,070975,091226,025830,084579,025129
0000000095,0000094000,085896,070104,089293,015990,085256,034293
0000000096,0000095000,088385,070112,086796,008137,082513,044889
0000000097,0000096000,090298,071007,083989,003051,076621,055866
0000000098,0000097000,091449,072709,081136,001231,068145,066161
0000000099,0000098000,091739,075042,078513,002848,057913,074776
0000000100,0000099000,091135,077773,076386,007739,046945,080854
0000000101,0000100000,089688,080643,074963,015433,036309,083797
0000000102,0000101000,087541,083375,074377,025185,027027,083327
0000000103,0000102000,084915,085690,074688,036027,020023,079489
0000000104,0000103000,082061,087369,075865,046890,015989,072658
0000000105,0000104000,079251,088247,077797,056733,015309,063496
0000000106,0000105000,076769,088231,080294,064587,018049,052902
0000000107,0000106000,074857,087336,083102,069669,023944,041925
0000000108,0000107000,073698,085642,085954,071491,032417,031631
0000000109,0000108000,073412,083304,088578,069878,042643,023017
0000000110,0000109000,074020,080569,090705,064985,053614,016939
0000000111,0000110000,075460,077705,092129,057292,064250,013995
0000000112,0000111000,077607,074973,092714,047546,073527,014465
0000000113,0000112000,080240,072650,092404,036704,080533,018301
0000000114,0000113000,083089,070977,091228,025839,084570,025130
0000000115,0000114000,085897,070102,089295,016001,085247,034290
0000000116,0000115000,088386,070110,086798,008147,082508,044883
0000000117,0000116000,090297,071007,083991,003061,076619,055858
0000000118,0000117000,091450,072707,081137,001241,068145,066151
0000000119,0000118000,091742,075038,078513,002854,057918,074765
0000000120,0000119000,091136,077772,076386,007742,046953,080843
0000000121,0000120000,089689,080643,074962,015434,036318,083787
0000000122,0000121000,087545,083373,074376,025182,027038,083319
0000000123,0000122000,084916,085691,074687,036019,020035,079484
0000000124,0000123000,082061,087371,075862,046881,016000,072657
0000000125,0000124000,079253,088247,077794,056722,015317,063499
0000000126,0000125000,076770,088233,080292,064574,018056,052908
0000000127,0000126000,074855,087339,083100,069657,023946,041935
0000000128,0000127000,073697,085644,085953,071481,032414,031643
0000000129,0000128000,073411,083305,088577,069870,042638,023030
0000000130,0000129000,074016,080572,090706,064981,053605,016952
0000000131,0000130000,075458,077707,092130,057294,064237,014007
0000000132,0000131000,077606,074972,092716,047550,073514,014474
0000000133,0000132000,080237,072651,092406,036712,080519,018306
0000000134,0000133000,083087,070977,091230,025852,084556,025131
0000000135,0000134000,085897,070099,089298,016015,085236,034287
0000000136,0000135000,088385,070108,086801,008161,082502,044875
0000000137,0000136000,090296,071006,083993,003076,076615,055846
0000000138,0000137000,091453,072703,081139,001254,068147,066137
0000000139,0000138000,091745,075035,078514,002863,057926,074750
0000000140,0000139000,091137,077771,076386,007747,046964,080827
0000000141,0000140000,089692,080641,074961,015435,036331,083773
0000000142,0000141000,087549,083371,074374,025176,027054,083308
0000000143,0000142000,084918,085692,074684,036009,020052,079478
0000000144,0000143000,082063,087372,075859,046868,016014,072656
0000000145,0000144000,079256,088247,077791,056706,015330,063503
0000000146,0000145000,076769,088236,080289,064556,018065,052917
0000000147,0000146000,074853,087344,083097,069642,023949,041948
0000000148,0000147000,073697,085646,085951,071468,032412,031659
0000000149,0000148000,073409,083308,088577,069860,042631,023048
0000000150,0000149000,074012,080576,090706,064976,053592,016969
0000000151,0000150000,075455,077708,092131,057295,064221,014022
0000000152,0000151000,077604,074972,092718,047556,073496,014486
0000000153,0000152000,080233,072652,092409,036724,080501,018314
0000000154,0000153000,083085,070976,091233,025868,084538,025132
0000000155,0000154000,085897,070096,089301,016034,085222,034283
0000000156,0000155000,088384,070106,086804,008181,082493,044865
0000000157,0000156000,090296,071003,083995,003096,076611,055831
0000000158,0000157000,091456,072698,081140,001270,068149,066118
0000000159,0000158000,091747,075032,078515,002874,057935,074729
0000000160,0000159000,091140,077769,076385,007754,046977,080807
0000000161,0000160000,089697,080638,074959,015434,036349,083755
0000000162,0000161000,087553,083369,074372,025169,027076,083294
0000000163,0000162000,084920,085693,074681,035996,020073,079469
0000000164,0000163000,082066,087373,075855,046851,016033,072654
0000000165,0000164000,079258,088249,077788,056684,015346,063508
0000000166,0000165000,076768,088240,080285,064534,018075,052928
0000000167,0000166000,074852,087347,083094,069621,023952,041965
0000000168,0000167000,073696,085649,085949,071449,032409,031680
0000000169,0000168000,073405,083313,088576,069846,042622,023070
0000000170,0000169000,074007,080580,090706,064970,053576,016992
0000000171,0000170000,075452,077709,092133,057295,064200,014043
0000000172,0000171000,077599,074974,092721,047563,073473,014501
0000000173,0000172000,080228,072653,092413,036739,080476,018323
0000000174,0000173000,083083,070973,091238,025889,084515,025135
0000000175,0000174000,085895,070093,089306,016057,085205,034277
0000000176,0000175000,088383,070103,086808,008206,082480,044852
0000000177,0000176000,090298,070998,083998,003120,076606,055812
0000000178,0000177000,091459,072692,081143,001290,068153,066095
0000000179,0000178000,091750,075029,078516,002889,057946,074703
0000000180,0000179000,091144,077765,076384,007762,046995,080782
0000000181,0000180000,089703,080634,074957,015434,036372,083733
0000000182,0000181000,087557,083368,074368,025159,027103,083277
0000000183,0000182000,084924,085694,074676,035980,020099,079459
0000000184,0000183000,082070,087373,075850,046829,016057,072652
0000000185,0000184000,079260,088252,077783,056657,015367,063514
0000000186,0000185000,076768,088245,080281,064506,018088,052943
0000000187,0000186000,074852,087352,083090,069595,023957,041986
0000000188,0000187000,073693,085654,085947,071426,032406,031707
0000000189,0000188000,073400,083319,088575,069830,042609,023099
0000000190,0000189000,074003,080584,090707,064963,053555,017020
0000000191,0000190000,075447,077712,092135,057296,064174,014068
0000000192,0000191000,077593,074977,092725,047573,073444,014521
0000000193,0000192000,080223,072653,092417,036758,080446,018334
0000000194,0000193000,083080,070971,091243,025914,084488,025137
0000000195,0000194000,085892,070090,089312,016086,085183,034270
0000000196,0000195000,088382,070099,086813,008238,082465,044836
0000000197,0000196000,090300,070991,084003,003150,076600,055788
0000000198,0000197000,091462,072686,081146,001315,068157,066065
0000000199,0000198000,091754,075024,078517,002907,057960,074671
0000000200,0000199000,091151,077760,076384,007771,047017,080750
0000000201,0000200000,089709,080630,074955,015433,036401,083705
0000000202,0000201000,087562,083367,074364,025148,027135,083255
0000000203,0000202000,084929,085694,074671,035961,020132,079446
0000000204,0000203000,082075,087375,075844,046801,016088,072649
0000000205,0000204000,079262,088256,077776,056624,015391,063522
0000000206,0000205000,076769,088251,080275,064473,018104,052961
0000000207,0000206000,074851,087357,083086,069562,023963,042013
0000000208,0000207000,073690,085661,085944,071398,032401,031739
0000000209,0000208000,073394,083326,088574,069810,042594,023134
0000000210,0000209000,073997,080589,090708,064953,053530,017055
0000000211,0000210000,075440,077716,092138,057296,064143,014098
0000000212,0000211000,077585,074979,092730,047586,073408,014544
0000000213,0000212000,080218,072653,092423,036780,080409,018348
0000000214,0000213000,083076,070968,091250,025944,084455,025140
0000000215,0000214000,085889,070086,089319,016122,085156,034261
0000000216,0000215000,088381,070093,086820,008276,082447,044816
0000000217,0000216000,090302,070984,084008,003186,076593,055759
0000000218,0000217000,091465,072680,081150,001345,068163,066030
0000000219,0000218000,091759,075017,078518,002929,057976,074633
0000000220,0000219000,091158,077753,076383,007782,047043,080712
0000000221,0000220000,089717,080626,074952,015431,036436,083671
0000000222,0000221000,087569,083366,074359,025135,027174,083229
0000000223,0000222000,084936,085693,074664,035936,020171,079431
0000000224,0000223000,082080,087377,075837,046767,016125,072646
0000000225,0000224000,079264,088261,077769,056585,015421,063531
0000000226,0000225000,076770,088257,080268,064432,018124,052982
0000000227,0000226000,074850,087364,083080,069523,023971,042044
0000000228,0000227000,073685,085669,085940,071365,032396,031778
0000000229,0000228000,073388,083334,088572,069787,042575,023176
0000000230,0000229000,073991,080595,090709,064941,053501,017096
0000000231,0000230000,075432,077721,092141,057298,064105,014135
0000000232,0000231000,077577,074982,092735,047600,073365,014572
0000000233,0000232000,080212,072652,092431,036807,080366,018365
0000000234,0000233000,083070,070965,091259,025980,084415,025143
0000000235,0000234000,085885,070082,089327,016165,085124,034250
0000000236,0000235000,088381,070086,086827,008321,082425,044792
0000000237,0000236000,090304,070975,084014,003228,076585,055725
0000000238,0000237000,091469,072672,081154,001381,068169,065988
0000000239,0000238000,091766,075009,078520,002955,057995,074587
0000000240,0000239000,091166,077746,076382,007795,047075,080667
0000000241,0000240000,089725,080621,074948,015429,036477,083632
0000000242,0000241000,087578,083363,074353,025120,027220,083199
0000000243,0000242000,084945,085693,074656,035907,020218,079413
0000000244,0000243000,082086,087380,075828,046728,016168,072642
0000000245,0000244000,079268,088267,077759,056540,015455,063543
0000000246,0000245000,076771,088264,080259,064384,018146,053008
0000000247,0000246000,074848,087373,083073,069477,023980,042082
0000000248,0000247000,073680,085679,085935,071326,032389,031823
0000000249,0000248000,073382,083342,088570,069759,042553,023226
0000000250,0000249000,073982,080602,090710,064927,053467,017145
0000000251,0000250000,075422,077727,092145,057299,064061,014177
0000000252,0000251000,077568,074985,092741,047618,073315,014605
0000000253,0000252000,080204,072652,092439,036838,080316,018384
0000000254,0000253000,083063,070963,091268,026022,084369,025147
0000000255,0000254000,085881,070076,089337,016215,085086,034238
0000000256,0000255000,088380,070077,086836,008373,082401,044765
0000000257,0000256000,090306,070966,084022,003277,076576,055685
0000000258,0000257000,091473,072662,081159,001423,068176,065938
0000000259,0000258000,091774,074999,078522,002985,058019,074534
0000000260,0000259000,091176,077738,076381,007810,047113,080615
0000000261,0000260000,089735,080615,074944,015428,036525,083586
0000000262,0000261000,087588,083359,074346,025101,027273,083164
0000000263,0000262000,084954,085693,074647,035873,020273,079392
0000000264,0000263000,082093,087384,075818,046682,016218,072639
0000000265,0000264000,079272,088273,077749,056486,015495,063556
0000000266,0000265000,076773,088272,080250,064327,018173,053038
0000000267,0000266000,074845,087384,083065,069424,023990,042125
0000000268,0000267000,073675,085690,085929,071282,032381,031876
0000000269,0000268000,073374,083352,088568,069727,042528,023283
0000000270,0000269000,073972,080611,090711,064911,053427,017201
0000000271,0000270000,075410,077734,092150,057302,064009,014227
0000000272,0000271000,077557,074988,092749,047638,073257,014642
0000000273,0000272000,080194,072652,092449,036874,080257,018406
0000000274,0000273000,083055,070960,091279,026072,084316,025150
0000000275,0000274000,085876,070069,089348,016273,085043,034223
0000000276,0000275000,088379,070068,086847,008433,082373,044733
0000000277,0000276000,090308,070955,084031,003334,076566,055638
0000000278,0000277000,091479,072650,081165,001472,068184,065882
0000000279,0000278000,091783,074987,078525,003019,058046,074472
0000000280,0000279000,091186,077728,076380,007826,047156,080555
0000000281,0000280000,089747,080608,074939,015425,036580,083533
0000000282,0000281000,087601,083355,074338,025080,027335,083124
0000000283,0000282000,084964,085693,074637,035834,020335,079369
0000000284,0000283000,082101,087388,075806,046629,016274,072634
0000000285,0000284000,079278,088280,077736,056425,015541,063572
0000000286,0000285000,076774,088282,080238,064263,018203,053072
0000000287,0000286000,074842,087396,083056,069363,024000,042175
0000000288,0000287000,073669,085702,085923,071231,032371,031937
0000000289,0000288000,073365,083364,088565,069691,042499,023349
0000000290,0000289000,073960,080622,090712,064893,053381,017265
0000000291,0000290000,075398,077742,092155,057305,063950,014283
0000000292,0000291000,077545,074992,092757,047662,073191,014685
0000000293,0000292000,080182,072652,092460,036916,080191,018431
0000000294,0000293000,083046,070956,091292,026129,084255,025155
0000000295,0000294000,085871,070062,089361,016338,084994,034206
0000000296,0000295000,088378,070057,086859,008501,082341,044696
0000000297,0000296000,090310,070943,084041,003399,076555,055585
0000000298,0000297000,091486,072636,081172,001526,068195,065817
0000000299,0000298000,091793,074974,078528,003058,058077,074402
0000000300,0000299000,091198,077717,076378,007845,047206,080487
0000000301,0000300000,089761,080600,074933,015422,036643,083473
