DIgSILENT PowerFactory,21000900,2000
6,06A,00D
1,TTPP_200000_100:Secondary Voltage A,,,V,0.010000000,-71.441864,0.000000,-85626,99998,1,1,P
2,TTPP_200000_100:Secondary Voltage B,,,V,0.010000000,-62.549316,0.000000,-87218,99998,1,1,P
3,TTPP_200000_100:Secondary Voltage C,,,V,0.10000000,-8942.321289,0.000000,78654,99998,1,1,P
4,TTCC_300_1:Secondary Current A,,,A,0.00010000000,-4.970919,0.000000,-23590,99998,1,1,P
5,TTCC_300_1:Secondary Current B,,,A,0.00010000000,-4.892812,0.000000,-2234,99998,1,1,P
6,TTCC_300_1:Secondary Current C,,,A,0.00010000000,-4.920315,0.000000,-1669,99998,1,1,P
50
1
1000.000000,1101
30/06/2023,06:04:36.000000
30/06/2023,06:04:36.000000
ASCII
1.000000
0000000001,0000000000,078208,021007,080842,028776,034943,084122
0000000002,0000001000,056864,048185,080257,038529,025662,083649
0000000003,0000002000,030473,071472,080568,049366,018666,079808
0000000004,0000003000,001890,088277,081745,060246,014621,072974
0000000005,0000004000,-26055,096905,083679,070088,013945,063806
0000000006,0000005000,-50929,096805,086175,077942,016693,053206
0000000007,0000006000,-70096,087914,088982,083025,022590,042225
0000000008,0000007000,-81578,070873,091834,084848,031066,031928
0000000009,0000008000,-84451,047507,094457,083228,041303,023310
0000000010,0000009000,-78447,020253,096583,078334,052276,017231
0000000011,0000010000,-63938,-08479,098004,070638,062913,014289
0000000012,0000011000,-42444,-35816,098589,060877,072202,014762
0000000013,0000012000,-16253,-58898,098278,050033,079205,018603
0000000014,0000013000,012302,-75682,097101,039168,083236,025437
0000000015,0000014000,040462,-84513,095168,029321,083915,034605
0000000016,0000015000,065221,-84307,092671,021460,081177,045204
0000000017,0000016000,084279,-75286,089865,016383,075272,056185
0000000018,0000017000,095936,-58427,087012,014565,066792,066483
0000000019,0000018000,098797,-35058,084390,016175,056565,075100
0000000020,0000019000,092632,-07633,082263,021074,045588,081179
0000000021,0000020000,078248,020967,080841,028776,034943,084121
0000000022,0000021000,056822,048232,080257,038528,025664,083649
0000000023,0000022000,030446,071493,080568,049373,018660,079808
0000000024,0000023000,001958,088224,081745,060247,014620,072973
0000000025,0000024000,-26061,096911,083678,070087,013947,063806
0000000026,0000025000,-50978,096859,086176,077943,016691,053206
0000000027,0000026000,-70075,087890,088982,083031,022585,042225
0000000028,0000027000,-81549,070838,091834,084848,031066,031927
0000000029,0000028000,-84486,047546,094457,083228,041303,023310
0000000030,0000029000,-78455,020253,096583,078337,052272,017231
0000000031,0000030000,-63914,-08503,098005,070640,062912,014289
0000000032,0000031000,-42465,-35798,098589,060879,072200,014761
0000000033,0000032000,-16252,-58894,098278,050035,079203,018602
0000000034,0000033000,012327,-75705,097101,039170,083234,025436
0000000035,0000034000,040438,-84495,095169,029322,083915,034603
0000000036,0000035000,065207,-84290,092672,021465,081174,045202
0000000037,0000036000,084320,-75331,089864,016385,075272,056184
0000000038,0000037000,095931,-58421,087013,014564,066794,066482
0000000039,0000038000,098755,-35021,084390,016178,056564,075098
0000000040,0000039000,092662,-07662,082263,021077,045586,081177
0000000041,0000040000,078279,020938,080841,028775,034946,084120
0000000042,0000041000,056785,048270,080257,038527,025666,083648
0000000043,0000042000,030445,071501,080568,049376,018658,079807
0000000044,0000043000,001994,088187,081745,060246,014621,072973
0000000045,0000044000,-26075,096929,083678,070086,013948,063806
0000000046,0000045000,-50994,096879,086175,077943,016690,053207
0000000047,0000046000,-70053,087869,088982,083031,022583,042226
0000000048,0000047000,-81556,070844,091834,084847,031066,031928
0000000049,0000048000,-84507,047567,094457,083229,041300,023311
0000000050,0000049000,-78432,020234,096583,078339,052270,017232
0000000051,0000050000,-63918,-08504,098005,070639,062911,014290
0000000052,0000051000,-42498,-35767,098590,060882,072197,014761
0000000053,0000052000,-16234,-58913,098278,050039,079199,018602
0000000054,0000053000,012345,-75727,097101,039171,083234,025436
0000000055,0000054000,040403,-84464,095169,029324,083914,034602
0000000056,0000055000,065202,-84290,092672,021470,081170,045201
0000000057,0000056000,084357,-75370,089864,016388,075271,056181
0000000058,0000057000,095916,-58411,087013,014565,066796,066479
0000000059,0000058000,098736,-35001,084390,016182,056563,075096
0000000060,0000059000,092692,-07692,082263,021080,045586,081174
0000000061,0000060000,078287,020931,080841,028774,034949,084118
0000000062,0000061000,056767,048294,080257,038527,025669,083646
0000000063,0000062000,030463,071487,080568,049376,018659,079806
0000000064,0000063000,002008,088178,081745,060244,014624,072972
0000000065,0000064000,-26096,096954,083677,070084,013950,063806
0000000066,0000065000,-50984,096876,086174,077942,016690,053208
0000000067,0000066000,-70037,087855,088981,083028,022584,042228
0000000068,0000067000,-81583,070873,091834,084845,031065,031931
0000000069,0000068000,-84515,047579,094457,083230,041297,023314
0000000070,0000069000,-78409,020211,096583,078338,052267,017236
0000000071,0000070000,-63937,-08487,098006,070639,062909,014292
0000000072,0000071000,-42526,-35743,098590,060886,072191,014763
0000000073,0000072000,-16215,-58937,098278,050043,079194,018603
0000000074,0000073000,012346,-75736,097102,039174,083231,025436
0000000075,0000074000,040374,-84443,095170,029329,083911,034601
0000000076,0000075000,065211,-84306,092672,021477,081166,045198
0000000077,0000076000,084374,-75396,089865,016392,075271,056178
0000000078,0000077000,095901,-58399,087013,014569,066797,066475
0000000079,0000078000,098742,-35008,084390,016186,056563,075091
0000000080,0000079000,092718,-07718,082263,021081,045590,081170
0000000081,0000080000,078281,020940,080841,028774,034954,084113
0000000082,0000081000,056769,048300,080256,038527,025672,083642
0000000083,0000082000,030493,071466,080567,049373,018664,079804
0000000084,0000083000,002006,088186,081744,060239,014630,072972
0000000085,0000084000,-26110,096979,083676,070080,013952,063807
0000000086,0000085000,-50963,096865,086173,077938,016691,053211
0000000087,0000086000,-70032,087858,088981,083022,022586,042232
0000000088,0000087000,-81612,070907,091833,084841,031064,031936
0000000089,0000088000,-84516,047582,094456,083229,041292,023320
0000000090,0000089000,-78401,020202,096583,078336,052263,017241
0000000091,0000090000,-63966,-08463,098006,070639,062904,014298
0000000092,0000091000,-42542,-35733,098591,060889,072183,014767
0000000093,0000092000,-16206,-58957,098280,050048,079187,018605
0000000094,0000093000,012328,-75732,097103,039179,083226,025436
0000000095,0000094000,040357,-84437,095171,029337,083905,034599
0000000096,0000095000,065226,-84333,092674,021485,081162,045194
0000000097,0000096000,084375,-75408,089866,016398,075270,056172
0000000098,0000097000,095891,-58396,087014,014576,066797,066467
0000000099,0000098000,098766,-35033,084390,016192,056566,075083
0000000100,0000099000,092739,-07738,082263,021083,045596,081162
0000000101,0000100000,078276,020950,080840,028774,034960,084106
0000000102,0000101000,056788,048292,080255,038526,025679,083637
0000000103,0000102000,030523,071449,080566,049368,018672,079800
0000000104,0000103000,002002,088205,081742,060232,014638,072971
0000000105,0000104000,-26110,096996,083675,070074,013957,063809
0000000106,0000105000,-50942,096859,086172,077930,016695,053215
0000000107,0000106000,-70041,087877,088980,083013,022589,042239
0000000108,0000107000,-81634,070938,091833,084834,031062,031944
0000000109,0000108000,-84514,047585,094456,083224,041288,023329
0000000110,0000109000,-78413,020211,096583,078333,052257,017250
0000000111,0000110000,-63999,-08436,098007,070639,062895,014306
0000000112,0000111000,-42552,-35734,098592,060894,072173,014774
0000000113,0000112000,-16212,-58967,098281,050054,079178,018609
0000000114,0000113000,012301,-75723,097105,039187,083217,025437
0000000115,0000114000,040350,-84447,095173,029348,083896,034597
0000000116,0000115000,065239,-84363,092675,021495,081157,045189
0000000117,0000116000,084368,-75417,089868,016408,075269,056164
0000000118,0000117000,095893,-58406,087015,014586,066797,066457
0000000119,0000118000,098797,-35068,084390,016198,056570,075072
0000000120,0000119000,092755,-07754,082263,021085,045604,081151
0000000121,0000120000,078283,020952,080840,028775,034970,084096
0000000122,0000121000,056820,048275,080253,038523,025689,083629
0000000123,0000122000,030547,071442,080564,049361,018685,079796
0000000124,0000123000,002002,088227,081740,060222,014649,072970
0000000125,0000124000,-26097,097006,083672,070063,013966,063812
0000000126,0000125000,-50929,096866,086170,077917,016701,053222
0000000127,0000126000,-70057,087910,088978,083001,022591,042249
0000000128,0000127000,-81648,070966,091831,084825,031060,031956
0000000129,0000128000,-84518,047594,094455,083217,041282,023342
0000000130,0000129000,-78443,020236,096584,078329,052248,017263
0000000131,0000130000,-64032,-08412,098008,070641,062882,014317
0000000132,0000131000,-42563,-35739,098594,060899,072158,014783
0000000133,0000132000,-16234,-58969,098284,050062,079164,018614
0000000134,0000133000,012270,-75718,097108,039200,083203,025438
0000000135,0000134000,040348,-84471,095175,029363,083885,034593
0000000136,0000135000,065244,-84393,092678,021510,081150,045181
0000000137,0000136000,084361,-75430,089870,016422,075266,056152
0000000138,0000137000,095908,-58434,087016,014599,066798,066443
0000000139,0000138000,098829,-35107,084391,016207,056577,075056
0000000140,0000139000,092772,-07768,082263,021090,045615,081135
0000000141,0000140000,078307,020941,080838,028776,034983,084082
0000000142,0000141000,056861,048254,080251,038518,025705,083618
0000000143,0000142000,030570,071444,080562,049350,018701,079789
0000000144,0000143000,002013,088246,081737,060209,014664,072968
0000000145,0000144000,-26074,097015,083669,070047,013977,063816
0000000146,0000145000,-50924,096887,086167,077899,016710,053231
0000000147,0000146000,-70076,087952,088976,082985,022595,042262
0000000148,0000147000,-81658,070993,091829,084812,031057,031972
0000000149,0000148000,-84535,047616,094455,083206,041275,023360
0000000150,0000149000,-78484,020273,096584,078323,052236,017281
0000000151,0000150000,-64066,-08391,098009,070642,062866,014333
0000000152,0000151000,-42586,-35740,098596,060905,072140,014795
0000000153,0000152000,-16270,-58963,098287,050073,079146,018622
0000000154,0000153000,012241,-75722,097111,039216,083185,025439
0000000155,0000154000,040344,-84502,095179,029382,083870,034589
0000000156,0000155000,065239,-84423,092681,021529,081141,045171
0000000157,0000156000,084360,-75455,089873,016441,075262,056137
0000000158,0000157000,095934,-58478,087018,014615,066800,066424
0000000159,0000158000,098861,-35147,084392,016219,056586,075036
0000000160,0000159000,092797,-07789,082262,021096,045629,081115
0000000161,0000160000,078348,020917,080836,028776,035001,084064
0000000162,0000161000,056906,048233,080249,038510,025726,083604
0000000163,0000162000,030595,071453,080558,049337,018723,079781
0000000164,0000163000,002037,088262,081733,060192,014683,072966
0000000165,0000164000,-26048,097029,083665,070026,013993,063821
0000000166,0000165000,-50925,096924,086163,077877,016721,053242
0000000167,0000166000,-70092,087999,088972,082964,022598,042278
0000000168,0000167000,-81671,071027,091827,084794,031054,031993
0000000169,0000168000,-84566,047654,094454,083193,041265,023383
0000000170,0000169000,-78532,020317,096585,078317,052220,017304
0000000171,0000170000,-64105,-08370,098011,070643,062844,014353
0000000172,0000171000,-42623,-35732,098599,060913,072117,014811
0000000173,0000172000,-16317,-58956,098291,050087,079122,018631
0000000174,0000173000,012212,-75736,097116,039237,083163,025441
0000000175,0000174000,040334,-84537,095183,029406,083852,034583
0000000176,0000175000,065229,-84455,092685,021554,081129,045158
0000000177,0000176000,084367,-75495,089876,016466,075257,056118
0000000178,0000177000,095967,-58534,087020,014636,066804,066401
0000000179,0000178000,098895,-35192,084393,016233,056597,075010
0000000180,0000179000,092835,-07820,082262,021104,045647,081089
0000000181,0000180000,078404,020882,080834,028776,035024,084042
0000000182,0000181000,056957,048215,080246,038501,025753,083587
0000000183,0000182000,030630,071462,080554,049321,018750,079770
0000000184,0000183000,002074,088276,081728,060170,014707,072964
0000000185,0000184000,-26022,097053,083660,069999,014014,063827
0000000186,0000185000,-50927,096973,086159,077849,016735,053257
0000000187,0000186000,-70104,088051,088968,082938,022603,042300
0000000188,0000187000,-81690,071072,091825,084771,031050,032020
0000000189,0000188000,-84610,047708,094453,083176,041253,023412
0000000190,0000189000,-78587,020365,096585,078309,052200,017332
0000000191,0000190000,-64152,-08345,098013,070644,062818,014378
0000000192,0000191000,-42678,-35716,098603,060922,072088,014830
0000000193,0000192000,-16372,-58949,098295,050106,079092,018642
0000000194,0000193000,012180,-75759,097121,039262,083135,025444
0000000195,0000194000,040314,-84575,095189,029435,083830,034576
0000000196,0000195000,065217,-84495,092691,021585,081115,045141
0000000197,0000196000,084382,-75552,089880,016496,075250,056094
0000000198,0000197000,096002,-58599,087023,014661,066808,066371
0000000199,0000198000,098934,-35243,084394,016251,056611,074978
0000000200,0000199000,092888,-07865,082261,021114,045669,081058
0000000201,0000200000,078472,020840,080832,028775,035052,084014
0000000202,0000201000,057014,048198,080242,038490,025786,083565
0000000203,0000202000,030678,071468,080548,049301,018782,079757
0000000204,0000203000,002122,088291,081722,060142,014737,072961
0000000205,0000204000,-25996,097088,083654,069966,014039,063835
0000000206,0000205000,-50927,097032,086153,077814,016751,053274
0000000207,0000206000,-70115,088111,088964,082905,022609,042326
0000000208,0000207000,-81720,071133,091822,084743,031045,032052
0000000209,0000208000,-84665,047777,094452,083156,041238,023447
0000000210,0000209000,-78648,020419,096586,078299,052175,017366
0000000211,0000210000,-64214,-08312,098016,070645,062787,014409
0000000212,0000211000,-42748,-35692,098607,060934,072053,014853
0000000213,0000212000,-16433,-58947,098301,050128,079056,018656
0000000214,0000213000,012140,-75787,097128,039293,083101,025447
0000000215,0000214000,040284,-84616,095196,029470,083804,034567
0000000216,0000215000,065205,-84547,092697,021623,081097,045122
0000000217,0000216000,084402,-75624,089885,016532,075243,056065
0000000218,0000217000,096040,-58674,087027,014691,066813,066336
0000000219,0000218000,098982,-35306,084396,016273,056628,074939
0000000220,0000219000,092958,-07925,082260,021125,045695,081020
0000000221,0000220000,078550,020792,080829,028773,035087,083980
0000000222,0000221000,057082,048180,080237,038476,025825,083540
0000000223,0000222000,030742,071470,080542,049277,018822,079742
0000000224,0000223000,002177,088310,081714,060109,014773,072958
0000000225,0000224000,-25967,097136,083647,069927,014068,063845
0000000226,0000225000,-50923,097098,086146,077774,016771,053296
0000000227,0000226000,-70127,088181,088958,082867,022616,042358
0000000228,0000227000,-81759,071212,091818,084710,031040,032091
0000000229,0000228000,-84729,047857,094450,083132,041220,023489
0000000230,0000229000,-78718,020481,096587,078288,052145,017408
0000000231,0000230000,-64292,-08267,098019,070646,062749,014445
0000000232,0000231000,-42833,-35662,098613,060949,072010,014881
0000000233,0000232000,-16503,-58948,098308,050155,079012,018673
0000000234,0000233000,012088,-75817,097136,039329,083062,025450
0000000235,0000234000,040246,-84662,095204,029513,083772,034556
0000000236,0000235000,065195,-84613,092705,021668,081075,045098
0000000237,0000236000,084425,-75710,089892,016574,075235,056031
0000000238,0000237000,096082,-58759,087031,014727,066820,066294
0000000239,0000238000,099043,-35384,084397,016299,056648,074894
0000000240,0000239000,093042,-07999,082259,021138,045727,080975
0000000241,0000240000,078638,020739,080825,028772,035128,083941
0000000242,0000241000,057165,048157,080231,038461,025871,083509
0000000243,0000242000,030822,071470,080534,049248,018868,079724
0000000244,0000243000,002241,088335,081706,060069,014816,072955
0000000245,0000244000,-25934,097193,083637,069881,014103,063856
0000000246,0000245000,-50914,097174,086137,077726,016793,053321
0000000247,0000246000,-70143,088265,088951,082821,022625,042395
0000000248,0000247000,-81809,071308,091813,084671,031034,032136
0000000249,0000248000,-84801,047949,094448,083105,041198,023538
0000000250,0000249000,-78801,020553,096588,078274,052111,017456
0000000251,0000250000,-64388,-08211,098023,070647,062705,014488
0000000252,0000251000,-42931,-35628,098619,060966,071960,014914
0000000253,0000252000,-16584,-58951,098317,050187,078961,018692
0000000254,0000253000,012024,-75850,097146,039371,083016,025453
0000000255,0000254000,040202,-84716,095214,029563,083734,034544
0000000256,0000255000,065186,-84694,092714,021720,081050,045070
0000000257,0000256000,084449,-75810,089899,016624,075226,055990
0000000258,0000257000,096129,-58858,087036,014768,066827,066245
0000000259,0000258000,099118,-35480,084400,016329,056671,074840
0000000260,0000259000,093140,-08086,082258,021153,045765,080923
0000000261,0000260000,078740,020679,080821,028770,035176,083895
0000000262,0000261000,057265,048127,080224,038442,025925,083474
0000000263,0000262000,030916,071467,080525,049214,018923,079704
0000000264,0000263000,002312,088367,081695,060023,014866,072951
0000000265,0000264000,-25893,097259,083627,069827,014143,063870
0000000266,0000265000,-50900,097259,086128,077670,016819,053351
0000000267,0000266000,-70164,088366,088943,082767,022635,042438
0000000268,0000267000,-81866,071420,091808,084626,031026,032189
0000000269,0000268000,-84882,048054,094446,083073,041172,023596
0000000270,0000269000,-78900,020640,096589,078258,052070,017512
0000000271,0000270000,-64502,-08143,098028,070649,062654,014537
0000000272,0000271000,-43042,-35591,098627,060986,071902,014951
0000000273,0000272000,-16679,-58954,098327,050223,078903,018714
0000000274,0000273000,011946,-75885,097157,039421,082963,025457
0000000275,0000274000,040151,-84780,095226,029620,083691,034529
0000000276,0000275000,065176,-84790,092724,021780,081022,045038
0000000277,0000276000,084474,-75922,089908,016680,075216,055944
0000000278,0000277000,096184,-58973,087042,014816,066836,066188
0000000279,0000278000,099207,-35593,084402,016363,056698,074779
0000000280,0000279000,093251,-08185,082257,021169,045808,080863
0000000281,0000280000,078857,020609,080816,028767,035232,083842
0000000282,0000281000,057383,048089,080216,038420,025986,083434
0000000283,0000282000,031024,071463,080514,049175,018985,079680
0000000284,0000283000,002393,088405,081683,059970,014923,072947
0000000285,0000284000,-25843,097332,083614,069766,014189,063885
0000000286,0000285000,-50884,097356,086116,077605,016849,053386
0000000287,0000286000,-70190,088485,088934,082707,022646,042488
0000000288,0000287000,-81930,071550,091801,084575,031016,032250
0000000289,0000288000,-84974,048174,094443,083036,041143,023661
0000000290,0000289000,-79016,020742,096590,078240,052024,017576
0000000291,0000290000,-64633,-08062,098033,070652,062595,014593
0000000292,0000291000,-43169,-35549,098635,061010,071836,014994
0000000293,0000292000,-16791,-58955,098338,050265,078836,018739
0000000294,0000293000,011855,-75922,097170,039477,082902,025462
0000000295,0000294000,040095,-84854,095239,029686,083643,034512
0000000296,0000295000,065163,-84899,092736,021849,080990,045002
0000000297,0000296000,084500,-76049,089918,016745,075205,055891
0000000298,0000297000,096248,-59106,087049,014871,066846,066123
0000000299,0000298000,099308,-35725,084405,016402,056729,074709
0000000300,0000299000,093376,-08297,082255,021188,045857,080795
0000000301,0000300000,078992,020529,080811,028764,035294,083782
