DIgSILENT PowerFactory,21000900,2000
6,06A,00D
1,TTPP_200000_100:Secondary Voltage A,,,V,0.10000000,-8276.442383,0.000000,65879,99998,1,1,P
2,TTPP_200000_100:Secondary Voltage B,,,V,0.10000000,-8171.208984,0.000000,64135,99998,1,1,P
3,TTPP_200000_100:Secondary Voltage C,,,V,0.10000000,-8417.139648,0.000000,66884,99998,1,1,P
4,TTCC_300_1:Secondary Current A,,,A,0.00010000000,-3.882422,0.000000,-4526,99998,1,1,P
5,TTCC_300_1:Secondary Current B,,,A,0.00010000000,-5.028082,0.000000,639,99998,1,1,P
6,TTCC_300_1:Secondary Current C,,,A,0.00010000000,-4.891257,0.000000,-1787,99998,1,1,P
50
1
1000.000000,1101
30/06/2023,06:06:25.000000
30/06/2023,06:06:25.000000
ASCII
1.000000
0000000001,0000000000,089871,083187,075590,017894,036292,083832
0000000002,0000001000,087737,085904,075005,027646,027013,083357
0000000003,0000002000,085096,088235,075317,038486,020015,079516
0000000004,0000003000,082240,089914,076493,049365,015972,072680
0000000005,0000004000,079447,090775,078427,059209,015297,063511
0000000006,0000005000,076959,090767,080923,067057,018049,052913
0000000007,0000006000,075037,089881,083730,072143,023944,041932
0000000008,0000007000,073893,088173,086582,073966,032420,031633
0000000009,0000008000,073607,085834,089204,072342,042660,023017
0000000010,0000009000,074205,083113,091330,067444,053634,016939
0000000011,0000010000,075653,080242,092753,059750,064269,013998
0000000012,0000011000,077806,077504,093338,049991,073554,014471
0000000013,0000012000,080428,075195,093026,039143,080561,018313
0000000014,0000013000,083279,073520,091849,028277,084591,025150
0000000015,0000014000,086093,072638,089917,018434,085267,034317
0000000016,0000015000,088573,072655,087420,010575,082526,044917
0000000017,0000016000,090480,073555,084612,005496,076623,055898
0000000018,0000017000,091642,075245,081761,003677,068144,066196
0000000019,0000018000,091927,077582,079139,005293,057912,074812
0000000020,0000019000,091315,080322,077012,010192,046936,080890
0000000021,0000020000,089877,083182,075590,017893,036293,083832
0000000022,0000021000,087731,085911,075006,027644,027016,083358
0000000023,0000022000,085094,088237,075317,038494,020009,079516
0000000024,0000023000,082248,089907,076493,049365,015973,072680
0000000025,0000024000,079444,090778,078426,059205,015300,063512
0000000026,0000025000,076952,090773,080923,067060,018045,052912
0000000027,0000026000,075043,089875,083730,072148,023939,041931
0000000028,0000027000,073896,088171,086582,073963,032422,031633
0000000029,0000028000,073601,085842,089205,072343,042659,023017
0000000030,0000029000,074206,083112,091331,067451,053628,016939
0000000031,0000030000,075659,080236,092753,059750,064270,013998
0000000032,0000031000,077801,077509,093338,049991,073555,014471
0000000033,0000032000,080425,075198,093026,039148,080557,018313
0000000034,0000033000,083284,073514,091849,028281,084588,025149
0000000035,0000034000,086093,072638,089917,018432,085270,034316
0000000036,0000035000,088568,072660,087420,010579,082524,044916
0000000037,0000036000,090483,073552,084613,005500,076621,055897
0000000038,0000037000,091644,075243,081761,003678,068145,066195
0000000039,0000038000,091923,077586,079138,005293,057913,074811
0000000040,0000039000,091316,080320,077012,010196,046933,080889
0000000041,0000040000,089879,083178,075590,017893,036294,083830
0000000042,0000041000,087729,085914,075005,027644,027017,083357
0000000043,0000042000,085094,088237,075317,038495,020008,079515
0000000044,0000043000,082250,089904,076493,049366,015972,072679
0000000045,0000044000,079443,090779,078426,059204,015301,063512
0000000046,0000045000,076951,090774,080922,067061,018044,052913
0000000047,0000046000,075045,089873,083730,072147,023939,041932
0000000048,0000047000,073894,088172,086582,073962,032422,031634
0000000049,0000048000,073599,085844,089204,072344,042656,023018
0000000050,0000049000,074208,083109,091330,067451,053626,016940
0000000051,0000050000,075658,080237,092753,059751,064268,013998
0000000052,0000051000,077799,077512,093338,049994,073552,014471
0000000053,0000052000,080427,075195,093026,039151,080554,018313
0000000054,0000053000,083285,073513,091850,028282,084588,025148
0000000055,0000054000,086089,072642,089918,018436,085267,034315
0000000056,0000055000,088570,072658,087420,010584,082521,044914
0000000057,0000056000,090486,073549,084613,005501,076622,055895
0000000058,0000057000,091641,075246,081761,003680,068146,066192
0000000059,0000058000,091923,077586,079138,005298,057911,074808
0000000060,0000059000,091320,080316,077012,010196,046935,080886
0000000061,0000060000,089878,083180,075590,017892,036298,083828
0000000062,0000061000,087726,085916,075005,027646,027017,083354
0000000063,0000062000,085098,088233,075316,038495,020009,079514
0000000064,0000063000,082251,089904,076493,049361,015977,072679
0000000065,0000064000,079439,090784,078426,059203,015302,063512
0000000066,0000065000,076953,090773,080922,067061,018043,052914
0000000067,0000066000,075048,089871,083729,072143,023940,041934
0000000068,0000067000,073890,088176,086582,073960,032422,031637
0000000069,0000068000,073598,085845,089204,072345,042652,023021
0000000070,0000069000,074211,083106,091331,067451,053624,016943
0000000071,0000070000,075655,080239,092753,059750,064266,014001
0000000072,0000071000,077796,077514,093338,049998,073546,014473
0000000073,0000072000,080430,075192,093027,039155,080549,018314
0000000074,0000073000,083284,073513,091850,028284,084586,025148
0000000075,0000074000,086086,072644,089918,018441,085263,034314
0000000076,0000075000,088571,072655,087421,010590,082517,044911
0000000077,0000076000,090488,073546,084614,005505,076622,055891
0000000078,0000077000,091638,075248,081762,003684,068146,066187
0000000079,0000078000,091925,077585,079138,005303,057911,074803
0000000080,0000079000,091323,080313,077012,010198,046939,080881
0000000081,0000080000,089877,083181,075589,017892,036303,083823
0000000082,0000081000,087727,085917,075004,027646,027021,083351
0000000083,0000082000,085101,088231,075315,038492,020014,079511
0000000084,0000083000,082251,089905,076492,049357,015982,072678
0000000085,0000084000,079438,090786,078424,059199,015305,063513
0000000086,0000085000,076955,090772,080921,067056,018045,052917
0000000087,0000086000,075047,089872,083729,072138,023942,041938
0000000088,0000087000,073888,088179,086581,073956,032420,031642
0000000089,0000088000,073599,085844,089204,072343,042648,023027
0000000090,0000089000,074211,083106,091331,067449,053620,016949
0000000091,0000090000,075652,080242,092754,059751,064260,014006
0000000092,0000091000,077796,077514,093339,050001,073538,014477
0000000093,0000092000,080430,075190,093028,039158,080543,018316
0000000094,0000093000,083281,073515,091852,028290,084580,025148
0000000095,0000094000,086085,072644,089919,018450,085257,034312
0000000096,0000095000,088574,072652,087422,010597,082513,044908
0000000097,0000096000,090486,073546,084615,005511,076621,055885
0000000098,0000097000,091638,075248,081762,003691,068146,066180
0000000099,0000098000,091928,077582,079139,005308,057914,074795
0000000100,0000099000,091324,080312,077012,010199,046945,080873
0000000101,0000100000,089876,083183,075589,017893,036309,083816
0000000102,0000101000,087730,085915,075003,027645,027027,083346
0000000103,0000102000,085104,088230,075314,038486,020023,079508
0000000104,0000103000,082249,089908,076491,049350,015990,072677
0000000105,0000104000,079439,090786,078423,059193,015309,063515
0000000106,0000105000,076958,090771,080920,067047,018049,052921
0000000107,0000106000,075045,089875,083727,072129,023944,041945
0000000108,0000107000,073886,088181,086580,073950,032417,031650
0000000109,0000108000,073600,085844,089204,072338,042644,023036
0000000110,0000109000,074208,083108,091331,067445,053615,016958
0000000111,0000110000,075649,080245,092755,059752,064251,014014
0000000112,0000111000,077796,077512,093340,050006,073528,014484
0000000113,0000112000,080429,075190,093029,039164,080534,018320
0000000114,0000113000,083278,073516,091854,028299,084570,025149
0000000115,0000114000,086085,072642,089921,018461,085248,034309
0000000116,0000115000,088575,072649,087424,010607,082509,044902
0000000117,0000116000,090485,073546,084616,005521,076619,055877
0000000118,0000117000,091639,075246,081763,003701,068146,066170
0000000119,0000118000,091931,077578,079139,005314,057919,074784
0000000120,0000119000,091325,080311,077012,010202,046954,080862
0000000121,0000120000,089877,083182,075588,017894,036318,083806
0000000122,0000121000,087734,085912,075002,027642,027039,083338
0000000123,0000122000,085105,088230,075313,038479,020036,079503
0000000124,0000123000,082249,089910,076488,049341,016000,072676
0000000125,0000124000,079442,090786,078420,059182,015318,063518
0000000126,0000125000,076958,090772,080918,067034,018056,052927
0000000127,0000126000,075043,089879,083726,072117,023947,041954
0000000128,0000127000,073886,088183,086579,073941,032415,031662
0000000129,0000128000,073600,085845,089203,072330,042639,023049
0000000130,0000129000,074205,083112,091331,067441,053606,016971
0000000131,0000130000,075646,080246,092755,059753,064238,014026
0000000132,0000131000,077795,077512,093342,050010,073514,014493
0000000133,0000132000,080426,075191,093032,039172,080520,018325
0000000134,0000133000,083276,073516,091856,028312,084556,025150
0000000135,0000134000,086086,072639,089924,018475,085237,034306
0000000136,0000135000,088574,072647,087427,010621,082502,044894
0000000137,0000136000,090484,073545,084618,005536,076616,055865
0000000138,0000137000,091641,075242,081764,003714,068147,066156
0000000139,0000138000,091934,077575,079140,005323,057926,074769
0000000140,0000139000,091326,080311,077012,010207,046964,080846
0000000141,0000140000,089881,083180,075587,017894,036331,083792
0000000142,0000141000,087738,085910,075000,027636,027055,083327
0000000143,0000142000,085106,088231,075310,038469,020052,079497
0000000144,0000143000,082251,089912,076485,049328,016015,072675
0000000145,0000144000,079444,090786,078417,059165,015330,063522
0000000146,0000145000,076958,090775,080915,067016,018065,052936
0000000147,0000146000,075042,089883,083723,072101,023949,041967
0000000148,0000147000,073886,088185,086577,073927,032412,031678
0000000149,0000148000,073597,085848,089203,072320,042632,023067
0000000150,0000149000,074200,083116,091332,067436,053593,016988
0000000151,0000150000,075644,080247,092757,059755,064221,014042
0000000152,0000151000,077792,077512,093344,050016,073496,014505
0000000153,0000152000,080421,075192,093035,039183,080501,018333
0000000154,0000153000,083274,073515,091859,028328,084538,025152
0000000155,0000154000,086085,072635,089927,018493,085223,034302
0000000156,0000155000,088573,072645,087430,010641,082493,044884
0000000157,0000156000,090485,073542,084621,005556,076612,055850
0000000158,0000157000,091644,075237,081766,003730,068150,066137
0000000159,0000158000,091936,077572,079141,005334,057935,074748
0000000160,0000159000,091328,080309,077011,010213,046978,080826
0000000161,0000160000,089886,083177,075585,017894,036349,083774
0000000162,0000161000,087741,085909,074997,027628,027076,083313
0000000163,0000162000,085109,088233,075307,038456,020074,079488
0000000164,0000163000,082255,089912,076481,049311,016034,072673
0000000165,0000164000,079447,090788,078413,059144,015347,063527
0000000166,0000165000,076957,090780,080911,066994,018076,052948
0000000167,0000166000,075041,089887,083720,072081,023953,041984
0000000168,0000167000,073884,088188,086575,073909,032410,031699
0000000169,0000168000,073593,085853,089202,072306,042622,023090
0000000170,0000169000,074196,083120,091332,067430,053576,017011
0000000171,0000170000,075641,080249,092759,059755,064200,014062
0000000172,0000171000,077787,077514,093347,050023,073473,014521
0000000173,0000172000,080417,075193,093039,039199,080477,018342
0000000174,0000173000,083271,073513,091864,028349,084516,025154
0000000175,0000174000,086084,072632,089932,018517,085205,034296
0000000176,0000175000,088571,072642,087434,010666,082481,044871
0000000177,0000176000,090486,073537,084624,005580,076606,055831
0000000178,0000177000,091647,075232,081769,003750,068153,066114
0000000179,0000178000,091938,077568,079142,005348,057947,074722
0000000180,0000179000,091333,080305,077010,010222,046995,080801
0000000181,0000180000,089892,083173,075583,017894,036373,083752
0000000182,0000181000,087746,085908,074994,027619,027103,083296
0000000183,0000182000,085112,088233,075302,038440,020100,079478
0000000184,0000183000,082259,089913,076476,049289,016058,072671
0000000185,0000184000,079448,090791,078408,059117,015367,063533
0000000186,0000185000,076957,090785,080907,066966,018089,052962
0000000187,0000186000,075041,089891,083716,072055,023958,042006
0000000188,0000187000,073882,088193,086573,073886,032406,031726
0000000189,0000188000,073588,085859,089201,072290,042610,023118
0000000190,0000189000,074191,083124,091333,067422,053556,017040
0000000191,0000190000,075636,080251,092761,059756,064175,014087
0000000192,0000191000,077781,077516,093351,050033,073444,014540
0000000193,0000192000,080412,075193,093043,039217,080447,018354
0000000194,0000193000,083269,073510,091869,028374,084488,025156
0000000195,0000194000,086081,072629,089938,018546,085183,034289
0000000196,0000195000,088570,072638,087439,010698,082466,044855
0000000197,0000196000,090489,073531,084629,005610,076600,055807
0000000198,0000197000,091650,075226,081772,003775,068158,066084
0000000199,0000198000,091942,077563,079143,005367,057960,074690
0000000200,0000199000,091339,080299,077009,010231,047017,080769
0000000201,0000200000,089898,083169,075581,017892,036402,083724
0000000202,0000201000,087751,085907,074990,027608,027136,083274
0000000203,0000202000,085118,088233,075297,038420,020132,079465
0000000204,0000203000,082264,089914,076470,049261,016089,072668
0000000205,0000204000,079450,090796,078402,059084,015392,063541
0000000206,0000205000,076957,090790,080901,066932,018105,052980
0000000207,0000206000,075040,089897,083711,072022,023964,042032
0000000208,0000207000,073878,088200,086569,073858,032402,031758
0000000209,0000208000,073583,085865,089199,072270,042594,023153
0000000210,0000209000,074186,083128,091333,067413,053531,017074
0000000211,0000210000,075629,080255,092764,059756,064143,014118
0000000212,0000211000,077774,077519,093355,050045,073408,014563
0000000213,0000212000,080407,075192,093049,039240,080410,018368
0000000214,0000213000,083264,073507,091876,028404,084455,025159
0000000215,0000214000,086077,072626,089945,018582,085157,034280
0000000216,0000215000,088570,072632,087445,010736,082447,044835
0000000217,0000216000,090491,073523,084634,005646,076594,055778
0000000218,0000217000,091653,075219,081775,003805,068163,066049
0000000219,0000218000,091947,077557,079144,005389,057976,074652
0000000220,0000219000,091346,080293,077009,010242,047044,080731
0000000221,0000220000,089905,083165,075578,017891,036437,083690
0000000222,0000221000,087758,085905,074985,027595,027174,083248
0000000223,0000222000,085125,088233,075290,038396,020172,079450
0000000224,0000223000,082269,089917,076463,049227,016125,072665
0000000225,0000224000,079453,090801,078395,059045,015421,063550
0000000226,0000225000,076958,090796,080894,066892,018124,053002
0000000227,0000226000,075038,089904,083706,071983,023971,042063
0000000228,0000227000,073874,088209,086566,073825,032397,031797
0000000229,0000228000,073577,085873,089198,072247,042576,023195
0000000230,0000229000,074179,083134,091334,067401,053502,017115
0000000231,0000230000,075620,080260,092767,059757,064106,014154
0000000232,0000231000,077766,077522,093361,050060,073366,014591
0000000233,0000232000,080400,075192,093056,039267,080367,018384
0000000234,0000233000,083259,073505,091884,028440,084416,025162
0000000235,0000234000,086073,072621,089953,018624,085124,034269
0000000236,0000235000,088569,072625,087453,010781,082426,044811
0000000237,0000236000,090493,073515,084640,005688,076586,055744
0000000238,0000237000,091657,075211,081780,003841,068169,066007
0000000239,0000238000,091954,077548,079146,005415,057996,074606
0000000240,0000239000,091355,080285,077008,010255,047076,080687
0000000241,0000240000,089913,083160,075574,017889,036478,083651
0000000242,0000241000,087766,085902,074979,027580,027220,083218
0000000243,0000242000,085133,088232,075282,038367,020219,079432
0000000244,0000243000,082274,089920,076454,049187,016168,072661
0000000245,0000244000,079456,090807,078385,058999,015456,063562
0000000246,0000245000,076960,090803,080885,066843,018147,053027
0000000247,0000246000,075036,089913,083699,071937,023980,042101
0000000248,0000247000,073869,088218,086561,073786,032390,031842
0000000249,0000248000,073570,085882,089196,072219,042554,023245
0000000250,0000249000,074171,083142,091336,067386,053467,017164
0000000251,0000250000,075610,080266,092771,059759,064062,014197
0000000252,0000251000,077756,077525,093367,050078,073315,014624
0000000253,0000252000,080392,075191,093065,039298,080316,018403
0000000254,0000253000,083252,073502,091894,028482,084370,025166
0000000255,0000254000,086069,072616,089963,018675,085087,034257
0000000256,0000255000,088569,072617,087462,010833,082401,044784
0000000257,0000256000,090495,073505,084648,005737,076577,055704
0000000258,0000257000,091662,075201,081785,003883,068177,065957
0000000259,0000258000,091962,077538,079148,005445,058019,074553
0000000260,0000259000,091364,080277,077007,010270,047114,080634
0000000261,0000260000,089923,083155,075570,017888,036526,083605
0000000262,0000261000,087777,085899,074972,027561,027274,083183
0000000263,0000262000,085142,088232,075273,038333,020273,079411
0000000264,0000263000,082281,089923,076443,049142,016218,072658
0000000265,0000264000,079461,090813,078375,058946,015496,063576
0000000266,0000265000,076961,090812,080875,066787,018173,053057
0000000267,0000266000,075034,089923,083691,071884,023990,042144
0000000268,0000267000,073863,088229,086555,073742,032381,031895
0000000269,0000268000,073563,085892,089193,072187,042529,023302
0000000270,0000269000,074160,083151,091337,067370,053427,017220
0000000271,0000270000,075599,080273,092776,059762,064010,014246
0000000272,0000271000,077746,077528,093375,050098,073257,014661
0000000273,0000272000,080382,075191,093075,039334,080258,018425
0000000274,0000273000,083244,073499,091905,028532,084317,025169
0000000275,0000274000,086065,072609,089974,018732,085044,034242
0000000276,0000275000,088568,072607,087473,010893,082373,044752
0000000277,0000276000,090497,073495,084656,005794,076567,055657
0000000278,0000277000,091668,075190,081791,003931,068185,065901
0000000279,0000278000,091971,077526,079151,005479,058047,074491
0000000280,0000279000,091375,080268,077005,010286,047157,080574
0000000281,0000280000,089935,083148,075565,017885,036581,083552
0000000282,0000281000,087789,085895,074964,027539,027336,083143
0000000283,0000282000,085153,088232,075263,038294,020336,079388
0000000284,0000283000,082289,089927,076431,049089,016275,072654
0000000285,0000284000,079466,090820,078362,058884,015541,063591
0000000286,0000285000,076963,090822,080864,066723,018203,053091
0000000287,0000286000,075031,089936,083682,071823,024001,042194
0000000288,0000287000,073857,088242,086549,073691,032372,031956
0000000289,0000288000,073553,085904,089191,072151,042500,023368
0000000290,0000289000,074148,083161,091338,067353,053381,017284
0000000291,0000290000,075586,080281,092781,059765,063951,014302
0000000292,0000291000,077733,077532,093383,050122,073191,014704
0000000293,0000292000,080371,075191,093086,039376,080192,018450
0000000294,0000293000,083234,073495,091918,028588,084256,025174
0000000295,0000294000,086059,072601,089987,018798,084995,034225
0000000296,0000295000,088566,072596,087485,010961,082342,044715
0000000297,0000296000,090499,073482,084667,005859,076555,055604
0000000298,0000297000,091675,075176,081798,003986,068195,065836
0000000299,0000298000,091981,077513,079154,005518,058078,074421
0000000300,0000299000,091387,080257,077004,010305,047206,080506
0000000301,0000300000,089949,083139,075559,017882,036643,083492
