DIgSILENT PowerFactory,21000900,2000
6,06A,00D
1,TTPP_200000_100:Secondary Voltage A,,,V,0.010000000,-67.866005,0.000000,-86352,99998,1,1,P
2,TTPP_200000_100:Secondary Voltage B,,,V,0.010000000,-57.088428,0.000000,-98876,99998,1,1,P
3,TTPP_200000_100:Secondary Voltage C,,,V,0.10000000,-9014.959961,0.000000,79780,99998,1,1,P
4,TTCC_500_5:Secondary Current A,,,A,0.0010000000,-85.786774,0.000000,64734,99998,1,1,P
5,TTCC_500_5:Secondary Current B,,,A,0.0010000000,-84.971985,0.000000,69972,99998,1,1,P
6,TTCC_500_5:Secondary Current C,,,A,0.0010000000,-84.652328,0.000000,69276,99998,1,1,P
50
1
1000.000000,1101
30/06/2023,06:02:40.000000
30/06/2023,06:02:40.000000
ASCII
1.000000
0000000001,0000000000,061914,042106,080997,091703,089651,074057
0000000002,0000001000,036433,066443,081111,088688,092367,074356
0000000003,0000002000,007910,085005,082109,085388,094362,075661
0000000004,0000003000,-20536,095611,083892,082133,095432,077847
0000000005,0000004000,-46365,097433,086293,079229,095482,080700
0000000006,0000005000,-67107,090383,089071,076967,094504,083940
0000000007,0000006000,-80578,075091,091947,075575,092590,087247
0000000008,0000007000,-85300,052767,094652,075178,089931,090302
0000000009,0000008000,-81190,025962,096921,075819,086787,092805
0000000010,0000009000,-68566,-02656,098522,077436,083466,094508
0000000011,0000010000,-48361,-30663,099302,079875,080290,095246
0000000012,0000011000,-22728,-55157,099188,082889,077575,094947
0000000013,0000012000,005579,-73497,098191,086187,075582,093642
0000000014,0000013000,034045,-84133,096407,089446,074508,091457
0000000015,0000014000,060062,-86134,094006,092348,074460,088603
0000000016,0000015000,080668,-78965,091228,094607,075441,085363
0000000017,0000016000,094030,-63552,088352,096003,077351,082057
0000000018,0000017000,098961,-41435,085647,096400,080010,079002
0000000019,0000018000,094827,-14613,083378,095756,083157,076498
0000000020,0000019000,082018,014206,081777,094139,086476,074795
0000000021,0000020000,061959,042055,080997,091704,089650,074058
0000000022,0000021000,036400,066477,081111,088687,092368,074356
0000000023,0000022000,007916,084992,082108,085389,094361,075661
0000000024,0000023000,-20519,095600,083891,082132,095432,077847
0000000025,0000024000,-46376,097438,086293,079228,095483,080701
0000000026,0000025000,-67140,090421,089071,076968,094503,083940
0000000027,0000026000,-80524,075048,091947,075574,092590,087247
0000000028,0000027000,-85303,052768,094652,075177,089932,090302
0000000029,0000028000,-81242,026016,096922,075819,086787,092805
0000000030,0000029000,-68542,-02688,098522,077437,083466,094508
0000000031,0000030000,-48327,-30696,099302,079873,080292,095246
0000000032,0000031000,-22772,-55118,099188,082888,077576,094948
0000000033,0000032000,005554,-73476,098191,086187,075582,093643
0000000034,0000033000,034109,-84193,096408,089445,074509,091457
0000000035,0000034000,060038,-86113,094006,092347,074461,088603
0000000036,0000035000,080642,-78933,091228,094607,075441,085364
0000000037,0000036000,094054,-63582,088352,096003,077350,082057
0000000038,0000037000,098981,-41458,085647,096398,080011,079002
0000000039,0000038000,094790,-14576,083378,095755,083157,076499
0000000040,0000039000,082034,014187,081777,094139,086476,074796
0000000041,0000040000,061979,042037,080997,091703,089650,074058
0000000042,0000041000,036378,066501,081111,088686,092369,074356
0000000043,0000042000,007928,084990,082108,085389,094361,075661
0000000044,0000043000,-20498,095581,083891,082132,095433,077847
0000000045,0000044000,-46399,097461,086293,079228,095483,080701
0000000046,0000045000,-67145,090431,089071,076968,094503,083940
0000000047,0000046000,-80490,075014,091946,075574,092591,087247
0000000048,0000047000,-85328,052795,094652,075177,089933,090301
0000000049,0000048000,-81266,026040,096922,075819,086787,092805
0000000050,0000049000,-68510,-02716,098522,077437,083466,094508
0000000051,0000050000,-48326,-30698,099302,079872,080293,095246
0000000052,0000051000,-22819,-55076,099189,082888,077576,094947
0000000053,0000052000,005571,-73496,098192,086186,075582,093642
0000000054,0000053000,034131,-84223,096408,089444,074510,091457
0000000055,0000054000,060002,-86081,094007,092345,074462,088604
0000000056,0000055000,080635,-78932,091229,094607,075440,085364
0000000057,0000056000,094088,-63621,088353,096002,077351,082058
0000000058,0000057000,098970,-41449,085647,096397,080011,079003
0000000059,0000058000,094774,-14560,083378,095755,083156,076500
0000000060,0000059000,082067,014155,081777,094139,086475,074797
0000000061,0000060000,061982,042033,080997,091703,089649,074059
0000000062,0000061000,036363,066521,081110,088686,092368,074357
0000000063,0000062000,007952,084972,082107,085390,094360,075662
0000000064,0000063000,-20487,095573,083891,082132,095432,077847
0000000065,0000064000,-46420,097491,086292,079229,095482,080700
0000000066,0000065000,-67131,090426,089070,076969,094502,083940
0000000067,0000066000,-80474,075005,091946,075574,092591,087246
0000000068,0000067000,-85360,052828,094652,075177,089933,090301
0000000069,0000068000,-81272,026049,096921,075820,086787,092804
0000000070,0000069000,-68490,-02737,098522,077437,083467,094507
0000000071,0000070000,-48354,-30676,099302,079871,080295,095245
0000000072,0000071000,-22846,-55053,099189,082887,077577,094947
0000000073,0000072000,005592,-73525,098192,086186,075583,093642
0000000074,0000073000,034123,-84225,096409,089442,074511,091457
0000000075,0000074000,059969,-86058,094008,092344,074463,088604
0000000076,0000075000,080651,-78957,091230,094606,075441,085365
0000000077,0000076000,094105,-63648,088354,096001,077352,082059
0000000078,0000077000,098949,-41435,085648,096396,080011,079004
0000000079,0000078000,094784,-14571,083378,095754,083156,076501
0000000080,0000079000,082099,014122,081777,094138,086475,074798
0000000081,0000080000,061978,042042,080997,091702,089649,074060
0000000082,0000081000,036368,066527,081109,088687,092366,074358
0000000083,0000082000,007984,084950,082106,085390,094358,075662
0000000084,0000083000,-20485,095583,083890,082133,095431,077847
0000000085,0000084000,-46429,097514,086291,079230,095481,080700
0000000086,0000085000,-67109,090418,089068,076971,094502,083939
0000000087,0000086000,-80476,075015,091945,075575,092591,087245
0000000088,0000087000,-85387,052864,094651,075179,089933,090299
0000000089,0000088000,-81268,026051,096921,075821,086788,092802
0000000090,0000089000,-68491,-02738,098522,077437,083469,094505
0000000091,0000090000,-48392,-30644,099303,079871,080297,095244
0000000092,0000091000,-22859,-55049,099190,082887,077578,094946
0000000093,0000092000,005600,-73547,098194,086184,075585,093642
0000000094,0000093000,034095,-84214,096411,089440,074514,091457
0000000095,0000094000,059951,-86056,094009,092342,074464,088604
0000000096,0000095000,080671,-78993,091231,094603,075441,085366
0000000097,0000096000,094105,-63662,088355,095998,077352,082061
0000000098,0000097000,098939,-41433,085649,096394,080011,079006
0000000099,0000098000,094813,-14604,083378,095753,083154,076503
0000000100,0000099000,082123,014098,081777,094137,086474,074800
0000000101,0000100000,061977,042050,080996,091702,089647,074062
0000000102,0000101000,036394,066515,081108,088688,092364,074359
0000000103,0000102000,008015,084935,082104,085392,094356,075663
0000000104,0000103000,-20487,095604,083888,082134,095429,077847
0000000105,0000104000,-46422,097529,086289,079233,095479,080700
0000000106,0000105000,-67089,090417,089066,076973,094501,083938
0000000107,0000106000,-80491,075045,091944,075577,092591,087243
0000000108,0000107000,-85407,052897,094650,075181,089933,090297
0000000109,0000108000,-81266,026055,096920,075822,086789,092799
0000000110,0000109000,-68514,-02718,098522,077437,083471,094503
0000000111,0000110000,-48432,-30613,099304,079871,080299,095241
0000000112,0000111000,-22869,-55054,099192,082886,077581,094944
0000000113,0000112000,005586,-73555,098196,086182,075589,093641
0000000114,0000113000,034060,-84203,096413,089438,074516,091457
0000000115,0000114000,059945,-86073,094012,092340,074466,088605
0000000116,0000115000,080682,-79029,091234,094600,075443,085368
0000000117,0000116000,094095,-63673,088357,095995,077353,082063
0000000118,0000117000,098946,-41453,085650,096392,080010,079009
0000000119,0000118000,094850,-14647,083379,095751,083153,076507
0000000120,0000119000,082142,014080,081777,094136,086472,074804
0000000121,0000120000,061994,042046,080995,091703,089644,074065
0000000122,0000121000,036436,066491,081106,088689,092360,074362
0000000123,0000122000,008042,084931,082102,085393,094353,075665
0000000124,0000123000,-20482,095628,083885,082137,095426,077848
0000000125,0000124000,-46400,097539,086286,079236,095476,080699
0000000126,0000125000,-67077,090432,089064,076976,094499,083936
0000000127,0000126000,-80511,075089,091941,075580,092591,087240
0000000128,0000127000,-85420,052928,094648,075184,089934,090293
0000000129,0000128000,-81277,026072,096919,075824,086791,092796
0000000130,0000129000,-68555,-02681,098523,077438,083474,094499
0000000131,0000130000,-48471,-30586,099305,079871,080302,095238
0000000132,0000131000,-22887,-55058,099194,082885,077585,094941
0000000133,0000132000,005551,-73551,098199,086179,075593,093639
0000000134,0000133000,034024,-84200,096417,089434,074520,091457
0000000135,0000134000,059942,-86105,094015,092336,074469,088606
0000000136,0000135000,080682,-79063,091237,094595,075445,085370
0000000137,0000136000,094088,-63693,088360,095991,077354,082066
0000000138,0000137000,098970,-41495,085652,096388,080009,079013
0000000139,0000138000,094887,-14694,083380,095749,083151,076511
0000000140,0000139000,082165,014061,081777,094134,086469,074808
0000000141,0000140000,062031,042025,080993,091703,089639,074069
0000000142,0000141000,036487,066465,081104,088690,092356,074365
0000000143,0000142000,008070,084937,082098,085396,094349,075667
0000000144,0000143000,-20461,095649,083881,082141,095422,077848
0000000145,0000144000,-46370,097550,086281,079241,095472,080698
0000000146,0000145000,-67074,090465,089060,076981,094497,083933
0000000147,0000146000,-80530,075141,091938,075585,092590,087236
0000000148,0000147000,-85432,052963,094646,075188,089934,090289
0000000149,0000148000,-81304,026108,096919,075827,086793,092791
0000000150,0000149000,-68608,-02632,098523,077440,083478,094494
0000000151,0000150000,-48512,-30561,099307,079871,080307,095233
0000000152,0000151000,-22923,-55053,099197,082883,077590,094938
0000000153,0000152000,005501,-73541,098203,086176,075598,093637
0000000154,0000153000,033989,-84211,096421,089430,074525,091456
0000000155,0000154000,059933,-86145,094020,092330,074473,088608
0000000156,0000155000,080670,-79097,091242,094590,075448,085373
0000000157,0000156000,094090,-63731,088363,095985,077355,082071
0000000158,0000157000,099005,-41555,085654,096384,080009,079019
0000000159,0000158000,094924,-14744,083381,095745,083149,076517
0000000160,0000159000,082200,014031,081776,094133,086465,074814
0000000161,0000160000,062089,041988,080991,091703,089634,074074
0000000162,0000161000,036544,066442,081100,088692,092350,074369
0000000163,0000162000,008105,084946,082094,085400,094343,075669
0000000164,0000163000,-20423,095664,083875,082147,095416,077848
0000000165,0000164000,-46338,097572,086276,079247,095468,080696
0000000166,0000165000,-67075,090516,089055,076987,094494,083930
0000000167,0000166000,-80545,075199,091934,075591,092588,087231
0000000168,0000167000,-85450,053009,094643,075193,089935,090283
0000000169,0000168000,-81349,026164,096917,075831,086796,092784
0000000170,0000169000,-68668,-02577,098524,077442,083482,094487
0000000171,0000170000,-48561,-30534,099309,079871,080313,095228
0000000172,0000171000,-22979,-55037,099201,082880,077597,094934
0000000173,0000172000,005439,-73530,098208,086171,075605,093634
0000000174,0000173000,033953,-84233,096427,089424,074531,091456
0000000175,0000174000,059914,-86187,094026,092323,074478,088609
0000000176,0000175000,080655,-79138,091247,094582,075452,085377
0000000177,0000176000,094102,-63789,088368,095979,077356,082076
0000000178,0000177000,099045,-41628,085658,096378,080008,079026
0000000179,0000178000,094966,-14800,083383,095741,083146,076525
0000000180,0000179000,082255,013984,081775,094131,086459,074821
0000000181,0000180000,062163,041940,080989,091703,089627,074080
0000000182,0000181000,036608,066421,081096,088695,092342,074374
0000000183,0000182000,008156,084954,082088,085404,094335,075672
0000000184,0000183000,-20370,095679,083869,082153,095409,077849
0000000185,0000184000,-46307,097607,086269,079255,095462,080694
0000000186,0000185000,-67076,090580,089049,076995,094490,083926
0000000187,0000186000,-80556,075264,091928,075599,092587,087225
0000000188,0000187000,-85478,053073,094639,075200,089936,090275
0000000189,0000188000,-81409,026239,096916,075835,086800,092776
0000000190,0000189000,-68735,-02516,098524,077444,083488,094479
0000000191,0000190000,-48626,-30499,099312,079871,080320,095220
0000000192,0000191000,-23055,-55010,099206,082877,077606,094928
0000000193,0000192000,005369,-73524,098215,086166,075614,093631
0000000194,0000193000,033909,-84263,096434,089417,074539,091455
0000000195,0000194000,059882,-86232,094034,092315,074485,088611
0000000196,0000195000,080639,-79192,091254,094573,075456,085382
0000000197,0000196000,094123,-63868,088374,095970,077358,082083
0000000198,0000197000,099087,-41711,085662,096370,080007,079034
0000000199,0000198000,095017,-14868,083384,095735,083142,076534
0000000200,0000199000,082330,013918,081774,094128,086453,074830
0000000201,0000200000,062250,041884,080985,091704,089619,074088
0000000202,0000201000,036682,066400,081091,088698,092333,074380
0000000203,0000202000,008226,084957,082081,085410,094325,075675
0000000204,0000203000,-20307,095697,083860,082161,095400,077850
0000000205,0000204000,-46274,097658,086261,079264,095455,080692
0000000206,0000205000,-67071,090655,089041,077005,094486,083920
0000000207,0000206000,-80568,075340,091922,075609,092585,087217
0000000208,0000207000,-85520,053159,094635,075207,089938,090266
0000000209,0000208000,-81480,026330,096914,075841,086805,092766
0000000210,0000209000,-68813,-02446,098525,077447,083495,094469
0000000211,0000210000,-48712,-30450,099316,079870,080330,095212
0000000212,0000211000,-23150,-54975,099212,082874,077616,094921
0000000213,0000212000,005290,-73523,098222,086160,075624,093627
0000000214,0000213000,033853,-84297,096443,089408,074549,091454
0000000215,0000214000,059839,-86282,094043,092304,074493,088614
0000000216,0000215000,080626,-79264,091263,094563,075461,085387
0000000217,0000216000,094149,-63964,088381,095960,077360,082092
0000000218,0000217000,099133,-41807,085667,096362,080005,079044
0000000219,0000218000,095083,-14955,083386,095729,083137,076545
0000000220,0000219000,082423,013834,081773,094125,086445,074841
0000000221,0000220000,062350,041823,080982,091704,089609,074098
0000000222,0000221000,036774,066374,081084,088702,092322,074387
0000000223,0000222000,008315,084955,082072,085418,094314,075680
0000000224,0000223000,-20234,095723,083850,082171,095390,077851
0000000225,0000224000,-46236,097722,086251,079275,095447,080689
0000000226,0000225000,-67061,090740,089031,077017,094480,083914
0000000227,0000226000,-80584,075434,091914,075620,092583,087208
0000000228,0000227000,-85575,053266,094630,075217,089940,090254
0000000229,0000228000,-81562,026435,096912,075848,086810,092753
0000000230,0000229000,-68905,-02364,098526,077450,083503,094457
0000000231,0000230000,-48819,-30386,099320,079870,080341,095201
0000000232,0000231000,-23261,-54935,099219,082869,077629,094913
0000000233,0000232000,005199,-73526,098232,086152,075637,093622
0000000234,0000233000,033780,-84334,096454,089397,074560,091454
0000000235,0000234000,059787,-86342,094054,092292,074502,088617
0000000236,0000235000,080614,-79355,091273,094550,075467,085394
0000000237,0000236000,094176,-64077,088389,095948,077362,082102
0000000238,0000237000,099185,-41918,085673,096351,080003,079057
0000000239,0000238000,095166,-15062,083389,095722,083131,076558
0000000240,0000239000,082535,013734,081772,094122,086435,074854
0000000241,0000240000,062465,041754,080977,091704,089597,074109
0000000242,0000241000,036886,066340,081076,088706,092309,074396
0000000243,0000242000,008423,084951,082062,085426,094300,075685
0000000244,0000243000,-20152,095758,083839,082182,095377,077851
0000000245,0000244000,-46190,097796,086239,079288,095437,080686
0000000246,0000245000,-67044,090836,089020,077031,094473,083907
0000000247,0000246000,-80606,075548,091905,075633,092581,087197
0000000248,0000247000,-85639,053395,094623,075228,089942,090241
0000000249,0000248000,-81653,026554,096909,075856,086816,092739
0000000250,0000249000,-69017,-02266,098527,077454,083513,094443
0000000251,0000250000,-48949,-30307,099325,079869,080353,095189
0000000252,0000251000,-23389,-54891,099227,082864,077643,094904
0000000253,0000252000,005091,-73529,098243,086143,075651,093617
0000000254,0000253000,033690,-84372,096467,089385,074573,091453
0000000255,0000254000,059728,-86413,094067,092278,074513,088621
0000000256,0000255000,080603,-79464,091285,094535,075474,085402
0000000257,0000256000,094204,-64206,088400,095933,077364,082113
0000000258,0000257000,099246,-42048,085680,096339,080001,079071
0000000259,0000258000,095267,-15193,083392,095713,083124,076573
0000000260,0000259000,082662,013620,081771,094117,086425,074869
0000000261,0000260000,062599,041675,080972,091705,089583,074123
0000000262,0000261000,037022,066296,081067,088712,092293,074406
0000000263,0000262000,008548,084946,082050,085436,094285,075691
0000000264,0000263000,-20058,095802,083825,082195,095363,077852
0000000265,0000264000,-46132,097881,086225,079304,095426,080682
0000000266,0000265000,-67024,090947,089007,077047,094466,083898
0000000267,0000266000,-80635,075684,091894,075648,092578,087185
0000000268,0000267000,-85713,053544,094616,075241,089944,090226
0000000269,0000268000,-81758,026691,096906,075865,086823,092723
0000000270,0000269000,-69149,-02148,098529,077459,083525,094427
0000000271,0000270000,-49101,-30214,099331,079868,080368,095175
0000000272,0000271000,-23534,-54843,099237,082858,077659,094893
0000000273,0000272000,004963,-73531,098256,086132,075668,093611
0000000274,0000273000,033584,-84415,096482,089371,074589,091452
0000000275,0000274000,059663,-86499,094083,092261,074525,088625
0000000276,0000275000,080588,-79591,091299,094518,075482,085412
0000000277,0000276000,094233,-64352,088411,095917,077367,082127
0000000278,0000277000,099319,-42202,085688,096326,079998,079087
0000000279,0000278000,095385,-15345,083395,095704,083116,076591
0000000280,0000279000,082806,013490,081769,094113,086412,074886
0000000281,0000280000,062754,041582,080965,091706,089567,074138
0000000282,0000281000,037181,066243,081057,088718,092275,074417
0000000283,0000282000,008690,084941,082036,085447,094267,075697
0000000284,0000283000,-19950,095853,083809,082211,095347,077853
0000000285,0000284000,-46062,097974,086208,079322,095412,080677
0000000286,0000285000,-67002,091075,088992,077066,094457,083888
0000000287,0000286000,-80670,075843,091882,075665,092575,087170
0000000288,0000287000,-85795,053713,094607,075255,089947,090208
0000000289,0000288000,-81877,026849,096902,075875,086832,092704
0000000290,0000289000,-69304,-02009,098531,077463,083539,094409
0000000291,0000290000,-49272,-30108,099337,079867,080385,095159
0000000292,0000291000,-23700,-54789,099248,082852,077678,094881
0000000293,0000292000,004812,-73529,098271,086120,075687,093604
0000000294,0000293000,033462,-84463,096499,089354,074606,091451
0000000295,0000294000,059589,-86600,094100,092242,074539,088630
0000000296,0000295000,080568,-79734,091316,094498,075491,085422
0000000297,0000296000,094264,-64518,088425,095898,077370,082142
0000000298,0000297000,099405,-42380,085697,096310,079995,079106
0000000299,0000298000,095519,-15519,083399,095693,083107,076611
0000000300,0000299000,082968,013343,081768,094107,086398,074906
0000000301,0000300000,062934,041473,080958,091707,089549,074155
