DIgSILENT PowerFactory,21000900,2000
6,06A,00D
1,TTPP_200000_100:Secondary Voltage A,,,V,0.10000000,-8535.815430,0.000000,71714,99998,1,1,P
2,TTPP_200000_100:Secondary Voltage B,,,V,0.10000000,-8505.322266,0.000000,71225,99998,1,1,P
3,TTPP_200000_100:Secondary Voltage C,,,V,0.10000000,-8467.528320,0.000000,66293,99998,1,1,P
4,TTCC_300_1:Secondary Current A,,,A,0.00010000000,-5.444659,0.000000,-11998,99998,1,1,P
5,TTCC_300_1:Secondary Current B,,,A,0.00010000000,-4.866924,0.000000,-3369,99998,1,1,P
6,TTCC_300_1:Secondary Current C,,,A,0.00010000000,-5.017416,0.000000,165,99998,1,1,P
50
1
1000.000000,1101
30/06/2023,06:12:28.000000
30/06/2023,06:12:28.000000
ASCII
1.000000
0000000001,0000000000,092464,086528,076094,033517,034680,085094
0000000002,0000001000,090331,089246,075509,043269,025402,084620
0000000003,0000002000,087689,091577,075821,054108,018404,080777
0000000004,0000003000,084833,093255,076998,064988,014361,073942
0000000005,0000004000,082040,094117,078931,074830,013685,064773
0000000006,0000005000,079552,094108,081428,082679,016438,054174
0000000007,0000006000,077631,093222,084234,087765,022332,043192
0000000008,0000007000,076487,091514,087087,089588,030808,032895
0000000009,0000008000,076201,089176,089709,087964,041049,024278
0000000010,0000009000,076799,086453,091834,083066,052023,018200
0000000011,0000010000,078247,083583,093257,075373,062657,015260
0000000012,0000011000,080400,080845,093842,065613,071943,015733
0000000013,0000012000,083022,078536,093530,054765,078950,019575
0000000014,0000013000,085873,076861,092352,043899,082980,026411
0000000015,0000014000,088687,075979,090421,034056,083655,035580
0000000016,0000015000,091167,075996,087924,026197,080915,046178
0000000017,0000016000,093074,076897,085116,021118,075012,057160
0000000018,0000017000,094236,078587,082264,019300,066532,067458
0000000019,0000018000,094521,080924,079642,020915,056300,076074
0000000020,0000019000,093908,083663,077516,025814,045324,082151
0000000021,0000020000,092470,086523,076093,033516,034681,085093
0000000022,0000021000,090324,089253,075510,043267,025404,084619
0000000023,0000022000,087687,091578,075821,054116,018397,080777
0000000024,0000023000,084841,093248,076997,064988,014361,073941
0000000025,0000024000,082038,094119,078930,074828,013688,064773
0000000026,0000025000,079545,094114,081427,082682,016434,054174
0000000027,0000026000,077637,093216,084234,087770,022328,043192
0000000028,0000027000,076489,091511,087086,089585,030811,032895
0000000029,0000028000,076194,089183,089709,087965,041047,024278
0000000030,0000029000,076800,086452,091835,083073,052017,018200
0000000031,0000030000,078253,083577,093257,075373,062658,015259
0000000032,0000031000,080395,080850,093841,065613,071944,015733
0000000033,0000032000,083019,078538,093530,054770,078945,019574
0000000034,0000033000,085878,076855,092353,043903,082977,026410
0000000035,0000034000,088687,075979,090421,034054,083658,035578
0000000036,0000035000,091162,076001,087924,026201,080912,046177
0000000037,0000036000,093077,076893,085116,021122,075009,057159
0000000038,0000037000,094238,078585,082265,019300,066533,067456
0000000039,0000038000,094517,080928,079642,020916,056301,076072
0000000040,0000039000,093909,083662,077516,025818,045322,082150
0000000041,0000040000,092473,086520,076094,033516,034683,085092
0000000042,0000041000,090322,089255,075509,043267,025405,084618
0000000043,0000042000,087687,091579,075821,054117,018396,080776
0000000044,0000043000,084844,093246,076997,064988,014361,073941
0000000045,0000044000,082036,094121,078930,074827,013690,064773
0000000046,0000045000,079544,094116,081427,082683,016432,054174
0000000047,0000046000,077639,093214,084234,087770,022327,043193
0000000048,0000047000,076488,091513,087086,089585,030810,032895
0000000049,0000048000,076193,089185,089709,087966,041045,024279
0000000050,0000049000,076802,086450,091835,083074,052015,018202
0000000051,0000050000,078252,083577,093257,075373,062657,015260
0000000052,0000051000,080393,080852,093842,065616,071940,015733
0000000053,0000052000,083021,078536,093530,054773,078942,019575
0000000054,0000053000,085879,076854,092353,043904,082976,026410
0000000055,0000054000,088683,075983,090421,034058,083656,035577
0000000056,0000055000,091164,075999,087924,026206,080909,046176
0000000057,0000056000,093080,076890,085117,021123,075010,057157
0000000058,0000057000,094234,078587,082265,019302,066534,067454
0000000059,0000058000,094517,080928,079642,020921,056300,076070
0000000060,0000059000,093914,083657,077515,025819,045324,082147
0000000061,0000060000,092471,086521,076094,033515,034687,085089
0000000062,0000061000,090320,089258,075509,043269,025406,084616
0000000063,0000062000,087692,091575,075820,054118,018398,080775
0000000064,0000063000,084844,093245,076997,064984,014365,073941
0000000065,0000064000,082032,094125,078930,074825,013691,064774
0000000066,0000065000,079547,094114,081426,082683,016431,054175
0000000067,0000066000,077642,093212,084233,087766,022329,043195
0000000068,0000067000,076484,091517,087086,089582,030810,032898
0000000069,0000068000,076192,089186,089708,087968,041040,024282
0000000070,0000069000,076805,086447,091835,083073,052012,018205
0000000071,0000070000,078249,083580,093258,075372,062655,015263
0000000072,0000071000,080390,080855,093842,065620,071935,015735
0000000073,0000072000,083024,078533,093530,054777,078937,019576
0000000074,0000073000,085878,076854,092354,043906,082974,026410
0000000075,0000074000,088680,075985,090422,034063,083652,035576
0000000076,0000075000,091166,075996,087924,026212,080905,046173
0000000077,0000076000,093082,076888,085117,021127,075010,057153
0000000078,0000077000,094232,078589,082265,019306,066535,067449
0000000079,0000078000,094518,080927,079642,020925,056300,076065
0000000080,0000079000,093917,083655,077516,025820,045327,082143
0000000081,0000080000,092470,086523,076093,033514,034691,085085
0000000082,0000081000,090320,089258,075508,043269,025409,084613
0000000083,0000082000,087695,091573,075819,054115,018402,080773
0000000084,0000083000,084844,093247,076996,064979,014371,073940
0000000085,0000084000,082032,094127,078928,074822,013693,064775
0000000086,0000085000,079549,094113,081425,082678,016433,054178
0000000087,0000086000,077641,093213,084233,087760,022331,043199
0000000088,0000087000,076481,091520,087085,089578,030809,032903
0000000089,0000088000,076193,089185,089708,087966,041037,024288
0000000090,0000089000,076805,086447,091835,083071,052009,018211
0000000091,0000090000,078246,083583,093258,075373,062649,015268
0000000092,0000091000,080390,080854,093843,065624,071927,015739
0000000093,0000092000,083024,078531,093532,054781,078931,019578
0000000094,0000093000,085875,076856,092356,043912,082968,026410
0000000095,0000094000,088679,075985,090423,034072,083645,035574
0000000096,0000095000,091168,075993,087926,026219,080902,046169
0000000097,0000096000,093080,076888,085119,021133,075010,057147
0000000098,0000097000,094232,078589,082266,019314,066534,067442
0000000099,0000098000,094522,080923,079642,020930,056302,076057
0000000100,0000099000,093918,083654,077516,025821,045334,082135
0000000101,0000100000,092470,086524,076093,033515,034697,085078
0000000102,0000101000,090323,089256,075507,043267,025416,084607
0000000103,0000102000,087697,091571,075818,054109,018412,080770
0000000104,0000103000,084842,093250,076995,064972,014378,073939
0000000105,0000104000,082033,094127,078927,074815,013698,064776
0000000106,0000105000,079551,094112,081424,082669,016438,054183
0000000107,0000106000,077639,093216,084232,087751,022333,043206
0000000108,0000107000,076480,091522,087084,089573,030806,032912
0000000109,0000108000,076194,089185,089708,087961,041032,024297
0000000110,0000109000,076802,086449,091835,083067,052003,018220
0000000111,0000110000,078243,083586,093259,075374,062640,015276
0000000112,0000111000,080390,080853,093844,065628,071916,015745
0000000113,0000112000,083023,078530,093533,054786,078922,019582
0000000114,0000113000,085872,076857,092357,043921,082959,026411
0000000115,0000114000,088679,075983,090424,034083,083636,035571
0000000116,0000115000,091169,075990,087927,026229,080897,046164
0000000117,0000116000,093079,076888,085120,021143,075008,057139
0000000118,0000117000,094233,078588,082267,019324,066534,067432
0000000119,0000118000,094525,080919,079643,020937,056307,076046
0000000120,0000119000,093918,083653,077515,025824,045342,082124
0000000121,0000120000,092471,086524,076092,033516,034707,085068
0000000122,0000121000,090327,089254,075506,043264,025427,084599
0000000123,0000122000,087698,091572,075817,054101,018424,080765
0000000124,0000123000,084843,093252,076992,064963,014389,073938
0000000125,0000124000,082035,094127,078924,074804,013706,064779
0000000126,0000125000,079552,094113,081422,082656,016445,054189
0000000127,0000126000,077637,093220,084230,087739,022335,043215
0000000128,0000127000,076479,091524,087083,089563,030803,032924
0000000129,0000128000,076193,089186,089707,087953,041027,024310
0000000130,0000129000,076798,086452,091836,083063,051994,018232
0000000131,0000130000,078240,083587,093259,075376,062627,015287
0000000132,0000131000,080389,080852,093846,065632,071903,015754
0000000133,0000132000,083020,078531,093536,054794,078909,019587
0000000134,0000133000,085870,076857,092360,043934,082945,026412
0000000135,0000134000,088680,075980,090427,034097,083625,035568
0000000136,0000135000,091168,075988,087930,026244,080891,046156
0000000137,0000136000,093078,076886,085122,021158,075004,057127
0000000138,0000137000,094235,078584,082268,019337,066535,067418
0000000139,0000138000,094527,080916,079643,020945,056314,076030
0000000140,0000139000,093919,083652,077515,025829,045353,082108
0000000141,0000140000,092474,086522,076090,033517,034720,085054
0000000142,0000141000,090331,089252,075504,043258,025443,084589
0000000143,0000142000,087700,091573,075814,054091,018441,080758
0000000144,0000143000,084845,093253,076989,064951,014403,073936
0000000145,0000144000,082038,094128,078921,074788,013719,064783
0000000146,0000145000,079551,094117,081419,082638,016454,054198
0000000147,0000146000,077635,093224,084228,087724,022338,043228
0000000148,0000147000,076479,091526,087081,089550,030801,032940
0000000149,0000148000,076191,089189,089707,087942,041020,024328
0000000150,0000149000,076794,086456,091836,083059,051981,018250
0000000151,0000150000,078238,083588,093261,075377,062610,015303
0000000152,0000151000,080386,080853,093848,065638,071885,015767
0000000153,0000152000,083016,078533,093539,054806,078890,019594
0000000154,0000153000,085868,076856,092363,043950,082927,026413
0000000155,0000154000,088679,075976,090431,034116,083611,035563
0000000156,0000155000,091167,075986,087933,026263,080882,046146
0000000157,0000156000,093079,076883,085124,021178,075000,057112
0000000158,0000157000,094238,078579,082270,019353,066538,067399
0000000159,0000158000,094530,080913,079644,020956,056324,076010
0000000160,0000159000,093922,083650,077515,025836,045366,082088
0000000161,0000160000,092479,086519,076089,033517,034738,085036
0000000162,0000161000,090335,089250,075501,043251,025465,084575
0000000163,0000162000,087702,091574,075810,054079,018462,080750
0000000164,0000163000,084848,093254,076985,064934,014422,073934
0000000165,0000164000,082040,094129,078918,074766,013735,064788
0000000166,0000165000,079550,094121,081416,082616,016464,054209
0000000167,0000166000,077634,093228,084224,087703,022341,043245
0000000168,0000167000,076478,091529,087079,089532,030798,032961
0000000169,0000168000,076187,089193,089706,087928,041011,024351
0000000170,0000169000,076790,086460,091836,083053,051965,018273
0000000171,0000170000,078235,083590,093263,075377,062589,015323
0000000172,0000171000,080381,080854,093851,065645,071862,015782
0000000173,0000172000,083011,078534,093542,054821,078865,019604
0000000174,0000173000,085866,076854,092367,043971,082904,026415
0000000175,0000174000,088678,075973,090435,034139,083594,035558
0000000176,0000175000,091165,075984,087938,026288,080869,046133
0000000177,0000176000,093080,076878,085128,021203,074995,057093
0000000178,0000177000,094241,078573,082272,019373,066542,067375
0000000179,0000178000,094532,080909,079645,020971,056335,075984
0000000180,0000179000,093927,083646,077514,025844,045384,082062
0000000181,0000180000,092485,086515,076087,033516,034761,085013
0000000182,0000181000,090339,089249,075498,043242,025491,084557
0000000183,0000182000,087706,091575,075806,054063,018488,080739
0000000184,0000183000,084852,093254,076980,064911,014446,073932
0000000185,0000184000,082042,094132,078913,074740,013756,064794
0000000186,0000185000,079550,094126,081411,082589,016478,054224
0000000187,0000186000,077634,093232,084220,087677,022346,043267
0000000188,0000187000,076476,091534,087077,089508,030795,032987
0000000189,0000188000,076182,089200,089705,087912,040999,024380
0000000190,0000189000,076785,086464,091837,083045,051944,018301
0000000191,0000190000,078230,083592,093265,075378,062563,015349
0000000192,0000191000,080375,080857,093855,065655,071833,015801
0000000193,0000192000,083006,078534,093547,054840,078835,019615
0000000194,0000193000,085863,076851,092373,043996,082877,026418
0000000195,0000194000,088675,075970,090441,034168,083572,035550
0000000196,0000195000,091164,075979,087943,026320,080854,046116
0000000197,0000196000,093083,076872,085132,021232,074989,057069
0000000198,0000197000,094244,078567,082275,019397,066546,067346
0000000199,0000198000,094536,080905,079646,020989,056348,075952
0000000200,0000199000,093933,083641,077513,025854,045405,082031
0000000201,0000200000,092492,086511,076084,033515,034790,084985
0000000202,0000201000,090344,089248,075494,043231,025524,084536
0000000203,0000202000,087711,091575,075800,054043,018521,080726
0000000204,0000203000,084857,093256,076974,064883,014477,073930
0000000205,0000204000,082044,094137,078906,074707,013781,064802
0000000206,0000205000,079551,094132,081405,082555,016493,054241
0000000207,0000206000,077633,093238,084216,087644,022352,043293
0000000208,0000207000,076472,091541,087074,089480,030791,033019
0000000209,0000208000,076176,089206,089704,087893,040983,024415
0000000210,0000209000,076780,086469,091838,083035,051919,018336
0000000211,0000210000,078223,083596,093268,075379,062532,015379
0000000212,0000211000,080368,080860,093859,065668,071797,015825
0000000213,0000212000,083001,078533,093553,054862,078798,019629
0000000214,0000213000,085858,076848,092380,044026,082844,026420
0000000215,0000214000,088671,075967,090448,034204,083545,035542
0000000216,0000215000,091164,075974,087949,026358,080836,046097
0000000217,0000216000,093085,076865,085137,021268,074982,057040
0000000218,0000217000,094247,078561,082279,019428,066551,067311
0000000219,0000218000,094541,080898,079648,021012,056365,075913
0000000220,0000219000,093940,083634,077512,025865,045432,081993
0000000221,0000220000,092499,086507,076081,033513,034825,084952
0000000222,0000221000,090351,089247,075489,043218,025563,084510
0000000223,0000222000,087718,091574,075794,054019,018560,080711
0000000224,0000223000,084862,093258,076967,064850,014514,073926
0000000225,0000224000,082046,094142,078899,074668,013810,064812
0000000226,0000225000,079552,094138,081398,082514,016513,054263
0000000227,0000226000,077632,093245,084210,087605,022360,043325
0000000228,0000227000,076467,091549,087070,089447,030785,033058
0000000229,0000228000,076171,089214,089702,087869,040964,024457
0000000230,0000229000,076773,086475,091839,083023,051890,018377
0000000231,0000230000,078214,083601,093271,075380,062495,015415
0000000232,0000231000,080360,080862,093865,065683,071754,015853
0000000233,0000232000,082994,078532,093560,054889,078755,019646
0000000234,0000233000,085853,076846,092388,044062,082804,026424
0000000235,0000234000,088667,075963,090456,034247,083513,035531
0000000236,0000235000,091163,075966,087957,026403,080814,046073
0000000237,0000236000,093087,076856,085144,021310,074974,057006
0000000238,0000237000,094251,078553,082283,019464,066558,067268
0000000239,0000238000,094548,080890,079649,021038,056384,075868
0000000240,0000239000,093949,083627,077511,025877,045464,081948
0000000241,0000240000,092507,086502,076078,033512,034866,084912
0000000242,0000241000,090360,089244,075483,043202,025609,084480
0000000243,0000242000,087727,091574,075786,053990,018607,080693
0000000244,0000243000,084868,093261,076958,064810,014557,073923
0000000245,0000244000,082050,094148,078890,074622,013844,064823
0000000246,0000245000,079553,094144,081389,082466,016535,054289
0000000247,0000246000,077630,093254,084203,087559,022369,043362
0000000248,0000247000,076462,091559,087065,089409,030778,033104
0000000249,0000248000,076164,089222,089700,087842,040942,024506
0000000250,0000249000,076764,086482,091840,083009,051856,018425
0000000251,0000250000,078204,083607,093275,075381,062450,015458
0000000252,0000251000,080350,080865,093871,065700,071704,015885
0000000253,0000252000,082986,078532,093569,054920,078705,019665
0000000254,0000253000,085846,076843,092398,044105,082758,026427
0000000255,0000254000,088663,075957,090466,034297,083475,035518
0000000256,0000255000,091163,075958,087966,026455,080790,046045
0000000257,0000256000,093089,076847,085151,021359,074965,056965
0000000258,0000257000,094256,078543,082288,019506,066565,067219
0000000259,0000258000,094556,080880,079652,021068,056408,075814
0000000260,0000259000,093958,083619,077510,025892,045502,081896
0000000261,0000260000,092517,086496,076073,033510,034914,084866
0000000262,0000261000,090370,089240,075476,043184,025662,084445
0000000263,0000262000,087736,091574,075777,053956,018662,080673
0000000264,0000263000,084874,093265,076948,064764,014607,073919
0000000265,0000264000,082054,094154,078879,074568,013884,064837
0000000266,0000265000,079555,094153,081380,082410,016562,054318
0000000267,0000266000,077627,093264,084195,087506,022379,043405
0000000268,0000267000,076457,091570,087059,089364,030770,033157
0000000269,0000268000,076156,089233,089698,087809,040917,024564
0000000270,0000269000,076754,086491,091841,082993,051816,018481
0000000271,0000270000,078193,083614,093280,075384,062399,015507
0000000272,0000271000,080340,080869,093879,065721,071646,015923
0000000273,0000272000,082976,078532,093579,054956,078646,019687
0000000274,0000273000,085838,076840,092409,044154,082705,026431
0000000275,0000274000,088659,075950,090478,034355,083432,035504
0000000276,0000275000,091162,075948,087976,026515,080762,046013
0000000277,0000276000,093091,076836,085160,021416,074955,056919
0000000278,0000277000,094262,078531,082294,019554,066573,067162
0000000279,0000278000,094565,080868,079654,021102,056435,075753
0000000280,0000279000,093969,083609,077509,025909,045545,081836
0000000281,0000280000,092529,086489,076069,033508,034969,084814
0000000282,0000281000,090382,089236,075468,043162,025724,084405
0000000283,0000282000,087746,091574,075767,053916,018724,080649
0000000284,0000283000,084883,093269,076935,064711,014663,073915
0000000285,0000284000,082060,094161,078866,074507,013930,064853
0000000286,0000285000,079556,094163,081368,082345,016592,054353
0000000287,0000286000,077624,093277,084186,087445,022390,043455
0000000288,0000287000,076451,091583,087053,089313,030760,033217
0000000289,0000288000,076147,089244,089695,087773,040888,024629
0000000290,0000289000,076742,086502,091842,082975,051770,018545
0000000291,0000290000,078180,083622,093285,075387,062339,015563
0000000292,0000291000,080327,080872,093887,065744,071580,015966
0000000293,0000292000,082965,078532,093590,054998,078580,019712
0000000294,0000293000,085829,076836,092422,044211,082644,026435
0000000295,0000294000,088654,075942,090491,034420,083383,035487
0000000296,0000295000,091160,075938,087989,026583,080730,045977
0000000297,0000296000,093093,076824,085170,021481,074944,056866
0000000298,0000297000,094268,078517,082301,019608,066584,067098
0000000299,0000298000,094575,080855,079657,021140,056466,075683
0000000300,0000299000,093981,083598,077508,025928,045594,081768
0000000301,0000300000,092543,086481,076063,033505,035031,084754
