DIgSILENT PowerFactory,21000900,2000
6,06A,00D
1,TTPP_200000_100:Secondary Voltage A,,,V,0.10000000,-8218.583008,0.000000,63387,99998,1,1,P
2,TTPP_200000_100:Secondary Voltage B,,,V,0.10000000,-8275.596680,0.000000,64005,99998,1,1,P
3,TTPP_200000_100:Secondary Voltage C,,,V,0.10000000,-8149.765625,0.000000,60205,99998,1,1,P
4,TTCC_500_5:Secondary Current A,,,A,0.0010000000,-79.741646,0.000000,66256,99998,1,1,P
5,TTCC_500_5:Secondary Current B,,,A,0.0010000000,-84.162659,0.000000,67635,99998,1,1,P
6,TTCC_500_5:Secondary Current C,,,A,0.0010000000,-84.960373,0.000000,70201,99998,1,1,P
50
1
1000.000000,1101
30/06/2023,06:09:39.000000
30/06/2023,06:09:39.000000
ASCII
1.000000
0000000001,0000000000,087698,086397,072345,085657,088842,074365
0000000002,0000001000,085150,088830,072459,082642,091558,074664
0000000003,0000002000,082298,090686,073458,079343,093552,075969
0000000004,0000003000,079453,091747,075240,076087,094623,078155
0000000005,0000004000,076869,091929,077642,073184,094672,081009
0000000006,0000005000,074796,091223,080420,070922,093694,084249
0000000007,0000006000,073451,089691,083296,069530,091780,087555
0000000008,0000007000,072976,087462,086001,069133,089122,090610
0000000009,0000008000,073387,084782,088270,069775,085976,093113
0000000010,0000009000,074652,081918,089871,071392,082656,094816
0000000011,0000010000,076674,079116,090650,073830,079481,095554
0000000012,0000011000,079233,076670,090536,076844,076765,095255
0000000013,0000012000,082064,074837,089539,080142,074773,093950
0000000014,0000013000,084916,073768,087754,083402,073698,091764
0000000015,0000014000,087515,073572,085353,086303,073652,088910
0000000016,0000015000,089573,074291,082575,088563,074631,085671
0000000017,0000016000,090909,075832,079699,089959,076542,082364
0000000018,0000017000,091408,078038,076994,090355,079201,079309
0000000019,0000018000,090988,080726,074725,089710,082349,076806
0000000020,0000019000,089707,083608,073125,088094,085668,075103
0000000021,0000020000,087702,086391,072345,085659,088840,074366
0000000022,0000021000,085149,088831,072459,082640,091560,074664
0000000023,0000022000,082297,090687,073456,079343,093552,075970
0000000024,0000023000,079453,091747,075240,076086,094623,078155
0000000025,0000024000,076871,091927,077643,073183,094672,081009
0000000026,0000025000,074793,091226,080420,070921,093694,084249
0000000027,0000026000,073454,089690,083296,069528,091781,087555
0000000028,0000027000,072975,087462,086002,069133,089122,090610
0000000029,0000028000,073385,084784,088270,069774,085977,093113
0000000030,0000029000,074654,081916,089870,071392,082656,094816
0000000031,0000030000,076674,079115,090650,073828,079482,095554
0000000032,0000031000,079230,076673,090537,076844,076765,095255
0000000033,0000032000,082065,074836,089539,080142,074772,093950
0000000034,0000033000,084919,073765,087755,083401,073699,091765
0000000035,0000034000,087510,073576,085354,086302,073652,088911
0000000036,0000035000,089572,074292,082575,088563,074631,085671
0000000037,0000036000,090914,075826,079699,089958,076542,082365
0000000038,0000037000,091405,078041,076994,090353,079202,079310
0000000039,0000038000,090984,080730,074725,089710,082348,076807
0000000040,0000039000,089711,083604,073125,088094,085667,075104
0000000041,0000040000,087705,086389,072345,085658,088841,074366
0000000042,0000041000,085143,088837,072459,082640,091560,074664
0000000043,0000042000,082299,090684,073456,079344,093551,075970
0000000044,0000043000,079457,091742,075240,076086,094623,078155
0000000045,0000044000,076866,091932,077642,073182,094673,081009
0000000046,0000045000,074792,091228,080420,070923,093693,084249
0000000047,0000046000,073459,089685,083296,069528,091781,087555
0000000048,0000047000,072974,087464,086001,069132,089123,090610
0000000049,0000048000,073380,084789,088270,069774,085977,093113
0000000050,0000049000,074658,081912,089870,071393,082656,094816
0000000051,0000050000,076675,079114,090650,073827,079484,095554
0000000052,0000051000,079225,076678,090537,076843,076766,095255
0000000053,0000052000,082066,074834,089539,080142,074772,093950
0000000054,0000053000,084922,073762,087755,083399,073700,091765
0000000055,0000054000,087507,073578,085354,086301,073653,088911
0000000056,0000055000,089571,074292,082576,088562,074631,085672
0000000057,0000056000,090917,075822,079700,089957,076542,082365
0000000058,0000057000,091404,078041,076995,090352,079203,079310
0000000059,0000058000,090984,080731,074725,089710,082348,076807
0000000060,0000059000,089714,083601,073125,088094,085667,075104
0000000061,0000060000,087705,086389,072345,085657,088841,074367
0000000062,0000061000,085142,088839,072458,082640,091559,074665
0000000063,0000062000,082302,090682,073455,079344,093551,075970
0000000064,0000063000,079458,091742,075240,076086,094623,078155
0000000065,0000064000,076864,091935,077641,073183,094673,081009
0000000066,0000065000,074794,091227,080419,070924,093693,084248
0000000067,0000066000,073460,089685,083295,069529,091781,087555
0000000068,0000067000,072971,087467,086001,069132,089123,090609
0000000069,0000068000,073381,084789,088270,069775,085977,093112
0000000070,0000069000,074659,081910,089870,071392,082657,094815
0000000071,0000070000,076672,079117,090651,073827,079485,095553
0000000072,0000071000,079224,076679,090537,076843,076767,095255
0000000073,0000072000,082068,074831,089540,080141,074774,093950
0000000074,0000073000,084920,073763,087757,083398,073702,091765
0000000075,0000074000,087504,073580,085355,086300,073653,088911
0000000076,0000075000,089574,074289,082577,088561,074631,085672
0000000077,0000076000,090918,075821,079701,089955,076543,082366
0000000078,0000077000,091401,078044,076995,090351,079203,079312
0000000079,0000078000,090986,080728,074725,089709,082347,076809
0000000080,0000079000,089718,083597,073125,088093,085666,075106
0000000081,0000080000,087703,086391,072345,085657,088840,074368
0000000082,0000081000,085143,088839,072458,082641,091557,074666
0000000083,0000082000,082306,090679,073454,079345,093549,075971
0000000084,0000083000,079457,091744,075238,076087,094622,078156
0000000085,0000084000,076863,091937,077640,073185,094671,081009
0000000086,0000085000,074797,091226,080417,070925,093692,084248
0000000087,0000086000,073459,089686,083294,069529,091782,087553
0000000088,0000087000,072968,087472,086000,069133,089123,090608
0000000089,0000088000,073381,084789,088269,069776,085978,093111
0000000090,0000089000,074659,081910,089871,071392,082659,094814
0000000091,0000090000,076668,079121,090651,073826,079487,095552
0000000092,0000091000,079222,076679,090538,076843,076768,095254
0000000093,0000092000,082069,074829,089541,080140,074776,093949
0000000094,0000093000,084917,073764,087758,083396,073704,091765
0000000095,0000094000,087503,073580,085356,086298,073655,088912
0000000096,0000095000,089576,074285,082578,088559,074632,085673
0000000097,0000096000,090917,075820,079702,089953,076544,082368
0000000098,0000097000,091400,078043,076996,090349,079202,079314
0000000099,0000098000,090989,080725,074726,089708,082346,076811
0000000100,0000099000,089719,083596,073125,088092,085665,075108
0000000101,0000100000,087703,086392,072344,085657,088838,074370
0000000102,0000101000,085146,088837,072456,082642,091555,074668
0000000103,0000102000,082308,090678,073453,079346,093547,075972
0000000104,0000103000,079457,091747,075236,076089,094620,078156
0000000105,0000104000,076864,091938,077637,073187,094669,081008
0000000106,0000105000,074798,091226,080416,070927,093691,084246
0000000107,0000106000,073457,089690,083293,069532,091782,087551
0000000108,0000107000,072966,087474,085999,069136,089123,090605
0000000109,0000108000,073382,084789,088269,069778,085979,093108
0000000110,0000109000,074656,081913,089871,071393,082661,094811
0000000111,0000110000,076664,079124,090652,073827,079489,095549
0000000112,0000111000,079222,076678,090540,076842,076771,095252
0000000113,0000112000,082067,074829,089544,080137,074779,093948
0000000114,0000113000,084913,073766,087761,083393,073707,091765
0000000115,0000114000,087503,073577,085359,086295,073657,088913
0000000116,0000115000,089577,074282,082581,088555,074634,085675
0000000117,0000116000,090916,075819,079704,089950,076544,082370
0000000118,0000117000,091402,078041,076997,090347,079201,079317
0000000119,0000118000,090993,080720,074726,089706,082344,076814
0000000120,0000119000,089720,083595,073124,088090,085663,075111
0000000121,0000120000,087705,086391,072343,085657,088835,074373
0000000122,0000121000,085151,088834,072454,082643,091551,074670
0000000123,0000122000,082310,090679,073450,079347,093544,075973
0000000124,0000123000,079457,091749,075233,076092,094617,078156
0000000125,0000124000,076867,091938,077634,073191,094667,081007
0000000126,0000125000,074799,091227,080413,070931,093690,084244
0000000127,0000126000,073455,089694,083290,069535,091781,087549
0000000128,0000127000,072965,087477,085997,069139,089124,090602
0000000129,0000128000,073380,084791,088268,069779,085981,093104
0000000130,0000129000,074651,081917,089871,071393,082664,094807
0000000131,0000130000,076661,079126,090653,073827,079492,095546
0000000132,0000131000,079220,076678,090542,076840,076775,095249
0000000133,0000132000,082063,074830,089547,080135,074783,093947
0000000134,0000133000,084910,073765,087764,083390,073710,091764
0000000135,0000134000,087503,073574,085362,086291,073660,088914
0000000136,0000135000,089576,074279,082584,088551,074637,085677
0000000137,0000136000,090915,075817,079707,089946,076545,082374
0000000138,0000137000,091405,078036,076999,090343,079201,079321
0000000139,0000138000,090996,080716,074728,089703,082343,076819
0000000140,0000139000,089722,083593,073124,088089,085660,075116
0000000141,0000140000,087710,086388,072341,085657,088831,074377
0000000142,0000141000,085156,088832,072452,082645,091547,074673
0000000143,0000142000,082312,090680,073447,079350,093540,075975
0000000144,0000143000,079460,091750,075229,076096,094613,078157
0000000145,0000144000,076870,091939,077630,073195,094663,081006
0000000146,0000145000,074799,091232,080409,070935,093687,084242
0000000147,0000146000,073453,089699,083287,069540,091780,087545
0000000148,0000147000,072965,087480,085995,069143,089124,090597
0000000149,0000148000,073377,084795,088267,069782,085983,093099
0000000150,0000149000,074646,081922,089872,071395,082668,094802
0000000151,0000150000,076657,079128,090655,073827,079497,095541
0000000152,0000151000,079216,076678,090545,076838,076781,095246
0000000153,0000152000,082057,074831,089551,080131,074789,093945
0000000154,0000153000,084907,073764,087768,083386,073715,091764
0000000155,0000154000,087502,073570,085367,086286,073664,088915
0000000156,0000155000,089574,074276,082589,088545,074640,085680
0000000157,0000156000,090916,075813,079710,089941,076546,082378
0000000158,0000157000,091409,078029,077002,090339,079200,079326
0000000159,0000158000,090999,080712,074729,089700,082341,076825
0000000160,0000159000,089726,083590,073124,088087,085656,075121
0000000161,0000160000,087716,086384,072339,085657,088825,074382
0000000162,0000161000,085161,088830,072449,082646,091541,074677
0000000163,0000162000,082316,090681,073442,079354,093534,075977
0000000164,0000163000,079464,091751,075224,076101,094607,078157
0000000165,0000164000,076873,091942,077625,073201,094659,081005
0000000166,0000165000,074798,091237,080404,070942,093685,084239
0000000167,0000166000,073452,089704,083282,069546,091779,087540
0000000168,0000167000,072963,087484,085992,069148,089125,090591
0000000169,0000168000,073372,084801,088266,069786,085986,093092
0000000170,0000169000,074641,081927,089872,071397,082672,094796
0000000171,0000170000,076653,079130,090657,073826,079503,095536
0000000172,0000171000,079210,076681,090549,076836,076788,095241
0000000173,0000172000,082051,074832,089556,080127,074796,093942
0000000174,0000173000,084904,073761,087774,083380,073722,091763
0000000175,0000174000,087500,073566,085374,086279,073669,088917
0000000176,0000175000,089572,074272,082594,088538,074643,085684
0000000177,0000176000,090918,075807,079715,089934,076547,082384
0000000178,0000177000,091412,078022,077005,090333,079199,079333
0000000179,0000178000,091003,080707,074730,089695,082337,076832
0000000180,0000179000,089732,083585,073123,088085,085650,075129
0000000181,0000180000,087723,086379,072337,085658,088819,074388
0000000182,0000181000,085167,088828,072444,082649,091534,074682
0000000183,0000182000,082321,090682,073437,079359,093526,075980
0000000184,0000183000,079470,091752,075217,076107,094600,078158
0000000185,0000184000,076876,091946,077618,073209,094653,081003
0000000186,0000185000,074798,091244,080398,070950,093681,084234
0000000187,0000186000,073452,089710,083277,069554,091777,087534
0000000188,0000187000,072960,087491,085988,069154,089127,090584
0000000189,0000188000,073366,084809,088265,069790,085990,093084
0000000190,0000189000,074634,081932,089873,071399,082678,094787
0000000191,0000190000,076646,079134,090660,073826,079510,095528
0000000192,0000191000,079202,076684,090554,076833,076796,095236
0000000193,0000192000,082045,074832,089562,080122,074804,093939
0000000194,0000193000,084900,073758,087782,083372,073729,091763
0000000195,0000194000,087496,073562,085381,086270,073676,088919
0000000196,0000195000,089571,074267,082601,088529,074647,085689
0000000197,0000196000,090920,075798,079721,089925,076549,082391
0000000198,0000197000,091416,078015,077009,090325,079198,079342
0000000199,0000198000,091008,080700,074732,089690,082333,076841
0000000200,0000199000,089740,083577,073122,088083,085644,075138
0000000201,0000200000,087732,086374,072333,085658,088810,074396
0000000202,0000201000,085174,088827,072439,082652,091524,074688
0000000203,0000202000,082329,090681,073429,079365,093516,075984
0000000204,0000203000,079476,091754,075209,076115,094591,078158
0000000205,0000204000,076878,091951,077610,073218,094646,081001
0000000206,0000205000,074799,091251,080390,070960,093676,084229
0000000207,0000206000,073451,089718,083271,069563,091775,087526
0000000208,0000207000,072955,087500,085984,069162,089128,090574
0000000209,0000208000,073359,084818,088263,069796,085994,093074
0000000210,0000209000,074627,081939,089874,071402,082685,094778
0000000211,0000210000,076637,079139,090664,073825,079520,095520
0000000212,0000211000,079192,076687,090560,076829,076806,095229
0000000213,0000212000,082037,074832,089570,080116,074814,093935
0000000214,0000213000,084894,073755,087791,083363,073739,091762
0000000215,0000214000,087491,073557,085390,086260,073683,088921
0000000216,0000215000,089570,074259,082610,088518,074652,085695
0000000217,0000216000,090923,075789,079728,089915,076551,082399
0000000218,0000217000,091420,078006,077014,090316,079197,079352
0000000219,0000218000,091015,080691,074734,089684,082328,076852
0000000220,0000219000,089750,083569,073121,088080,085636,075149
0000000221,0000220000,087741,086368,072330,085658,088800,074406
0000000222,0000221000,085183,088824,072432,082656,091513,074695
0000000223,0000222000,082338,090681,073421,079372,093505,075988
0000000224,0000223000,079483,091757,075199,076125,094581,078159
0000000225,0000224000,076882,091958,077600,073229,094638,080998
0000000226,0000225000,074801,091259,080380,070972,093670,084223
0000000227,0000226000,073449,089727,083263,069574,091773,087517
0000000228,0000227000,072949,087511,085979,069172,089130,090563
0000000229,0000228000,073351,084828,088260,069803,086000,093062
0000000230,0000229000,074618,081947,089875,071406,082693,094766
0000000231,0000230000,076626,079146,090668,073825,079531,095509
0000000232,0000231000,079182,076691,090567,076825,076819,095221
0000000233,0000232000,082029,074831,089579,080108,074827,093930
0000000234,0000233000,084886,073751,087802,083353,073751,091761
0000000235,0000234000,087486,073552,085402,086247,073693,088925
0000000236,0000235000,089570,074250,082620,088505,074658,085701
0000000237,0000236000,090925,075778,079737,089903,076553,082409
0000000238,0000237000,091425,077995,077020,090306,079195,079364
0000000239,0000238000,091024,080680,074736,089677,082322,076866
0000000240,0000239000,089761,083559,073120,088076,085627,075162
0000000241,0000240000,087752,086362,072325,085659,088789,074417
0000000242,0000241000,085195,088820,072424,082661,091500,074704
0000000243,0000242000,082349,090680,073410,079380,093491,075993
0000000244,0000243000,079491,091761,075188,076136,094568,078160
0000000245,0000244000,076887,091965,077588,073243,094628,080994
0000000246,0000245000,074803,091268,080369,070986,093664,084215
0000000247,0000246000,073446,089739,083254,069587,091771,087506
0000000248,0000247000,072943,087524,085972,069183,089132,090550
0000000249,0000248000,073342,084839,088258,069811,086006,093048
0000000250,0000249000,074606,081957,089876,071409,082703,094752
0000000251,0000250000,076613,079154,090673,073824,079544,095497
0000000252,0000251000,079169,076695,090575,076820,076833,095212
0000000253,0000252000,082018,074831,089591,080099,074841,093925
0000000254,0000253000,084877,073748,087815,083340,073764,091760
0000000255,0000254000,087481,073544,085415,086233,073703,088928
0000000256,0000255000,089569,074238,082632,088490,074665,085710
0000000257,0000256000,090928,075765,079747,089888,076556,082421
0000000258,0000257000,091431,077981,077027,090294,079192,079378
0000000259,0000258000,091034,080666,074739,089668,082316,076881
0000000260,0000259000,089773,083548,073119,088072,085616,075177
0000000261,0000260000,087766,086354,072319,085659,088775,074431
0000000262,0000261000,085209,088815,072415,082666,091484,074714
0000000263,0000262000,082361,090680,073398,079390,093476,075999
0000000264,0000263000,079500,091766,075174,076150,094554,078161
0000000265,0000264000,076893,091973,077573,073258,094616,080990
0000000266,0000265000,074805,091279,080356,071002,093656,084207
0000000267,0000266000,073443,089753,083243,069603,091768,087494
0000000268,0000267000,072936,087539,085965,069196,089134,090535
0000000269,0000268000,073332,084853,088254,069820,086013,093031
0000000270,0000269000,074593,081969,089878,071414,082715,094736
0000000271,0000270000,076598,079163,090679,073824,079558,095483
0000000272,0000271000,079155,076700,090585,076814,076850,095201
0000000273,0000272000,082005,074831,089604,080088,074858,093918
0000000274,0000273000,084866,073744,087829,083326,073779,091759
0000000275,0000274000,087474,073535,085430,086217,073715,088933
0000000276,0000275000,089567,074226,082646,088473,074673,085719
0000000277,0000276000,090930,075751,079758,089872,076558,082434
0000000278,0000277000,091439,077966,077035,090281,079190,079395
0000000279,0000278000,091046,080651,074743,089658,082308,076899
0000000280,0000279000,089787,083535,073117,088067,085604,075194
0000000281,0000280000,087782,086344,072313,085660,088759,074446
0000000282,0000281000,085225,088810,072405,082673,091466,074726
0000000283,0000282000,082375,090680,073385,079401,093458,076006
0000000284,0000283000,079511,091771,075158,076165,094538,078162
0000000285,0000284000,076900,091982,077557,073276,094603,080986
0000000286,0000285000,074807,091292,080341,071020,093648,084197
0000000287,0000286000,073440,089769,083231,069620,091765,087479
0000000288,0000287000,072928,087556,085956,069210,089137,090517
0000000289,0000288000,073320,084869,088251,069830,086022,093012
0000000290,0000289000,074577,081983,089879,071419,082729,094717
0000000291,0000290000,076581,079174,090686,073823,079575,095467
0000000292,0000291000,079138,076705,090596,076807,076869,095189
0000000293,0000292000,081989,074832,089618,080076,074878,093911
0000000294,0000293000,084854,073739,087846,083310,073797,091758
0000000295,0000294000,087467,073525,085447,086198,073729,088938
0000000296,0000295000,089565,074212,082663,088453,074682,085730
0000000297,0000296000,090933,075734,079772,089854,076562,082450
0000000298,0000297000,091448,077948,077044,090265,079187,079413
0000000299,0000298000,091059,080634,074747,089647,082299,076919
0000000300,0000299000,089803,083521,073116,088062,085589,075213
0000000301,0000300000,087800,086333,072306,085661,088741,074463
