DIgSILENT PowerFactory,21000900,2000
6,06A,00D
1,TTPP_200000_100:Secondary Voltage A,,,V,0.010000000,-71.425285,0.000000,-85629,99998,1,1,P
2,TTPP_200000_100:Secondary Voltage B,,,V,0.010000000,41.505104,0.000000,-97951,99998,1,1,P
3,TTPP_200000_100:Secondary Voltage C,,,V,0.10000000,-8922.301758,0.000000,78209,99998,1,1,P
4,TTCC_300_1:Secondary Current A,,,A,0.00010000000,-3.702066,0.000000,-55227,99998,1,1,P
5,TTCC_300_1:Secondary Current B,,,A,0.00010000000,-4.960403,0.000000,-842,99998,1,1,P
6,TTCC_300_1:Secondary Current C,,,A,0.00010000000,-4.880744,0.000000,-2423,99998,1,1,P
50
1
1000.000000,1101
30/06/2023,06:04:15.000000
30/06/2023,06:04:15.000000
ASCII
1.000000
0000000001,0000000000,078208,010602,080641,016084,035622,083725
0000000002,0000001000,056856,037788,080057,025839,026339,083255
0000000003,0000002000,030489,061057,080369,036675,019344,079414
0000000004,0000003000,001904,077859,081544,047550,015301,072581
0000000005,0000004000,-26065,086515,083478,057398,014619,063415
0000000006,0000005000,-50953,086413,085975,065248,017369,052815
0000000007,0000006000,-70104,077508,088782,070339,023259,041833
0000000008,0000007000,-81551,060431,091633,072160,031738,031535
0000000009,0000008000,-84449,037100,094256,070535,041980,022917
0000000010,0000009000,-78482,009875,096383,065647,052947,016838
0000000011,0000010000,-63971,-18862,097805,057955,063583,013894
0000000012,0000011000,-42420,-46245,098390,048195,072872,014365
0000000013,0000012000,-16218,-69338,098077,037347,079880,018205
0000000014,0000013000,012283,-86064,096901,026480,083914,025039
0000000015,0000014000,040432,-94896,094968,016636,084591,034206
0000000016,0000015000,065223,-94720,092472,008778,081850,044804
0000000017,0000016000,084308,-85724,089664,003695,075953,055785
0000000018,0000017000,095939,-68833,086812,001876,067472,066084
0000000019,0000018000,098781,-45446,084190,003484,057246,074702
0000000020,0000019000,092620,-18032,082063,008383,046268,080781
0000000021,0000020000,078254,010561,080641,016087,035620,083725
0000000022,0000021000,056838,037813,080057,025834,026345,083254
0000000023,0000022000,030446,061094,080368,036679,019339,079414
0000000024,0000023000,001944,077832,081545,047554,015297,072580
0000000025,0000024000,-26064,086507,083478,057396,014622,063414
0000000026,0000025000,-50972,086447,085975,065252,017365,052815
0000000027,0000026000,-70086,077489,088782,070341,023258,041833
0000000028,0000027000,-81550,060435,091634,072159,031739,031535
0000000029,0000028000,-84480,037128,094257,070540,041975,022918
0000000030,0000029000,-78466,009859,096383,065650,052945,016837
0000000031,0000030000,-63933,-18895,097805,057955,063583,013894
0000000032,0000031000,-42455,-46216,098390,048196,072871,014365
0000000033,0000032000,-16238,-69315,098078,037349,079879,018204
0000000034,0000033000,012314,-86102,096901,026484,083910,025038
0000000035,0000034000,040426,-94890,094969,016637,084591,034204
0000000036,0000035000,065206,-94705,092472,008780,081850,044803
0000000037,0000036000,084328,-85745,089664,003699,075949,055784
0000000038,0000037000,095936,-68833,086812,001875,067474,066082
0000000039,0000038000,098754,-45424,084190,003487,057244,074700
0000000040,0000039000,092645,-18053,082063,008387,046265,080780
0000000041,0000040000,078279,010533,080641,016085,035624,083724
0000000042,0000041000,056807,037847,080057,025834,026346,083253
0000000043,0000042000,030441,061099,080368,036682,019337,079413
0000000044,0000043000,001974,077804,081545,047554,015298,072580
0000000045,0000044000,-26075,086520,083478,057395,014622,063414
0000000046,0000045000,-50984,086462,085975,065252,017365,052815
0000000047,0000046000,-70064,077472,088781,070341,023258,041834
0000000048,0000047000,-81561,060443,091634,072159,031738,031536
0000000049,0000048000,-84503,037156,094257,070542,041973,022918
0000000050,0000049000,-78443,009836,096383,065652,052942,016839
0000000051,0000050000,-63922,-18905,097805,057955,063582,013895
0000000052,0000051000,-42490,-46184,098390,048197,072869,014365
0000000053,0000052000,-16237,-69318,098078,037354,079874,018204
0000000054,0000053000,012335,-86126,096901,026487,083908,025037
0000000055,0000054000,040408,-94877,094969,016639,084590,034203
0000000056,0000055000,065201,-94699,092472,008785,081847,044801
0000000057,0000056000,084349,-85770,089664,003701,075949,055782
0000000058,0000057000,095926,-68825,086812,001877,067475,066080
0000000059,0000058000,098740,-45413,084190,003491,057243,074697
0000000060,0000059000,092676,-18082,082063,008389,046266,080777
0000000061,0000060000,078287,010526,080641,016084,035627,083721
0000000062,0000061000,056784,037871,080056,025834,026348,083251
0000000063,0000062000,030456,061090,080367,036682,019338,079412
0000000064,0000063000,001993,077787,081544,047552,015301,072580
0000000065,0000064000,-26090,086541,083477,057393,014625,063414
0000000066,0000065000,-50983,086467,085974,065251,017365,052816
0000000067,0000066000,-70046,077460,088781,070338,023258,041837
0000000068,0000067000,-81580,060463,091634,072156,031738,031539
0000000069,0000068000,-84518,037172,094257,070542,041969,022921
0000000070,0000069000,-78424,009818,096383,065652,052938,016842
0000000071,0000070000,-63933,-18899,097806,057954,063580,013897
0000000072,0000071000,-42518,-46160,098390,048200,072864,014367
0000000073,0000072000,-16229,-69332,098079,037358,079868,018205
0000000074,0000073000,012340,-86138,096902,026490,083905,025037
0000000075,0000074000,040386,-94863,094970,016644,084587,034202
0000000076,0000075000,065205,-94709,092472,008790,081844,044798
0000000077,0000076000,084365,-85793,089665,003705,075949,055778
0000000078,0000077000,095912,-68817,086813,001881,067476,066075
0000000079,0000078000,098743,-45416,084190,003496,057244,074692
0000000080,0000079000,092706,-18111,082063,008391,046269,080772
0000000081,0000080000,078287,010529,080640,016083,035632,083717
0000000082,0000081000,056777,037885,080056,025834,026352,083247
0000000083,0000082000,030481,061073,080367,036680,019342,079410
0000000084,0000083000,002003,077785,081543,047547,015306,072579
0000000085,0000084000,-26103,086564,083476,057388,014628,063415
0000000086,0000085000,-50972,086467,085973,065247,017366,052819
0000000087,0000086000,-70039,077459,088780,070332,023259,041841
0000000088,0000087000,-81603,060491,091633,072152,031737,031544
0000000089,0000088000,-84524,037181,094256,070540,041965,022927
0000000090,0000089000,-78417,009809,096383,065650,052934,016848
0000000091,0000090000,-63957,-18881,097806,057954,063575,013903
0000000092,0000091000,-42540,-46145,098391,048204,072857,014371
0000000093,0000092000,-16222,-69349,098080,037363,079861,018208
0000000094,0000093000,012330,-86141,096903,026495,083900,025038
0000000095,0000094000,040367,-94855,094971,016652,084581,034200
0000000096,0000095000,065216,-94731,092473,008798,081840,044794
0000000097,0000096000,084373,-85811,089666,003712,075948,055772
0000000098,0000097000,095902,-68814,086814,001887,067476,066068
0000000099,0000098000,098759,-45434,084190,003502,057246,074684
0000000100,0000099000,092732,-18136,082063,008393,046275,080764
0000000101,0000100000,078288,010534,080640,016083,035640,083710
0000000102,0000101000,056787,037885,080055,025832,026359,083242
0000000103,0000102000,030509,061057,080365,036676,019350,079406
0000000104,0000103000,002008,077795,081542,047540,015314,072578
0000000105,0000104000,-26107,086584,083475,057381,014634,063417
0000000106,0000105000,-50957,086467,085971,065238,017370,052824
0000000107,0000106000,-70042,077472,088779,070323,023261,041847
0000000108,0000107000,-81625,060522,091632,072145,031735,031552
0000000109,0000108000,-84527,037189,094256,070536,041960,022936
0000000110,0000109000,-78423,009813,096383,065647,052928,016857
0000000111,0000110000,-63988,-18856,097807,057954,063567,013911
0000000112,0000111000,-42557,-46138,098392,048208,072846,014377
0000000113,0000112000,-16225,-69362,098081,037369,079851,018211
0000000114,0000113000,012308,-86139,096905,026503,083891,025038
0000000115,0000114000,040353,-94859,094973,016663,084573,034197
0000000116,0000115000,065227,-94759,092475,008809,081834,044789
0000000117,0000116000,084374,-85828,089668,003722,075946,055764
0000000118,0000117000,095900,-68822,086815,001897,067477,066058
0000000119,0000118000,098785,-45463,084190,003509,057250,074673
0000000120,0000119000,092755,-18158,082063,008396,046283,080753
0000000121,0000120000,078295,010535,080639,016083,035650,083700
0000000122,0000121000,056812,037876,080053,025830,026369,083234
0000000123,0000122000,030538,061047,080364,036669,019362,079402
0000000124,0000123000,002012,077812,081540,047529,015326,072577
0000000125,0000124000,-26100,086601,083472,057370,014642,063420
0000000126,0000125000,-50943,086474,085969,065226,017376,052830
0000000127,0000126000,-70053,077499,088778,070311,023264,041857
0000000128,0000127000,-81645,060554,091631,072136,031733,031564
0000000129,0000128000,-84533,037201,094255,070529,041954,022949
0000000130,0000129000,-78445,009831,096383,065643,052920,016870
0000000131,0000130000,-64025,-18830,097808,057955,063555,013922
0000000132,0000131000,-42575,-46136,098394,048214,072832,014386
0000000133,0000132000,-16240,-69370,098083,037378,079837,018217
0000000134,0000133000,012280,-86137,096908,026515,083878,025039
0000000135,0000134000,040343,-94874,094975,016677,084561,034194
0000000136,0000135000,065234,-94791,092478,008824,081827,044781
0000000137,0000136000,084372,-85847,089670,003736,075944,055753
0000000138,0000137000,095910,-68844,086816,001910,067478,066044
0000000139,0000138000,098817,-45500,084191,003518,057256,074658
0000000140,0000139000,092779,-18180,082062,008400,046295,080738
0000000141,0000140000,078315,010527,080638,016083,035663,083686
0000000142,0000141000,056849,037859,080051,025825,026385,083223
0000000143,0000142000,030567,061043,080361,036658,019379,079395
0000000144,0000143000,002022,077831,081537,047516,015341,072575
0000000145,0000144000,-26084,086616,083469,057355,014654,063423
0000000146,0000145000,-50932,086491,085967,065209,017384,052839
0000000147,0000146000,-70068,077538,088775,070295,023268,041870
0000000148,0000147000,-81663,060589,091629,072122,031730,031580
0000000149,0000148000,-84548,037222,094255,070519,041946,022967
0000000150,0000149000,-78480,009861,096384,065637,052908,016887
0000000151,0000150000,-64065,-18803,097809,057956,063538,013938
0000000152,0000151000,-42599,-46134,098396,048220,072813,014399
0000000153,0000152000,-16269,-69372,098087,037389,079819,018224
0000000154,0000153000,012249,-86139,096911,026531,083860,025041
0000000155,0000154000,040334,-94900,094979,016696,084547,034189
0000000156,0000155000,065236,-94825,092481,008844,081818,044771
0000000157,0000156000,084371,-85873,089672,003754,075940,055737
0000000158,0000157000,095929,-68881,086818,001927,067480,066025
0000000159,0000158000,098853,-45544,084192,003530,057265,074637
0000000160,0000159000,092808,-18204,082062,008406,046309,080717
0000000161,0000160000,078349,010510,080636,016083,035681,083668
0000000162,0000161000,056895,037839,080049,025818,026405,083209
0000000163,0000162000,030599,061044,080358,036645,019401,079387
0000000164,0000163000,002042,077851,081533,047499,015360,072573
0000000165,0000164000,-26061,086634,083465,057334,014669,063428
0000000166,0000165000,-50926,086521,085963,065186,017395,052850
0000000167,0000166000,-70086,077585,088772,070273,023272,041887
0000000168,0000167000,-81681,060629,091627,072105,031727,031601
0000000169,0000168000,-84573,037255,094254,070505,041937,022990
0000000170,0000169000,-78526,009902,096385,065631,052892,016910
0000000171,0000170000,-64110,-18776,097811,057957,063517,013958
0000000172,0000171000,-42635,-46129,098399,048228,072789,014414
0000000173,0000172000,-16311,-69370,098091,037403,079795,018233
0000000174,0000173000,012214,-86148,096916,026552,083838,025043
0000000175,0000174000,040323,-94933,094983,016720,084528,034184
0000000176,0000175000,065232,-94864,092485,008868,081806,044758
0000000177,0000176000,084375,-85911,089676,003779,075935,055718
0000000178,0000177000,095958,-68932,086820,001947,067483,066001
0000000179,0000178000,098893,-45594,084193,003544,057276,074611
0000000180,0000179000,092845,-18236,082061,008413,046327,080692
0000000181,0000180000,078399,010481,080634,016083,035704,083645
0000000182,0000181000,056950,037818,080045,025809,026432,083192
0000000183,0000182000,030637,061049,080353,036628,019428,079376
0000000184,0000183000,002073,077871,081528,047477,015384,072571
0000000185,0000184000,-26034,086658,083460,057308,014689,063435
0000000186,0000185000,-50923,086564,085958,065158,017409,052865
0000000187,0000186000,-70103,077641,088768,070247,023277,041908
0000000188,0000187000,-81703,060677,091625,072082,031723,031628
0000000189,0000188000,-84612,037303,094253,070489,041925,023019
0000000190,0000189000,-78583,009952,096385,065622,052872,016938
0000000191,0000190000,-64162,-18745,097813,057958,063491,013983
0000000192,0000191000,-42684,-46117,098403,048238,072760,014434
0000000193,0000192000,-16364,-69366,098095,037421,079766,018245
0000000194,0000193000,012176,-86165,096921,026577,083810,025045
0000000195,0000194000,040306,-94973,094989,016750,084506,034176
0000000196,0000195000,065223,-94909,092491,008899,081792,044742
0000000197,0000196000,084384,-85963,089680,003809,075929,055694
0000000198,0000197000,095993,-68997,086823,001973,067487,065972
0000000199,0000198000,098937,-45651,084194,003562,057290,074579
0000000200,0000199000,092895,-18279,082061,008423,046349,080660
0000000201,0000200000,078463,010443,080632,016083,035732,083617
0000000202,0000201000,057013,037796,080041,025798,026464,083170
0000000203,0000202000,030685,061055,080348,036608,019461,079363
0000000204,0000203000,002115,077891,081522,047449,015414,072568
0000000205,0000204000,-26003,086690,083454,057275,014714,063443
0000000206,0000205000,-50921,086620,085953,065123,017426,052883
0000000207,0000206000,-70119,077706,088764,070215,023283,041934
0000000208,0000207000,-81731,060738,091621,072055,031718,031660
0000000209,0000208000,-84662,037367,094252,070469,041910,023054
0000000210,0000209000,-78648,010010,096386,065612,052847,016973
0000000211,0000210000,-64225,-18710,097816,057959,063459,014014
0000000212,0000211000,-42749,-46098,098407,048250,072725,014457
0000000213,0000212000,-16428,-69362,098101,037444,079729,018259
0000000214,0000213000,012132,-86188,096928,026608,083776,025048
0000000215,0000214000,040281,-95019,094996,016786,084479,034168
0000000216,0000215000,065212,-94962,092497,008937,081774,044722
0000000217,0000216000,084399,-86030,089685,003845,075922,055665
0000000218,0000217000,096034,-69074,086826,002003,067492,065937
0000000219,0000218000,098989,-45718,084195,003584,057307,074541
0000000220,0000219000,092960,-18334,082060,008434,046376,080622
0000000221,0000220000,078541,010395,080628,016082,035767,083584
0000000222,0000221000,057085,037772,080036,025784,026504,083144
0000000223,0000222000,030746,061061,080341,036584,019500,079348
0000000224,0000223000,002169,077913,081514,047416,015450,072565
0000000225,0000224000,-25970,086733,083446,057236,014744,063452
0000000226,0000225000,-50918,086687,085946,065082,017445,052904
0000000227,0000226000,-70136,077781,088758,070176,023290,041966
0000000228,0000227000,-81766,060813,091617,072021,031712,031699
0000000229,0000228000,-84725,037445,094250,070445,041892,023096
0000000230,0000229000,-78723,010076,096387,065601,052817,017014
0000000231,0000230000,-64302,-18667,097819,057961,063421,014050
0000000232,0000231000,-42830,-46073,098413,048264,072682,014485
0000000233,0000232000,-16502,-69359,098109,037470,079686,018275
0000000234,0000233000,012080,-86218,096936,026644,083737,025051
0000000235,0000234000,040248,-95070,095004,016828,084447,034157
0000000236,0000235000,065200,-95027,092505,008981,081753,044698
0000000237,0000236000,084419,-86112,089691,003887,075914,055631
0000000238,0000237000,096080,-69163,086831,002039,067498,065894
0000000239,0000238000,099050,-45797,084197,003609,057327,074495
0000000240,0000239000,093040,-18404,082059,008447,046408,080578
0000000241,0000240000,078633,010340,080625,016080,035808,083544
0000000242,0000241000,057170,037746,080030,025768,026550,083114
0000000243,0000242000,030821,061064,080334,036555,019547,079330
0000000244,0000243000,002233,077938,081505,047377,015493,072562
0000000245,0000244000,-25933,086786,083437,057189,014779,063464
0000000246,0000245000,-50913,086765,085937,065034,017468,052930
0000000247,0000246000,-70153,077867,088751,070130,023298,042003
0000000248,0000247000,-81811,060904,091613,071983,031706,031744
0000000249,0000248000,-84798,037538,094248,070417,041870,023146
0000000250,0000249000,-78810,010153,096388,065587,052783,017062
0000000251,0000250000,-64394,-18613,097823,057962,063377,014093
0000000252,0000251000,-42927,-46040,098419,048281,072633,014518
0000000253,0000252000,-16588,-69358,098117,037502,079635,018295
0000000254,0000253000,012017,-86252,096946,026687,083690,025055
0000000255,0000254000,040206,-95127,095014,016878,084410,034145
0000000256,0000255000,065187,-95104,092514,009034,081728,044671
0000000257,0000256000,084444,-86211,089699,003937,075905,055591
0000000258,0000257000,096131,-69266,086836,002080,067506,065845
0000000259,0000258000,099122,-45891,084199,003639,057351,074442
0000000260,0000259000,093135,-18488,082058,008462,046445,080525
0000000261,0000260000,078739,010276,080621,016078,035856,083498
0000000262,0000261000,057270,037716,080023,025750,026604,083079
0000000263,0000262000,030911,061065,080324,036522,019601,079310
0000000264,0000263000,002307,077968,081495,047331,015543,072558
0000000265,0000264000,-25890,086850,083427,057135,014819,063478
0000000266,0000265000,-50903,086854,085927,064978,017494,052959
0000000267,0000266000,-70173,077968,088743,070077,023308,042047
0000000268,0000267000,-81866,061013,091607,071938,031698,031797
0000000269,0000268000,-84882,037645,094246,070385,041845,023203
0000000270,0000269000,-78910,010241,096389,065571,052742,017118
0000000271,0000270000,-64504,-18548,097828,057964,063325,014142
0000000272,0000271000,-43040,-46002,098427,048302,072575,014555
0000000273,0000272000,-16685,-69358,098127,037539,079577,018317
0000000274,0000273000,011942,-86289,096957,026736,083637,025059
0000000275,0000274000,040156,-95192,095026,016935,084367,034130
0000000276,0000275000,065174,-95196,092524,009094,081700,044639
0000000277,0000276000,084470,-86325,089708,003994,075894,055544
0000000278,0000277000,096188,-69384,086842,002128,067515,065788
0000000279,0000278000,099207,-46001,084202,003674,057378,074380
0000000280,0000279000,093247,-18586,082056,008479,046488,080465
0000000281,0000280000,078859,010203,080616,016076,035911,083446
0000000282,0000281000,057386,037680,080015,025728,026666,083039
0000000283,0000282000,031018,061064,080314,036483,019664,079286
0000000284,0000283000,002391,078003,081483,047278,015600,072554
0000000285,0000284000,-25841,086923,083414,057074,014865,063493
0000000286,0000285000,-50889,086954,085916,064914,017524,052994
0000000287,0000286000,-70196,078085,088733,070017,023319,042097
0000000288,0000287000,-81929,061141,091601,071886,031688,031858
0000000289,0000288000,-84977,037768,094243,070349,041816,023268
0000000290,0000289000,-79024,010343,096390,065554,052696,017182
0000000291,0000290000,-64633,-18471,097833,057967,063267,014198
0000000292,0000291000,-43169,-45958,098435,048325,072509,014598
0000000293,0000292000,-16797,-69358,098138,037581,079510,018341
0000000294,0000293000,011854,-86330,096970,026793,083577,025063
0000000295,0000294000,040098,-95265,095039,017001,084319,034113
0000000296,0000295000,065159,-95303,092536,009163,081668,044602
0000000297,0000296000,084499,-86454,089718,004058,075883,055491
0000000298,0000297000,096252,-69517,086849,002183,067525,065724
0000000299,0000298000,099306,-46130,084205,003712,057409,074310
0000000300,0000299000,093373,-18700,082055,008498,046537,080397
0000000301,0000300000,078996,010120,080611,016072,035974,083386
