DIgSILENT PowerFactory,21000900,2000
6,06A,00D
1,TTPP_200000_100:Secondary Voltage A,,,V,0.10000000,-8188.440918,0.000000,64012,99998,1,1,P
2,TTPP_200000_100:Secondary Voltage B,,,V,0.10000000,-8213.267578,0.000000,62536,99998,1,1,P
3,TTPP_200000_100:Secondary Voltage C,,,V,0.10000000,-8202.033203,0.000000,61855,99998,1,1,P
4,TTCC_500_5:Secondary Current A,,,A,0.0010000000,-79.643105,0.000000,66345,99998,1,1,P
5,TTCC_500_5:Secondary Current B,,,A,0.0010000000,-84.129059,0.000000,67189,99998,1,1,P
6,TTCC_500_5:Secondary Current C,,,A,0.0010000000,-84.971794,0.000000,70265,99998,1,1,P
50
1
1000.000000,1101
30/06/2023,06:10:06.000000
30/06/2023,06:10:06.000000
ASCII
1.000000
0000000001,0000000000,087396,085773,072868,085559,088809,074377
0000000002,0000001000,084848,088207,072982,082544,091525,074676
0000000003,0000002000,081996,090062,073980,079244,093519,075981
0000000004,0000003000,079151,091123,075763,075989,094589,078167
0000000005,0000004000,076567,091306,078165,073085,094639,081021
0000000006,0000005000,074495,090599,080943,070824,093660,084260
0000000007,0000006000,073149,089069,083818,069431,091747,087567
0000000008,0000007000,072676,086838,086524,069034,089087,090622
0000000009,0000008000,073085,084159,088793,069676,085943,093125
0000000010,0000009000,074351,081294,090394,071294,082622,094828
0000000011,0000010000,076372,078493,091172,073732,079447,095565
0000000012,0000011000,078932,076046,091059,076746,076732,095267
0000000013,0000012000,081762,074214,090061,080044,074739,093961
0000000014,0000013000,084614,073145,088277,083303,073665,091776
0000000015,0000014000,087214,072948,085876,086205,073618,088922
0000000016,0000015000,089271,073668,083098,088464,074598,085682
0000000017,0000016000,090608,075208,080222,089861,076508,082375
0000000018,0000017000,091106,077416,077517,090256,079168,079321
0000000019,0000018000,090687,080102,075248,089611,082316,076818
0000000020,0000019000,089405,082985,073648,087995,085634,075115
0000000021,0000020000,087401,085768,072868,085560,088807,074377
0000000022,0000021000,084848,088208,072982,082542,091526,074676
0000000023,0000022000,081995,090064,073979,079244,093519,075981
0000000024,0000023000,079151,091123,075763,075988,094589,078167
0000000025,0000024000,076569,091304,078165,073084,094639,081021
0000000026,0000025000,074492,090602,080942,070823,093661,084260
0000000027,0000026000,073152,089067,083818,069430,091747,087567
0000000028,0000027000,072674,086839,086524,069034,089088,090622
0000000029,0000028000,073083,084161,088793,069676,085943,093125
0000000030,0000029000,074353,081292,090393,071294,082623,094828
0000000031,0000030000,076373,078492,091173,073730,079448,095566
0000000032,0000031000,078928,076050,091059,076745,076732,095267
0000000033,0000032000,081764,074212,090061,080044,074738,093962
0000000034,0000033000,084618,073142,088277,083302,073666,091776
0000000035,0000034000,087209,072952,085876,086204,073618,088922
0000000036,0000035000,089270,073669,083098,088464,074598,085682
0000000037,0000036000,090613,075203,080222,089860,076508,082376
0000000038,0000037000,091103,077417,077517,090254,079169,079321
0000000039,0000038000,090683,080107,075248,089611,082315,076818
0000000040,0000039000,089410,082980,073647,087995,085634,075115
0000000041,0000040000,087404,085765,072868,085559,088808,074377
0000000042,0000041000,084841,088214,072982,082542,091526,074676
0000000043,0000042000,081997,090061,073979,079245,093518,075981
0000000044,0000043000,079156,091119,075763,075987,094590,078167
0000000045,0000044000,076565,091309,078165,073084,094640,081021
0000000046,0000045000,074490,090605,080942,070824,093660,084260
0000000047,0000046000,073157,089062,083818,069430,091747,087567
0000000048,0000047000,072673,086841,086524,069033,089089,090622
0000000049,0000048000,073079,084165,088793,069676,085943,093125
0000000050,0000049000,074356,081288,090393,071294,082622,094828
0000000051,0000050000,076374,078491,091173,073729,079450,095565
0000000052,0000051000,078924,076055,091059,076745,076733,095267
0000000053,0000052000,081765,074211,090062,080044,074739,093962
0000000054,0000053000,084620,073139,088278,083301,073667,091776
0000000055,0000054000,087206,072955,085877,086202,073619,088922
0000000056,0000055000,089270,073669,083098,088464,074597,085683
0000000057,0000056000,090616,075199,080223,089859,076508,082377
0000000058,0000057000,091102,077418,077517,090253,079169,079322
0000000059,0000058000,090682,080108,075248,089611,082314,076819
0000000060,0000059000,089413,082977,073647,087995,085633,075116
0000000061,0000060000,087403,085766,072868,085558,088807,074378
0000000062,0000061000,084841,088216,072981,082542,091526,074676
0000000063,0000062000,082000,090059,073978,079245,093517,075982
0000000064,0000063000,079156,091119,075762,075987,094590,078167
0000000065,0000064000,076563,091311,078164,073084,094639,081021
0000000066,0000065000,074492,090604,080941,070825,093659,084260
0000000067,0000066000,073158,089061,083818,069430,091748,087566
0000000068,0000067000,072669,086844,086524,069034,089089,090621
0000000069,0000068000,073079,084166,088792,069677,085944,093124
0000000070,0000069000,074358,081287,090393,071294,082624,094827
0000000071,0000070000,076370,078494,091173,073728,079451,095565
0000000072,0000071000,078922,076056,091060,076745,076733,095266
0000000073,0000072000,081767,074208,090063,080043,074740,093961
0000000074,0000073000,084618,073140,088279,083299,073669,091776
0000000075,0000074000,087203,072957,085878,086201,073620,088923
0000000076,0000075000,089273,073665,083099,088462,074598,085684
0000000077,0000076000,090617,075197,080223,089857,076509,082378
0000000078,0000077000,091099,077421,077518,090252,079169,079323
0000000079,0000078000,090684,080105,075248,089611,082313,076820
0000000080,0000079000,089416,082974,073647,087994,085633,075117
0000000081,0000080000,087402,085768,072868,085558,088807,074379
0000000082,0000081000,084841,088216,072980,082543,091524,074677
0000000083,0000082000,082004,090056,073977,079246,093516,075982
0000000084,0000083000,079156,091121,075761,075988,094589,078167
0000000085,0000084000,076561,091314,078162,073086,094638,081020
0000000086,0000085000,074495,090602,080940,070827,093658,084259
0000000087,0000086000,073158,089062,083817,069431,091748,087565
0000000088,0000087000,072666,086848,086523,069035,089090,090619
0000000089,0000088000,073080,084165,088792,069678,085944,093122
0000000090,0000089000,074358,081287,090393,071294,082625,094825
0000000091,0000090000,076366,078497,091174,073728,079453,095563
0000000092,0000091000,078921,076056,091061,076744,076735,095265
0000000093,0000092000,081767,074206,090064,080041,074742,093961
0000000094,0000093000,084615,073141,088281,083297,073671,091776
0000000095,0000094000,087202,072957,085879,086200,073621,088923
0000000096,0000095000,089274,073662,083101,088460,074599,085685
0000000097,0000096000,090616,075197,080225,089855,076510,082379
0000000098,0000097000,091099,077420,077519,090250,079169,079325
0000000099,0000098000,090688,080101,075248,089609,082312,076822
0000000100,0000099000,089418,082972,073647,087993,085632,075119
0000000101,0000100000,087402,085769,072867,085558,088804,074381
0000000102,0000101000,084845,088213,072979,082544,091521,074679
0000000103,0000102000,082007,090055,073976,079247,093514,075983
0000000104,0000103000,079155,091123,075759,075990,094587,078167
0000000105,0000104000,076563,091315,078160,073089,094636,081020
0000000106,0000105000,074497,090602,080938,070829,093657,084258
0000000107,0000106000,073156,089066,083815,069433,091748,087563
0000000108,0000107000,072665,086851,086521,069037,089090,090617
0000000109,0000108000,073080,084165,088792,069679,085945,093119
0000000110,0000109000,074354,081289,090394,071294,082627,094822
0000000111,0000110000,076363,078500,091175,073728,079455,095561
0000000112,0000111000,078921,076055,091062,076743,076737,095263
0000000113,0000112000,081765,074206,090066,080039,074745,093960
0000000114,0000113000,084612,073142,088283,083295,073673,091776
0000000115,0000114000,087202,072954,085882,086197,073623,088924
0000000116,0000115000,089275,073659,083104,088457,074601,085686
0000000117,0000116000,090614,075196,080227,089851,076511,082382
0000000118,0000117000,091100,077417,077520,090248,079168,079328
0000000119,0000118000,090691,080097,075249,089607,082311,076826
0000000120,0000119000,089419,082971,073647,087992,085630,075123
0000000121,0000120000,087404,085768,072866,085558,088801,074384
0000000122,0000121000,084849,088211,072977,082545,091518,074681
0000000123,0000122000,082009,090055,073973,079249,093511,075985
0000000124,0000123000,079156,091126,075756,075993,094583,078168
0000000125,0000124000,076566,091315,078157,073092,094633,081019
0000000126,0000125000,074498,090604,080936,070832,093656,084256
0000000127,0000126000,073153,089071,083813,069436,091747,087560
0000000128,0000127000,072664,086854,086520,069040,089090,090613
0000000129,0000128000,073079,084167,088791,069681,085947,093116
0000000130,0000129000,074350,081294,090394,071295,082630,094819
0000000131,0000130000,076359,078503,091176,073728,079459,095557
0000000132,0000131000,078919,076054,091064,076742,076741,095261
0000000133,0000132000,081761,074207,090069,080036,074750,093958
0000000134,0000133000,084609,073142,088286,083291,073677,091776
0000000135,0000134000,087202,072950,085885,086193,073626,088925
0000000136,0000135000,089274,073656,083107,088452,074603,085689
0000000137,0000136000,090614,075194,080230,089847,076512,082385
0000000138,0000137000,091104,077412,077522,090245,079167,079332
0000000139,0000138000,090695,080093,075250,089604,082309,076830
0000000140,0000139000,089421,082970,073647,087990,085627,075127
0000000141,0000140000,087408,085765,072864,085559,088797,074388
0000000142,0000141000,084854,088208,072975,082546,091513,074684
0000000143,0000142000,082011,090057,073970,079251,093506,075986
0000000144,0000143000,079159,091127,075752,075997,094579,078168
0000000145,0000144000,076569,091316,078153,073097,094629,081018
0000000146,0000145000,074497,090608,080932,070837,093654,084253
0000000147,0000146000,073152,089076,083809,069441,091746,087556
0000000148,0000147000,072663,086856,086517,069044,089091,090609
0000000149,0000148000,073076,084171,088790,069684,085950,093111
0000000150,0000149000,074345,081299,090394,071296,082634,094814
0000000151,0000150000,076356,078504,091177,073728,079463,095553
0000000152,0000151000,078915,076055,091068,076740,076747,095257
0000000153,0000152000,081756,074208,090073,080033,074755,093956
0000000154,0000153000,084606,073140,088291,083287,073682,091775
0000000155,0000154000,087201,072947,085890,086187,073630,088926
0000000156,0000155000,089273,073653,083112,088446,074606,085692
0000000157,0000156000,090615,075190,080233,089842,076512,082389
0000000158,0000157000,091107,077406,077524,090240,079166,079338
0000000159,0000158000,090698,080089,075251,089601,082307,076836
0000000160,0000159000,089425,082967,073646,087989,085622,075133
0000000161,0000160000,087415,085761,072862,085559,088792,074393
0000000162,0000161000,084859,088206,072971,082548,091508,074688
0000000163,0000162000,082014,090058,073965,079255,093500,075989
0000000164,0000163000,079163,091128,075747,076002,094573,078169
0000000165,0000164000,076572,091318,078148,073103,094625,081016
0000000166,0000165000,074497,090614,080927,070843,093651,084250
0000000167,0000166000,073151,089081,083805,069448,091745,087551
0000000168,0000167000,072662,086861,086515,069049,089092,090603
0000000169,0000168000,073071,084178,088789,069687,085953,093104
0000000170,0000169000,074339,081304,090395,071298,082638,094807
0000000171,0000170000,076351,078507,091180,073728,079469,095547
0000000172,0000171000,078909,076057,091072,076737,076754,095253
0000000173,0000172000,081750,074209,090078,080029,074762,093953
0000000174,0000173000,084603,073138,088297,083281,073688,091775
0000000175,0000174000,087198,072943,085896,086180,073636,088928
0000000176,0000175000,089271,073649,083117,088439,074609,085695
0000000177,0000176000,090617,075183,080238,089835,076514,082395
0000000178,0000177000,091111,077399,077528,090234,079166,079344
0000000179,0000178000,090701,080083,075253,089597,082304,076844
0000000180,0000179000,089431,082961,073645,087987,085617,075140
0000000181,0000180000,087422,085756,072859,085559,088785,074400
0000000182,0000181000,084865,088205,072967,082550,091500,074693
0000000183,0000182000,082020,090058,073959,079260,093492,075992
0000000184,0000183000,079169,091129,075740,076009,094566,078169
0000000185,0000184000,076574,091322,078141,073110,094619,081014
0000000186,0000185000,074497,090620,080920,070851,093647,084246
0000000187,0000186000,073150,089087,083800,069455,091743,087545
0000000188,0000187000,072658,086868,086511,069056,089093,090595
0000000189,0000188000,073064,084186,088787,069692,085956,093096
0000000190,0000189000,074333,081309,090395,071301,082644,094799
0000000191,0000190000,076345,078510,091183,073727,079477,095540
0000000192,0000191000,078901,076061,091077,076734,076763,095247
0000000193,0000192000,081743,074209,090085,080023,074770,093950
0000000194,0000193000,084598,073135,088304,083274,073696,091774
0000000195,0000194000,087194,072939,085904,086172,073642,088930
0000000196,0000195000,089270,073644,083124,088430,074613,085700
0000000197,0000196000,090619,075175,080244,089827,076515,082402
0000000198,0000197000,091115,077391,077532,090227,079164,079353
0000000199,0000198000,090706,080077,075254,089592,082300,076853
0000000200,0000199000,089439,082954,073645,087984,085610,075149
0000000201,0000200000,087430,085751,072856,085559,088777,074408
0000000202,0000201000,084872,088203,072962,082553,091491,074699
0000000203,0000202000,082027,090058,073952,079266,093483,075995
0000000204,0000203000,079175,091131,075732,076017,094557,078170
0000000205,0000204000,076577,091328,078133,073119,094612,081012
0000000206,0000205000,074498,090627,080912,070861,093642,084241
0000000207,0000206000,073149,089094,083793,069465,091742,087538
0000000208,0000207000,072653,086877,086507,069064,089094,090586
0000000209,0000208000,073057,084194,088785,069698,085961,093085
0000000210,0000209000,074326,081316,090396,071304,082651,094789
0000000211,0000210000,076335,078516,091186,073727,079486,095531
0000000212,0000211000,078891,076064,091082,076731,076773,095241
0000000213,0000212000,081736,074209,090093,080017,074781,093946
0000000214,0000213000,084592,073131,088313,083265,073706,091773
0000000215,0000214000,087190,072934,085913,086161,073650,088933
0000000216,0000215000,089269,073636,083133,088420,074618,085706
0000000217,0000216000,090621,075165,080251,089816,076517,082410
0000000218,0000217000,091119,077382,077537,090218,079163,079363
0000000219,0000218000,090713,080068,075256,089585,082295,076864
0000000220,0000219000,089448,082946,073644,087981,085603,075160
0000000221,0000220000,087440,085745,072852,085559,088767,074417
0000000222,0000221000,084882,088201,072955,082557,091480,074707
0000000223,0000222000,082037,090057,073943,079273,093471,076000
0000000224,0000223000,079182,091134,075722,076026,094547,078171
0000000225,0000224000,076581,091335,078122,073131,094604,081009
0000000226,0000225000,074499,090635,080903,070873,093637,084234
0000000227,0000226000,073148,089104,083786,069476,091740,087529
0000000228,0000227000,072648,086888,086501,069073,089096,090575
0000000229,0000228000,073050,084204,088783,069704,085966,093073
0000000230,0000229000,074316,081324,090397,071307,082660,094777
0000000231,0000230000,076324,078523,091191,073726,079497,095521
0000000232,0000231000,078880,076068,091090,076727,076785,095233
0000000233,0000232000,081727,074208,090102,080009,074793,093941
0000000234,0000233000,084585,073128,088324,083254,073717,091773
0000000235,0000234000,087185,072928,085924,086149,073659,088936
0000000236,0000235000,089268,073626,083143,088407,074624,085713
0000000237,0000236000,090624,075154,080259,089804,076520,082420
0000000238,0000237000,091124,077371,077543,090208,079161,079375
0000000239,0000238000,090722,080056,075259,089578,082289,076877
0000000240,0000239000,089459,082936,073643,087977,085593,075173
0000000241,0000240000,087451,085738,072848,085560,088755,074429
0000000242,0000241000,084893,088197,072947,082562,091466,074715
0000000243,0000242000,082048,090057,073933,079282,093458,076005
0000000244,0000243000,079189,091138,075710,076038,094535,078172
0000000245,0000244000,076586,091342,078110,073144,094594,081006
0000000246,0000245000,074501,090645,080892,070887,093630,084227
0000000247,0000246000,073145,089116,083777,069489,091737,087518
0000000248,0000247000,072641,086901,086495,069084,089098,090561
0000000249,0000248000,073041,084216,088780,069712,085972,093059
0000000250,0000249000,074305,081334,090399,071311,082670,094763
0000000251,0000250000,076311,078531,091196,073726,079510,095508
0000000252,0000251000,078868,076072,091098,076722,076799,095223
0000000253,0000252000,081716,074208,090113,080000,074808,093936
0000000254,0000253000,084575,073125,088337,083242,073730,091772
0000000255,0000254000,087179,072921,085937,086135,073670,088940
0000000256,0000255000,089267,073615,083155,088392,074631,085721
0000000257,0000256000,090626,075142,080269,089790,076522,082432
0000000258,0000257000,091130,077358,077549,090196,079159,079390
0000000259,0000258000,090733,080043,075262,089570,082282,076892
0000000260,0000259000,089471,082925,073641,087973,085583,075188
0000000261,0000260000,087464,085731,072842,085561,088741,074442
0000000262,0000261000,084907,088192,072938,082568,091451,074725
0000000263,0000262000,082060,090056,073921,079291,093442,076011
0000000264,0000263000,079199,091143,075696,076051,094521,078172
0000000265,0000264000,076592,091350,078096,073160,094583,081002
0000000266,0000265000,074503,090656,080879,070903,093623,084218
0000000267,0000266000,073142,089130,083766,069504,091735,087505
0000000268,0000267000,072634,086916,086487,069097,089101,090546
0000000269,0000268000,073031,084230,088777,069721,085980,093043
0000000270,0000269000,074291,081346,090400,071315,082682,094747
0000000271,0000270000,076296,078540,091202,073725,079525,095494
0000000272,0000271000,078854,076076,091108,076716,076816,095213
0000000273,0000272000,081703,074208,090126,079989,074825,093930
0000000274,0000273000,084565,073121,088352,083228,073746,091771
0000000275,0000274000,087173,072912,085952,086118,073682,088944
0000000276,0000275000,089265,073603,083169,088374,074639,085730
0000000277,0000276000,090629,075128,080281,089774,076525,082445
0000000278,0000277000,091138,077343,077557,090182,079156,079406
0000000279,0000278000,090744,080028,075265,089560,082274,076910
0000000280,0000279000,089486,082912,073640,087968,085570,075205
0000000281,0000280000,087480,085721,072836,085562,088725,074457
0000000282,0000281000,084923,088186,072927,082574,091433,074737
0000000283,0000282000,082074,090056,073907,079303,093424,076017
0000000284,0000283000,079209,091148,075681,076066,094504,078174
0000000285,0000284000,076599,091359,078080,073177,094569,080997
0000000286,0000285000,074505,090669,080864,070922,093614,084208
0000000287,0000286000,073138,089146,083753,069522,091732,087491
0000000288,0000287000,072626,086932,086479,069112,089103,090529
0000000289,0000288000,073019,084245,088773,069732,085988,093024
0000000290,0000289000,074276,081360,090402,071320,082695,094729
0000000291,0000290000,076279,078550,091208,073724,079542,095478
0000000292,0000291000,078837,076082,091119,076709,076835,095200
0000000293,0000292000,081688,074208,090141,079977,074844,093923
0000000294,0000293000,084553,073116,088369,083211,073763,091769
0000000295,0000294000,087166,072901,085970,086099,073696,088949
0000000296,0000295000,089263,073589,083185,088354,074648,085741
0000000297,0000296000,090632,075111,080294,089755,076528,082461
0000000298,0000297000,091147,077324,077567,090166,079153,079425
0000000299,0000298000,090758,080011,075270,089549,082265,076930
0000000300,0000299000,089502,082897,073638,087963,085556,075225
0000000301,0000300000,087498,085710,072829,085563,088707,074474
