DIgSILENT PowerFactory,21000900,2000
6,06A,00D
1,TTPP_200000_100:Secondary Voltage A,,,V,0.10000000,-8521.491211,0.000000,72272,99998,1,1,P
2,TTPP_200000_100:Secondary Voltage B,,,V,0.10000000,-8612.744141,0.000000,73564,99998,1,1,P
3,TTPP_200000_100:Secondary Voltage C,,,V,0.10000000,-8460.393555,0.000000,67083,99998,1,1,P
4,TTCC_300_1:Secondary Current A,,,A,0.00010000000,-5.348655,0.000000,-13732,99998,1,1,P
5,TTCC_300_1:Secondary Current B,,,A,0.00010000000,-4.861385,0.000000,-2998,99998,1,1,P
6,TTCC_300_1:Secondary Current C,,,A,0.00010000000,-4.983214,0.000000,-454,99998,1,1,P
50
1
1000.000000,1101
30/06/2023,06:10:25.000000
30/06/2023,06:10:25.000000
ASCII
1.000000
0000000001,0000000000,092321,087603,076023,032557,034624,084752
0000000002,0000001000,090187,090320,075438,042309,025347,084278
0000000003,0000002000,087546,092651,075749,053149,018348,080435
0000000004,0000003000,084690,094329,076926,064028,014305,073600
0000000005,0000004000,081897,095191,078859,073870,013630,064431
0000000006,0000005000,079409,095182,081356,081719,016383,053832
0000000007,0000006000,077487,094297,084162,086805,022277,042850
0000000008,0000007000,076344,092588,087015,088628,030752,032553
0000000009,0000008000,076058,090250,089637,087004,040993,023936
0000000010,0000009000,076655,087528,091763,082106,051968,017858
0000000011,0000010000,078104,084657,093185,074413,062602,014918
0000000012,0000011000,080257,081919,093770,064654,071888,015391
0000000013,0000012000,082879,079610,093458,053805,078895,019233
0000000014,0000013000,085730,077935,092281,042939,082924,026069
0000000015,0000014000,088544,077053,090349,033096,083600,035238
0000000016,0000015000,091023,077070,087852,025237,080860,045836
0000000017,0000016000,092931,077971,085044,020158,074956,056818
0000000018,0000017000,094093,079661,082193,018340,066477,067116
0000000019,0000018000,094377,081998,079571,019955,056245,075732
0000000020,0000019000,093765,084737,077444,024854,045269,081809
0000000021,0000020000,092327,087597,076022,032556,034626,084751
0000000022,0000021000,090181,090327,075438,042307,025349,084277
0000000023,0000022000,087544,092652,075750,053156,018342,080435
0000000024,0000023000,084698,094322,076926,064028,014305,073599
0000000025,0000024000,081895,095193,078859,073868,013633,064431
0000000026,0000025000,079402,095189,081356,081722,016379,053831
0000000027,0000026000,077494,094290,084163,086810,022272,042850
0000000028,0000027000,076346,092586,087015,088625,030755,032553
0000000029,0000028000,076051,090257,089638,087005,040992,023936
0000000030,0000029000,076656,087527,091763,082113,051961,017858
0000000031,0000030000,078110,084651,093185,074413,062603,014917
0000000032,0000031000,080252,081924,093770,064653,071889,015391
0000000033,0000032000,082876,079613,093458,053810,078890,019232
0000000034,0000033000,085735,077930,092281,042943,082921,026068
0000000035,0000034000,088543,077054,090349,033094,083603,035236
0000000036,0000035000,091019,077075,087852,025241,080857,045835
0000000037,0000036000,092934,077967,085045,020162,074954,056817
0000000038,0000037000,094095,079659,082193,018340,066478,067114
0000000039,0000038000,094374,082002,079570,019956,056246,075730
0000000040,0000039000,093766,084736,077444,024858,045266,081808
0000000041,0000040000,092330,087594,076022,032556,034627,084750
0000000042,0000041000,090179,090329,075438,042307,025350,084276
0000000043,0000042000,087544,092653,075749,053157,018341,080434
0000000044,0000043000,084700,094320,076926,064028,014305,073599
0000000045,0000044000,081893,095195,078859,073867,013634,064431
0000000046,0000045000,079401,095190,081355,081723,016377,053832
0000000047,0000046000,077496,094288,084163,086810,022272,042851
0000000048,0000047000,076344,092587,087015,088625,030755,032553
0000000049,0000048000,076050,090259,089637,087006,040990,023937
0000000050,0000049000,076659,087524,091763,082114,051959,017860
0000000051,0000050000,078109,084652,093186,074413,062602,014918
0000000052,0000051000,080249,081927,093770,064656,071885,015391
0000000053,0000052000,082878,079610,093458,053813,078887,019233
0000000054,0000053000,085736,077929,092282,042944,082921,026068
0000000055,0000054000,088540,077057,090350,033098,083600,035235
0000000056,0000055000,091021,077073,087852,025246,080853,045834
0000000057,0000056000,092937,077964,085045,020163,074955,056815
0000000058,0000057000,094091,079662,082194,018342,066479,067112
0000000059,0000058000,094374,082002,079571,019961,056244,075728
0000000060,0000059000,093771,084732,077444,024859,045268,081805
0000000061,0000060000,092328,087596,076022,032555,034631,084747
0000000062,0000061000,090176,090332,075438,042309,025350,084274
0000000063,0000062000,087548,092649,075749,053158,018342,080433
0000000064,0000063000,084701,094319,076926,064024,014310,073599
0000000065,0000064000,081889,095199,078858,073865,013635,064432
0000000066,0000065000,079403,095188,081355,081723,016376,053833
0000000067,0000066000,077498,094286,084162,086806,022273,042853
0000000068,0000067000,076340,092591,087015,088622,030755,032556
0000000069,0000068000,076049,090260,089637,087008,040985,023940
0000000070,0000069000,076662,087521,091763,082113,051957,017863
0000000071,0000070000,078106,084654,093186,074412,062600,014921
0000000072,0000071000,080247,081929,093771,064660,071879,015393
0000000073,0000072000,082880,079607,093459,053817,078882,019234
0000000074,0000073000,085735,077928,092283,042946,082919,026068
0000000075,0000074000,088537,077059,090350,033103,083596,035234
0000000076,0000075000,091022,077071,087853,025252,080850,045831
0000000077,0000076000,092938,077962,085046,020167,074955,056811
0000000078,0000077000,094089,079664,082194,018346,066479,067107
0000000079,0000078000,094375,082001,079571,019965,056244,075723
0000000080,0000079000,093773,084729,077444,024860,045272,081801
0000000081,0000080000,092327,087597,076022,032554,034636,084743
0000000082,0000081000,090177,090332,075437,042309,025354,084271
0000000083,0000082000,087551,092647,075748,053155,018347,080431
0000000084,0000083000,084701,094321,076925,064019,014315,073598
0000000085,0000084000,081888,095201,078857,073862,013638,064433
0000000086,0000085000,079406,095187,081354,081718,016378,053836
0000000087,0000086000,077498,094287,084162,086800,022275,042857
0000000088,0000087000,076338,092594,087014,088618,030753,032561
0000000089,0000088000,076050,090259,089637,087005,040981,023946
0000000090,0000089000,076661,087521,091764,082111,051953,017869
0000000091,0000090000,078103,084657,093187,074413,062594,014926
0000000092,0000091000,080247,081929,093771,064664,071871,015397
0000000093,0000092000,082881,079605,093460,053821,078876,019236
0000000094,0000093000,085732,077930,092284,042952,082913,026068
0000000095,0000094000,088536,077059,090351,033112,083590,035232
0000000096,0000095000,091025,077067,087854,025259,080846,045827
0000000097,0000096000,092937,077962,085047,020173,074954,056805
0000000098,0000097000,094088,079664,082194,018353,066479,067100
0000000099,0000098000,094378,081997,079571,019970,056247,075715
0000000100,0000099000,093774,084728,077444,024861,045278,081793
0000000101,0000100000,092326,087599,076021,032555,034642,084736
0000000102,0000101000,090180,090330,075436,042307,025360,084265
0000000103,0000102000,087554,092645,075747,053149,018356,080428
0000000104,0000103000,084699,094324,076923,064012,014323,073597
0000000105,0000104000,081889,095202,078855,073855,013642,064434
0000000106,0000105000,079408,095186,081353,081709,016382,053841
0000000107,0000106000,077496,094290,084160,086791,022278,042864
0000000108,0000107000,076337,092597,087013,088613,030751,032570
0000000109,0000108000,076051,090259,089636,087001,040977,023955
0000000110,0000109000,076659,087523,091764,082107,051948,017878
0000000111,0000110000,078099,084660,093187,074414,062584,014934
0000000112,0000111000,080247,081927,093773,064668,071861,015403
0000000113,0000112000,082880,079605,093462,053826,078867,019240
0000000114,0000113000,085729,077931,092286,042961,082903,026069
0000000115,0000114000,088536,077057,090353,033123,083581,035229
0000000116,0000115000,091026,077064,087856,025269,080842,045822
0000000117,0000116000,092936,077962,085049,020183,074952,056797
0000000118,0000117000,094089,079662,082195,018364,066479,067090
0000000119,0000118000,094381,081994,079571,019977,056252,075704
0000000120,0000119000,093775,084727,077444,024864,045287,081782
0000000121,0000120000,092328,087598,076020,032556,034651,084726
0000000122,0000121000,090184,090328,075434,042304,025372,084257
0000000123,0000122000,087555,092646,075745,053141,018369,080423
0000000124,0000123000,084699,094326,076921,064003,014333,073596
0000000125,0000124000,081892,095202,078853,073844,013651,064437
0000000126,0000125000,079408,095188,081351,081696,016389,053847
0000000127,0000126000,077494,094294,084159,086779,022280,042873
0000000128,0000127000,076336,092598,087012,088603,030748,032582
0000000129,0000128000,076050,090260,089636,086993,040972,023968
0000000130,0000129000,076655,087527,091764,082103,051939,017890
0000000131,0000130000,078097,084661,093188,074416,062571,014945
0000000132,0000131000,080246,081927,093774,064672,071847,015412
0000000133,0000132000,082877,079606,093464,053834,078853,019245
0000000134,0000133000,085726,077932,092288,042974,082889,026070
0000000135,0000134000,088537,077054,090356,033137,083570,035226
0000000136,0000135000,091025,077062,087859,025284,080835,045814
0000000137,0000136000,092935,077961,085051,020198,074949,056785
0000000138,0000137000,094092,079658,082197,018376,066480,067076
0000000139,0000138000,094384,081990,079572,019985,056259,075688
0000000140,0000139000,093776,084726,077444,024869,045297,081766
0000000141,0000140000,092331,087596,076019,032557,034664,084712
0000000142,0000141000,090188,090326,075432,042298,025388,084247
0000000143,0000142000,087556,092647,075743,053131,018385,080416
0000000144,0000143000,084701,094327,076918,063991,014347,073594
0000000145,0000144000,081895,095202,078850,073828,013663,064441
0000000146,0000145000,079408,095191,081348,081678,016398,053856
0000000147,0000146000,077492,094298,084156,086764,022282,042886
0000000148,0000147000,076336,092600,087010,088590,030745,032598
0000000149,0000148000,076048,090263,089636,086982,040965,023986
0000000150,0000149000,076651,087531,091765,082099,051926,017908
0000000151,0000150000,078095,084662,093189,074417,062554,014961
0000000152,0000151000,080243,081927,093777,064678,071830,015425
0000000153,0000152000,082872,079607,093467,053846,078835,019252
0000000154,0000153000,085724,077930,092292,042990,082871,026071
0000000155,0000154000,088536,077051,090359,033156,083556,035221
0000000156,0000155000,091024,077060,087862,025303,080826,045804
0000000157,0000156000,092936,077958,085053,020218,074945,056770
0000000158,0000157000,094095,079653,082198,018393,066482,067057
0000000159,0000158000,094386,081987,079573,019996,056268,075668
0000000160,0000159000,093779,084724,077443,024876,045311,081746
0000000161,0000160000,092336,087593,076017,032557,034682,084694
0000000162,0000161000,090192,090324,075430,042291,025409,084233
0000000163,0000162000,087559,092648,075739,053119,018406,080408
0000000164,0000163000,084705,094328,076914,063974,014366,073592
0000000165,0000164000,081897,095204,078846,073806,013680,064446
0000000166,0000165000,079407,095195,081344,081656,016409,053867
0000000167,0000166000,077491,094302,084153,086743,022286,042903
0000000168,0000167000,076335,092603,087008,088571,030743,032619
0000000169,0000168000,076044,090268,089635,086968,040956,024009
0000000170,0000169000,076647,087535,091765,082093,051909,017931
0000000171,0000170000,078091,084664,093191,074417,062534,014981
0000000172,0000171000,080238,081929,093780,064685,071807,015440
0000000173,0000172000,082868,079608,093471,053861,078810,019262
0000000174,0000173000,085722,077928,092296,043011,082849,026073
0000000175,0000174000,088534,077048,090364,033179,083538,035216
0000000176,0000175000,091022,077058,087866,025328,080814,045791
0000000177,0000176000,092937,077953,085056,020242,074939,056751
0000000178,0000177000,094098,079647,082201,018413,066486,067033
0000000179,0000178000,094389,081984,079574,020011,056279,075642
0000000180,0000179000,093783,084721,077443,024884,045328,081720
0000000181,0000180000,092342,087589,076015,032556,034705,084671
0000000182,0000181000,090196,090324,075427,042282,025436,084215
0000000183,0000182000,087562,092649,075735,053103,018433,080397
0000000184,0000183000,084709,094328,076909,063951,014391,073590
0000000185,0000184000,081899,095207,078841,073779,013700,064452
0000000186,0000185000,079407,095200,081339,081629,016422,053881
0000000187,0000186000,077491,094306,084149,086717,022291,042925
0000000188,0000187000,076332,092608,087006,088548,030739,032645
0000000189,0000188000,076039,090274,089634,086952,040943,024038
0000000190,0000189000,076642,087539,091766,082085,051889,017959
0000000191,0000190000,078086,084666,093194,074418,062508,015007
0000000192,0000191000,080232,081931,093784,064695,071777,015459
0000000193,0000192000,082863,079608,093476,053880,078780,019273
0000000194,0000193000,085719,077925,092302,043036,082821,026076
0000000195,0000194000,088532,077045,090370,033208,083516,035208
0000000196,0000195000,091021,077054,087871,025360,080799,045774
0000000197,0000196000,092939,077946,085061,020272,074933,056727
0000000198,0000197000,094101,079642,082204,018437,066491,067004
0000000199,0000198000,094393,081979,079575,020029,056293,075610
0000000200,0000199000,093789,084715,077442,024894,045350,081689
0000000201,0000200000,092348,087585,076013,032555,034735,084643
0000000202,0000201000,090201,090323,075422,042271,025469,084194
0000000203,0000202000,087568,092649,075729,053083,018465,080384
0000000204,0000203000,084714,094330,076903,063923,014422,073588
0000000205,0000204000,081900,095211,078835,073747,013725,064460
0000000206,0000205000,079407,095206,081334,081595,016438,053899
0000000207,0000206000,077490,094312,084144,086684,022297,042951
0000000208,0000207000,076329,092615,087002,088520,030735,032677
0000000209,0000208000,076033,090281,089632,086932,040928,024073
0000000210,0000209000,076637,087543,091766,082075,051864,017994
0000000211,0000210000,078080,084670,093196,074418,062477,015037
0000000212,0000211000,080225,081934,093788,064708,071742,015483
0000000213,0000212000,082857,079607,093482,053902,078743,019287
0000000214,0000213000,085715,077923,092309,043066,082788,026079
0000000215,0000214000,088528,077041,090377,033244,083490,035200
0000000216,0000215000,091021,077048,087878,025398,080780,045755
0000000217,0000216000,092941,077939,085066,020308,074927,056698
0000000218,0000217000,094104,079635,082208,018468,066496,066969
0000000219,0000218000,094398,081972,079576,020052,056309,075571
0000000220,0000219000,093797,084709,077441,024905,045377,081651
0000000221,0000220000,092355,087581,076010,032553,034770,084610
0000000222,0000221000,090208,090321,075417,042258,025507,084168
0000000223,0000222000,087575,092648,075723,053059,018505,080369
0000000224,0000223000,084719,094332,076895,063890,014458,073584
0000000225,0000224000,081903,095216,078827,073708,013755,064470
0000000226,0000225000,079408,095212,081326,081554,016457,053921
0000000227,0000226000,077489,094319,084139,086645,022305,042983
0000000228,0000227000,076324,092624,086998,088487,030730,032716
0000000229,0000228000,076027,090288,089631,086909,040909,024115
0000000230,0000229000,076630,087549,091767,082063,051835,018035
0000000231,0000230000,078071,084675,093200,074420,062439,015073
0000000232,0000231000,080217,081937,093793,064723,071699,015511
0000000233,0000232000,082851,079607,093489,053929,078700,019304
0000000234,0000233000,085709,077920,092317,043102,082749,026082
0000000235,0000234000,088524,077037,090385,033287,083457,035189
0000000236,0000235000,091020,077041,087885,025443,080759,045731
0000000237,0000236000,092943,077930,085072,020350,074919,056664
0000000238,0000237000,094108,079627,082212,018504,066502,066926
0000000239,0000238000,094405,081964,079578,020078,056329,075526
0000000240,0000239000,093805,084701,077440,024917,045409,081606
0000000241,0000240000,092364,087576,076006,032552,034811,084570
0000000242,0000241000,090217,090318,075411,042242,025553,084138
0000000243,0000242000,087583,092648,075715,053030,018552,080351
0000000244,0000243000,084725,094335,076887,063850,014501,073581
0000000245,0000244000,081906,095222,078818,073662,013789,064481
0000000246,0000245000,079410,095219,081318,081506,016480,053947
0000000247,0000246000,077487,094328,084132,086599,022313,043020
0000000248,0000247000,076319,092633,086994,088449,030723,032762
0000000249,0000248000,076021,090297,089629,086881,040887,024164
0000000250,0000249000,076621,087557,091768,082049,051800,018083
0000000251,0000250000,078061,084681,093204,074421,062395,015116
0000000252,0000251000,080207,081940,093800,064740,071649,015543
0000000253,0000252000,082843,079606,093497,053960,078649,019323
0000000254,0000253000,085703,077917,092326,043145,082703,026085
0000000255,0000254000,088520,077031,090395,033337,083420,035176
0000000256,0000255000,091020,077032,087894,025495,080734,045704
0000000257,0000256000,092945,077921,085080,020399,074910,056623
0000000258,0000257000,094113,079617,082217,018546,066509,066877
0000000259,0000258000,094413,081954,079580,020108,056352,075472
0000000260,0000259000,093815,084693,077439,024932,045447,081554
0000000261,0000260000,092374,087570,076002,032550,034858,084524
0000000262,0000261000,090227,090315,075404,042224,025607,084103
0000000263,0000262000,087593,092648,075706,052996,018606,080331
0000000264,0000263000,084731,094339,076876,063804,014551,073577
0000000265,0000264000,081911,095228,078807,073608,013829,064495
0000000266,0000265000,079411,095227,081308,081450,016506,053976
0000000267,0000266000,077484,094338,084124,086546,022323,043063
0000000268,0000267000,076313,092645,086988,088404,030714,032814
0000000269,0000268000,076013,090307,089626,086849,040862,024222
0000000270,0000269000,076611,087566,091770,082033,051760,018139
0000000271,0000270000,078050,084688,093208,074424,062343,015165
0000000272,0000271000,080197,081943,093807,064760,071591,015581
0000000273,0000272000,082833,079606,093507,053996,078591,019345
0000000274,0000273000,085694,077914,092338,043194,082650,026089
0000000275,0000274000,088516,077024,090406,033395,083377,035162
0000000276,0000275000,091019,077022,087905,025555,080706,045671
0000000277,0000276000,092947,077910,085089,020456,074900,056577
0000000278,0000277000,094118,079605,082223,018594,066518,066820
0000000279,0000278000,094422,081942,079583,020142,056379,075411
0000000280,0000279000,093825,084683,077438,024949,045490,081494
0000000281,0000280000,092386,087563,075997,032548,034913,084472
0000000282,0000281000,090239,090310,075396,042202,025669,084063
0000000283,0000282000,087603,092648,075695,052956,018669,080307
0000000284,0000283000,084739,094343,076864,063751,014608,073573
0000000285,0000284000,081916,095235,078795,073547,013874,064511
0000000286,0000285000,079413,095237,081297,081385,016537,054011
0000000287,0000286000,077481,094351,084114,086485,022334,043113
0000000288,0000287000,076307,092657,086982,088353,030705,032875
0000000289,0000288000,076004,090319,089624,086813,040833,024287
0000000290,0000289000,076599,087576,091771,082015,051714,018203
0000000291,0000290000,078037,084696,093213,074427,062284,015221
0000000292,0000291000,080184,081947,093816,064784,071525,015624
0000000293,0000292000,082822,079606,093519,054038,078525,019370
0000000294,0000293000,085685,077910,092350,043251,082589,026093
0000000295,0000294000,088510,077016,090419,033460,083328,035145
0000000296,0000295000,091017,077012,087917,025623,080675,045635
0000000297,0000296000,092950,077898,085099,020521,074888,056524
0000000298,0000297000,094125,079591,082230,018648,066528,066756
0000000299,0000298000,094432,081929,079586,020180,056411,075341
0000000300,0000299000,093837,084673,077436,024967,045539,081426
0000000301,0000300000,092399,087555,075992,032545,034976,084412
