DIgSILENT PowerFactory,21000900,2000
6,06A,00D
1,TTPP_200000_100:Secondary Voltage A,,,V,0.10000000,-8221.669922,0.000000,61577,99998,1,1,P
2,TTPP_200000_100:Secondary Voltage B,,,V,0.10000000,-7790.553223,0.000000,59200,99998,1,1,P
3,TTPP_200000_100:Secondary Voltage C,,,V,0.10000000,-8122.280762,0.000000,61951,99998,1,1,P
4,TTCC_300_1:Secondary Current A,,,A,0.00010000000,-3.997092,0.000000,-2290,99998,1,1,P
5,TTCC_300_1:Secondary Current B,,,A,0.00010000000,-5.021423,0.000000,674,99998,1,1,P
6,TTCC_300_1:Secondary Current C,,,A,0.00010000000,-4.889101,0.000000,-1566,99998,1,1,P
50
1
1000.000000,1101
30/06/2023,06:06:37.000000
30/06/2023,06:06:37.000000
ASCII
1.000000
0000000001,0000000000,089323,079380,072642,019041,036225,083810
0000000002,0000001000,087189,082098,072057,028793,026946,083336
0000000003,0000002000,084548,084429,072368,039632,019949,079495
0000000004,0000003000,081692,086107,073545,050513,015905,072658
0000000005,0000004000,078899,086969,075478,060355,015231,063490
0000000006,0000005000,076411,086960,077975,068204,017983,052890
0000000007,0000006000,074489,086075,080781,073290,023878,041909
0000000008,0000007000,073346,084366,083634,075112,032353,031612
0000000009,0000008000,073060,082028,086256,073489,042594,022995
0000000010,0000009000,073657,079306,088382,068590,053569,016918
0000000011,0000010000,075105,076435,089804,060897,064202,013977
0000000012,0000011000,077258,073697,090389,051138,073488,014450
0000000013,0000012000,079880,071389,090077,040289,080495,018292
0000000014,0000013000,082731,069714,088900,029424,084525,025128
0000000015,0000014000,085546,068831,086969,019580,085200,034296
0000000016,0000015000,088025,068848,084471,011722,082460,044896
0000000017,0000016000,089932,069749,081664,006643,076556,055877
0000000018,0000017000,091094,071439,078812,004824,068077,066175
0000000019,0000018000,091379,073776,076190,006440,057845,074791
0000000020,0000019000,090767,076515,074064,011338,046869,080868
0000000021,0000020000,089329,079375,072641,019041,036226,083810
0000000022,0000021000,087183,082105,072057,028791,026949,083336
0000000023,0000022000,084546,084430,072369,039641,019942,079494
0000000024,0000023000,081700,086100,073544,050512,015906,072658
0000000025,0000024000,078897,086971,075478,060352,015233,063490
0000000026,0000025000,076404,086967,077975,068207,017979,052890
0000000027,0000026000,074496,086068,080781,073295,023872,041909
0000000028,0000027000,073348,084364,083634,075109,032356,031611
0000000029,0000028000,073053,082036,086256,073489,042592,022995
0000000030,0000029000,073658,079305,088382,068597,053562,016917
0000000031,0000030000,075112,076429,089804,060897,064203,013976
0000000032,0000031000,077254,073702,090389,051137,073489,014449
0000000033,0000032000,079877,071391,090077,040294,080490,018291
0000000034,0000033000,082737,069708,088900,029427,084522,025127
0000000035,0000034000,085545,068832,086968,019578,085203,034295
0000000036,0000035000,088020,068853,084471,011725,082457,044895
0000000037,0000036000,089936,069745,081664,006647,076554,055875
0000000038,0000037000,091096,071437,078812,004825,068078,066173
0000000039,0000038000,091376,073780,076190,006440,057846,074789
0000000040,0000039000,090768,076514,074063,011342,046867,080867
0000000041,0000040000,089332,079372,072641,019040,036228,083809
0000000042,0000041000,087181,082107,072057,028791,026950,083335
0000000043,0000042000,084546,084431,072368,039642,019941,079493
0000000044,0000043000,081702,086098,073545,050513,015906,072658
0000000045,0000044000,078895,086973,075478,060351,015235,063490
0000000046,0000045000,076403,086968,077974,068208,017978,052891
0000000047,0000046000,074498,086066,080781,073294,023872,041910
0000000048,0000047000,073346,084365,083634,075109,032355,031612
0000000049,0000048000,073051,082037,086256,073491,042590,022996
0000000050,0000049000,073661,079303,088382,068598,053560,016918
0000000051,0000050000,075110,076430,089805,060897,064202,013977
0000000052,0000051000,077251,073705,090389,051141,073485,014450
0000000053,0000052000,079880,071388,090077,040297,080487,018291
0000000054,0000053000,082737,069707,088901,029428,084521,025127
0000000055,0000054000,085541,068835,086969,019582,085201,034294
0000000056,0000055000,088022,068851,084471,011730,082454,044893
0000000057,0000056000,089939,069742,081664,006648,076555,055873
0000000058,0000057000,091093,071440,078813,004826,068079,066171
0000000059,0000058000,091375,073780,076190,006445,057844,074786
0000000060,0000059000,090773,076509,074063,011343,046869,080864
0000000061,0000060000,089330,079374,072641,019039,036232,083806
0000000062,0000061000,087178,082110,072056,028793,026951,083333
0000000063,0000062000,084550,084427,072368,039642,019942,079492
0000000064,0000063000,081703,086097,073544,050508,015910,072657
0000000065,0000064000,078891,086977,075477,060350,015236,063490
0000000066,0000065000,076405,086966,077973,068208,017976,052892
0000000067,0000066000,074500,086064,080781,073290,023874,041912
0000000068,0000067000,073342,084369,083633,075106,032356,031615
0000000069,0000068000,073051,082038,086256,073492,042585,022999
0000000070,0000069000,073663,079299,088382,068598,053557,016922
0000000071,0000070000,075108,076432,089805,060896,064200,013980
0000000072,0000071000,077248,073708,090390,051144,073480,014452
0000000073,0000072000,079882,071385,090078,040301,080482,018293
0000000074,0000073000,082737,069707,088902,029431,084519,025127
0000000075,0000074000,085538,068837,086969,019587,085197,034292
0000000076,0000075000,088024,068849,084472,011736,082450,044890
0000000077,0000076000,089940,069740,081665,006651,076555,055870
0000000078,0000077000,091091,071441,078813,004830,068079,066166
0000000079,0000078000,091377,073779,076190,006449,057845,074782
0000000080,0000079000,090775,076507,074063,011345,046872,080859
0000000081,0000080000,089329,079375,072641,019039,036236,083802
0000000082,0000081000,087179,082110,072056,028793,026954,083329
0000000083,0000082000,084553,084425,072367,039639,019947,079490
0000000084,0000083000,081703,086099,073544,050504,015916,072657
0000000085,0000084000,078891,086979,075476,060346,015238,063491
0000000086,0000085000,076408,086965,077972,068203,017978,052895
0000000087,0000086000,074500,086065,080780,073284,023876,041916
0000000088,0000087000,073340,084372,083633,075103,032354,031620
0000000089,0000088000,073052,082038,086255,073490,042582,023005
0000000090,0000089000,073663,079300,088382,068595,053554,016927
0000000091,0000090000,075104,076435,089805,060897,064194,013985
0000000092,0000091000,077248,073707,090390,051148,073472,014456
0000000093,0000092000,079883,071384,090079,040305,080476,018295
0000000094,0000093000,082733,069708,088903,029436,084513,025127
0000000095,0000094000,085537,068837,086970,019596,085190,034291
0000000096,0000095000,088026,068845,084473,011743,082447,044886
0000000097,0000096000,089939,069740,081666,006658,076555,055864
0000000098,0000097000,091090,071442,078814,004838,068079,066159
0000000099,0000098000,091380,073775,076190,006455,057847,074774
0000000100,0000099000,090776,076506,074063,011346,046879,080852
0000000101,0000100000,089328,079376,072640,019040,036242,083795
0000000102,0000101000,087182,082108,072055,028792,026961,083324
0000000103,0000102000,084556,084423,072366,039633,019956,079486
0000000104,0000103000,081701,086102,073542,050497,015923,072656
0000000105,0000104000,078892,086980,075474,060340,015243,063493
0000000106,0000105000,076410,086964,077971,068194,017983,052899
0000000107,0000106000,074498,086069,080779,073275,023878,041923
0000000108,0000107000,073338,084375,083632,075097,032351,031628
0000000109,0000108000,073053,082037,086255,073485,042578,023014
0000000110,0000109000,073661,079302,088383,068592,053548,016936
0000000111,0000110000,075101,076438,089806,060898,064185,013993
0000000112,0000111000,077248,073706,090391,051152,073461,014462
0000000113,0000112000,079881,071383,090081,040310,080467,018299
0000000114,0000113000,082730,069710,088905,029445,084504,025128
0000000115,0000114000,085538,068835,086972,019607,085181,034288
0000000116,0000115000,088027,068843,084475,011754,082442,044881
0000000117,0000116000,089937,069740,081668,006668,076553,055856
0000000118,0000117000,091091,071440,078814,004848,068079,066149
0000000119,0000118000,091383,073771,076191,006461,057852,074763
0000000120,0000119000,090777,076505,074063,011349,046887,080840
0000000121,0000120000,089330,079376,072639,019041,036251,083784
0000000122,0000121000,087186,082106,072053,028788,026972,083316
0000000123,0000122000,084557,084424,072364,039626,019969,079482
0000000124,0000123000,081702,086104,073540,050488,015934,072654
0000000125,0000124000,078894,086980,075472,060329,015251,063496
0000000126,0000125000,076410,086966,077969,068181,017990,052906
0000000127,0000126000,074495,086072,080777,073264,023880,041932
0000000128,0000127000,073338,084377,083630,075088,032348,031640
0000000129,0000128000,073052,082038,086255,073477,042572,023027
0000000130,0000129000,073657,079305,088383,068588,053539,016949
0000000131,0000130000,075099,076440,089807,060900,064172,014004
0000000132,0000131000,077247,073705,090393,051157,073448,014471
0000000133,0000132000,079878,071384,090083,040318,080454,018304
0000000134,0000133000,082728,069710,088907,029458,084490,025129
0000000135,0000134000,085538,068832,086975,019622,085170,034285
0000000136,0000135000,088026,068841,084478,011768,082436,044873
0000000137,0000136000,089937,069739,081670,006683,076549,055844
0000000138,0000137000,091094,071436,078816,004861,068080,066135
0000000139,0000138000,091386,073768,076191,006469,057859,074747
0000000140,0000139000,090778,076504,074063,011354,046898,080825
0000000141,0000140000,089333,079374,072638,019041,036264,083771
0000000142,0000141000,087190,082104,072051,028783,026988,083306
0000000143,0000142000,084558,084425,072361,039616,019986,079475
0000000144,0000143000,081703,086105,073537,050475,015948,072653
0000000145,0000144000,078897,086980,075469,060312,015264,063500
0000000146,0000145000,076410,086969,077967,068163,017999,052914
0000000147,0000146000,074494,086076,080775,073248,023883,041945
0000000148,0000147000,073338,084378,083629,075074,032346,031657
0000000149,0000148000,073049,082041,086254,073466,042566,023045
0000000150,0000149000,073653,079309,088383,068583,053527,016967
0000000151,0000150000,075096,076441,089808,060901,064155,014020
0000000152,0000151000,077244,073705,090395,051162,073430,014483
0000000153,0000152000,079874,071385,090086,040330,080435,018311
0000000154,0000153000,082726,069708,088911,029475,084472,025130
0000000155,0000154000,085538,068829,086978,019640,085156,034280
0000000156,0000155000,088025,068839,084481,011787,082427,044863
0000000157,0000156000,089937,069736,081672,006702,076545,055829
0000000158,0000157000,091097,071431,078818,004877,068083,066116
0000000159,0000158000,091388,073765,076192,006480,057869,074727
0000000160,0000159000,090781,076502,074062,011360,046911,080805
0000000161,0000160000,089338,079371,072636,019041,036282,083753
0000000162,0000161000,087194,082102,072049,028775,027010,083292
0000000163,0000162000,084561,084426,072358,039603,020007,079467
0000000164,0000163000,081707,086106,073533,050458,015967,072651
0000000165,0000164000,078899,086982,075465,060291,015280,063505
0000000166,0000165000,076409,086973,077963,068141,018009,052926
0000000167,0000166000,074493,086080,080772,073228,023886,041962
0000000168,0000167000,073337,084382,083627,075056,032343,031678
0000000169,0000168000,073045,082046,086253,073453,042556,023068
0000000170,0000169000,073648,079313,088384,068577,053510,016989
0000000171,0000170000,075093,076442,089810,060902,064134,014040
0000000172,0000171000,077240,073707,090399,051170,073407,014499
0000000173,0000172000,079869,071386,090090,040345,080410,018320
0000000174,0000173000,082724,069706,088915,029495,084449,025132
0000000175,0000174000,085536,068826,086983,019663,085139,034275
0000000176,0000175000,088024,068836,084485,011813,082414,044850
0000000177,0000176000,089939,069731,081676,006727,076539,055810
0000000178,0000177000,091100,071425,078820,004897,068086,066092
0000000179,0000178000,091391,073762,076193,006495,057880,074701
0000000180,0000179000,090785,076498,074062,011369,046928,080779
0000000181,0000180000,089344,079367,072634,019040,036306,083730
0000000182,0000181000,087198,082101,072046,028766,027036,083274
0000000183,0000182000,084565,084427,072353,039587,020033,079456
0000000184,0000183000,081711,086106,073528,050436,015991,072649
0000000185,0000184000,078901,086985,075460,060264,015301,063511
0000000186,0000185000,076409,086978,077958,068113,018023,052940
0000000187,0000186000,074493,086085,080768,073201,023891,041984
0000000188,0000187000,073334,084387,083624,075033,032340,031704
0000000189,0000188000,073040,082052,086252,073436,042544,023097
0000000190,0000189000,073644,079317,088384,068569,053489,017018
0000000191,0000190000,075088,076445,089812,060902,064108,014065
0000000192,0000191000,077234,073709,090402,051179,073378,014518
0000000193,0000192000,079864,071386,090095,040364,080380,018332
0000000194,0000193000,082721,069703,088921,029520,084422,025135
0000000195,0000194000,085533,068823,086989,019692,085117,034267
0000000196,0000195000,088023,068832,084490,011844,082399,044833
0000000197,0000196000,089941,069724,081680,006757,076534,055786
0000000198,0000197000,091103,071419,078823,004922,068091,066063
0000000199,0000198000,091394,073757,076194,006514,057893,074669
0000000200,0000199000,090791,076493,074061,011378,046950,080748
0000000201,0000200000,089350,079363,072632,019039,036335,083702
0000000202,0000201000,087203,082100,072041,028755,027069,083253
0000000203,0000202000,084570,084427,072348,039567,020066,079443
0000000204,0000203000,081716,086108,073522,050408,016022,072646
0000000205,0000204000,078902,086989,075454,060231,015325,063519
0000000206,0000205000,076409,086984,077952,068079,018038,052958
0000000207,0000206000,074492,086090,080763,073169,023897,042010
0000000208,0000207000,073330,084393,083621,075005,032336,031736
0000000209,0000208000,073035,082059,086251,073417,042528,023132
0000000210,0000209000,073638,079322,088385,068559,053465,017052
0000000211,0000210000,075081,076449,089815,060903,064077,014096
0000000212,0000211000,077226,073712,090407,051192,073342,014542
0000000213,0000212000,079859,071386,090101,040386,080343,018346
0000000214,0000213000,082717,069701,088928,029550,084389,025138
0000000215,0000214000,085530,068819,086996,019728,085090,034259
0000000216,0000215000,088022,068826,084497,011882,082381,044814
0000000217,0000216000,089943,069717,081685,006792,076527,055757
0000000218,0000217000,091106,071413,078827,004952,068096,066028
0000000219,0000218000,091400,073750,076196,006536,057910,074630
0000000220,0000219000,090799,076486,074060,011389,046977,080710
0000000221,0000220000,089357,079359,072629,019038,036370,083669
0000000222,0000221000,087210,082099,072036,028742,027108,083227
0000000223,0000222000,084577,084426,072341,039543,020105,079428
0000000224,0000223000,081721,086110,073514,050374,016059,072643
0000000225,0000224000,078905,086994,075446,060192,015355,063529
0000000226,0000225000,076410,086990,077945,068039,018058,052980
0000000227,0000226000,074491,086097,080757,073130,023905,042042
0000000228,0000227000,073326,084402,083617,074972,032330,031775
0000000229,0000228000,073029,082066,086249,073393,042509,023174
0000000230,0000229000,073631,079328,088386,068547,053435,017094
0000000231,0000230000,075073,076454,089819,060904,064040,014132
0000000232,0000231000,077218,073715,090412,051207,073299,014570
0000000233,0000232000,079852,071385,090108,040413,080300,018363
0000000234,0000233000,082711,069698,088936,029586,084349,025141
0000000235,0000234000,085526,068815,087004,019771,085058,034248
0000000236,0000235000,088022,068819,084504,011927,082359,044790
0000000237,0000236000,089945,069708,081692,006834,076519,055723
0000000238,0000237000,091109,071405,078831,004988,068102,065985
0000000239,0000238000,091406,073742,076197,006562,057929,074585
0000000240,0000239000,090807,076479,074059,011402,047009,080665
0000000241,0000240000,089366,079354,072625,019036,036411,083629
0000000242,0000241000,087219,082096,072030,028727,027153,083197
0000000243,0000242000,084585,084426,072334,039514,020152,079410
0000000244,0000243000,081727,086113,073505,050334,016102,072640
0000000245,0000244000,078908,087000,075437,060146,015389,063540
0000000246,0000245000,076412,086997,077937,067990,018080,053005
0000000247,0000246000,074489,086106,080750,073083,023914,042079
0000000248,0000247000,073321,084412,083612,074933,032323,031820
0000000249,0000248000,073023,082075,086247,073366,042488,023223
0000000250,0000249000,073623,079335,088387,068533,053401,017142
0000000251,0000250000,075063,076460,089823,060906,063995,014175
0000000252,0000251000,077209,073718,090419,051224,073249,014602
0000000253,0000252000,079844,071385,090116,040444,080250,018382
0000000254,0000253000,082704,069696,088945,029629,084303,025144
0000000255,0000254000,085522,068809,087014,019821,085020,034235
0000000256,0000255000,088021,068810,084514,011979,082335,044763
0000000257,0000256000,089947,069699,081699,006884,076510,055682
0000000258,0000257000,091114,071395,078836,005030,068110,065936
0000000259,0000258000,091414,073732,076199,006592,057953,074531
0000000260,0000259000,090817,076471,074058,011416,047047,080613
0000000261,0000260000,089376,079348,072621,019034,036459,083583
0000000262,0000261000,087229,082092,072023,028708,027207,083161
0000000263,0000262000,084595,084426,072325,039480,020207,079390
0000000264,0000263000,081733,086117,073495,050289,016152,072636
0000000265,0000264000,078913,087006,075426,060093,015429,063554
0000000266,0000265000,076413,087005,077927,067934,018107,053035
0000000267,0000266000,074486,086117,080742,073030,023924,042122
0000000268,0000267000,073315,084423,083607,074888,032315,031873
0000000269,0000268000,073015,082085,086245,073334,042462,023280
0000000270,0000269000,073613,079344,088388,068517,053361,017198
0000000271,0000270000,075051,076467,089827,060908,063944,014224
0000000272,0000271000,077198,073721,090426,051245,073191,014640
0000000273,0000272000,079835,071384,090126,040481,080192,018404
0000000274,0000273000,082696,069693,088957,029678,084250,025148
0000000275,0000274000,085517,068802,087025,019879,084977,034221
0000000276,0000275000,088020,068801,084524,012039,082307,044730
0000000277,0000276000,089949,069688,081708,006940,076500,055636
0000000278,0000277000,091120,071383,078842,005078,068118,065879
0000000279,0000278000,091423,073720,076202,006626,057980,074470
0000000280,0000279000,090827,076461,074057,011433,047090,080553
0000000281,0000280000,089387,079341,072616,019032,036514,083531
0000000282,0000281000,087241,082088,072015,028686,027269,083121
0000000283,0000282000,084605,084426,072314,039441,020269,079366
0000000284,0000283000,081741,086121,073483,050236,016208,072632
0000000285,0000284000,078919,087013,075414,060031,015475,063570
0000000286,0000285000,076415,087015,077916,067869,018137,053069
0000000287,0000286000,074483,086129,080733,072970,023935,042172
0000000288,0000287000,073309,084435,083600,074837,032305,031934
0000000289,0000288000,073006,082097,086242,073297,042433,023346
0000000290,0000289000,073601,079355,088390,068499,053315,017262
0000000291,0000290000,075039,076475,089832,060911,063884,014280
0000000292,0000291000,077186,073725,090435,051268,073125,014683
0000000293,0000292000,079823,071385,090137,040522,080125,018429
0000000294,0000293000,082687,069689,088969,029735,084189,025152
0000000295,0000294000,085512,068794,087039,019945,084928,034204
0000000296,0000295000,088018,068790,084536,012108,082275,044694
0000000297,0000296000,089951,069676,081718,007005,076488,055583
0000000298,0000297000,091127,071369,078849,005133,068128,065815
0000000299,0000298000,091433,073707,076205,006665,058011,074400
0000000300,0000299000,090839,076450,074056,011452,047139,080485
0000000301,0000300000,089401,079333,072611,019029,036576,083471
