DIgSILENT PowerFactory,21000900,2000
6,06A,00D
1,TTPP_200000_100:Secondary Voltage A,,,V,0.10000000,-8256.099609,0.000000,67265,99998,1,1,P
2,TTPP_200000_100:Secondary Voltage B,,,V,0.10000000,-8337.281250,0.000000,68331,99998,1,1,P
3,TTPP_200000_100:Secondary Voltage C,,,V,0.10000000,-8331.505859,0.000000,65671,99998,1,1,P
4,TTCC_500_5:Secondary Current A,,,A,0.0010000000,-79.385414,0.000000,65417,99998,1,1,P
5,TTCC_500_5:Secondary Current B,,,A,0.0010000000,-84.456673,0.000000,69014,99998,1,1,P
6,TTCC_500_5:Secondary Current C,,,A,0.0010000000,-84.939552,0.000000,69904,99998,1,1,P
50
1
1000.000000,1101
30/06/2023,06:12:04.000000
30/06/2023,06:12:04.000000
ASCII
1.000000
0000000001,0000000000,088073,087013,074162,085301,089136,074344
0000000002,0000001000,085524,089447,074277,082284,091854,074643
0000000003,0000002000,082677,091299,075275,078988,093845,075948
0000000004,0000003000,079825,092367,077057,075733,094915,078134
0000000005,0000004000,077244,092546,079459,072825,094968,080988
0000000006,0000005000,075172,091839,082238,070565,093989,084228
0000000007,0000006000,073828,090307,085113,069174,092073,087534
0000000008,0000007000,073350,088080,087819,068778,089414,090589
0000000009,0000008000,073761,085400,090088,069417,086272,093093
0000000010,0000009000,075028,082533,091688,071035,082951,094795
0000000011,0000010000,077050,079733,092467,073474,079774,095533
0000000012,0000011000,079608,077288,092353,076488,077059,095235
0000000013,0000012000,082438,075454,091357,079785,075067,093929
0000000014,0000013000,085292,074384,089572,083045,073993,091744
0000000015,0000014000,087890,074188,087170,085947,073945,088890
0000000016,0000015000,089947,074909,084393,088206,074925,085650
0000000017,0000016000,091284,076448,081517,089602,076836,082343
0000000018,0000017000,091783,078655,078812,089998,079495,079289
0000000019,0000018000,091364,081343,076542,089354,082642,076785
0000000020,0000019000,090081,084226,074942,087738,085961,075082
0000000021,0000020000,088078,087007,074163,085303,089134,074345
0000000022,0000021000,085524,089448,074276,082284,091854,074643
0000000023,0000022000,082672,091304,075274,078987,093846,075949
0000000024,0000023000,079827,092364,077058,075731,094917,078134
0000000025,0000024000,077246,092544,079460,072826,094967,080988
0000000026,0000025000,075169,091843,082237,070566,093988,084228
0000000027,0000026000,073828,090307,085113,069172,092075,087534
0000000028,0000027000,073351,088079,087819,068777,089416,090589
0000000029,0000028000,073760,085401,090088,069417,086272,093092
0000000030,0000029000,075029,082532,091688,071036,082950,094796
0000000031,0000030000,077049,079732,092467,073473,079776,095533
0000000032,0000031000,079605,077290,092354,076488,077059,095235
0000000033,0000032000,082440,075453,091356,079786,075067,093929
0000000034,0000033000,085294,074382,089572,083044,073993,091744
0000000035,0000034000,087886,074192,087171,085946,073946,088890
0000000036,0000035000,089947,074909,084393,088206,074925,085650
0000000037,0000036000,091289,076443,081516,089602,076836,082344
0000000038,0000037000,091780,078657,078812,089997,079496,079289
0000000039,0000038000,091360,081346,076543,089354,082642,076786
0000000040,0000039000,090086,084221,074942,087738,085961,075083
0000000041,0000040000,088080,087006,074163,085301,089135,074345
0000000042,0000041000,085519,089454,074276,082284,091854,074644
0000000043,0000042000,082674,091301,075273,078988,093845,075949
0000000044,0000043000,079832,092360,077057,075730,094917,078134
0000000045,0000044000,077241,092549,079459,072826,094967,080988
0000000046,0000045000,075167,091845,082237,070567,093987,084228
0000000047,0000046000,073834,090302,085113,069172,092075,087534
0000000048,0000047000,073349,088081,087819,068775,089417,090589
0000000049,0000048000,073756,085405,090088,069418,086271,093092
0000000050,0000049000,075033,082528,091688,071036,082950,094795
0000000051,0000050000,077050,079731,092468,073471,079778,095533
0000000052,0000051000,079600,077295,092354,076487,077060,095235
0000000053,0000052000,082441,075451,091357,079786,075066,093929
0000000054,0000053000,085297,074379,089573,083043,073995,091744
0000000055,0000054000,087882,074195,087172,085944,073947,088890
0000000056,0000055000,089946,074909,084393,088206,074925,085651
0000000057,0000056000,091293,076439,081517,089601,076836,082345
0000000058,0000057000,091779,078658,078812,089995,079497,079290
0000000059,0000058000,091359,081348,076543,089354,082641,076787
0000000060,0000059000,090090,084217,074942,087738,085960,075084
0000000061,0000060000,088080,087006,074163,085301,089135,074346
0000000062,0000061000,085517,089456,074276,082284,091853,074644
0000000063,0000062000,082677,091300,075273,078988,093844,075949
0000000064,0000063000,079833,092359,077057,075730,094917,078135
0000000065,0000064000,077239,092552,079459,072827,094967,080988
0000000066,0000065000,075168,091844,082236,070568,093987,084227
0000000067,0000066000,073835,090301,085113,069172,092075,087534
0000000068,0000067000,073346,088084,087818,068776,089417,090588
0000000069,0000068000,073755,085406,090087,069419,086272,093091
0000000070,0000069000,075034,082527,091688,071036,082951,094794
0000000071,0000070000,077047,079734,092468,073470,079779,095532
0000000072,0000071000,079599,077296,092355,076487,077061,095234
0000000073,0000072000,082443,075448,091357,079785,075068,093929
0000000074,0000073000,085295,074380,089574,083041,073996,091744
0000000075,0000074000,087880,074197,087172,085943,073947,088891
0000000076,0000075000,089949,074906,084394,088204,074925,085652
0000000077,0000076000,091293,076438,081518,089599,076837,082346
0000000078,0000077000,091776,078660,078813,089994,079496,079291
0000000079,0000078000,091361,081345,076543,089353,082641,076788
0000000080,0000079000,090092,084214,074942,087736,085960,075085
0000000081,0000080000,088078,087008,074162,085301,089134,074347
0000000082,0000081000,085518,089456,074275,082285,091851,074645
0000000083,0000082000,082681,091297,075272,078988,093843,075950
0000000084,0000083000,079832,092361,077056,075731,094916,078135
0000000085,0000084000,077238,092554,079457,072829,094965,080988
0000000086,0000085000,075172,091843,082235,070569,093986,084227
0000000087,0000086000,073834,090303,085112,069173,092076,087532
0000000088,0000087000,073343,088088,087818,068777,089418,090587
0000000089,0000088000,073756,085406,090087,069420,086272,093090
0000000090,0000089000,075034,082527,091688,071036,082953,094793
0000000091,0000090000,077043,079738,092469,073470,079781,095531
0000000092,0000091000,079598,077296,092356,076486,077063,095233
0000000093,0000092000,082444,075446,091359,079783,075070,093929
0000000094,0000093000,085292,074381,089576,083039,073998,091744
0000000095,0000094000,087878,074197,087174,085942,073949,088891
0000000096,0000095000,089951,074902,084396,088202,074926,085653
0000000097,0000096000,091293,076437,081520,089597,076838,082347
0000000098,0000097000,091776,078660,078813,089993,079496,079293
0000000099,0000098000,091364,081342,076543,089352,082640,076790
0000000100,0000099000,090094,084212,074942,087735,085959,075087
0000000101,0000100000,088078,087009,074161,085301,089132,074349
0000000102,0000101000,085521,089454,074274,082286,091849,074647
0000000103,0000102000,082683,091295,075270,078990,093841,075951
0000000104,0000103000,079832,092363,077054,075733,094914,078135
0000000105,0000104000,077239,092555,079455,072831,094963,080987
0000000106,0000105000,075173,091843,082233,070571,093985,084225
0000000107,0000106000,073832,090306,085110,069175,092076,087530
0000000108,0000107000,073341,088091,087816,068780,089418,090584
0000000109,0000108000,073757,085406,090086,069421,086273,093087
0000000110,0000109000,075031,082529,091688,071036,082955,094790
0000000111,0000110000,077039,079740,092469,073470,079783,095528
0000000112,0000111000,079597,077295,092357,076485,077065,095231
0000000113,0000112000,082442,075446,091361,079781,075073,093928
0000000114,0000113000,085288,074382,089578,083037,074001,091744
0000000115,0000114000,087878,074194,087176,085939,073951,088892
0000000116,0000115000,089952,074899,084398,088199,074928,085655
0000000117,0000116000,091291,076436,081522,089594,076838,082350
0000000118,0000117000,091777,078657,078815,089990,079495,079296
0000000119,0000118000,091368,081337,076544,089350,082638,076794
0000000120,0000119000,090095,084212,074942,087734,085957,075091
0000000121,0000120000,088081,087008,074160,085301,089129,074352
0000000122,0000121000,085526,089451,074272,082287,091845,074649
0000000123,0000122000,082685,091296,075268,078991,093838,075952
0000000124,0000123000,079832,092366,077051,075736,094911,078135
0000000125,0000124000,077242,092555,079452,072835,094961,080986
0000000126,0000125000,075174,091844,082230,070575,093984,084223
0000000127,0000126000,073830,090311,085108,069179,092075,087528
0000000128,0000127000,073340,088094,087814,068783,089418,090581
0000000129,0000128000,073755,085408,090086,069423,086275,093083
0000000130,0000129000,075027,082534,091689,071037,082958,094786
0000000131,0000130000,077036,079743,092471,073470,079786,095525
0000000132,0000131000,079595,077294,092359,076484,077069,095229
0000000133,0000132000,082438,075447,091364,079778,075077,093926
0000000134,0000133000,085285,074382,089581,083033,074005,091744
0000000135,0000134000,087878,074191,087180,085935,073954,088893
0000000136,0000135000,089951,074896,084402,088194,074931,085657
0000000137,0000136000,091291,076434,081524,089590,076839,082353
0000000138,0000137000,091780,078653,078816,089987,079495,079300
0000000139,0000138000,091371,081333,076545,089347,082637,076798
0000000140,0000139000,090097,084210,074941,087733,085954,075095
0000000141,0000140000,088085,087005,074159,085301,089124,074356
0000000142,0000141000,085531,089449,074269,082289,091841,074652
0000000143,0000142000,082688,091297,075264,078994,093834,075954
0000000144,0000143000,079835,092367,077047,075740,094907,078136
0000000145,0000144000,077245,092556,079448,072839,094957,080985
0000000146,0000145000,075174,091848,082227,070579,093982,084221
0000000147,0000146000,073828,090316,085104,069184,092074,087524
0000000148,0000147000,073340,088097,087812,068787,089419,090576
0000000149,0000148000,073752,085412,090085,069426,086278,093078
0000000150,0000149000,075021,082538,091689,071039,082962,094781
0000000151,0000150000,077032,079745,092472,073470,079791,095521
0000000152,0000151000,079591,077295,092362,076482,077075,095225
0000000153,0000152000,082433,075448,091368,079775,075083,093924
0000000154,0000153000,085282,074381,089586,083029,074009,091743
0000000155,0000154000,087877,074187,087185,085929,073958,088894
0000000156,0000155000,089949,074893,084406,088188,074933,085660
0000000157,0000156000,091291,076430,081528,089584,076840,082357
0000000158,0000157000,091784,078646,078819,089982,079494,079306
0000000159,0000158000,091374,081329,076546,089343,082634,076804
0000000160,0000159000,090101,084207,074941,087731,085950,075101
0000000161,0000160000,088091,087001,074156,085301,089119,074361
0000000162,0000161000,085536,089447,074266,082290,091835,074656
0000000163,0000162000,082691,091298,075260,078998,093827,075956
0000000164,0000163000,079839,092368,077041,075745,094901,078136
0000000165,0000164000,077248,092559,079442,072845,094953,080984
0000000166,0000165000,075173,091854,082222,070586,093979,084218
0000000167,0000166000,073827,090321,085100,069190,092073,087519
0000000168,0000167000,073338,088101,087809,068792,089419,090570
0000000169,0000168000,073747,085418,090084,069429,086281,093072
0000000170,0000169000,075016,082544,091690,071041,082966,094775
0000000171,0000170000,077028,079747,092475,073470,079797,095515
0000000172,0000171000,079585,077297,092366,076479,077082,095221
0000000173,0000172000,082427,075449,091373,079771,075090,093921
0000000174,0000173000,085279,074378,089592,083023,074016,091743
0000000175,0000174000,087875,074183,087191,085922,073963,088896
0000000176,0000175000,089948,074889,084412,088181,074937,085663
0000000177,0000176000,091293,076423,081532,089578,076841,082363
0000000178,0000177000,091787,078639,078822,089976,079493,079312
0000000179,0000178000,091378,081323,076547,089339,082631,076811
0000000180,0000179000,090107,084201,074940,087729,085944,075108
0000000181,0000180000,088099,086996,074154,085301,089112,074368
0000000182,0000181000,085542,089445,074262,082293,091828,074661
0000000183,0000182000,082697,091298,075254,079003,093820,075959
0000000184,0000183000,079845,092369,077035,075751,094894,078137
0000000185,0000184000,077251,092563,079436,072853,094947,080982
0000000186,0000185000,075173,091860,082215,070594,093975,084213
0000000187,0000186000,073827,090327,085095,069198,092071,087513
0000000188,0000187000,073335,088108,087806,068798,089421,090563
0000000189,0000188000,073741,085426,090082,069434,086284,093063
0000000190,0000189000,075009,082549,091690,071043,082972,094767
0000000191,0000190000,077021,079751,092478,073470,079805,095508
0000000192,0000191000,079577,077301,092371,076476,077090,095215
0000000193,0000192000,082420,075449,091380,079765,075098,093918
0000000194,0000193000,085275,074375,089599,083016,074024,091742
0000000195,0000194000,087871,074179,087199,085914,073970,088898
0000000196,0000195000,089946,074884,084419,088172,074941,085668
0000000197,0000196000,091296,076415,081538,089569,076843,082370
0000000198,0000197000,091791,078631,078827,089969,079492,079321
0000000199,0000198000,091383,081317,076549,089334,082627,076821
0000000200,0000199000,090115,084194,074939,087727,085938,075117
0000000201,0000200000,088107,086991,074151,085302,089104,074376
0000000202,0000201000,085549,089443,074256,082296,091818,074667
0000000203,0000202000,082704,091298,075247,079009,093810,075963
0000000204,0000203000,079851,092371,077027,075759,094885,078137
0000000205,0000204000,077254,092568,079427,072862,094940,080980
0000000206,0000205000,075174,091867,082207,070604,093970,084208
0000000207,0000206000,073826,090335,085088,069207,092069,087505
0000000208,0000207000,073330,088117,087801,068806,089422,090553
0000000209,0000208000,073734,085435,090080,069440,086289,093053
0000000210,0000209000,075002,082556,091691,071046,082979,094757
0000000211,0000210000,077012,079756,092481,073469,079814,095499
0000000212,0000211000,079568,077304,092377,076473,077101,095208
0000000213,0000212000,082413,075449,091387,079759,075109,093914
0000000214,0000213000,085269,074371,089608,083007,074033,091741
0000000215,0000214000,087866,074174,087208,085903,073977,088901
0000000216,0000215000,089946,074876,084427,088162,074946,085674
0000000217,0000216000,091298,076405,081545,089559,076845,082378
0000000218,0000217000,091795,078622,078831,089960,079490,079331
0000000219,0000218000,091390,081308,076551,089328,082622,076832
0000000220,0000219000,090125,084186,074938,087724,085930,075128
0000000221,0000220000,088117,086985,074147,085302,089094,074385
0000000222,0000221000,085558,089441,074250,082300,091807,074675
0000000223,0000222000,082713,091298,075238,079016,093799,075967
0000000224,0000223000,079858,092374,077017,075769,094875,078138
0000000225,0000224000,077257,092575,079417,072873,094932,080977
0000000226,0000225000,075176,091875,082198,070616,093964,084202
0000000227,0000226000,073824,090344,085080,069218,092067,087496
0000000228,0000227000,073324,088128,087796,068815,089424,090542
0000000229,0000228000,073726,085445,090078,069447,086294,093041
0000000230,0000229000,074993,082564,091692,071049,082988,094745
0000000231,0000230000,077001,079763,092486,073469,079825,095488
0000000232,0000231000,079557,077308,092384,076469,077113,095200
0000000233,0000232000,082404,075448,091397,079751,075121,093909
0000000234,0000233000,085261,074368,089619,082996,074045,091740
0000000235,0000234000,087861,074168,087219,085891,073987,088904
0000000236,0000235000,089945,074866,084438,088149,074952,085681
0000000237,0000236000,091301,076394,081554,089546,076847,082388
0000000238,0000237000,091800,078611,078837,089950,079489,079343
0000000239,0000238000,091399,081297,076554,089321,082616,076845
0000000240,0000239000,090136,084176,074937,087720,085921,075141
0000000241,0000240000,088128,086979,074142,085302,089082,074397
0000000242,0000241000,085570,089437,074242,082305,091794,074683
0000000243,0000242000,082724,091297,075228,079024,093785,075972
0000000244,0000243000,079866,092378,077005,075780,094862,078139
0000000245,0000244000,077262,092582,079405,072887,094922,080973
0000000246,0000245000,075178,091885,082186,070630,093958,084194
0000000247,0000246000,073821,090356,085071,069231,092065,087485
0000000248,0000247000,073318,088141,087790,068827,089426,090529
0000000249,0000248000,073717,085456,090075,069455,086300,093027
0000000250,0000249000,074981,082574,091693,071053,082998,094731
0000000251,0000250000,076988,079771,092491,073468,079838,095476
0000000252,0000251000,079544,077312,092393,076464,077127,095191
0000000253,0000252000,082393,075448,091408,079742,075136,093904
0000000254,0000253000,085252,074365,089632,082984,074058,091740
0000000255,0000254000,087856,074161,087232,085877,073997,088908
0000000256,0000255000,089944,074855,084450,088134,074959,085689
0000000257,0000256000,091303,076382,081564,089532,076850,082400
0000000258,0000257000,091807,078598,078844,089938,079486,079358
0000000259,0000258000,091409,081283,076556,089312,082609,076860
0000000260,0000259000,090148,084165,074936,087716,085910,075156
0000000261,0000260000,088141,086971,074137,085303,089069,074410
0000000262,0000261000,085584,089432,074233,082310,091778,074693
0000000263,0000262000,082737,091297,075216,079034,093770,075978
0000000264,0000263000,079875,092383,076991,075794,094848,078140
0000000265,0000264000,077268,092590,079391,072902,094910,080969
0000000266,0000265000,075180,091896,082173,070646,093950,084186
0000000267,0000266000,073818,090370,085060,069246,092063,087473
0000000268,0000267000,073311,088156,087782,068839,089428,090514
0000000269,0000268000,073707,085470,090072,069464,086308,093010
0000000270,0000269000,074968,082586,091695,071057,083009,094715
0000000271,0000270000,076973,079780,092496,073467,079853,095462
0000000272,0000271000,079530,077317,092403,076458,077144,095180
0000000273,0000272000,082380,075448,091421,079731,075152,093898
0000000274,0000273000,085241,074361,089647,082970,074073,091739
0000000275,0000274000,087850,074152,087247,085860,074009,088912
0000000276,0000275000,089942,074843,084464,088116,074967,085698
0000000277,0000276000,091306,076368,081576,089516,076852,082413
0000000278,0000277000,091814,078583,078852,089924,079484,079374
0000000279,0000278000,091421,081268,076560,089302,082602,076878
0000000280,0000279000,090162,084152,074935,087711,085898,075173
0000000281,0000280000,088157,086961,074130,085304,089053,074425
0000000282,0000281000,085600,089427,074222,082317,091760,074705
0000000283,0000282000,082750,091297,075202,079045,093752,075985
0000000284,0000283000,079886,092388,076975,075809,094832,078141
0000000285,0000284000,077276,092599,079374,072920,094897,080965
0000000286,0000285000,075182,091909,082158,070664,093942,084176
0000000287,0000286000,073815,090386,085048,069264,092060,087458
0000000288,0000287000,073303,088172,087773,068854,089431,090496
0000000289,0000288000,073695,085486,090068,069474,086316,092991
0000000290,0000289000,074952,082600,091697,071062,083023,094696
0000000291,0000290000,076956,079790,092503,073466,079870,095446
0000000292,0000291000,079514,077322,092414,076451,077163,095168
0000000293,0000292000,082364,075448,091436,079719,075172,093891
0000000294,0000293000,085229,074356,089664,082953,074091,091737
0000000295,0000294000,087842,074142,087265,085841,074023,088917
0000000296,0000295000,089940,074829,084480,088097,074976,085709
0000000297,0000296000,091309,076351,081589,089497,076856,082429
0000000298,0000297000,091823,078565,078861,089909,079480,079393
0000000299,0000298000,091434,081251,076564,089291,082592,076898
0000000300,0000299000,090178,084138,074933,087706,085883,075193
0000000301,0000300000,088175,086950,074123,085305,089034,074442
