DIgSILENT PowerFactory,21000900,2000
6,06A,00D
1,TTPP_200000_100:Secondary Voltage A,,,V,0.010000000,-71.428131,0.000000,-85628,99998,1,1,P
2,TTPP_200000_100:Secondary Voltage B,,,V,0.10000000,-8944.833984,0.000000,79897,99998,1,1,P
3,TTPP_200000_100:Secondary Voltage C,,,V,0.10000000,-8865.031250,0.000000,76177,99998,1,1,P
4,TTCC_300_1:Secondary Current A,,,A,0.00010000000,-3.385921,0.000000,-63686,99998,1,1,P
5,TTCC_300_1:Secondary Current B,,,A,0.00010000000,-4.973925,0.000000,-595,99998,1,1,P
6,TTCC_300_1:Secondary Current C,,,A,0.00010000000,-4.881803,0.000000,-2402,99998,1,1,P
50
1
1000.000000,1101
30/06/2023,06:04:19.000000
30/06/2023,06:04:19.000000
ASCII
1.000000
0000000001,0000000000,078208,090924,080069,012924,035756,083736
0000000002,0000001000,056857,093642,079484,022678,026474,083265
0000000003,0000002000,030477,095969,079795,033514,019480,079424
0000000004,0000003000,001895,097651,080972,044392,015434,072591
0000000005,0000004000,-26062,098514,082906,054237,014756,063423
0000000006,0000005000,-50942,098504,085402,062089,017504,052824
0000000007,0000006000,-70097,097613,088209,067178,023396,041842
0000000008,0000007000,-81563,095908,091061,068996,031877,031544
0000000009,0000008000,-84457,093575,093684,067377,042112,022927
0000000010,0000009000,-78467,090850,095811,062485,053084,016847
0000000011,0000010000,-63946,087975,097232,054791,063721,013904
0000000012,0000011000,-42419,085239,097816,045031,073009,014376
0000000013,0000012000,-16243,082933,097505,034181,080019,018216
0000000014,0000013000,012275,081257,096328,023321,084045,025051
0000000015,0000014000,040450,080372,094396,013475,084725,034217
0000000016,0000015000,065239,080390,091898,005613,081988,044816
0000000017,0000016000,084298,081292,089091,000533,076086,055798
0000000018,0000017000,095912,082982,086239,-01288,067608,066096
0000000019,0000018000,098779,085318,083617,000327,057375,074713
0000000020,0000019000,092642,088058,081490,005224,046401,080792
0000000021,0000020000,078270,090918,080068,012924,035757,083736
0000000022,0000021000,056818,093647,079484,022673,026479,083264
0000000023,0000022000,030422,095975,079796,033520,019473,079424
0000000024,0000023000,001956,097645,080972,044397,015430,072590
0000000025,0000024000,-26041,098512,082905,054235,014758,063423
0000000026,0000025000,-50969,098508,085402,062089,017504,052824
0000000027,0000026000,-70105,097614,088209,067179,023395,041843
0000000028,0000027000,-81560,095907,091061,068999,031873,031544
0000000029,0000028000,-84468,093575,093684,067380,042110,022927
0000000030,0000029000,-78446,090847,095810,062486,053083,016847
0000000031,0000030000,-63933,087974,097232,054791,063721,013904
0000000032,0000031000,-42477,085244,097817,045033,073008,014376
0000000033,0000032000,-16242,082932,097505,034189,080012,018215
0000000034,0000033000,012332,081252,096328,023322,084045,025050
0000000035,0000034000,040436,080374,094396,013472,084728,034216
0000000036,0000035000,065194,080394,091899,005617,081985,044815
0000000037,0000036000,084318,081290,089091,000537,076083,055796
0000000038,0000037000,095940,082980,086239,-01285,067607,066094
0000000039,0000038000,098761,085320,083617,000327,057378,074712
0000000040,0000039000,092651,088058,081490,005225,046400,080791
0000000041,0000040000,078272,090917,080068,012924,035758,083735
0000000042,0000041000,056797,093649,079484,022675,026479,083263
0000000043,0000042000,030444,095973,079795,033523,019471,079423
0000000044,0000043000,001985,097643,080972,044394,015433,072589
0000000045,0000044000,-26077,098516,082905,054234,014759,063423
0000000046,0000045000,-50992,098510,085402,062092,017500,052824
0000000047,0000046000,-70060,097610,088209,067180,023393,041843
0000000048,0000047000,-81558,095907,091061,068997,031875,031545
0000000049,0000048000,-84504,093579,093684,067380,042109,022928
0000000050,0000049000,-78440,090847,095810,062490,053079,016848
0000000051,0000050000,-63921,087973,097232,054792,063719,013905
0000000052,0000051000,-42494,085246,097817,045034,073006,014376
0000000053,0000052000,-16236,082931,097505,034191,080009,018216
0000000054,0000053000,012339,081251,096329,023324,084044,025049
0000000055,0000054000,040404,080376,094396,013476,084725,034215
0000000056,0000055000,065200,080394,091899,005622,081982,044813
0000000057,0000056000,084353,081286,089091,000539,076084,055794
0000000058,0000057000,095922,082981,086240,-01285,067609,066092
0000000059,0000058000,098736,085323,083617,000331,057377,074709
0000000060,0000059000,092682,088054,081490,005229,046400,080788
0000000061,0000060000,078290,090916,080068,012923,035761,083732
0000000062,0000061000,056777,093651,079484,022674,026482,083261
0000000063,0000062000,030456,095972,079795,033523,019472,079422
0000000064,0000063000,001998,097642,080972,044392,015435,072589
0000000065,0000064000,-26090,098518,082905,054233,014760,063423
0000000066,0000065000,-50982,098510,085401,062090,017501,052825
0000000067,0000066000,-70045,097609,088208,067177,023394,041846
0000000068,0000067000,-81585,095910,091061,068995,031874,031548
0000000069,0000068000,-84517,093580,093684,067381,042105,022931
0000000070,0000069000,-78414,090844,095810,062490,053075,016852
0000000071,0000070000,-63934,087974,097233,054791,063718,013908
0000000072,0000071000,-42527,085248,097818,045037,073001,014378
0000000073,0000072000,-16226,082930,097506,034196,080004,018217
0000000074,0000073000,012346,081249,096329,023327,084041,025049
0000000075,0000074000,040384,080377,094397,013481,084722,034214
0000000076,0000075000,065204,080393,091900,005628,081979,044811
0000000077,0000076000,084365,081284,089092,000543,076083,055790
0000000078,0000077000,095908,082982,086240,-01281,067609,066087
0000000079,0000078000,098746,085322,083617,000335,057377,074704
0000000080,0000079000,092711,088052,081490,005230,046403,080783
0000000081,0000080000,078282,090917,080068,012923,035767,083728
0000000082,0000081000,056771,093652,079483,022674,026485,083257
0000000083,0000082000,030488,095970,079794,033521,019476,079420
0000000084,0000083000,002008,097641,080971,044387,015441,072588
0000000085,0000084000,-26108,098520,082904,054228,014764,063424
0000000086,0000085000,-50971,098510,085400,062086,017502,052828
0000000087,0000086000,-70036,097609,088208,067172,023395,041850
0000000088,0000087000,-81606,095913,091061,068990,031873,031553
0000000089,0000088000,-84520,093581,093683,067379,042102,022937
0000000090,0000089000,-78411,090844,095810,062488,053071,016857
0000000091,0000090000,-63961,087976,097233,054791,063712,013913
0000000092,0000091000,-42542,085249,097818,045041,072993,014382
0000000093,0000092000,-16215,082928,097507,034200,079997,018219
0000000094,0000093000,012329,081249,096331,023332,084036,025049
0000000095,0000094000,040361,080379,094398,013489,084716,034212
0000000096,0000095000,065219,080390,091901,005636,081974,044807
0000000097,0000096000,084374,081282,089093,000550,076082,055785
0000000098,0000097000,095897,082982,086241,-01274,067610,066080
0000000099,0000098000,098761,085320,083617,000341,057379,074696
0000000100,0000099000,092735,088049,081490,005232,046409,080776
0000000101,0000100000,078282,090917,080067,012923,035774,083721
0000000102,0000101000,056787,093652,079482,022673,026492,083252
0000000103,0000102000,030515,095968,079793,033516,019484,079416
0000000104,0000103000,002005,097643,080969,044379,015449,072587
0000000105,0000104000,-26110,098522,082902,054221,014769,063426
0000000106,0000105000,-50951,098510,085399,062078,017505,052833
0000000107,0000106000,-70041,097610,088207,067162,023398,041856
0000000108,0000107000,-81630,095916,091060,068984,031872,031561
0000000109,0000108000,-84522,093582,093683,067374,042097,022946
0000000110,0000109000,-78419,090844,095810,062485,053065,016866
0000000111,0000110000,-63993,087978,097234,054791,063704,013921
0000000112,0000111000,-42556,085250,097819,045046,072982,014388
0000000113,0000112000,-16220,082927,097508,034206,079987,018223
0000000114,0000113000,012305,081250,096333,023340,084027,025050
0000000115,0000114000,040351,080378,094400,013500,084708,034209
0000000116,0000115000,065232,080387,091902,005647,081969,044801
0000000117,0000116000,084371,081281,089095,000559,076081,055776
0000000118,0000117000,095896,082982,086242,-01264,067611,066070
0000000119,0000118000,098790,085317,083618,000348,057383,074685
0000000120,0000119000,092756,088047,081490,005235,046417,080764
0000000121,0000120000,078289,090917,080067,012923,035783,083710
0000000122,0000121000,056814,093651,079480,022670,026503,083244
0000000123,0000122000,030543,095968,079791,033509,019497,079411
0000000124,0000123000,002009,097645,080967,044370,015461,072586
0000000125,0000124000,-26100,098524,082900,054210,014777,063429
0000000126,0000125000,-50938,098510,085397,062065,017512,052839
0000000127,0000126000,-70055,097613,088205,067150,023401,041866
0000000128,0000127000,-81647,095919,091058,068975,031869,031573
0000000129,0000128000,-84527,093583,093682,067367,042091,022959
0000000130,0000129000,-78444,090846,095811,062480,053057,016880
0000000131,0000130000,-64030,087981,097235,054792,063691,013932
0000000132,0000131000,-42571,085249,097821,045051,072968,014397
0000000133,0000132000,-16236,082926,097511,034214,079974,018228
0000000134,0000133000,012276,081250,096335,023352,084014,025051
0000000135,0000134000,040343,080376,094402,013515,084696,034206
0000000136,0000135000,065238,080384,091905,005662,081962,044794
0000000137,0000136000,084368,081279,089097,000573,076078,055765
0000000138,0000137000,095908,082979,086243,-01251,067612,066056
0000000139,0000138000,098822,085313,083618,000357,057390,074669
0000000140,0000139000,092777,088046,081490,005239,046429,080749
0000000141,0000140000,078310,090917,080065,012923,035797,083697
0000000142,0000141000,056853,093649,079478,022665,026518,083233
0000000143,0000142000,030569,095967,079788,033498,019513,079405
0000000144,0000143000,002018,097647,080964,044356,015475,072585
0000000145,0000144000,-26081,098525,082896,054195,014789,063433
0000000146,0000145000,-50928,098512,085394,062048,017520,052848
0000000147,0000146000,-70072,097617,088203,067134,023404,041879
0000000148,0000147000,-81663,095922,091057,068961,031866,031589
0000000149,0000148000,-84542,093585,093682,067357,042083,022977
0000000150,0000149000,-78481,090850,095811,062475,053045,016897
0000000151,0000150000,-64067,087983,097236,054793,063675,013948
0000000152,0000151000,-42594,085250,097823,045057,072949,014410
0000000153,0000152000,-16269,082926,097514,034225,079955,018236
0000000154,0000153000,012244,081250,096338,023368,083996,025053
0000000155,0000154000,040337,080373,094406,013534,084682,034201
0000000156,0000155000,065238,080381,091908,005681,081953,044783
0000000157,0000156000,084366,081277,089100,000592,076075,055750
0000000158,0000157000,095930,082975,086245,-01235,067614,066037
0000000159,0000158000,098857,085309,083619,000368,057399,074649
0000000160,0000159000,092803,088043,081489,005245,046443,080729
0000000161,0000160000,078347,090915,080064,012924,035815,083679
0000000162,0000161000,056900,093647,079476,022658,026539,083220
0000000163,0000162000,030598,095968,079785,033485,019535,079397
0000000164,0000163000,002039,097649,080960,044339,015495,072583
0000000165,0000164000,-26056,098526,082892,054174,014805,063438
0000000166,0000165000,-50925,098515,085390,062025,017531,052859
0000000167,0000166000,-70089,097622,088200,067113,023408,041896
0000000168,0000167000,-81678,095926,091054,068944,031863,031610
0000000169,0000168000,-84569,093589,093681,067343,042074,023000
0000000170,0000169000,-78529,090854,095812,062468,053029,016920
0000000171,0000170000,-64109,087986,097238,054794,063654,013968
0000000172,0000171000,-42630,085250,097826,045065,072926,014425
0000000173,0000172000,-16313,082927,097518,034240,079932,018245
0000000174,0000173000,012211,081249,096343,023389,083973,025055
0000000175,0000174000,040327,080370,094410,013558,084664,034196
0000000176,0000175000,065231,080377,091913,005706,081941,044770
0000000177,0000176000,084370,081273,089103,000617,076069,055730
0000000178,0000177000,095961,082970,086247,-01214,067617,066013
0000000179,0000178000,098894,085304,083620,000383,057410,074623
0000000180,0000179000,092840,088040,081489,005253,046461,080703
0000000181,0000180000,078399,090911,080061,012923,035837,083656
0000000182,0000181000,056953,093645,079473,022649,026566,083202
0000000183,0000182000,030634,095969,079781,033469,019562,079386
0000000184,0000183000,002072,097651,080955,044317,015519,072580
0000000185,0000184000,-26029,098529,082887,054147,014825,063444
0000000186,0000185000,-50924,098520,085386,061997,017545,052874
0000000187,0000186000,-70105,097628,088196,067086,023413,041917
0000000188,0000187000,-81698,095931,091052,068921,031859,031637
0000000189,0000188000,-84610,093594,093680,067327,042062,023028
0000000190,0000189000,-78585,090859,095812,062460,053009,016948
0000000191,0000190000,-64159,087989,097240,054796,063627,013993
0000000192,0000191000,-42681,085251,097830,045075,072897,014445
0000000193,0000192000,-16368,082927,097523,034258,079902,018256
0000000194,0000193000,012175,081247,096348,023414,083945,025057
0000000195,0000194000,040309,080366,094416,013587,084641,034189
0000000196,0000195000,065220,080373,091918,005736,081926,044754
0000000197,0000196000,084382,081267,089107,000647,076063,055706
0000000198,0000197000,095997,082963,086250,-01189,067621,065984
0000000199,0000198000,098936,085298,083621,000401,057424,074591
0000000200,0000199000,092891,088036,081488,005262,046483,080672
0000000201,0000200000,078466,090907,080059,012923,035866,083628
0000000202,0000201000,057014,093643,079469,022638,026598,083181
0000000203,0000202000,030681,095969,079775,033448,019595,079373
0000000204,0000203000,002117,097652,080949,044290,015549,072578
0000000205,0000204000,-26000,098532,082881,054115,014849,063452
0000000206,0000205000,-50924,098526,085380,061963,017562,052892
0000000207,0000206000,-70119,097634,088191,067054,023419,041943
0000000208,0000207000,-81726,095937,091049,068893,031854,031669
0000000209,0000208000,-84663,093600,093679,067307,042047,023064
0000000210,0000209000,-78649,090865,095813,062450,052984,016983
0000000211,0000210000,-64221,087992,097243,054797,063596,014024
0000000212,0000211000,-42748,085253,097835,045087,072861,014468
0000000213,0000212000,-16431,082928,097529,034281,079865,018270
0000000214,0000213000,012134,081244,096355,023445,083912,025060
0000000215,0000214000,040283,080361,094423,013623,084614,034180
0000000216,0000215000,065209,080368,091924,005774,081908,044734
0000000217,0000216000,084399,081261,089112,000683,076056,055678
0000000218,0000217000,096037,082956,086254,-01159,067626,065949
0000000219,0000218000,098986,085292,083623,000422,057441,074553
0000000220,0000219000,092957,088030,081487,005273,046509,080634
0000000221,0000220000,078545,090903,080056,012922,035900,083595
0000000222,0000221000,057085,093641,079464,022624,026638,083155
0000000223,0000222000,030743,095970,079769,033424,019635,079358
0000000224,0000223000,002172,097654,080941,044256,015585,072575
0000000225,0000224000,-25968,098536,082874,054075,014879,063462
0000000226,0000225000,-50921,098532,085373,061922,017581,052913
0000000227,0000226000,-70134,097641,088185,067015,023426,041975
0000000228,0000227000,-81763,095944,091045,068860,031849,031708
0000000229,0000228000,-84727,093608,093677,067283,042029,023106
0000000230,0000229000,-78723,090871,095814,062439,052954,017024
0000000231,0000230000,-64297,087996,097246,054798,063558,014061
0000000232,0000231000,-42831,085256,097840,045101,072819,014496
0000000233,0000232000,-16504,082928,097536,034307,079822,018287
0000000234,0000233000,012083,081241,096363,023481,083872,025063
0000000235,0000234000,040248,080356,094431,013665,084583,034169
0000000236,0000235000,065197,080361,091932,005819,081887,044711
0000000237,0000236000,084421,081252,089119,000725,076048,055643
0000000238,0000237000,096082,082947,086258,-01123,067632,065907
0000000239,0000238000,099046,085284,083625,000448,057461,074507
0000000240,0000239000,093039,088023,081486,005287,046541,080589
0000000241,0000240000,078636,090897,080052,012920,035942,083555
0000000242,0000241000,057168,093638,079458,022608,026684,083124
0000000243,0000242000,030819,095970,079761,033396,019681,079340
0000000244,0000243000,002236,097657,080933,044217,015628,072571
0000000245,0000244000,-25933,098542,082865,054029,014914,063473
0000000246,0000245000,-50914,098540,085364,061874,017604,052939
0000000247,0000246000,-70150,097650,088178,066970,023435,042012
0000000248,0000247000,-81810,095954,091040,068821,031842,031753
0000000249,0000248000,-84800,093617,093675,067255,042007,023155
0000000250,0000249000,-78808,090879,095815,062425,052919,017072
0000000251,0000250000,-64391,088002,097250,054799,063514,014103
0000000252,0000251000,-42929,085260,097846,045118,072769,014529
0000000253,0000252000,-16588,082928,097544,034339,079771,018306
0000000254,0000253000,012020,081238,096373,023524,083826,025067
0000000255,0000254000,040205,080351,094441,013715,084546,034157
0000000256,0000255000,065185,080353,091941,005871,081862,044683
0000000257,0000256000,084446,081242,089126,000775,076039,055603
0000000258,0000257000,096131,082937,086263,-01081,067640,065857
0000000259,0000258000,099119,085275,083627,000478,057484,074453
0000000260,0000259000,093137,088015,081485,005302,046578,080537
0000000261,0000260000,078740,090891,080048,012918,035990,083509
0000000262,0000261000,057267,093635,079451,022590,026738,083089
0000000263,0000262000,030912,095970,079752,033362,019735,079319
0000000264,0000263000,002310,097660,080922,044171,015678,072568
0000000265,0000264000,-25892,098548,082854,053975,014954,063487
0000000266,0000265000,-50903,098549,085355,061818,017630,052968
0000000267,0000266000,-70170,097660,088170,066917,023444,042056
0000000268,0000267000,-81866,095965,091035,068776,031835,031806
0000000269,0000268000,-84883,093628,093673,067223,041982,023212
0000000270,0000269000,-78906,090887,095816,062409,052879,017128
0000000271,0000270000,-64503,088008,097255,054801,063462,014152
0000000272,0000271000,-43042,085263,097854,045139,072711,014566
0000000273,0000272000,-16684,082928,097554,034376,079713,018328
0000000274,0000273000,011944,081234,096384,023573,083773,025071
0000000275,0000274000,040154,080344,094453,013772,084503,034142
0000000276,0000275000,065173,080344,091951,005932,081834,044651
0000000277,0000276000,084472,081231,089135,000832,076028,055556
0000000278,0000277000,096187,082925,086269,-01033,067649,065801
0000000279,0000278000,099206,085263,083629,000513,057511,074392
0000000280,0000279000,093248,088005,081484,005318,046621,080477
0000000281,0000280000,078859,090884,080043,012915,036045,083457
0000000282,0000281000,057384,093632,079443,022568,026800,083049
0000000283,0000282000,031020,095970,079741,033323,019798,079296
0000000284,0000283000,002393,097663,080910,044118,015735,072563
0000000285,0000284000,-25842,098556,082842,053914,015000,063502
0000000286,0000285000,-50888,098559,085343,061754,017660,053003
0000000287,0000286000,-70193,097672,088161,066856,023455,042106
0000000288,0000287000,-81930,095978,091028,068725,031825,031867
0000000289,0000288000,-84977,093640,093670,067187,041952,023278
0000000290,0000289000,-79020,090897,095817,062391,052833,017192
0000000291,0000290000,-64633,088016,097260,054804,063403,014209
0000000292,0000291000,-43170,085268,097862,045162,072645,014609
0000000293,0000292000,-16795,082928,097565,034417,079646,018353
0000000294,0000293000,011855,081230,096397,023629,083712,025075
0000000295,0000294000,040095,080337,094466,013838,084454,034125
0000000296,0000295000,065160,080333,091964,006000,081802,044614
0000000297,0000296000,084500,081218,089145,000896,076017,055503
0000000298,0000297000,096250,082912,086276,-00979,067659,065736
0000000299,0000298000,099306,085250,083632,000552,057542,074322
0000000300,0000299000,093374,087993,081482,005337,046670,080409
0000000301,0000300000,078994,090875,080038,012912,036108,083397
