DIgSILENT PowerFactory,21000900,2000
6,06A,00D
1,TTPP_200000_100:Secondary Voltage A,,,V,0.10000000,-8595.379883,0.000000,70906,99998,1,1,P
2,TTPP_200000_100:Secondary Voltage B,,,V,0.10000000,-8395.789063,0.000000,67453,99998,1,1,P
3,TTPP_200000_100:Secondary Voltage C,,,V,0.10000000,-8469.980469,0.000000,69698,99998,1,1,P
4,TTCC_500_5:Secondary Current A,,,A,0.0010000000,-87.027802,0.000000,68546,99998,1,1,P
5,TTCC_500_5:Secondary Current B,,,A,0.0010000000,-85.121597,0.000000,70230,99998,1,1,P
6,TTCC_500_5:Secondary Current C,,,A,0.0010000000,-84.580322,0.000000,69241,99998,1,1,P
50
1
1000.000000,1101
30/06/2023,06:07:25.000000
30/06/2023,06:07:25.000000
ASCII
1.000000
0000000001,0000000000,091466,087598,075547,092944,089801,073985
0000000002,0000001000,088918,090032,075661,089929,092517,074284
0000000003,0000002000,086067,091887,076660,086629,094512,075589
0000000004,0000003000,083221,092948,078442,083374,095581,077775
0000000005,0000004000,080637,093131,080844,080469,095631,080629
0000000006,0000005000,078565,092424,083622,078209,094653,083869
0000000007,0000006000,077218,090894,086497,076815,092740,087175
0000000008,0000007000,076745,088663,089203,076419,090080,090230
0000000009,0000008000,077153,085986,091472,077061,086936,092733
0000000010,0000009000,078421,083118,093073,078678,083615,094436
0000000011,0000010000,080441,080320,093852,081116,080440,095174
0000000012,0000011000,083002,077871,093738,084130,077725,094875
0000000013,0000012000,085830,076040,092741,087429,075731,093570
0000000014,0000013000,088684,074969,090957,090687,074658,091384
0000000015,0000014000,091282,074774,088556,093589,074610,088530
0000000016,0000015000,093341,075493,085778,095848,075591,085291
0000000017,0000016000,094677,077033,082902,097246,077500,081984
0000000018,0000017000,095175,079240,080197,097640,080161,078929
0000000019,0000018000,094756,081928,077927,096996,083307,076426
0000000020,0000019000,093474,084810,076327,095380,086627,074723
0000000021,0000020000,091472,087592,075548,092946,089798,073986
0000000022,0000021000,088917,090033,075661,089926,092519,074284
0000000023,0000022000,086065,091888,076658,086629,094511,075589
0000000024,0000023000,083221,092949,078442,083373,095582,077775
0000000025,0000024000,080639,093129,080844,080469,095631,080629
0000000026,0000025000,078561,092429,083622,078208,094653,083869
0000000027,0000026000,077222,090892,086497,076815,092740,087175
0000000028,0000027000,076743,088664,089203,076419,090081,090230
0000000029,0000028000,077153,085986,091472,077060,086936,092733
0000000030,0000029000,078421,083118,093072,078678,083615,094436
0000000031,0000030000,080442,080318,093852,081115,080441,095174
0000000032,0000031000,082998,077876,093739,084130,077724,094875
0000000033,0000032000,085833,076038,092741,087428,075731,093570
0000000034,0000033000,088686,074968,090957,090687,074658,091385
0000000035,0000034000,091278,074777,088556,093588,074611,088531
0000000036,0000035000,093339,075494,085778,095849,075590,085291
0000000037,0000036000,094682,077028,082902,097244,077501,081985
0000000038,0000037000,095173,079242,080197,097639,080161,078930
0000000039,0000038000,094753,081931,077928,096996,083307,076427
0000000040,0000039000,093479,084806,076327,095380,086626,074724
0000000041,0000040000,091473,087591,075547,092944,089800,073986
0000000042,0000041000,088912,090038,075661,089927,092518,074284
0000000043,0000042000,086067,091886,076658,086630,094510,075590
0000000044,0000043000,083225,092944,078442,083372,095582,077775
0000000045,0000044000,080634,093134,080844,080469,095632,080629
0000000046,0000045000,078560,092430,083621,078209,094652,083868
0000000047,0000046000,077227,090888,086497,076814,092740,087175
0000000048,0000047000,076742,088666,089203,076418,090082,090230
0000000049,0000048000,077148,085991,091472,077060,086936,092733
0000000050,0000049000,078426,083114,093072,078679,083615,094436
0000000051,0000050000,080443,080317,093852,081113,080443,095174
0000000052,0000051000,082993,077880,093739,084129,077725,094875
0000000053,0000052000,085834,076036,092742,087428,075731,093570
0000000054,0000053000,088689,074964,090958,090685,074659,091385
0000000055,0000054000,091274,074780,088557,093587,074612,088531
0000000056,0000055000,093339,075494,085778,095848,075590,085292
0000000057,0000056000,094685,077024,082902,097244,077501,081985
0000000058,0000057000,095172,079243,080197,097638,080161,078931
0000000059,0000058000,094751,081933,077928,096996,083306,076427
0000000060,0000059000,093483,084802,076327,095380,086625,074724
0000000061,0000060000,091473,087590,075547,092943,089800,073987
0000000062,0000061000,088910,090041,075661,089927,092518,074285
0000000063,0000062000,086070,091884,076657,086630,094509,075590
0000000064,0000063000,083227,092944,078441,083372,095582,077775
0000000065,0000064000,080632,093137,080843,080469,095632,080629
0000000066,0000065000,078562,092429,083620,078210,094652,083868
0000000067,0000066000,077228,090887,086497,076815,092740,087174
0000000068,0000067000,076739,088670,089203,076418,090082,090229
0000000069,0000068000,077148,085991,091472,077061,086936,092732
0000000070,0000069000,078427,083112,093072,078678,083616,094435
0000000071,0000070000,080440,080319,093853,081113,080444,095173
0000000072,0000071000,082991,077881,093739,084129,077726,094875
0000000073,0000072000,085836,076034,092742,087427,075733,093570
0000000074,0000073000,088687,074965,090959,090684,074661,091385
0000000075,0000074000,091272,074782,088557,093586,074612,088531
0000000076,0000075000,093341,075491,085779,095847,075590,085292
0000000077,0000076000,094686,077023,082903,097242,077502,081986
0000000078,0000077000,095169,079245,080198,097637,080161,078932
0000000079,0000078000,094754,081930,077928,096995,083305,076429
0000000080,0000079000,093485,084799,076327,095379,086625,074726
0000000081,0000080000,091472,087593,075547,092943,089799,073988
0000000082,0000081000,088911,090040,075660,089928,092516,074286
0000000083,0000082000,086074,091881,076656,086631,094508,075591
0000000084,0000083000,083226,092946,078440,083373,095581,077775
0000000085,0000084000,080631,093139,080842,080471,095630,080628
0000000086,0000085000,078565,092428,083619,078211,094651,083867
0000000087,0000086000,077227,090888,086496,076816,092741,087173
0000000088,0000087000,076736,088674,089202,076420,090082,090227
0000000089,0000088000,077149,085991,091471,077062,086937,092730
0000000090,0000089000,078427,083112,093073,078678,083618,094434
0000000091,0000090000,080435,080323,093853,081112,080446,095172
0000000092,0000091000,082990,077881,093740,084129,077727,094874
0000000093,0000092000,085836,076031,092744,087426,075735,093569
0000000094,0000093000,088684,074966,090961,090682,074663,091385
0000000095,0000094000,091270,074782,088559,093584,074614,088532
0000000096,0000095000,093344,075487,085781,095845,075591,085294
0000000097,0000096000,094685,077022,082905,097239,077503,081988
0000000098,0000097000,095168,079245,080198,097635,080161,078934
0000000099,0000098000,094757,081926,077928,096994,083304,076431
0000000100,0000099000,093487,084797,076327,095378,086624,074728
0000000101,0000100000,091472,087593,075546,092943,089797,073990
0000000102,0000101000,088914,090039,075658,089929,092514,074288
0000000103,0000102000,086077,091880,076655,086632,094506,075592
0000000104,0000103000,083225,092948,078438,083375,095579,077776
0000000105,0000104000,080633,093140,080839,080474,095628,080628
0000000106,0000105000,078567,092428,083617,078214,094650,083866
0000000107,0000106000,077225,090892,086494,076818,092741,087171
0000000108,0000107000,076734,088677,089200,076422,090083,090225
0000000109,0000108000,077149,085991,091471,077064,086938,092728
0000000110,0000109000,078424,083115,093073,078679,083620,094431
0000000111,0000110000,080432,080326,093854,081112,080448,095169
0000000112,0000111000,082990,077880,093742,084128,077730,094872
0000000113,0000112000,085834,076031,092746,087423,075738,093568
0000000114,0000113000,088681,074967,090963,090679,074666,091385
0000000115,0000114000,091271,074779,088561,093581,074616,088533
0000000116,0000115000,093344,075484,085783,095841,075593,085295
0000000117,0000116000,094684,077021,082907,097236,077503,081990
0000000118,0000117000,095170,079242,080200,097633,080160,078937
0000000119,0000118000,094761,081922,077929,096992,083303,076434
0000000120,0000119000,093488,084796,076327,095377,086622,074731
0000000121,0000120000,091474,087593,075545,092943,089794,073993
0000000122,0000121000,088919,090036,075657,089930,092510,074290
0000000123,0000122000,086079,091880,076652,086634,094503,075593
0000000124,0000123000,083226,092951,078435,083378,095576,077776
0000000125,0000124000,080635,093140,080836,080477,095626,080627
0000000126,0000125000,078567,092430,083615,078217,094649,083864
0000000127,0000126000,077223,090896,086492,076821,092740,087168
0000000128,0000127000,076733,088679,089199,076425,090083,090222
0000000129,0000128000,077148,085993,091470,077065,086940,092724
0000000130,0000129000,078419,083119,093073,078679,083623,094427
0000000131,0000130000,080428,080328,093855,081113,080451,095166
0000000132,0000131000,082988,077880,093744,084126,077734,094869
0000000133,0000132000,085830,076032,092749,087421,075742,093567
0000000134,0000133000,088678,074967,090966,090676,074669,091384
0000000135,0000134000,091271,074776,088565,093577,074619,088534
0000000136,0000135000,093344,075481,085787,095837,075595,085298
0000000137,0000136000,094683,077019,082909,097232,077504,081994
0000000138,0000137000,095173,079237,080202,097629,080159,078941
0000000139,0000138000,094764,081918,077930,096989,083302,076439
0000000140,0000139000,093490,084794,076326,095375,086619,074736
0000000141,0000140000,091478,087590,075543,092944,089789,073997
0000000142,0000141000,088924,090033,075654,089931,092506,074293
0000000143,0000142000,086081,091882,076649,086636,094499,075595
0000000144,0000143000,083228,092952,078431,083382,095571,077776
0000000145,0000144000,080638,093141,080832,080482,095622,080626
0000000146,0000145000,078567,092434,083611,078222,094647,083862
0000000147,0000146000,077221,090901,086489,076826,092739,087165
0000000148,0000147000,076733,088682,089196,076429,090083,090217
0000000149,0000148000,077145,085997,091469,077068,086943,092719
0000000150,0000149000,078414,083124,093074,078681,083627,094422
0000000151,0000150000,080425,080330,093857,081113,080456,095161
0000000152,0000151000,082984,077881,093747,084124,077740,094866
0000000153,0000152000,085825,076033,092753,087417,075748,093565
0000000154,0000153000,088675,074966,090971,090671,074674,091384
0000000155,0000154000,091270,074772,088570,093572,074623,088535
0000000156,0000155000,093342,075478,085791,095831,075598,085301
0000000157,0000156000,094684,077015,082913,097227,077505,081998
0000000158,0000157000,095176,079231,080204,097625,080159,078946
0000000159,0000158000,094767,081913,077931,096986,083299,076445
0000000160,0000159000,093494,084791,076326,095374,086615,074742
0000000161,0000160000,091484,087586,075541,092944,089784,074002
0000000162,0000161000,088929,090031,075651,089933,092500,074297
0000000163,0000162000,086084,091883,076644,086640,094492,075597
0000000164,0000163000,083233,092953,078426,083387,095566,077777
0000000165,0000164000,080641,093144,080827,080488,095618,080625
0000000166,0000165000,078567,092439,083606,078228,094644,083858
0000000167,0000166000,077220,090907,086484,076832,092738,087160
0000000168,0000167000,076731,088687,089194,076434,090084,090211
0000000169,0000168000,077140,086003,091468,077072,086946,092712
0000000170,0000169000,078408,083129,093074,078683,083631,094415
0000000171,0000170000,080420,080332,093859,081112,080462,095156
0000000172,0000171000,082978,077883,093751,084122,077747,094861
0000000173,0000172000,085819,076034,092758,087413,075755,093562
0000000174,0000173000,088672,074963,090977,090666,074681,091383
0000000175,0000174000,091267,074768,088576,093565,074628,088537
0000000176,0000175000,093340,075474,085797,095824,075602,085304
0000000177,0000176000,094686,077008,082918,097220,077506,082004
0000000178,0000177000,095180,079224,080208,097619,080158,078953
0000000179,0000178000,094771,081908,077933,096981,083296,076452
0000000180,0000179000,093500,084786,076325,095372,086609,074749
0000000181,0000180000,091492,087581,075539,092944,089777,074008
0000000182,0000181000,088935,090030,075646,089935,092493,074302
0000000183,0000182000,086090,091883,076639,086645,094485,075600
0000000184,0000183000,083238,092954,078419,083394,095558,077777
0000000185,0000184000,080644,093148,080820,080495,095612,080623
0000000186,0000185000,078567,092445,083599,078236,094640,083854
0000000187,0000186000,077220,090913,086479,076840,092736,087153
0000000188,0000187000,076728,088693,089190,076441,090086,090203
0000000189,0000188000,077134,086011,091467,077076,086949,092704
0000000190,0000189000,078402,083135,093075,078685,083637,094407
0000000191,0000190000,080413,080336,093862,081112,080470,095148
0000000192,0000191000,082970,077886,093756,084119,077755,094856
0000000193,0000192000,085812,076035,092764,087408,075763,093559
0000000194,0000193000,088667,074960,090984,090658,074688,091383
0000000195,0000194000,091264,074764,088584,093556,074635,088539
0000000196,0000195000,093339,075469,085804,095815,075606,085309
0000000197,0000196000,094688,077000,082923,097211,077508,082011
0000000198,0000197000,095184,079216,080212,097611,080157,078962
0000000199,0000198000,094776,081901,077934,096976,083292,076461
0000000200,0000199000,093508,084779,076324,095369,086603,074758
0000000201,0000200000,091500,087576,075536,092944,089769,074016
0000000202,0000201000,088942,090028,075641,089938,092483,074308
0000000203,0000202000,086097,091883,076631,086651,094475,075604
0000000204,0000203000,083244,092956,078411,083402,095550,077778
0000000205,0000204000,080647,093153,080812,080504,095605,080620
0000000206,0000205000,078567,092453,083592,078246,094635,083849
0000000207,0000206000,077219,090920,086473,076849,092734,087146
0000000208,0000207000,076723,088702,089186,076448,090087,090194
0000000209,0000208000,077127,086020,091465,077082,086954,092694
0000000210,0000209000,078395,083141,093076,078688,083644,094397
0000000211,0000210000,080405,080341,093866,081111,080479,095140
0000000212,0000211000,082960,077890,093762,084115,077766,094849
0000000213,0000212000,085805,076034,092772,087401,075774,093555
0000000214,0000213000,088661,074957,090993,090649,074698,091382
0000000215,0000214000,091259,074759,088593,093546,074642,088542
0000000216,0000215000,093338,075461,085812,095804,075611,085315
0000000217,0000216000,094691,076990,082931,097201,077510,082019
0000000218,0000217000,095188,079207,080217,097603,080155,078972
0000000219,0000218000,094783,081892,077936,096970,083287,076473
0000000220,0000219000,093518,084770,076323,095366,086595,074769
0000000221,0000220000,091510,087570,075532,092944,089759,074026
0000000222,0000221000,088952,090025,075634,089942,092472,074315
0000000223,0000222000,086106,091882,076623,086658,094463,075608
0000000224,0000223000,083251,092959,078401,083411,095540,077779
0000000225,0000224000,080651,093160,080802,080516,095597,080618
0000000226,0000225000,078569,092461,083582,078258,094629,083843
0000000227,0000226000,077217,090929,086465,076861,092732,087137
0000000228,0000227000,076717,088714,089180,076458,090089,090183
0000000229,0000228000,077119,086030,091462,077089,086959,092682
0000000230,0000229000,078385,083149,093077,078692,083653,094386
0000000231,0000230000,080393,080348,093870,081111,080490,095129
0000000232,0000231000,082949,077893,093769,084111,077778,094841
0000000233,0000232000,085796,076034,092782,087394,075786,093550
0000000234,0000233000,088654,074953,091004,090639,074710,091381
0000000235,0000234000,091254,074753,088604,093533,074652,088545
0000000236,0000235000,093337,075451,085823,095791,075617,085322
0000000237,0000236000,094693,076979,082939,097189,077512,082029
0000000238,0000237000,095193,079196,080222,097592,080153,078984
0000000239,0000238000,094792,081881,077939,096963,083281,076486
0000000240,0000239000,093529,084761,076322,095362,086586,074782
0000000241,0000240000,091521,087563,075527,092945,089747,074037
0000000242,0000241000,088963,090022,075626,089947,092459,074324
0000000243,0000242000,086117,091882,076612,086667,094450,075613
0000000244,0000243000,083259,092963,078389,083423,095527,077780
0000000245,0000244000,080655,093167,080789,080529,095587,080614
0000000246,0000245000,078571,092470,083571,078272,094623,083835
0000000247,0000246000,077214,090941,086456,076874,092730,087126
0000000248,0000247000,076711,088726,089174,076469,090091,090170
0000000249,0000248000,077110,086042,091459,077097,086965,092667
0000000250,0000249000,078374,083159,093078,078695,083663,094372
0000000251,0000250000,080380,080356,093875,081110,080503,095117
0000000252,0000251000,082937,077897,093777,084106,077792,094832
0000000253,0000252000,085785,076033,092793,087385,075800,093545
0000000254,0000253000,088644,074950,091017,090626,074723,091380
0000000255,0000254000,091248,074746,088617,093519,074662,088548
0000000256,0000255000,093336,075440,085835,095776,075624,085330
0000000257,0000256000,094696,076967,082949,097175,077514,082041
0000000258,0000257000,095199,079183,080229,097580,080151,078998
0000000259,0000258000,094802,081868,077942,096954,083274,076501
0000000260,0000259000,093541,084749,076321,095358,086575,074797
0000000261,0000260000,091534,087555,075522,092946,089734,074051
0000000262,0000261000,088977,090017,075617,089953,092443,074334
0000000263,0000262000,086130,091881,076600,086676,094434,075619
0000000264,0000263000,083268,092968,078376,083436,095513,077781
0000000265,0000264000,080661,093175,080775,080545,095575,080610
0000000266,0000265000,078573,092481,083558,078288,094615,083826
0000000267,0000266000,077211,090955,086445,076889,092727,087113
0000000268,0000267000,076704,088741,089166,076482,090093,090154
0000000269,0000268000,077100,086055,091456,077106,086973,092651
0000000270,0000269000,078361,083172,093079,078700,083674,094356
0000000271,0000270000,080365,080366,093881,081110,080518,095103
0000000272,0000271000,082923,077902,093787,084100,077809,094821
0000000273,0000272000,085772,076033,092806,087374,075817,093539
0000000274,0000273000,088634,074946,091032,090612,074738,091379
0000000275,0000274000,091242,074737,088632,093502,074674,088553
0000000276,0000275000,093335,075428,085849,095759,075632,085339
0000000277,0000276000,094698,076953,082961,097158,077517,082054
0000000278,0000277000,095207,079167,080237,097567,080148,079015
0000000279,0000278000,094814,081853,077945,096945,083266,076519
0000000280,0000279000,093555,084737,076320,095353,086562,074814
0000000281,0000280000,091550,087546,075515,092946,089718,074066
0000000282,0000281000,088993,090011,075607,089959,092425,074345
0000000283,0000282000,086144,091881,076587,086688,094417,075626
0000000284,0000283000,083279,092973,078360,083451,095497,077782
0000000285,0000284000,080669,093184,080759,080562,095562,080605
0000000286,0000285000,078575,092494,083543,078306,094607,083816
0000000287,0000286000,077208,090971,086432,076906,092725,087099
0000000288,0000287000,076696,088758,089158,076497,090096,090137
0000000289,0000288000,077088,086071,091452,077116,086981,092632
0000000290,0000289000,078345,083186,093081,078705,083688,094337
0000000291,0000290000,080348,080376,093888,081109,080534,095087
0000000292,0000291000,082906,077907,093798,084093,077828,094809
0000000293,0000292000,085757,076034,092821,087362,075837,093532
0000000294,0000293000,088622,074941,091049,090596,074756,091378
0000000295,0000294000,091235,074727,088650,093484,074688,088558
0000000296,0000295000,093332,075414,085865,095739,075641,085350
0000000297,0000296000,094701,076936,082974,097140,077520,082070
0000000298,0000297000,095216,079149,080247,097551,080145,079033
0000000299,0000298000,094827,081835,077949,096934,083257,076539
0000000300,0000299000,093571,084722,076318,095348,086548,074834
0000000301,0000300000,091568,087535,075508,092948,089699,074083
