DIgSILENT PowerFactory,21000900,2000
6,06A,00D
1,TTPP_200000_100:Secondary Voltage A,,,V,0.010000000,-67.879509,0.000000,-86353,99998,1,1,P
2,TTPP_200000_100:Secondary Voltage B,,,V,0.010000000,-61.462666,0.000000,-94734,99998,1,1,P
3,TTPP_200000_100:Secondary Voltage C,,,V,0.10000000,-9018.920898,0.000000,79674,99998,1,1,P
4,TTCC_500_5:Secondary Current A,,,A,0.0010000000,-86.023323,0.000000,65657,99998,1,1,P
5,TTCC_500_5:Secondary Current B,,,A,0.0010000000,-85.006836,0.000000,70035,99998,1,1,P
6,TTCC_500_5:Secondary Current C,,,A,0.0010000000,-84.652763,0.000000,69301,99998,1,1,P
50
1
1000.000000,1101
30/06/2023,06:04:31.000000
30/06/2023,06:04:31.000000
ASCII
1.000000
0000000001,0000000000,061908,042551,081037,091939,089686,074058
0000000002,0000001000,036425,066887,081151,088924,092402,074356
0000000003,0000002000,007910,085440,082149,085624,094397,075662
0000000004,0000003000,-20543,096051,083932,082369,095467,077848
0000000005,0000004000,-46381,097877,086333,079465,095517,080702
0000000006,0000005000,-67109,090814,089112,077204,094538,083941
0000000007,0000006000,-80567,075511,091987,075810,092625,087248
0000000008,0000007000,-85296,053199,094693,075415,089965,090303
0000000009,0000008000,-81207,026413,096962,076056,086821,092806
0000000010,0000009000,-68546,-02242,098562,077674,083500,094509
0000000011,0000010000,-48340,-30243,099341,080112,080325,095246
0000000012,0000011000,-22727,-54722,099228,083126,077609,094948
0000000013,0000012000,005562,-73039,098230,086424,075617,093642
0000000014,0000013000,034081,-83727,096446,089684,074543,091457
0000000015,0000014000,060078,-85697,094045,092585,074495,088603
0000000016,0000015000,080661,-78505,091267,094844,075476,085363
0000000017,0000016000,094018,-63096,088391,096241,077386,082056
0000000018,0000017000,098994,-41021,085686,096636,080045,079002
0000000019,0000018000,094821,-14163,083417,095991,083193,076498
0000000020,0000019000,081993,014670,081816,094376,086512,074796
0000000021,0000020000,061952,042497,081037,091940,089685,074058
0000000022,0000021000,036418,066899,081151,088922,092404,074356
0000000023,0000022000,007904,085446,082148,085624,094397,075662
0000000024,0000023000,-20543,096054,083932,082368,095467,077848
0000000025,0000024000,-46374,097866,086334,079464,095517,080702
0000000026,0000025000,-67128,090839,089111,077204,094538,083941
0000000027,0000026000,-80533,075488,091987,075810,092625,087248
0000000028,0000027000,-85318,053211,094693,075414,089966,090303
0000000029,0000028000,-81229,026434,096962,076056,086821,092806
0000000030,0000029000,-68516,-02270,098562,077674,083500,094509
0000000031,0000030000,-48332,-30253,099341,080110,080326,095247
0000000032,0000031000,-22777,-54675,099228,083126,077609,094948
0000000033,0000032000,005579,-73058,098230,086424,075616,093642
0000000034,0000033000,034130,-83769,096446,089682,074544,091457
0000000035,0000034000,060024,-85653,094045,092584,074496,088603
0000000036,0000035000,080643,-78491,091267,094844,075475,085363
0000000037,0000036000,094079,-63156,088391,096240,077386,082057
0000000038,0000037000,098982,-41012,085686,096634,080047,079002
0000000039,0000038000,094768,-14109,083417,095992,083192,076499
0000000040,0000039000,082040,014622,081816,094376,086511,074796
0000000041,0000040000,061985,042469,081037,091939,089685,074058
0000000042,0000041000,036361,066957,081151,088922,092404,074357
0000000043,0000042000,007912,085437,082148,085625,094395,075662
0000000044,0000043000,-20492,096007,083932,082368,095468,077848
0000000045,0000044000,-46404,097899,086333,079464,095518,080702
0000000046,0000045000,-67156,090873,089111,077204,094538,083941
0000000047,0000046000,-80488,075442,091987,075810,092625,087248
0000000048,0000047000,-85326,053221,094693,075413,089967,090303
0000000049,0000048000,-81264,026473,096962,076056,086821,092806
0000000050,0000049000,-68502,-02289,098562,077674,083500,094509
0000000051,0000050000,-48319,-30269,099342,080109,080328,095246
0000000052,0000051000,-22812,-54641,099228,083125,077610,094948
0000000053,0000052000,005586,-73067,098231,086424,075617,093643
0000000054,0000053000,034141,-83788,096447,089681,074545,091457
0000000055,0000054000,060002,-85636,094046,092583,074497,088603
0000000056,0000055000,080645,-78494,091267,094844,075475,085364
0000000057,0000056000,094097,-63184,088391,096239,077386,082058
0000000058,0000057000,098964,-40999,085686,096633,080047,079003
0000000059,0000058000,094770,-14110,083417,095991,083192,076500
0000000060,0000059000,082071,014592,081816,094375,086511,074797
0000000061,0000060000,061974,042481,081037,091939,089685,074059
0000000062,0000061000,036351,066971,081150,088922,092403,074357
0000000063,0000062000,007950,085408,082147,085625,094395,075663
0000000064,0000063000,-20492,096010,083931,082368,095468,077848
0000000065,0000064000,-46432,097934,086333,079465,095517,080702
0000000066,0000065000,-67129,090856,089110,077205,094537,083941
0000000067,0000066000,-80472,075432,091986,075810,092626,087247
0000000068,0000067000,-85366,053266,094692,075414,089967,090302
0000000069,0000068000,-81265,026476,096961,076057,086821,092805
0000000070,0000069000,-68476,-02316,098562,077674,083501,094508
0000000071,0000070000,-48354,-30238,099342,080108,080329,095246
0000000072,0000071000,-22840,-54620,099229,083125,077611,094947
0000000073,0000072000,005614,-73103,098232,086423,075618,093642
0000000074,0000073000,034128,-83786,096448,089679,074546,091457
0000000075,0000074000,059968,-85610,094047,092581,074498,088604
0000000076,0000075000,080667,-78525,091268,094843,075476,085365
0000000077,0000076000,094113,-63210,088392,096237,077387,082059
0000000078,0000077000,098939,-40978,085687,096632,080047,079004
0000000079,0000078000,094785,-14127,083417,095991,083191,076501
0000000080,0000079000,082105,014558,081816,094374,086510,074798
0000000081,0000080000,061965,042494,081036,091938,089684,074060
0000000082,0000081000,036357,066975,081149,088923,092401,074358
0000000083,0000082000,007985,085383,082146,085626,094393,075663
0000000084,0000083000,-20494,096023,083930,082368,095467,077848
0000000085,0000084000,-46440,097957,086331,079466,095516,080701
0000000086,0000085000,-67107,090846,089109,077207,094536,083940
0000000087,0000086000,-80477,075446,091986,075811,092626,087246
0000000088,0000087000,-85391,053300,094691,075415,089967,090300
0000000089,0000088000,-81259,026475,096961,076058,086822,092803
0000000090,0000089000,-68483,-02311,098562,077674,083503,094506
0000000091,0000090000,-48391,-30207,099343,080108,080331,095244
0000000092,0000091000,-22845,-54622,099230,083124,077613,094946
0000000093,0000092000,005615,-73119,098233,086421,075620,093642
0000000094,0000093000,034096,-83770,096450,089677,074548,091457
0000000095,0000094000,059960,-85617,094048,092580,074499,088604
0000000096,0000095000,080687,-78562,091270,094840,075477,085366
0000000097,0000096000,094102,-63213,088394,096235,077388,082060
0000000098,0000097000,098934,-40981,085688,096631,080046,079006
0000000099,0000098000,094822,-14168,083417,095990,083190,076503
0000000100,0000099000,082119,014543,081816,094373,086509,074800
0000000101,0000100000,061962,042505,081036,091938,089682,074062
0000000102,0000101000,036393,066953,081148,088924,092399,074360
0000000103,0000102000,008014,085369,082144,085627,094392,075664
0000000104,0000103000,-20503,096053,083928,082370,095465,077848
0000000105,0000104000,-46427,097966,086329,079469,095513,080701
0000000106,0000105000,-67084,090841,089107,077209,094535,083939
0000000107,0000106000,-80498,075483,091984,075813,092626,087244
0000000108,0000107000,-85409,053332,094690,075417,089968,090298
0000000109,0000108000,-81254,026475,096960,076059,086823,092800
0000000110,0000109000,-68510,-02287,098562,077674,083505,094503
0000000111,0000110000,-48430,-30176,099343,080108,080333,095242
0000000112,0000111000,-22852,-54630,099231,083124,077615,094944
0000000113,0000112000,005597,-73123,098235,086419,075623,093641
0000000114,0000113000,034060,-83758,096452,089675,074551,091457
0000000115,0000114000,059958,-85639,094051,092577,074501,088605
0000000116,0000115000,080694,-78594,091273,094837,075478,085367
0000000117,0000116000,094090,-63221,088396,096232,077389,082063
0000000118,0000117000,098948,-41008,085689,096628,080046,079009
0000000119,0000118000,094857,-14210,083418,095988,083189,076507
0000000120,0000119000,082132,014531,081816,094372,086507,074804
0000000121,0000120000,061984,042496,081034,091939,089679,074065
0000000122,0000121000,036438,066927,081146,088925,092396,074362
0000000123,0000122000,008033,085373,082142,085629,094388,075666
0000000124,0000123000,-20495,096075,083925,082373,095461,077849
0000000125,0000124000,-46399,097969,086326,079472,095511,080700
0000000126,0000125000,-67078,090862,089104,077212,094534,083937
0000000127,0000126000,-80520,075529,091982,075817,092625,087241
0000000128,0000127000,-85415,053356,094688,075421,089968,090294
0000000129,0000128000,-81267,026494,096960,076061,086825,092797
0000000130,0000129000,-68556,-02244,098563,077675,083508,094500
0000000131,0000130000,-48463,-30154,099345,080108,080336,095238
0000000132,0000131000,-22870,-54635,099233,083122,077619,094942
0000000133,0000132000,005556,-73113,098238,086416,075628,093639
0000000134,0000133000,034028,-83759,096455,089672,074555,091457
0000000135,0000134000,059959,-85676,094054,092573,074504,088606
0000000136,0000135000,080687,-78622,091276,094832,075481,085370
0000000137,0000136000,094083,-63241,088399,096228,077389,082066
0000000138,0000137000,098978,-41056,085691,096625,080045,079013
0000000139,0000138000,094890,-14253,083419,095985,083187,076511
0000000140,0000139000,082152,014516,081816,094371,086504,074808
0000000141,0000140000,062028,042468,081033,091939,089675,074069
0000000142,0000141000,036488,066901,081144,088926,092391,074365
0000000143,0000142000,008056,085384,082139,085632,094384,075667
0000000144,0000143000,-20470,096091,083921,082377,095457,077849
0000000145,0000144000,-46368,097979,086322,079477,095507,080699
0000000146,0000145000,-67080,090902,089101,077217,094532,083934
0000000147,0000146000,-80537,075579,091978,075822,092624,087237
0000000148,0000147000,-85424,053386,094686,075425,089968,090290
0000000149,0000148000,-81300,026536,096959,076064,086828,092792
0000000150,0000149000,-68608,-02196,098563,077677,083512,094495
0000000151,0000150000,-48499,-30135,099346,080108,080341,095234
0000000152,0000151000,-22909,-54627,099236,083120,077625,094938
0000000153,0000152000,005503,-73100,098242,086413,075633,093637
0000000154,0000153000,034000,-83775,096460,089667,074559,091456
0000000155,0000154000,059948,-85714,094059,092567,074508,088607
0000000156,0000155000,080671,-78650,091281,094826,075484,085373
0000000157,0000156000,094091,-63284,088402,096222,077390,082070
0000000158,0000157000,099014,-41118,085693,096620,080044,079019
0000000159,0000158000,094920,-14296,083420,095981,083185,076517
0000000160,0000159000,082190,014483,081815,094369,086500,074814
0000000161,0000160000,062090,042426,081031,091939,089669,074074
0000000162,0000161000,036539,066883,081140,088928,092385,074369
0000000163,0000162000,008091,085396,082134,085635,094378,075670
0000000164,0000163000,-20426,096100,083915,082383,095451,077849
0000000165,0000164000,-46339,098003,086317,079483,095503,080697
0000000166,0000165000,-67086,090957,089096,077223,094529,083931
0000000167,0000166000,-80546,075631,091974,075828,092623,087232
0000000168,0000167000,-85441,053432,094683,075430,089969,090284
0000000169,0000168000,-81350,026598,096958,076067,086831,092785
0000000170,0000169000,-68665,-02143,098564,077679,083516,094488
0000000171,0000170000,-48546,-30112,099349,080108,080347,095228
0000000172,0000171000,-22971,-54605,099240,083117,077632,094934
0000000173,0000172000,005443,-73090,098247,086409,075640,093634
0000000174,0000173000,033968,-83802,096466,089661,074566,091456
0000000175,0000174000,059924,-85752,094065,092560,074513,088609
0000000176,0000175000,080654,-78689,091286,094819,075487,085376
0000000177,0000176000,094109,-63348,088407,096216,077391,082076
0000000178,0000177000,099051,-41189,085697,096614,080043,079025
0000000179,0000178000,094958,-14348,083422,095977,083182,076525
0000000180,0000179000,082250,014431,081814,094367,086495,074821
0000000181,0000180000,062164,042378,081028,091939,089663,074081
0000000182,0000181000,036597,066868,081136,088930,092378,074374
0000000183,0000182000,008145,085401,082128,085640,094370,075673
0000000184,0000183000,-20370,096111,083909,082389,095444,077850
0000000185,0000184000,-46313,098043,086310,079490,095497,080695
0000000186,0000185000,-67085,091021,089089,077231,094525,083927
0000000187,0000186000,-80552,075691,091969,075836,092621,087226
0000000188,0000187000,-85474,053500,094680,075436,089971,090276
0000000189,0000188000,-81412,026675,096956,076072,086834,092777
0000000190,0000189000,-68727,-02088,098564,077681,083522,094480
0000000191,0000190000,-48613,-30075,099352,080108,080354,095221
0000000192,0000191000,-23051,-54574,099245,083114,077640,094928
0000000193,0000192000,005378,-73088,098254,086404,075648,093631
0000000194,0000193000,033925,-83834,096473,089654,074574,091455
0000000195,0000194000,059887,-85792,094073,092552,074520,088611
0000000196,0000195000,080641,-78746,091293,094810,075491,085381
0000000197,0000196000,094133,-63430,088413,096207,077393,082083
0000000198,0000197000,099089,-41268,085701,096607,080042,079034
0000000199,0000198000,095010,-14416,083423,095972,083178,076534
0000000200,0000199000,082329,014360,081814,094364,086488,074830
0000000201,0000200000,062248,042325,081025,091939,089655,074089
0000000202,0000201000,036670,066850,081130,088934,092369,074380
0000000203,0000202000,008219,085399,082121,085646,094360,075676
0000000204,0000203000,-20308,096130,083901,082397,095435,077851
0000000205,0000204000,-46284,098099,086301,079500,095490,080693
0000000206,0000205000,-67077,091092,089081,077241,094520,083922
0000000207,0000206000,-80563,075765,091962,075845,092619,087219
0000000208,0000207000,-85520,053590,094675,075444,089972,090267
0000000209,0000208000,-81481,026764,096954,076078,086839,092766
0000000210,0000209000,-68801,-02022,098565,077684,083529,094470
0000000211,0000210000,-48702,-30022,099355,080107,080364,095212
0000000212,0000211000,-23147,-54538,099251,083111,077651,094921
0000000213,0000212000,005303,-73092,098262,086397,075659,093627
0000000214,0000213000,033866,-83866,096482,089645,074583,091454
0000000215,0000214000,059841,-85839,094082,092541,074528,088614
0000000216,0000215000,080632,-78822,091302,094800,075496,085387
0000000217,0000216000,094158,-63527,088420,096197,077395,082091
0000000218,0000217000,099130,-41359,085706,096598,080041,079044
0000000219,0000218000,095079,-14505,083425,095966,083173,076545
0000000220,0000219000,082425,014274,081813,094361,086480,074841
0000000221,0000220000,062344,042268,081021,091940,089645,074098
0000000222,0000221000,036762,066823,081124,088938,092357,074388
0000000223,0000222000,008312,085393,082112,085653,094349,075681
0000000224,0000223000,-20239,096159,083891,082407,095425,077852
0000000225,0000224000,-46247,098164,086291,079511,095482,080690
0000000226,0000225000,-67062,091172,089072,077253,094514,083915
0000000227,0000226000,-80580,075860,091954,075856,092617,087209
0000000228,0000227000,-85578,053701,094670,075453,089974,090255
0000000229,0000228000,-81558,026866,096952,076085,086844,092754
0000000230,0000229000,-68893,-01941,098566,077687,083538,094458
0000000231,0000230000,-48814,-29954,099360,080107,080375,095202
0000000232,0000231000,-23255,-54500,099258,083107,077663,094914
0000000233,0000232000,005213,-73097,098271,086389,075671,093622
0000000234,0000233000,033789,-83898,096493,089635,074595,091454
0000000235,0000234000,059790,-85898,094093,092529,074537,088617
0000000236,0000235000,080624,-78917,091312,094787,075502,085394
0000000237,0000236000,094182,-63637,088428,096184,077397,082101
0000000238,0000237000,099181,-41468,085712,096588,080039,079056
0000000239,0000238000,095166,-14617,083428,095958,083167,076558
0000000240,0000239000,082535,014175,081812,094358,086471,074854
0000000241,0000240000,062456,042203,081017,091940,089633,074110
0000000242,0000241000,036878,066786,081116,088942,092344,074396
0000000243,0000242000,008421,085387,082102,085662,094335,075686
0000000244,0000243000,-20160,096198,083879,082418,095413,077852
0000000245,0000244000,-46199,098237,086279,079524,095472,080687
0000000246,0000245000,-67043,091265,089061,077267,094508,083908
0000000247,0000246000,-80606,075978,091945,075869,092615,087199
0000000248,0000247000,-85643,053830,094664,075464,089976,090242
0000000249,0000248000,-81647,026981,096949,076093,086850,092740
0000000250,0000249000,-69007,-01841,098567,077691,083548,094444
0000000251,0000250000,-48946,-29873,099365,080106,080388,095189
0000000252,0000251000,-23379,-54460,099267,083102,077677,094904
0000000253,0000252000,005105,-73100,098282,086380,075686,093617
0000000254,0000253000,033696,-83933,096506,089622,074608,091453
0000000255,0000254000,059735,-85973,094106,092515,074547,088621
0000000256,0000255000,080613,-79028,091324,094772,075509,085402
0000000257,0000256000,094206,-63762,088438,096170,077400,082113
0000000258,0000257000,099244,-41600,085718,096576,080037,079071
0000000259,0000258000,095270,-14750,083431,095950,083160,076573
0000000260,0000259000,082659,014064,081810,094353,086460,074869
0000000261,0000260000,062589,042124,081011,091941,089619,074123
0000000262,0000261000,037017,066739,081107,088948,092328,074406
0000000263,0000262000,008544,085383,082090,085672,094320,075692
0000000264,0000263000,-20069,096244,083865,082431,095398,077853
0000000265,0000264000,-46138,098318,086265,079540,095460,080683
0000000266,0000265000,-67024,091376,089047,077283,094500,083899
0000000267,0000266000,-80638,076118,091935,075884,092613,087186
0000000268,0000267000,-85714,053977,094656,075477,089978,090227
0000000269,0000268000,-81750,027116,096946,076102,086857,092724
0000000270,0000269000,-69143,-01719,098569,077695,083559,094428
0000000271,0000270000,-49096,-29780,099370,080105,080402,095175
0000000272,0000271000,-23522,-54415,099277,083096,077694,094894
0000000273,0000272000,004974,-73099,098295,086370,075702,093611
0000000274,0000273000,033589,-83975,096521,089608,074623,091452
0000000275,0000274000,059673,-86062,094121,092498,074560,088625
0000000276,0000275000,080597,-79153,091338,094754,075517,085411
0000000277,0000276000,094233,-63905,088450,096154,077403,082126
0000000278,0000277000,099320,-41756,085726,096562,080034,079087
0000000279,0000278000,095388,-14904,083434,095940,083152,076591
0000000280,0000279000,082800,013937,081809,094349,086448,074886
0000000281,0000280000,062746,042030,081005,091942,089603,074138
0000000282,0000281000,037178,066683,081096,088954,092311,074418
0000000283,0000282000,008683,085382,082076,085683,094302,075698
0000000284,0000283000,-19960,096295,083849,082447,095382,077854
0000000285,0000284000,-46065,098409,086249,079558,095447,080678
0000000286,0000285000,-67004,091506,089032,077302,094492,083889
0000000287,0000286000,-80674,076279,091922,075902,092610,087172
0000000288,0000287000,-85793,054143,094647,075492,089981,090210
0000000289,0000288000,-81870,027274,096942,076112,086866,092705
0000000290,0000289000,-69300,-01578,098570,077700,083573,094410
0000000291,0000290000,-49265,-29677,099377,080104,080419,095159
0000000292,0000291000,-23687,-54362,099288,083089,077713,094881
0000000293,0000292000,004821,-73095,098310,086357,075722,093604
0000000294,0000293000,033469,-84024,096538,089592,074641,091450
0000000295,0000294000,059601,-86165,094139,092479,074573,088630
0000000296,0000295000,080575,-79294,091354,094735,075526,085422
0000000297,0000296000,094264,-64071,088463,096135,077406,082142
0000000298,0000297000,099409,-41937,085736,096547,080031,079106
0000000299,0000298000,095520,-15076,083438,095929,083143,076611
0000000300,0000299000,082961,013792,081807,094343,086434,074906
0000000301,0000300000,062929,041919,080998,091943,089585,074155
