DIgSILENT PowerFactory,21000900,2000
6,06A,00D
1,TTPP_200000_100:Secondary Voltage A,,,V,0.10000000,-8574.908203,0.000000,70123,99998,1,1,P
2,TTPP_200000_100:Secondary Voltage B,,,V,0.10000000,-8396.773438,0.000000,67781,99998,1,1,P
3,TTPP_200000_100:Secondary Voltage C,,,V,0.10000000,-8449.696289,0.000000,68790,99998,1,1,P
4,TTCC_500_5:Secondary Current A,,,A,0.0010000000,-86.747383,0.000000,67704,99998,1,1,P
5,TTCC_500_5:Secondary Current B,,,A,0.0010000000,-85.098328,0.000000,70196,99998,1,1,P
6,TTCC_500_5:Secondary Current C,,,A,0.0010000000,-84.726807,0.000000,69395,99998,1,1,P
50
1
1000.000000,1101
30/06/2023,06:06:39.000000
30/06/2023,06:06:39.000000
ASCII
1.000000
0000000001,0000000000,091261,087608,075344,092663,089778,074132
0000000002,0000001000,088713,090042,075459,089648,092494,074430
0000000003,0000002000,085862,091897,076457,086348,094488,075736
0000000004,0000003000,083016,092958,078239,083093,095558,077921
0000000005,0000004000,080432,093141,080641,080189,095608,080775
0000000006,0000005000,078360,092434,083419,077928,094629,084015
0000000007,0000006000,077014,090904,086295,076535,092716,087322
0000000008,0000007000,076541,088673,089000,076139,090057,090377
0000000009,0000008000,076949,085995,091269,076780,086912,092880
0000000010,0000009000,078217,083128,092870,078398,083592,094583
0000000011,0000010000,080236,080330,093649,080836,080417,095320
0000000012,0000011000,082797,077881,093535,083849,077701,095022
0000000013,0000012000,085626,076050,092538,087148,075708,093717
0000000014,0000013000,088479,074979,090754,090407,074635,091531
0000000015,0000014000,091077,074784,088353,093309,074586,088677
0000000016,0000015000,093136,075503,085575,095567,075568,085437
0000000017,0000016000,094472,077043,082699,096966,077476,082131
0000000018,0000017000,094971,079250,079994,097360,080137,079076
0000000019,0000018000,094552,081937,077724,096716,083284,076573
0000000020,0000019000,093269,084820,076124,095099,086604,074870
0000000021,0000020000,091267,087602,075345,092665,089775,074132
0000000022,0000021000,088712,090043,075458,089646,092496,074430
0000000023,0000022000,085861,091898,076456,086349,094488,075736
0000000024,0000023000,083016,092958,078239,083092,095559,077922
0000000025,0000024000,080435,093138,080641,080189,095608,080775
0000000026,0000025000,078357,092438,083419,077927,094630,084015
0000000027,0000026000,077017,090902,086295,076534,092716,087322
0000000028,0000027000,076539,088674,089001,076138,090057,090377
0000000029,0000028000,076948,085996,091269,076780,086913,092880
0000000030,0000029000,078217,083128,092869,078398,083592,094583
0000000031,0000030000,080237,080327,093649,080834,080418,095321
0000000032,0000031000,082793,077885,093536,083850,077701,095022
0000000033,0000032000,085628,076047,092538,087148,075708,093717
0000000034,0000033000,088482,074977,090754,090406,074635,091531
0000000035,0000034000,091074,074787,088353,093308,074588,088677
0000000036,0000035000,093135,075504,085575,095568,075567,085438
0000000037,0000036000,094477,077038,082699,096964,077477,082131
0000000038,0000037000,094968,079252,079994,097359,080138,079076
0000000039,0000038000,094548,081941,077725,096716,083284,076573
0000000040,0000039000,093274,084815,076124,095100,086603,074870
0000000041,0000040000,091268,087601,075345,092663,089777,074132
0000000042,0000041000,088707,090048,075458,089646,092495,074431
0000000043,0000042000,085863,091896,076455,086349,094487,075736
0000000044,0000043000,083021,092954,078239,083092,095559,077922
0000000045,0000044000,080430,093144,080641,080188,095609,080776
0000000046,0000045000,078356,092440,083419,077929,094629,084015
0000000047,0000046000,077022,090897,086294,076534,092717,087321
0000000048,0000047000,076537,088676,089000,076137,090059,090376
0000000049,0000048000,076944,086001,091269,076780,086913,092879
0000000050,0000049000,078221,083124,092869,078398,083592,094582
0000000051,0000050000,080238,080327,093649,080833,080419,095320
0000000052,0000051000,082788,077890,093536,083849,077702,095022
0000000053,0000052000,085629,076046,092539,087148,075708,093717
0000000054,0000053000,088485,074974,090755,090405,074636,091531
0000000055,0000054000,091070,074790,088354,093306,074588,088678
0000000056,0000055000,093134,075504,085576,095568,075567,085438
0000000057,0000056000,094481,077034,082699,096963,077478,082132
0000000058,0000057000,094967,079253,079994,097357,080138,079077
0000000059,0000058000,094547,081942,077725,096716,083283,076574
0000000060,0000059000,093278,084812,076124,095099,086602,074871
0000000061,0000060000,091269,087600,075345,092663,089776,074133
0000000062,0000061000,088705,090050,075458,089646,092495,074431
0000000063,0000062000,085865,091894,076455,086350,094486,075736
0000000064,0000063000,083022,092954,078239,083092,095559,077922
0000000065,0000064000,080428,093146,080640,080189,095608,080775
0000000066,0000065000,078357,092439,083418,077929,094629,084015
0000000067,0000066000,077023,090897,086294,076534,092717,087321
0000000068,0000067000,076534,088679,089000,076138,090059,090376
0000000069,0000068000,076944,086001,091269,076781,086913,092879
0000000070,0000069000,078222,083122,092870,078398,083593,094582
0000000071,0000070000,080235,080329,093650,080832,080421,095320
0000000072,0000071000,082787,077891,093536,083849,077703,095021
0000000073,0000072000,085631,076043,092539,087147,075709,093716
0000000074,0000073000,088483,074975,090756,090403,074638,091531
0000000075,0000074000,091067,074792,088355,093305,074589,088678
0000000076,0000075000,093137,075501,085576,095566,075567,085439
0000000077,0000076000,094481,077032,082700,096961,077478,082133
0000000078,0000077000,094964,079255,079995,097356,080138,079078
0000000079,0000078000,094549,081940,077725,096715,083282,076575
0000000080,0000079000,093281,084809,076124,095098,086602,074872
0000000081,0000080000,091267,087602,075344,092663,089776,074134
0000000082,0000081000,088706,090050,075457,089647,092493,074432
0000000083,0000082000,085869,091891,076453,086350,094485,075737
0000000084,0000083000,083021,092956,078237,083093,095558,077922
0000000085,0000084000,080426,093149,080639,080191,095607,080775
0000000086,0000085000,078360,092437,083416,077931,094628,084014
0000000087,0000086000,077023,090898,086293,076535,092718,087320
0000000088,0000087000,076531,088684,088999,076139,090059,090374
0000000089,0000088000,076944,086001,091268,076782,086914,092877
0000000090,0000089000,078222,083122,092870,078398,083595,094580
0000000091,0000090000,080231,080333,093650,080832,080423,095318
0000000092,0000091000,082785,077891,093537,083848,077704,095020
0000000093,0000092000,085632,076041,092541,087145,075712,093716
0000000094,0000093000,088480,074976,090758,090401,074640,091531
0000000095,0000094000,091066,074792,088356,093304,074590,088678
0000000096,0000095000,093139,075497,085578,095564,075568,085440
0000000097,0000096000,094481,077031,082702,096959,077479,082135
0000000098,0000097000,094964,079255,079996,097355,080138,079080
0000000099,0000098000,094552,081936,077725,096714,083281,076578
0000000100,0000099000,093283,084807,076124,095097,086601,074875
0000000101,0000100000,091267,087603,075343,092663,089774,074136
0000000102,0000101000,088710,090048,075456,089648,092490,074434
0000000103,0000102000,085872,091890,076452,086352,094483,075738
0000000104,0000103000,083020,092958,078235,083094,095556,077922
0000000105,0000104000,080428,093150,080636,080193,095605,080774
0000000106,0000105000,078362,092438,083415,077933,094627,084013
0000000107,0000106000,077021,090901,086291,076537,092717,087318
0000000108,0000107000,076529,088686,088998,076141,090059,090372
0000000109,0000108000,076945,086001,091268,076783,086915,092874
0000000110,0000109000,078219,083125,092870,078398,083597,094577
0000000111,0000110000,080227,080336,093651,080832,080425,095316
0000000112,0000111000,082785,077890,093539,083847,077707,095018
0000000113,0000112000,085630,076041,092543,087143,075715,093715
0000000114,0000113000,088476,074977,090760,090399,074643,091531
0000000115,0000114000,091066,074789,088359,093301,074592,088679
0000000116,0000115000,093139,075494,085581,095561,075570,085442
0000000117,0000116000,094479,077031,082704,096956,077480,082137
0000000118,0000117000,094965,079252,079997,097352,080137,079083
0000000119,0000118000,094556,081932,077726,096712,083280,076581
0000000120,0000119000,093284,084806,076124,095096,086599,074878
0000000121,0000120000,091269,087602,075342,092663,089770,074139
0000000122,0000121000,088714,090046,075454,089649,092487,074436
0000000123,0000122000,085874,091890,076450,086353,094480,075739
0000000124,0000123000,083021,092961,078232,083098,095553,077922
0000000125,0000124000,080431,093150,080633,080197,095602,080774
0000000126,0000125000,078363,092439,083412,077937,094625,084011
0000000127,0000126000,077018,090906,086289,076541,092717,087315
0000000128,0000127000,076529,088689,088996,076145,090060,090368
0000000129,0000128000,076944,086003,091267,076785,086917,092871
0000000130,0000129000,078215,083129,092870,078399,083600,094574
0000000131,0000130000,080224,080338,093652,080832,080428,095312
0000000132,0000131000,082783,077890,093541,083846,077711,095016
0000000133,0000132000,085626,076042,092546,087140,075719,093713
0000000134,0000133000,088473,074977,090763,090395,074646,091531
0000000135,0000134000,091066,074786,088362,093297,074595,088680
0000000136,0000135000,093139,075491,085584,095556,075572,085444
0000000137,0000136000,094479,077029,082707,096952,077481,082140
0000000138,0000137000,094968,079247,079999,097349,080136,079087
0000000139,0000138000,094559,081928,077727,096709,083278,076585
0000000140,0000139000,093286,084804,076124,095095,086596,074882
0000000141,0000140000,091273,087600,075341,092663,089766,074143
0000000142,0000141000,088719,090043,075451,089651,092483,074439
0000000143,0000142000,085876,091891,076446,086356,094475,075741
0000000144,0000143000,083024,092962,078228,083102,095548,077923
0000000145,0000144000,080434,093151,080629,080201,095599,080773
0000000146,0000145000,078362,092443,083408,077941,094623,084008
0000000147,0000146000,077017,090911,086286,076546,092716,087311
0000000148,0000147000,076528,088692,088994,076149,090060,090364
0000000149,0000148000,076940,086007,091266,076788,086919,092865
0000000150,0000149000,078209,083134,092871,078401,083603,094569
0000000151,0000150000,080220,080340,093654,080832,080433,095308
0000000152,0000151000,082779,077891,093544,083844,077716,095012
0000000153,0000152000,085620,076043,092550,087137,075725,093711
0000000154,0000153000,088470,074976,090768,090391,074651,091530
0000000155,0000154000,091065,074782,088367,093291,074599,088682
0000000156,0000155000,093137,075488,085589,095550,075575,085447
0000000157,0000156000,094479,077025,082710,096946,077482,082145
0000000158,0000157000,094972,079241,080001,097344,080135,079093
0000000159,0000158000,094562,081923,077728,096705,083276,076591
0000000160,0000159000,093289,084801,076123,095093,086591,074888
0000000161,0000160000,091280,087596,075338,092663,089761,074148
0000000162,0000161000,088724,090041,075448,089652,092477,074443
0000000163,0000162000,085880,091893,076442,086360,094469,075744
0000000164,0000163000,083028,092963,078223,083107,095542,077923
0000000165,0000164000,080437,093153,080624,080207,095594,080771
0000000166,0000165000,078362,092449,083403,077948,094620,084005
0000000167,0000166000,077016,090916,086281,076552,092714,087306
0000000168,0000167000,076526,088697,088991,076154,090061,090357
0000000169,0000168000,076935,086013,091265,076791,086922,092859
0000000170,0000169000,078204,083139,092871,078403,083608,094562
0000000171,0000170000,080215,080342,093656,080832,080439,095302
0000000172,0000171000,082773,077893,093548,083841,077723,095008
0000000173,0000172000,085614,076044,092555,087133,075731,093708
0000000174,0000173000,088467,074973,090774,090385,074657,091530
0000000175,0000174000,091063,074778,088373,093284,074605,088683
0000000176,0000175000,093136,075484,085594,095543,075578,085451
0000000177,0000176000,094481,077018,082715,096940,077483,082150
0000000178,0000177000,094975,079234,080005,097338,080135,079100
0000000179,0000178000,094566,081918,077730,096701,083273,076599
0000000180,0000179000,093295,084796,076122,095091,086586,074895
0000000181,0000180000,091287,087591,075336,092663,089754,074155
0000000182,0000181000,088730,090040,075444,089655,092469,074448
0000000183,0000182000,085885,091893,076436,086365,094461,075747
0000000184,0000183000,083033,092964,078216,083113,095535,077924
0000000185,0000184000,080439,093157,080617,080215,095589,080769
0000000186,0000185000,078362,092455,083397,077956,094616,084000
0000000187,0000186000,077015,090922,086276,076560,092713,087300
0000000188,0000187000,076523,088703,088987,076160,090062,090350
0000000189,0000188000,076929,086021,091264,076796,086926,092850
0000000190,0000189000,078197,083145,092872,078405,083614,094554
0000000191,0000190000,080209,080346,093659,080832,080446,095295
0000000192,0000191000,082765,077896,093553,083838,077732,095002
0000000193,0000192000,085608,076044,092562,087127,075740,093705
0000000194,0000193000,088463,074970,090781,090378,074665,091529
0000000195,0000194000,091059,074774,088381,093276,074611,088685
0000000196,0000195000,093134,075478,085601,095534,075583,085455
0000000197,0000196000,094483,077010,082721,096931,077484,082157
0000000198,0000197000,094979,079226,080009,097331,080133,079108
0000000199,0000198000,094571,081911,077731,096696,083269,076608
0000000200,0000199000,093303,084789,076121,095089,086579,074904
0000000201,0000200000,091295,087585,075333,092664,089746,074163
0000000202,0000201000,088737,090038,075438,089658,092460,074454
0000000203,0000202000,085892,091893,076428,086371,094452,075750
0000000204,0000203000,083040,092966,078208,083121,095527,077925
0000000205,0000204000,080442,093163,080609,080224,095582,080767
0000000206,0000205000,078363,092462,083389,077966,094612,083995
0000000207,0000206000,077014,090930,086270,076569,092711,087292
0000000208,0000207000,076518,088712,088983,076168,090064,090341
0000000209,0000208000,076922,086030,091262,076802,086930,092840
0000000210,0000209000,078190,083151,092873,078408,083621,094544
0000000211,0000210000,080200,080351,093663,080831,080455,095286
0000000212,0000211000,082755,077899,093559,083835,077742,094996
0000000213,0000212000,085600,076044,092569,087121,075750,093701
0000000214,0000213000,088457,074967,090790,090369,074675,091529
0000000215,0000214000,091054,074769,088390,093265,074619,088688
0000000216,0000215000,093133,075471,085610,095524,075588,085461
0000000217,0000216000,094486,077000,082728,096921,077486,082166
0000000218,0000217000,094983,079217,080014,097322,080132,079118
0000000219,0000218000,094578,081902,077733,096690,083264,076619
0000000220,0000219000,093313,084780,076120,095086,086572,074915
0000000221,0000220000,091305,087580,075329,092664,089736,074173
0000000222,0000221000,088747,090035,075432,089662,092449,074462
0000000223,0000222000,085902,091892,076420,086378,094440,075755
0000000224,0000223000,083047,092969,078198,083131,095516,077925
0000000225,0000224000,080446,093170,080599,080235,095573,080764
0000000226,0000225000,078364,092470,083379,077978,094606,083989
0000000227,0000226000,077012,090939,086262,076580,092709,087283
0000000228,0000227000,076513,088723,088978,076177,090066,090329
0000000229,0000228000,076914,086040,091259,076809,086936,092828
0000000230,0000229000,078181,083159,092874,078411,083629,094532
0000000231,0000230000,080189,080358,093667,080830,080467,095276
0000000232,0000231000,082745,077903,093566,083831,077754,094988
0000000233,0000232000,085591,076044,092579,087113,075763,093697
0000000234,0000233000,088449,074963,090801,090358,074686,091528
0000000235,0000234000,091049,074763,088401,093253,074628,088691
0000000236,0000235000,093133,075461,085620,095511,075594,085468
0000000237,0000236000,094488,076989,082736,096908,077489,082176
0000000238,0000237000,094988,079206,080020,097312,080130,079131
0000000239,0000238000,094587,081891,077736,096682,083258,076632
0000000240,0000239000,093324,084770,076119,095082,086562,074928
0000000241,0000240000,091316,087573,075324,092664,089724,074184
0000000242,0000241000,088758,090032,075424,089667,092435,074470
0000000243,0000242000,085913,091892,076410,086386,094427,075760
0000000244,0000243000,083055,092973,078187,083142,095504,077926
0000000245,0000244000,080451,093177,080587,080249,095563,080761
0000000246,0000245000,078366,092480,083368,077991,094599,083982
0000000247,0000246000,077010,090951,086253,076593,092707,087272
0000000248,0000247000,076506,088736,088971,076189,090068,090316
0000000249,0000248000,076906,086052,091257,076817,086942,092814
0000000250,0000249000,078169,083169,092875,078415,083639,094518
0000000251,0000250000,080176,080366,093672,080830,080479,095263
0000000252,0000251000,082732,077907,093575,083826,077769,094978
0000000253,0000252000,085580,076043,092590,087104,075777,093691
0000000254,0000253000,088440,074960,090814,090346,074700,091527
0000000255,0000254000,091044,074756,088414,093239,074639,088695
0000000256,0000255000,093131,075450,085632,095496,075601,085476
0000000257,0000256000,094491,076977,082746,096894,077491,082187
0000000258,0000257000,094995,079193,080026,097300,080128,079145
0000000259,0000258000,094597,081878,077739,096674,083251,076648
0000000260,0000259000,093336,084759,076118,095078,086552,074943
0000000261,0000260000,091329,087565,075319,092665,089710,074197
0000000262,0000261000,088772,090027,075415,089672,092420,074480
0000000263,0000262000,085925,091891,076398,086396,094411,075765
0000000264,0000263000,083064,092977,078173,083156,095490,077927
0000000265,0000264000,080457,093185,080572,080264,095552,080757
0000000266,0000265000,078368,092491,083355,078008,094592,083973
0000000267,0000266000,077007,090965,086242,076608,092704,087260
0000000268,0000267000,076499,088751,088964,076201,090070,090301
0000000269,0000268000,076895,086065,091253,076826,086949,092798
0000000270,0000269000,078156,083181,092877,078419,083651,094502
0000000271,0000270000,080160,080375,093678,080829,080494,095249
0000000272,0000271000,082718,077912,093584,083820,077785,094968
0000000273,0000272000,085567,076043,092603,087093,075794,093685
0000000274,0000273000,088429,074956,090829,090332,074715,091526
0000000275,0000274000,091037,074747,088429,093222,074651,088699
0000000276,0000275000,093130,075438,085646,095478,075609,085486
0000000277,0000276000,094493,076962,082758,096878,077494,082201
0000000278,0000277000,095002,079177,080034,097286,080125,079161
0000000279,0000278000,094609,081863,077742,096664,083243,076665
0000000280,0000279000,093350,084747,076117,095073,086539,074960
0000000281,0000280000,091345,087556,075313,092666,089694,074212
0000000282,0000281000,088788,090021,075404,089679,092402,074492
0000000283,0000282000,085939,091891,076384,086407,094393,075772
0000000284,0000283000,083074,092983,078157,083171,095473,077928
0000000285,0000284000,080464,093194,080556,080282,095539,080752
0000000286,0000285000,078370,092504,083340,078026,094584,083963
0000000287,0000286000,077003,090981,086230,076626,092701,087245
0000000288,0000287000,076491,088768,088955,076216,090073,090283
0000000289,0000288000,076883,086081,091250,076836,086958,092779
0000000290,0000289000,078140,083196,092878,078424,083665,094484
0000000291,0000290000,080144,080386,093685,080828,080511,095233
0000000292,0000291000,082701,077917,093596,083813,077804,094955
0000000293,0000292000,085552,076044,092618,087081,075813,093678
0000000294,0000293000,088417,074951,090846,090315,074732,091525
0000000295,0000294000,091030,074737,088447,093203,074665,088704
0000000296,0000295000,093128,075424,085662,095459,075618,085496
0000000297,0000296000,094497,076946,082771,096859,077497,082216
0000000298,0000297000,095011,079159,080044,097271,080122,079180
0000000299,0000298000,094622,081845,077746,096653,083234,076685
0000000300,0000299000,093367,084732,076115,095068,086525,074980
0000000301,0000300000,091363,087545,075305,092667,089676,074229
