DIgSILENT PowerFactory,21000900,2000
6,06A,00D
1,TTPP_200000_100:Secondary Voltage A,,,V,0.010000000,-67.868866,0.000000,-86352,99998,1,1,P
2,TTPP_200000_100:Secondary Voltage B,,,V,0.10000000,-8952.952148,0.000000,79946,99998,1,1,P
3,TTPP_200000_100:Secondary Voltage C,,,V,0.10000000,-8982.088867,0.000000,79573,99998,1,1,P
4,TTCC_500_5:Secondary Current A,,,A,0.0010000000,-78.797089,0.000000,44421,99998,1,1,P
5,TTCC_500_5:Secondary Current B,,,A,0.0010000000,-84.615982,0.000000,69239,99998,1,1,P
6,TTCC_500_5:Secondary Current C,,,A,0.0010000000,-84.761650,0.000000,69541,99998,1,1,P
50
1
1000.000000,1101
30/06/2023,06:02:03.000000
30/06/2023,06:02:03.000000
ASCII
1.000000
0000000001,0000000000,061912,093169,080668,084713,089295,074167
0000000002,0000001000,036424,095604,080782,081698,092011,074465
0000000003,0000002000,007918,097458,081780,078398,094007,075770
0000000004,0000003000,-20549,098521,083563,075144,095075,077956
0000000005,0000004000,-46360,098701,085965,072238,095127,080810
0000000006,0000005000,-67115,097997,088743,069979,094146,084050
0000000007,0000006000,-80567,096466,091618,068583,092235,087356
0000000008,0000007000,-85305,094236,094324,068190,089573,090411
0000000009,0000008000,-81191,091555,096593,068828,086432,092914
0000000010,0000009000,-68563,088693,098194,070448,083109,094618
0000000011,0000010000,-48353,085892,098973,072884,079935,095355
0000000012,0000011000,-22727,083443,098860,075900,077218,095057
0000000013,0000012000,005571,081610,097862,079196,075227,093751
0000000014,0000013000,034055,080544,096078,082457,074151,091566
0000000015,0000014000,060066,080345,093677,085358,074105,088712
0000000016,0000015000,080669,081063,090899,087618,075084,085472
0000000017,0000016000,094022,082604,088023,089013,076995,082166
0000000018,0000017000,098970,084814,085318,089410,079654,079111
0000000019,0000018000,094830,087497,083049,088766,082802,076608
0000000020,0000019000,082010,090380,081448,087150,086121,074905
0000000021,0000020000,061954,093164,080668,084714,089294,074167
0000000022,0000021000,036402,095606,080783,081697,092012,074465
0000000023,0000022000,007922,097457,081779,078399,094005,075771
0000000024,0000023000,-20531,098520,083563,075142,095076,077956
0000000025,0000024000,-46375,098702,085965,072238,095126,080810
0000000026,0000025000,-67140,098000,088743,069978,094147,084050
0000000027,0000026000,-80515,096462,091618,068584,092234,087356
0000000028,0000027000,-85317,094236,094324,068188,089576,090411
0000000029,0000028000,-81240,091560,096593,068829,086431,092914
0000000030,0000029000,-68535,088689,098193,070448,083110,094617
0000000031,0000030000,-48319,085888,098973,072884,079936,095355
0000000032,0000031000,-22783,083448,098860,075898,077220,095057
0000000033,0000032000,005559,081611,097863,079198,075225,093752
0000000034,0000033000,034120,080539,096079,082456,074153,091566
0000000035,0000034000,060039,080348,093677,085357,074105,088712
0000000036,0000035000,080633,081066,090899,087617,075085,085473
0000000037,0000036000,094059,082600,088023,089014,076994,082166
0000000038,0000037000,098989,084812,085318,089408,079655,079111
0000000039,0000038000,094785,087502,083049,088765,082801,076608
0000000040,0000039000,082028,090378,081448,087149,086120,074905
0000000041,0000040000,061982,093162,080669,084714,089293,074167
0000000042,0000041000,036382,095608,080782,081696,092013,074466
0000000043,0000042000,007920,097458,081779,078399,094005,075771
0000000044,0000043000,-20504,098517,083563,075142,095077,077956
0000000045,0000044000,-46398,098704,085965,072238,095126,080810
0000000046,0000045000,-67140,098001,088742,069978,094147,084049
0000000047,0000046000,-80494,096460,091618,068584,092235,087356
0000000048,0000047000,-85333,094238,094324,068187,089576,090411
0000000049,0000048000,-81261,091562,096593,068830,086431,092914
0000000050,0000049000,-68503,088686,098193,070447,083110,094617
0000000051,0000050000,-48331,085889,098973,072882,079937,095355
0000000052,0000051000,-22822,083451,098860,075898,077220,095057
0000000053,0000052000,005581,081608,097863,079197,075226,093752
0000000054,0000053000,034137,080536,096079,082454,074154,091566
0000000055,0000054000,059995,080351,093678,085356,074106,088713
0000000056,0000055000,080637,081066,090900,087617,075084,085473
0000000057,0000056000,094097,082596,088024,089013,076995,082167
0000000058,0000057000,098969,084814,085318,089407,079656,079112
0000000059,0000058000,094766,087504,083049,088765,082801,076609
0000000060,0000059000,082069,090374,081448,087149,086119,074906
0000000061,0000060000,061986,093162,080669,084713,089294,074168
0000000062,0000061000,036359,095611,080782,081696,092012,074466
0000000063,0000062000,007946,097456,081778,078400,094004,075771
0000000064,0000063000,-20486,098516,083562,075142,095076,077956
0000000065,0000064000,-46419,098708,085964,072239,095126,080810
0000000066,0000065000,-67133,098001,088741,069979,094146,084049
0000000067,0000066000,-80478,096459,091618,068584,092235,087355
0000000068,0000067000,-85358,094241,094324,068188,089577,090410
0000000069,0000068000,-81267,091563,096593,068830,086431,092913
0000000070,0000069000,-68489,088685,098193,070447,083111,094616
0000000071,0000070000,-48357,085891,098974,072882,079939,095354
0000000072,0000071000,-22842,083453,098861,075898,077221,095056
0000000073,0000072000,005600,081606,097864,079196,075227,093751
0000000074,0000073000,034122,080536,096080,082453,074155,091566
0000000075,0000074000,059967,080353,093679,085355,074107,088713
0000000076,0000075000,080658,081062,090901,087616,075085,085474
0000000077,0000076000,094109,082594,088025,089011,076996,082168
0000000078,0000077000,098943,084816,085319,089406,079655,079113
0000000079,0000078000,094784,087502,083049,088765,082800,076610
0000000080,0000079000,082104,090371,081448,087148,086119,074907
0000000081,0000080000,061975,093163,080668,084712,089293,074169
0000000082,0000081000,036362,095612,080781,081697,092010,074467
0000000083,0000082000,007984,097453,081777,078401,094002,075772
0000000084,0000083000,-20485,098517,083561,075143,095076,077957
0000000085,0000084000,-46432,098710,085962,072240,095125,080810
0000000086,0000085000,-67111,098000,088740,069981,094146,084048
0000000087,0000086000,-80476,096460,091617,068585,092235,087354
0000000088,0000087000,-85386,094245,094323,068189,089577,090409
0000000089,0000088000,-81266,091563,096592,068831,086432,092912
0000000090,0000089000,-68491,088685,098194,070447,083113,094615
0000000091,0000090000,-48391,085894,098974,072882,079940,095353
0000000092,0000091000,-22854,083453,098861,075898,077222,095055
0000000093,0000092000,005603,081604,097865,079195,075229,093751
0000000094,0000093000,034094,080538,096082,082451,074158,091566
0000000095,0000094000,059954,080353,093680,085353,074108,088714
0000000096,0000095000,080677,081059,090902,087614,075086,085475
0000000097,0000096000,094103,082593,088026,089008,076997,082170
0000000098,0000097000,098936,084816,085320,089404,079655,079115
0000000099,0000098000,094817,087498,083050,088764,082799,076613
0000000100,0000099000,082124,090369,081448,087147,086118,074910
0000000101,0000100000,061972,093164,080667,084712,089291,074171
0000000102,0000101000,036392,095610,080779,081698,092008,074469
0000000103,0000102000,008016,097452,081776,078402,094000,075773
0000000104,0000103000,-20491,098519,083559,075144,095074,077957
0000000105,0000104000,-46425,098712,085960,072243,095123,080809
0000000106,0000105000,-67088,098000,088738,069983,094144,084047
0000000107,0000106000,-80491,096463,091615,068587,092235,087352
0000000108,0000107000,-85408,094248,094321,068191,089577,090406
0000000109,0000108000,-81265,091564,096592,068833,086433,092909
0000000110,0000109000,-68513,088687,098194,070448,083115,094612
0000000111,0000110000,-48430,085897,098975,072882,079943,095350
0000000112,0000111000,-22865,083453,098863,075897,077225,095053
0000000113,0000112000,005588,081603,097867,079193,075232,093750
0000000114,0000113000,034060,080539,096084,082448,074160,091566
0000000115,0000114000,059949,080351,093683,085350,074110,088714
0000000116,0000115000,080686,081056,090905,087610,075087,085477
0000000117,0000116000,094093,082592,088028,089005,076997,082172
0000000118,0000117000,098947,084814,085321,089402,079654,079118
0000000119,0000118000,094853,087494,083050,088762,082797,076616
0000000120,0000119000,082139,090367,081448,087146,086116,074913
0000000121,0000120000,061990,093164,080666,084713,089288,074174
0000000122,0000121000,036437,095608,080778,081699,092004,074471
0000000123,0000122000,008041,097452,081773,078403,093997,075774
0000000124,0000123000,-20486,098522,083556,075147,095070,077957
0000000125,0000124000,-46400,098712,085957,072247,095120,080808
0000000126,0000125000,-67077,098002,088735,069987,094143,084045
0000000127,0000126000,-80513,096468,091613,068591,092235,087350
0000000128,0000127000,-85420,094251,094320,068194,089578,090403
0000000129,0000128000,-81274,091565,096591,068835,086435,092905
0000000130,0000129000,-68555,088690,098194,070449,083118,094608
0000000131,0000130000,-48469,085900,098976,072882,079946,095347
0000000132,0000131000,-22883,083453,098865,075895,077229,095051
0000000133,0000132000,005553,081604,097870,079190,075237,093748
0000000134,0000133000,034025,080539,096088,082445,074164,091566
0000000135,0000134000,059946,080348,093686,085346,074113,088715
0000000136,0000135000,080683,081052,090908,087606,075090,085479
0000000137,0000136000,094087,082590,088031,089001,076998,082175
0000000138,0000137000,098972,084809,085323,089399,079654,079123
0000000139,0000138000,094888,087489,083051,088759,082796,076620
0000000140,0000139000,082161,090365,081448,087145,086113,074917
0000000141,0000140000,062030,093161,080665,084713,089284,074178
0000000142,0000141000,036488,095605,080775,081701,092000,074474
0000000143,0000142000,008066,097453,081770,078406,093993,075776
0000000144,0000143000,-20464,098524,083552,075152,095066,077957
0000000145,0000144000,-46369,098713,085953,072251,095116,080807
0000000146,0000145000,-67075,098005,088732,069991,094141,084043
0000000147,0000146000,-80533,096473,091609,068595,092234,087346
0000000148,0000147000,-85430,094255,094317,068198,089578,090398
0000000149,0000148000,-81303,091569,096590,068837,086437,092900
0000000150,0000149000,-68608,088695,098195,070450,083121,094603
0000000151,0000150000,-48509,085902,098978,072882,079951,095343
0000000152,0000151000,-22919,083453,098868,075893,077234,095047
0000000153,0000152000,005501,081605,097874,079186,075242,093746
0000000154,0000153000,033992,080538,096092,082440,074169,091565
0000000155,0000154000,059937,080344,093691,085341,074117,088717
0000000156,0000155000,080671,081049,090913,087600,075093,085482
0000000157,0000156000,094090,082586,088034,088996,076999,082180
0000000158,0000157000,099007,084803,085326,089394,079653,079128
0000000159,0000158000,094924,087484,083052,088755,082793,076626
0000000160,0000159000,082197,090362,081447,087143,086109,074923
0000000161,0000160000,062089,093157,080662,084713,089278,074183
0000000162,0000161000,036543,095603,080772,081702,091994,074478
0000000163,0000162000,008101,097454,081765,078410,093987,075778
0000000164,0000163000,-20424,098525,083547,075157,095060,077958
0000000165,0000164000,-46338,098716,085948,072257,095112,080806
0000000166,0000165000,-67078,098010,088727,069997,094138,084039
0000000167,0000166000,-80546,096478,091605,068602,092232,087341
0000000168,0000167000,-85447,094259,094314,068204,089579,090392
0000000169,0000168000,-81349,091575,096589,068841,086440,092893
0000000170,0000169000,-68668,088701,098195,070452,083126,094597
0000000171,0000170000,-48557,085905,098980,072881,079957,095337
0000000172,0000171000,-22976,083455,098872,075891,077241,095043
0000000173,0000172000,005440,081606,097879,079182,075249,093743
0000000174,0000173000,033957,080535,096098,082435,074175,091565
0000000175,0000174000,059917,080340,093697,085334,074122,088718
0000000176,0000175000,080655,081045,090918,087593,075096,085486
0000000177,0000176000,094104,082580,088039,088989,077000,082185
0000000178,0000177000,099046,084796,085329,089388,079652,079135
0000000179,0000178000,094964,087479,083054,088751,082790,076634
0000000180,0000179000,082253,090357,081446,087141,086103,074930
0000000181,0000180000,062164,093153,080660,084713,089271,074190
0000000182,0000181000,036605,095601,080767,081705,091987,074483
0000000183,0000182000,008153,097454,081759,078415,093979,075781
0000000184,0000183000,-20371,098526,083540,075163,095053,077959
0000000185,0000184000,-46308,098719,085941,072265,095106,080804
0000000186,0000185000,-67079,098017,088720,070006,094134,084035
0000000187,0000186000,-80556,096485,091600,068609,092231,087335
0000000188,0000187000,-85477,094266,094311,068210,089580,090384
0000000189,0000188000,-81410,091583,096587,068846,086444,092885
0000000190,0000189000,-68734,088707,098196,070455,083132,094589
0000000191,0000190000,-48622,085908,098983,072881,079964,095330
0000000192,0000191000,-23054,083458,098877,075888,077250,095037
0000000193,0000192000,005371,081606,097886,079177,075258,093740
0000000194,0000193000,033914,080532,096105,082427,074183,091564
0000000195,0000194000,059883,080335,093705,085325,074129,088721
0000000196,0000195000,080639,081040,090925,087584,075100,085491
0000000197,0000196000,094125,082572,088045,088981,077002,082192
0000000198,0000197000,099088,084788,085333,089381,079651,079143
0000000199,0000198000,095015,087472,083056,088746,082786,076643
0000000200,0000199000,082329,090351,081445,087139,086097,074939
0000000201,0000200000,062250,093147,080657,084714,089263,074198
0000000202,0000201000,036679,095599,080762,081708,091977,074489
0000000203,0000202000,008224,097455,081752,078420,093969,075785
0000000204,0000203000,-20307,098528,083532,075171,095044,077959
0000000205,0000204000,-46276,098724,085933,072274,095099,080802
0000000206,0000205000,-67074,098024,088712,070015,094129,084030
0000000207,0000206000,-80567,096492,091593,068619,092229,087327
0000000208,0000207000,-85520,094274,094307,068218,089582,090375
0000000209,0000208000,-81481,091592,096585,068851,086448,092875
0000000210,0000209000,-68810,088714,098197,070457,083139,094579
0000000211,0000210000,-48709,085913,098987,072881,079973,095321
0000000212,0000211000,-23149,083461,098883,075884,077260,095030
0000000213,0000212000,005293,081606,097894,079170,075268,093736
0000000214,0000213000,033857,080529,096114,082418,074193,091564
0000000215,0000214000,059839,080331,093714,085315,074137,088723
0000000216,0000215000,080627,081032,090934,087573,075105,085496
0000000217,0000216000,094151,082562,088052,088970,077004,082201
0000000218,0000217000,099132,084778,085338,089372,079649,079154
0000000219,0000218000,095082,087464,083058,088739,082781,076654
0000000220,0000219000,082424,090342,081444,087135,086089,074950
0000000221,0000220000,062349,093141,080653,084714,089253,074207
0000000222,0000221000,036771,095596,080755,081712,091966,074497
0000000223,0000222000,008314,097454,081743,078428,093958,075789
0000000224,0000223000,-20235,098531,083522,075181,095034,077960
0000000225,0000224000,-46239,098731,085922,072285,095091,080799
0000000226,0000225000,-67062,098033,088703,070027,094124,084024
0000000227,0000226000,-80583,096502,091586,068630,092227,087318
0000000228,0000227000,-85575,094285,094301,068227,089584,090364
0000000229,0000228000,-81561,091602,096583,068858,086454,092863
0000000230,0000229000,-68902,088722,098198,070461,083147,094567
0000000231,0000230000,-48818,085920,098991,072880,079984,095310
0000000232,0000231000,-23260,083465,098890,075880,077272,095022
0000000233,0000232000,005202,081606,097903,079163,075280,093732
0000000234,0000233000,033783,080525,096125,082408,074204,091563
0000000235,0000234000,059787,080325,093725,085302,074146,088726
0000000236,0000235000,080617,081023,090944,087560,075111,085503
0000000237,0000236000,094178,082551,088061,088958,077006,082211
0000000238,0000237000,099184,084767,085344,089362,079648,079166
0000000239,0000238000,095166,087453,083060,088732,082775,076667
0000000240,0000239000,082535,090332,081443,087132,086080,074963
0000000241,0000240000,062463,093134,080648,084714,089241,074219
0000000242,0000241000,036884,095593,080748,081717,091953,074505
0000000243,0000242000,008422,097454,081733,078436,093944,075794
0000000244,0000243000,-20154,098534,083510,075192,095022,077961
0000000245,0000244000,-46192,098738,085910,072298,095081,080795
0000000246,0000245000,-67045,098042,088692,070041,094117,084016
0000000247,0000246000,-80606,096513,091576,068643,092225,087307
0000000248,0000247000,-85641,094298,094295,068238,089586,090351
0000000249,0000248000,-81652,091614,096580,068866,086460,092849
0000000250,0000249000,-69014,088732,098199,070465,083157,094553
0000000251,0000250000,-48948,085928,098996,072879,079997,095298
0000000252,0000251000,-23387,083469,098899,075875,077287,095013
0000000253,0000252000,005094,081605,097914,079154,075295,093726
0000000254,0000253000,033692,080521,096138,082395,074217,091562
0000000255,0000254000,059729,080317,093738,085288,074157,088730
0000000256,0000255000,080606,081012,090956,087545,075118,085511
0000000257,0000256000,094205,082538,088071,088944,077009,082222
0000000258,0000257000,099245,084754,085351,089350,079645,079180
0000000259,0000258000,095268,087440,083063,088724,082769,076683
0000000260,0000259000,082661,090321,081442,087128,086069,074978
0000000261,0000260000,062596,093126,080643,084715,089228,074232
0000000262,0000261000,037020,095588,080738,081722,091937,074515
0000000263,0000262000,008547,097453,081721,078446,093929,075800
0000000264,0000263000,-20061,098539,083496,075206,095007,077962
0000000265,0000264000,-46134,098747,085896,072314,095070,080791
0000000266,0000265000,-67024,098053,088679,070057,094110,084008
0000000267,0000266000,-80635,096527,091566,068658,092222,087294
0000000268,0000267000,-85714,094313,094287,068251,089588,090335
0000000269,0000268000,-81756,091627,096577,068875,086467,092832
0000000270,0000269000,-69147,088744,098200,070469,083169,094537
0000000271,0000270000,-49100,085937,099002,072879,080012,095284
0000000272,0000271000,-23531,083474,098908,075869,077303,095002
0000000273,0000272000,004966,081605,097927,079143,075312,093720
0000000274,0000273000,033586,080517,096153,082381,074233,091561
0000000275,0000274000,059665,080309,093754,085272,074169,088734
0000000276,0000275000,080591,081000,090970,087528,075126,085521
0000000277,0000276000,094233,082524,088082,088927,077011,082236
0000000278,0000277000,099319,084739,085359,089336,079643,079196
0000000279,0000278000,095386,087424,083066,088714,082761,076700
0000000280,0000279000,082805,090308,081441,087123,086056,074995
0000000281,0000280000,062752,093117,080637,084716,089212,074247
0000000282,0000281000,037180,095583,080728,081729,091919,074527
0000000283,0000282000,008689,097453,081707,078457,093911,075807
0000000284,0000283000,-19953,098544,083481,075221,094991,077963
0000000285,0000284000,-46063,098756,085880,072332,095056,080787
0000000286,0000285000,-67002,098066,088663,070076,094101,083998
0000000287,0000286000,-80671,096543,091553,068676,092219,087280
0000000288,0000287000,-85795,094330,094279,068266,089591,090318
0000000289,0000288000,-81876,091643,096573,068886,086476,092813
0000000290,0000289000,-69303,088757,098202,070474,083182,094518
0000000291,0000290000,-49271,085948,099009,072878,080029,095268
0000000292,0000291000,-23697,083479,098920,075862,077322,094990
0000000293,0000292000,004815,081606,097942,079131,075331,093713
0000000294,0000293000,033464,080512,096170,082365,074250,091560
0000000295,0000294000,059592,080299,093771,085253,074183,088739
0000000296,0000295000,080571,080985,090987,087508,075135,085531
0000000297,0000296000,094264,082507,088096,088909,077015,082251
0000000298,0000297000,099406,084721,085368,089320,079640,079215
0000000299,0000298000,095519,087407,083071,088703,082751,076720
0000000300,0000299000,082966,090293,081439,087118,086042,075015
0000000301,0000300000,062932,093106,080629,084717,089194,074264
