DIgSILENT PowerFactory,21000900,2000
6,06A,00D
1,TTPP_200000_100:Secondary Voltage A,,,V,0.10000000,-8377.576172,0.000000,67168,99998,1,1,P
2,TTPP_200000_100:Secondary Voltage B,,,V,0.10000000,-8066.794434,0.000000,63886,99998,1,1,P
3,TTPP_200000_100:Secondary Voltage C,,,V,0.10000000,-8352.525391,0.000000,66556,99998,1,1,P
4,TTCC_500_5:Secondary Current A,,,A,0.0010000000,-87.445091,0.000000,69104,99998,1,1,P
5,TTCC_500_5:Secondary Current B,,,A,0.0010000000,-85.160393,0.000000,70251,99998,1,1,P
6,TTCC_500_5:Secondary Current C,,,A,0.0010000000,-84.839539,0.000000,69482,99998,1,1,P
50
1
1000.000000,1101
30/06/2023,06:07:51.000000
30/06/2023,06:07:51.000000
ASCII
1.000000
0000000001,0000000000,089288,084308,074373,093361,089840,074244
0000000002,0000001000,086740,086742,074487,090346,092556,074543
0000000003,0000002000,083888,088597,075485,087046,094551,075848
0000000004,0000003000,081043,089658,077268,083791,095620,078034
0000000005,0000004000,078459,089841,079669,080886,095670,080888
0000000006,0000005000,076386,089135,082448,078626,094691,084128
0000000007,0000006000,075040,087604,085323,077232,092778,087434
0000000008,0000007000,074567,085373,088029,076837,090119,090489
0000000009,0000008000,074975,082695,090298,077478,086975,092993
0000000010,0000009000,076243,079828,091898,079096,083654,094695
0000000011,0000010000,078263,077030,092677,081533,080479,095433
0000000012,0000011000,080824,074581,092563,084547,077763,095135
0000000013,0000012000,083652,072750,091567,087846,075770,093829
0000000014,0000013000,086506,071679,089782,091105,074697,091644
0000000015,0000014000,089104,071484,087381,094007,074648,088790
0000000016,0000015000,091163,072203,084603,096265,075630,085550
0000000017,0000016000,092499,073743,081727,097663,077538,082243
0000000018,0000017000,092998,075950,079022,098057,080199,079188
0000000019,0000018000,092578,078638,076753,097414,083346,076685
0000000020,0000019000,091296,081520,075153,095797,086666,074982
0000000021,0000020000,089293,084302,074373,093363,089837,074245
0000000022,0000021000,086739,086743,074487,090343,092558,074543
0000000023,0000022000,083887,088598,075484,087047,094550,075849
0000000024,0000023000,081043,089659,077268,083790,095621,078034
0000000025,0000024000,078461,089839,079670,080887,095670,080888
0000000026,0000025000,076383,089139,082447,078625,094692,084128
0000000027,0000026000,075044,087602,085323,077232,092778,087435
0000000028,0000027000,074565,085374,088029,076836,090120,090489
0000000029,0000028000,074975,082696,090298,077478,086975,092992
0000000030,0000029000,076244,079828,091898,079095,083654,094696
0000000031,0000030000,078264,077028,092678,081532,080480,095433
0000000032,0000031000,080819,074586,092564,084547,077763,095135
0000000033,0000032000,083655,072748,091566,087846,075770,093829
0000000034,0000033000,086508,071678,089782,091104,074697,091644
0000000035,0000034000,089100,071487,087382,094005,074650,088790
0000000036,0000035000,091161,072204,084603,096266,075629,085550
0000000037,0000036000,092504,073738,081727,097662,077539,082244
0000000038,0000037000,092995,075953,079022,098056,080200,079189
0000000039,0000038000,092575,078641,076753,097413,083346,076686
0000000040,0000039000,091301,081516,075152,095798,086665,074983
0000000041,0000040000,089295,084301,074373,093361,089839,074245
0000000042,0000041000,086733,086749,074487,090344,092557,074544
0000000043,0000042000,083889,088596,075483,087047,094549,075849
0000000044,0000043000,081047,089654,077267,083790,095621,078034
0000000045,0000044000,078456,089844,079669,080886,095671,080888
0000000046,0000045000,076382,089140,082447,078626,094691,084128
0000000047,0000046000,075049,087597,085323,077232,092779,087434
0000000048,0000047000,074564,085376,088029,076835,090121,090489
0000000049,0000048000,074970,082701,090298,077478,086975,092992
0000000050,0000049000,076248,079824,091898,079096,083654,094695
0000000051,0000050000,078265,077027,092678,081531,080481,095433
0000000052,0000051000,080815,074590,092564,084547,077764,095135
0000000053,0000052000,083656,072746,091567,087846,075770,093829
0000000054,0000053000,086511,071674,089783,091103,074698,091644
0000000055,0000054000,089097,071490,087382,094004,074651,088790
0000000056,0000055000,091161,072204,084604,096265,075629,085551
0000000057,0000056000,092507,073734,081728,097661,077540,082244
0000000058,0000057000,092994,075953,079022,098055,080200,079190
0000000059,0000058000,092573,078643,076753,097413,083345,076687
0000000060,0000059000,091304,081512,075152,095797,086664,074984
0000000061,0000060000,089295,084301,074373,093361,089839,074246
0000000062,0000061000,086732,086751,074486,090344,092557,074544
0000000063,0000062000,083892,088594,075483,087048,094548,075849
0000000064,0000063000,081048,089654,077267,083790,095621,078035
0000000065,0000064000,078454,089847,079668,080887,095671,080888
0000000066,0000065000,076384,089139,082446,078627,094691,084127
0000000067,0000066000,075050,087597,085322,077232,092779,087434
0000000068,0000067000,074561,085380,088028,076836,090121,090488
0000000069,0000068000,074970,082701,090297,077478,086975,092991
0000000070,0000069000,076249,079822,091898,079096,083655,094694
0000000071,0000070000,078262,077029,092678,081530,080483,095432
0000000072,0000071000,080813,074591,092565,084546,077765,095134
0000000073,0000072000,083658,072743,091568,087844,075771,093829
0000000074,0000073000,086509,071675,089784,091101,074700,091644
0000000075,0000074000,089094,071492,087383,094003,074651,088791
0000000076,0000075000,091164,072201,084605,096264,075629,085552
0000000077,0000076000,092508,073733,081729,097659,077541,082246
0000000078,0000077000,092991,075955,079023,098054,080200,079191
0000000079,0000078000,092576,078640,076753,097413,083344,076688
0000000080,0000079000,091307,081509,075152,095796,086664,074985
0000000081,0000080000,089293,084303,074373,093360,089838,074247
0000000082,0000081000,086733,086751,074485,090345,092555,074545
0000000083,0000082000,083896,088591,075482,087048,094547,075850
0000000084,0000083000,081047,089656,077266,083790,095620,078035
0000000085,0000084000,078453,089849,079667,080888,095669,080888
0000000086,0000085000,076387,089138,082445,078629,094690,084127
0000000087,0000086000,075049,087598,085321,077233,092780,087432
0000000088,0000087000,074558,085384,088027,076837,090121,090487
0000000089,0000088000,074971,082701,090297,077480,086976,092990
0000000090,0000089000,076249,079822,091898,079095,083657,094693
0000000091,0000090000,078257,077033,092679,081530,080485,095431
0000000092,0000091000,080812,074591,092566,084546,077766,095133
0000000093,0000092000,083658,072741,091569,087843,075774,093829
0000000094,0000093000,086506,071676,089786,091099,074702,091644
0000000095,0000094000,089093,071492,087384,094001,074652,088791
0000000096,0000095000,091166,072197,084606,096262,075630,085553
0000000097,0000096000,092507,073732,081730,097656,077541,082247
0000000098,0000097000,092990,075955,079024,098052,080200,079193
0000000099,0000098000,092579,078636,076754,097411,083343,076690
0000000100,0000099000,091309,081507,075152,095795,086663,074987
0000000101,0000100000,089293,084304,074372,093360,089836,074249
0000000102,0000101000,086736,086749,074484,090346,092552,074547
0000000103,0000102000,083898,088590,075480,087049,094545,075851
0000000104,0000103000,081047,089658,077264,083792,095618,078035
0000000105,0000104000,078454,089850,079665,080891,095667,080887
0000000106,0000105000,076388,089138,082443,078631,094689,084125
0000000107,0000106000,075047,087602,085320,077235,092779,087431
0000000108,0000107000,074556,085387,088026,076839,090121,090484
0000000109,0000108000,074971,082701,090296,077481,086977,092987
0000000110,0000109000,076246,079825,091898,079096,083659,094690
0000000111,0000110000,078254,077036,092679,081530,080487,095428
0000000112,0000111000,080812,074590,092567,084545,077769,095131
0000000113,0000112000,083656,072741,091571,087841,075777,093827
0000000114,0000113000,086503,071678,089788,091096,074705,091644
0000000115,0000114000,089093,071489,087387,093999,074654,088792
0000000116,0000115000,091166,072194,084609,096259,075632,085554
0000000117,0000116000,092506,073731,081732,097653,077542,082250
0000000118,0000117000,092992,075952,079025,098050,080199,079196
0000000119,0000118000,092583,078632,076754,097409,083342,076694
0000000120,0000119000,091310,081506,075152,095794,086661,074991
0000000121,0000120000,089295,084303,074370,093361,089832,074252
0000000122,0000121000,086741,086746,074482,090347,092549,074549
0000000123,0000122000,083901,088591,075478,087051,094542,075852
0000000124,0000123000,081048,089661,077261,083795,095615,078035
0000000125,0000124000,078457,089850,079662,080894,095664,080886
0000000126,0000125000,076389,089140,082440,078634,094687,084123
0000000127,0000126000,075045,087606,085317,077238,092779,087428
0000000128,0000127000,074555,085389,088024,076842,090122,090481
0000000129,0000128000,074970,082703,090296,077483,086979,092983
0000000130,0000129000,076241,079829,091899,079097,083662,094686
0000000131,0000130000,078250,077038,092681,081530,080490,095425
0000000132,0000131000,080810,074590,092569,084544,077773,095129
0000000133,0000132000,083652,072742,091574,087838,075781,093826
0000000134,0000133000,086500,071678,089792,091093,074708,091644
0000000135,0000134000,089093,071486,087390,093995,074657,088793
0000000136,0000135000,091166,072191,084612,096254,075634,085557
0000000137,0000136000,092505,073729,081735,097649,077543,082253
0000000138,0000137000,092995,075948,079027,098047,080198,079200
0000000139,0000138000,092586,078628,076755,097407,083340,076698
0000000140,0000139000,091312,081505,075152,095792,086658,074995
0000000141,0000140000,089300,084300,074369,093361,089828,074256
0000000142,0000141000,086746,086743,074480,090348,092545,074552
0000000143,0000142000,083903,088592,075475,087054,094537,075854
0000000144,0000143000,081050,089662,077257,083799,095610,078036
0000000145,0000144000,078460,089851,079658,080899,095661,080885
0000000146,0000145000,076389,089144,082436,078639,094685,084121
0000000147,0000146000,075043,087611,085314,077243,092778,087424
0000000148,0000147000,074555,085392,088022,076846,090122,090476
0000000149,0000148000,074967,082707,090295,077485,086981,092978
0000000150,0000149000,076236,079834,091899,079098,083665,094681
0000000151,0000150000,078247,077040,092682,081530,080495,095421
0000000152,0000151000,080806,074591,092573,084542,077779,095125
0000000153,0000152000,083647,072744,091578,087835,075787,093824
0000000154,0000153000,086497,071676,089796,091089,074713,091643
0000000155,0000154000,089092,071482,087395,093989,074662,088794
0000000156,0000155000,091164,072188,084617,096248,075637,085560
0000000157,0000156000,092506,073725,081738,097644,077544,082257
0000000158,0000157000,092998,075941,079030,098042,080198,079206
0000000159,0000158000,092589,078624,076757,097403,083338,076704
0000000160,0000159000,091316,081501,075151,095791,086653,075001
0000000161,0000160000,089306,084296,074367,093361,089823,074261
0000000162,0000161000,086751,086741,074476,090350,092539,074556
0000000163,0000162000,083906,088593,075470,087057,094531,075856
0000000164,0000163000,081055,089663,077251,083805,095604,078036
0000000165,0000164000,078463,089854,079652,080905,095656,080884
0000000166,0000165000,076388,089149,082431,078645,094682,084118
0000000167,0000166000,075042,087617,085310,077250,092776,087419
0000000168,0000167000,074553,085397,088019,076851,090123,090470
0000000169,0000168000,074962,082713,090294,077489,086984,092972
0000000170,0000169000,076230,079839,091900,079100,083670,094675
0000000171,0000170000,078242,077042,092685,081530,080501,095415
0000000172,0000171000,080800,074593,092577,084539,077786,095121
0000000173,0000172000,083641,072744,091583,087830,075793,093821
0000000174,0000173000,086494,071673,089802,091083,074719,091643
0000000175,0000174000,089089,071478,087401,093982,074667,088796
0000000176,0000175000,091162,072184,084622,096241,075641,085563
0000000177,0000176000,092508,073718,081743,097637,077545,082263
0000000178,0000177000,093002,075934,079033,098036,080197,079212
0000000179,0000178000,092593,078618,076758,097399,083335,076711
0000000180,0000179000,091322,081496,075151,095789,086648,075008
0000000181,0000180000,089314,084291,074364,093361,089816,074268
0000000182,0000181000,086757,086740,074472,090352,092531,074561
0000000183,0000182000,083912,088593,075464,087062,094523,075859
0000000184,0000183000,081060,089664,077245,083811,095597,078037
0000000185,0000184000,078466,089858,079646,080912,095651,080882
0000000186,0000185000,076389,089156,082425,078653,094678,084113
0000000187,0000186000,075042,087623,085304,077257,092775,087413
0000000188,0000187000,074550,085403,088016,076858,090124,090463
0000000189,0000188000,074956,082721,090292,077494,086988,092963
0000000190,0000189000,076224,079845,091900,079103,083676,094667
0000000191,0000190000,078236,077046,092688,081529,080508,095408
0000000192,0000191000,080792,074596,092581,084536,077794,095115
0000000193,0000192000,083635,072745,091590,087825,075802,093818
0000000194,0000193000,086489,071670,089809,091076,074727,091642
0000000195,0000194000,089086,071474,087409,093973,074673,088798
0000000196,0000195000,091161,072179,084629,096232,075645,085568
0000000197,0000196000,092510,073710,081749,097629,077546,082270
0000000198,0000197000,093006,075926,079037,098029,080196,079221
0000000199,0000198000,092598,078612,076760,097394,083331,076721
0000000200,0000199000,091330,081489,075150,095786,086641,075017
0000000201,0000200000,089322,084286,074361,093361,089808,074276
0000000202,0000201000,086764,086738,074466,090356,092522,074567
0000000203,0000202000,083919,088593,075457,087068,094514,075863
0000000204,0000203000,081066,089666,077237,083819,095589,078037
0000000205,0000204000,078469,089863,079637,080922,095644,080880
0000000206,0000205000,076389,089163,082417,078663,094674,084108
0000000207,0000206000,075041,087630,085298,077267,092773,087405
0000000208,0000207000,074545,085412,088011,076866,090126,090453
0000000209,0000208000,074949,082730,090290,077499,086992,092953
0000000210,0000209000,076217,079851,091901,079106,083683,094657
0000000211,0000210000,078227,077051,092691,081529,080518,095399
0000000212,0000211000,080782,074600,092587,084533,077804,095108
0000000213,0000212000,083627,072744,091598,087819,075812,093814
0000000214,0000213000,086483,071667,089819,091067,074737,091641
0000000215,0000214000,089081,071469,087418,093963,074681,088801
0000000216,0000215000,091160,072171,084638,096221,075650,085574
0000000217,0000216000,092513,073700,081756,097618,077548,082278
0000000218,0000217000,093010,075917,079042,098020,080194,079231
0000000219,0000218000,092605,078603,076762,097387,083326,076732
0000000220,0000219000,091340,081481,075149,095783,086634,075028
0000000221,0000220000,089332,084280,074357,093362,089798,074285
0000000222,0000221000,086773,086736,074460,090360,092511,074575
0000000223,0000222000,083928,088592,075448,087075,094502,075867
0000000224,0000223000,081073,089669,077227,083829,095578,078038
0000000225,0000224000,078472,089870,079627,080933,095635,080877
0000000226,0000225000,076391,089171,082408,078675,094668,084102
0000000227,0000226000,075039,087639,085290,077278,092771,087396
0000000228,0000227000,074539,085424,088006,076875,090128,090442
0000000229,0000228000,074941,082740,090288,077506,086998,092941
0000000230,0000229000,076208,079859,091902,079109,083691,094645
0000000231,0000230000,078215,077058,092696,081528,080529,095388
0000000232,0000231000,080771,074603,092594,084528,077817,095100
0000000233,0000232000,083618,072744,091607,087811,075825,093809
0000000234,0000233000,086476,071664,089830,091056,074748,091640
0000000235,0000234000,089076,071463,087429,093951,074690,088804
0000000236,0000235000,091159,072162,084648,096209,075656,085581
0000000237,0000236000,092515,073689,081765,097606,077551,082288
0000000238,0000237000,093015,075906,079048,098010,080192,079243
0000000239,0000238000,092614,078591,076764,097380,083320,076745
0000000240,0000239000,091351,081471,075148,095780,086624,075041
0000000241,0000240000,089343,084273,074353,093362,089786,074297
0000000242,0000241000,086785,086732,074452,090364,092497,074583
0000000243,0000242000,083939,088592,075438,087084,094489,075872
0000000244,0000243000,081081,089673,077215,083840,095566,078039
0000000245,0000244000,078477,089877,079615,080946,095625,080873
0000000246,0000245000,076393,089180,082396,078689,094662,084094
0000000247,0000246000,075036,087651,085281,077291,092769,087385
0000000248,0000247000,074533,085436,088000,076886,090130,090429
0000000249,0000248000,074932,082752,090285,077514,087004,092927
0000000250,0000249000,076196,079869,091903,079113,083701,094631
0000000251,0000250000,078202,077066,092701,081528,080541,095376
0000000252,0000251000,080759,074607,092603,084523,077831,095091
0000000253,0000252000,083607,072743,091618,087802,075839,093804
0000000254,0000253000,086466,071660,089842,091044,074762,091639
0000000255,0000254000,089070,071456,087442,093936,074701,088808
0000000256,0000255000,091158,072150,084660,096193,075663,085589
0000000257,0000256000,092517,073677,081775,097592,077553,082300
0000000258,0000257000,093021,075893,079055,097998,080190,079257
0000000259,0000258000,092624,078578,076767,097372,083313,076760
0000000260,0000259000,091363,081460,075146,095775,086614,075056
0000000261,0000260000,089356,084266,074347,093363,089772,074310
0000000262,0000261000,086799,086727,074443,090370,092482,074593
0000000263,0000262000,083952,088592,075426,087094,094473,075878
0000000264,0000263000,081090,089678,077201,083853,095552,078040
0000000265,0000264000,078483,089885,079601,080962,095614,080869
0000000266,0000265000,076395,089191,082383,078705,094654,084086
0000000267,0000266000,075033,087665,085270,077306,092766,087373
0000000268,0000267000,074526,085451,087992,076899,090132,090414
0000000269,0000268000,074922,082765,090282,077523,087011,092910
0000000270,0000269000,076183,079882,091905,079117,083713,094615
0000000271,0000270000,078187,077076,092707,081527,080556,095362
0000000272,0000271000,080745,074612,092613,084517,077847,095080
0000000273,0000272000,083594,072743,091631,087791,075856,093798
0000000274,0000273000,086456,071656,089857,091029,074777,091638
0000000275,0000274000,089064,071447,087458,093920,074713,088812
0000000276,0000275000,091157,072138,084674,096176,075671,085598
0000000277,0000276000,092520,073663,081786,097576,077556,082313
0000000278,0000277000,093029,075878,079063,097984,080187,079274
0000000279,0000278000,092636,078563,076771,097362,083305,076778
0000000280,0000279000,091377,081447,075145,095771,086601,075073
0000000281,0000280000,089372,084256,074341,093364,089756,074325
0000000282,0000281000,086815,086721,074432,090376,092464,074605
0000000283,0000282000,083965,088591,075412,087105,094455,075885
0000000284,0000283000,081101,089683,077185,083869,095535,078041
0000000285,0000284000,078491,089894,079584,080980,095601,080865
0000000286,0000285000,076397,089204,082368,078724,094646,084076
0000000287,0000286000,075030,087681,085258,077324,092763,087358
0000000288,0000287000,074518,085468,087983,076914,090135,090396
0000000289,0000288000,074910,082781,090278,077534,087020,092891
0000000290,0000289000,076167,079896,091906,079122,083727,094596
0000000291,0000290000,078170,077086,092713,081526,080573,095346
0000000292,0000291000,080728,074617,092624,084511,077866,095068
0000000293,0000292000,083579,072744,091646,087779,075875,093791
0000000294,0000293000,086444,071651,089874,091013,074794,091637
0000000295,0000294000,089057,071437,087475,093901,074727,088817
0000000296,0000295000,091154,072124,084691,096156,075680,085609
0000000297,0000296000,092523,073646,081800,097557,077559,082329
0000000298,0000297000,093038,075859,079072,097968,080184,079293
0000000299,0000298000,092649,078545,076775,097351,083296,076798
0000000300,0000299000,091393,081432,075143,095765,086587,075093
0000000301,0000300000,089390,084245,074334,093365,089738,074342
