DIgSILENT PowerFactory,21000900,2000
6,06A,00D
1,TTPP_200000_100:Secondary Voltage A,,,V,0.10000000,-8737.289063,0.000000,73054,99998,1,1,P
2,TTPP_200000_100:Secondary Voltage B,,,V,0.10000000,-8521.534180,0.000000,71715,99998,1,1,P
3,TTPP_200000_100:Secondary Voltage C,,,V,0.10000000,-8745.462891,0.000000,71960,99998,1,1,P
4,TTCC_300_1:Secondary Current A,,,A,0.00010000000,-5.171983,0.000000,-18560,99998,1,1,P
5,TTCC_300_1:Secondary Current B,,,A,0.00010000000,-4.872971,0.000000,-2601,99998,1,1,P
6,TTCC_300_1:Secondary Current C,,,A,0.00010000000,-4.947093,0.000000,-1161,99998,1,1,P
50
1
1000.000000,1101
30/06/2023,06:09:19.000000
30/06/2023,06:09:19.000000
ASCII
1.000000
0000000001,0000000000,094479,086690,078873,030791,034739,084390
0000000002,0000001000,092345,089408,078289,040544,025461,083917
0000000003,0000002000,089704,091738,078600,051382,018464,080074
0000000004,0000003000,086848,093417,079777,062263,014420,073238
0000000005,0000004000,084055,094279,081710,072103,013747,064069
0000000006,0000005000,081567,094270,084207,079954,016497,053469
0000000007,0000006000,079646,093384,087013,085037,022395,042488
0000000008,0000007000,078502,091675,089866,086863,030868,032191
0000000009,0000008000,078215,089339,092488,085236,041111,023574
0000000010,0000009000,078815,086615,094614,080340,052084,017497
0000000011,0000010000,080261,083746,096036,072644,062720,014557
0000000012,0000011000,082415,081007,096621,062886,072004,015030
0000000013,0000012000,085036,078699,096309,052038,079011,018872
0000000014,0000013000,087889,077022,095132,041171,083041,025709
0000000015,0000014000,090701,076142,093200,031328,083715,034877
0000000016,0000015000,093181,076158,090703,023469,080975,045476
0000000017,0000016000,095089,077059,087895,018392,075070,056458
0000000018,0000017000,096251,078748,085044,016572,066593,066756
0000000019,0000018000,096535,081086,082422,018189,056359,075372
0000000020,0000019000,095923,083825,080295,023088,045384,081448
0000000021,0000020000,094486,086684,078873,030790,034740,084390
0000000022,0000021000,092339,089415,078289,040540,025465,083916
0000000023,0000022000,089702,091740,078600,051391,018457,080073
0000000024,0000023000,086856,093410,079777,062262,014421,073237
0000000025,0000024000,084053,094281,081710,072102,013749,064069
0000000026,0000025000,081559,094277,084207,079956,016495,053469
0000000027,0000026000,079652,093378,087013,085044,022388,042488
0000000028,0000027000,078504,091673,089865,086858,030872,032190
0000000029,0000028000,078209,089345,092488,085238,041109,023574
0000000030,0000029000,078814,086615,094614,080345,052079,017497
0000000031,0000030000,080268,083739,096036,072646,062719,014556
0000000032,0000031000,082411,081012,096621,062885,072006,015029
0000000033,0000032000,085033,078701,096309,052042,079006,018872
0000000034,0000033000,087893,077018,095132,041175,083038,025708
0000000035,0000034000,090702,076141,093200,031327,083718,034876
0000000036,0000035000,093177,076163,090703,023473,080973,045475
0000000037,0000036000,095092,077055,087896,018395,075069,056456
0000000038,0000037000,096252,078747,085044,016573,066593,066754
0000000039,0000038000,096533,081089,082421,018189,056361,075370
0000000040,0000039000,095924,083824,080295,023091,045382,081447
0000000041,0000040000,094487,086682,078873,030790,034742,084389
0000000042,0000041000,092337,089417,078289,040541,025465,083915
0000000043,0000042000,089703,091740,078600,051391,018457,080073
0000000044,0000043000,086858,093408,079777,062262,014421,073237
0000000045,0000044000,084051,094283,081710,072101,013750,064069
0000000046,0000045000,081560,094277,084206,079957,016493,053470
0000000047,0000046000,079654,093376,087013,085043,022389,042489
0000000048,0000047000,078502,091675,089866,086858,030872,032191
0000000049,0000048000,078208,089347,092488,085240,041106,023575
0000000050,0000049000,078817,086612,094614,080346,052076,017498
0000000051,0000050000,080266,083740,096037,072645,062719,014557
0000000052,0000051000,082407,081015,096621,062889,072001,015030
0000000053,0000052000,085037,078697,096309,052046,079003,018872
0000000054,0000053000,087894,077016,095133,041176,083037,025707
0000000055,0000054000,090697,076145,093200,031330,083716,034875
0000000056,0000055000,093179,076161,090703,023479,080968,045473
0000000057,0000056000,095095,077052,087896,018396,075070,056454
0000000058,0000057000,096249,078750,085044,016575,066594,066751
0000000059,0000058000,096531,081090,082421,018194,056359,075367
0000000060,0000059000,095929,083819,080295,023093,045383,081445
0000000061,0000060000,094486,086684,078873,030788,034746,084386
0000000062,0000061000,092334,089420,078288,040543,025465,083913
0000000063,0000062000,089706,091737,078599,051392,018457,080071
0000000064,0000063000,086860,093407,079776,062258,014426,073237
0000000065,0000064000,084047,094287,081709,072099,013751,064069
0000000066,0000065000,081561,094276,084206,079957,016492,053471
0000000067,0000066000,079656,093374,087013,085040,022390,042491
0000000068,0000067000,078499,091679,089865,086855,030872,032194
0000000069,0000068000,078207,089348,092488,085241,041102,023578
0000000070,0000069000,078820,086609,094614,080346,052073,017501
0000000071,0000070000,080264,083742,096037,072644,062716,014559
0000000072,0000071000,082405,081017,096621,062892,071996,015032
0000000073,0000072000,085038,078695,096310,052049,078998,018873
0000000074,0000073000,087893,077016,095134,041179,083035,025707
0000000075,0000074000,090695,076147,093201,031336,083712,034873
0000000076,0000075000,093180,076159,090704,023485,080965,045471
0000000077,0000076000,095096,077050,087897,018400,075070,056451
0000000078,0000077000,096247,078751,085045,016579,066594,066747
0000000079,0000078000,096533,081089,082421,018199,056359,075362
0000000080,0000079000,095931,083817,080295,023094,045387,081440
0000000081,0000080000,094485,086685,078873,030789,034751,084382
0000000082,0000081000,092335,089420,078287,040543,025469,083909
0000000083,0000082000,089709,091735,078599,051389,018463,080069
0000000084,0000083000,086858,093409,079776,062254,014431,073236
0000000085,0000084000,084046,094289,081708,072096,013754,064070
0000000086,0000085000,081564,094275,084205,079952,016494,053474
0000000087,0000086000,079655,093375,087012,085033,022392,042495
0000000088,0000087000,078496,091682,089865,086852,030870,032199
0000000089,0000088000,078208,089347,092487,085239,041098,023584
0000000090,0000089000,078819,086609,094614,080343,052070,017507
0000000091,0000090000,080260,083745,096037,072645,062710,014564
0000000092,0000091000,082405,081016,096622,062896,071988,015036
0000000093,0000092000,085039,078693,096311,052053,078992,018875
0000000094,0000093000,087890,077018,095135,041184,083029,025707
0000000095,0000094000,090694,076147,093202,031344,083705,034871
0000000096,0000095000,093183,076155,090705,023492,080962,045467
0000000097,0000096000,095095,077050,087898,018406,075070,056445
0000000098,0000097000,096246,078752,085045,016587,066594,066740
0000000099,0000098000,096536,081085,082422,018204,056362,075355
0000000100,0000099000,095932,083816,080295,023095,045393,081432
0000000101,0000100000,094484,086687,078872,030789,034757,084375
0000000102,0000101000,092338,089418,078286,040542,025475,083904
0000000103,0000102000,089712,091733,078598,051383,018471,080066
0000000104,0000103000,086857,093412,079774,062247,014439,073235
0000000105,0000104000,084047,094290,081706,072089,013758,064072
0000000106,0000105000,081566,094274,084203,079943,016499,053478
0000000107,0000106000,079654,093378,087011,085025,022394,042502
0000000108,0000107000,078495,091684,089864,086846,030867,032207
0000000109,0000108000,078209,089347,092487,085234,041094,023593
0000000110,0000109000,078817,086611,094615,080340,052065,017516
0000000111,0000110000,080257,083748,096038,072647,062701,014572
0000000112,0000111000,082405,081015,096623,062900,071978,015042
0000000113,0000112000,085038,078693,096313,052058,078983,018879
0000000114,0000113000,087887,077019,095137,041193,083019,025708
0000000115,0000114000,090694,076145,093204,031355,083697,034869
0000000116,0000115000,093183,076152,090707,023502,080957,045462
0000000117,0000116000,095094,077050,087899,018416,075068,056436
0000000118,0000117000,096247,078750,085046,016597,066594,066729
0000000119,0000118000,096539,081082,082422,018210,056367,075343
0000000120,0000119000,095933,083815,080295,023098,045402,081421
0000000121,0000120000,094486,086686,078871,030790,034766,084364
0000000122,0000121000,092342,089416,078285,040538,025487,083896
0000000123,0000122000,089713,091734,078596,051375,018484,080061
0000000124,0000123000,086857,093414,079772,062238,014449,073234
0000000125,0000124000,084050,094289,081704,072078,013767,064075
0000000126,0000125000,081566,094275,084201,079930,016506,053485
0000000127,0000126000,079651,093382,087009,085013,022396,042511
0000000128,0000127000,078494,091686,089862,086837,030865,032219
0000000129,0000128000,078208,089348,092487,085226,041089,023607
0000000130,0000129000,078813,086615,094615,080336,052056,017529
0000000131,0000130000,080255,083749,096039,072648,062688,014584
0000000132,0000131000,082404,081014,096625,062905,071964,015051
0000000133,0000132000,085034,078694,096315,052066,078970,018884
0000000134,0000133000,087884,077020,095139,041206,083005,025709
0000000135,0000134000,090695,076142,093206,031370,083686,034866
0000000136,0000135000,093183,076150,090709,023516,080951,045454
0000000137,0000136000,095093,077049,087901,018431,075064,056425
0000000138,0000137000,096250,078746,085047,016610,066595,066715
0000000139,0000138000,096542,081078,082423,018218,056374,075328
0000000140,0000139000,095934,083814,080295,023103,045412,081405
0000000141,0000140000,094489,086684,078870,030791,034779,084351
0000000142,0000141000,092346,089414,078283,040533,025503,083885
0000000143,0000142000,089714,091735,078593,051365,018501,080055
0000000144,0000143000,086859,093415,079769,062225,014463,073232
0000000145,0000144000,084053,094290,081701,072062,013779,064079
0000000146,0000145000,081566,094279,084199,079912,016514,053493
0000000147,0000146000,079650,093386,087007,084997,022399,042524
0000000148,0000147000,078494,091688,089861,086823,030862,032236
0000000149,0000148000,078206,089351,092486,085215,041082,023624
0000000150,0000149000,078809,086619,094615,080331,052043,017546
0000000151,0000150000,080253,083750,096040,072649,062671,014600
0000000152,0000151000,082401,081015,096627,062910,071946,015064
0000000153,0000152000,085030,078695,096318,052078,078951,018892
0000000154,0000153000,087882,077018,095142,041223,082987,025711
0000000155,0000154000,090694,076138,093210,031388,083672,034861
0000000156,0000155000,093181,076149,090713,023536,080942,045443
0000000157,0000156000,095094,077045,087904,018451,075060,056410
0000000158,0000157000,096253,078741,085049,016626,066598,066697
0000000159,0000158000,096544,081075,082424,018230,056383,075307
0000000160,0000159000,095937,083812,080294,023110,045426,081385
0000000161,0000160000,094494,086681,078868,030791,034797,084333
0000000162,0000161000,092350,089412,078281,040525,025524,083871
0000000163,0000162000,089716,091736,078590,051353,018522,080046
0000000164,0000163000,086863,093416,079765,062208,014482,073230
0000000165,0000164000,084055,094291,081697,072040,013796,064084
0000000166,0000165000,081565,094283,084195,079890,016525,053505
0000000167,0000166000,079649,093390,087004,084977,022402,042541
0000000168,0000167000,078493,091691,089859,086805,030859,032257
0000000169,0000168000,078201,089356,092485,085201,041072,023647
0000000170,0000169000,078805,086623,094616,080325,052026,017569
0000000171,0000170000,080249,083752,096042,072650,062650,014620
0000000172,0000171000,082396,081017,096630,062918,071923,015079
0000000173,0000172000,085026,078696,096322,052093,078926,018901
0000000174,0000173000,087880,077016,095147,041243,082965,025713
0000000175,0000174000,090692,076135,093215,031411,083654,034855
0000000176,0000175000,093180,076146,090717,023561,080930,045430
0000000177,0000176000,095095,077041,087907,018475,075054,056391
0000000178,0000177000,096256,078735,085052,016646,066601,066673
0000000179,0000178000,096547,081072,082425,018244,056394,075281
0000000180,0000179000,095941,083808,080293,023118,045443,081360
0000000181,0000180000,094500,086677,078866,030790,034820,084310
0000000182,0000181000,092354,089412,078277,040516,025551,083854
0000000183,0000182000,089720,091737,078585,051337,018548,080036
0000000184,0000183000,086867,093416,079760,062185,014507,073228
0000000185,0000184000,084056,094295,081692,072014,013816,064090
0000000186,0000185000,081565,094288,084190,079863,016538,053519
0000000187,0000186000,079649,093394,087000,084951,022407,042563
0000000188,0000187000,078490,091696,089856,086782,030856,032283
0000000189,0000188000,078197,089362,092484,085185,041060,023676
0000000190,0000189000,078800,086626,094616,080317,052006,017597
0000000191,0000190000,080244,083754,096044,072650,062625,014645
0000000192,0000191000,082390,081019,096634,062928,071894,015098
0000000193,0000192000,085021,078696,096326,052112,078896,018912
0000000194,0000193000,087878,077013,095152,041268,082937,025715
0000000195,0000194000,090690,076133,093220,031440,083632,034848
0000000196,0000195000,093179,076142,090722,023593,080914,045414
0000000197,0000196000,095097,077034,087911,018505,075048,056367
0000000198,0000197000,096259,078729,085055,016671,066606,066644
0000000199,0000198000,096551,081067,082426,018263,056408,075249
0000000200,0000199000,095947,083803,080292,023127,045465,081328
0000000201,0000200000,094506,086673,078864,030789,034850,084282
0000000202,0000201000,092359,089411,078273,040505,025584,083832
0000000203,0000202000,089726,091737,078580,051317,018581,080023
0000000204,0000203000,086872,093418,079754,062157,014537,073226
0000000205,0000204000,084058,094299,081686,071981,013841,064098
0000000206,0000205000,081565,094294,084184,079829,016554,053537
0000000207,0000206000,079648,093400,086995,084918,022413,042589
0000000208,0000207000,078487,091703,089853,086754,030852,032315
0000000209,0000208000,078191,089368,092483,085165,041044,023711
0000000210,0000209000,078795,086631,094617,080308,051981,017632
0000000211,0000210000,080238,083758,096047,072651,062593,014676
0000000212,0000211000,082383,081022,096639,062940,071858,015122
0000000213,0000212000,085016,078695,096332,052135,078859,018926
0000000214,0000213000,087873,077010,095159,041298,082904,025718
0000000215,0000214000,090686,076129,093227,031476,083605,034839
0000000216,0000215000,093179,076136,090728,023631,080896,045394
0000000217,0000216000,095099,077027,087917,018541,075042,056338
0000000218,0000217000,096262,078723,085058,016701,066611,066608
0000000219,0000218000,096556,081060,082427,018285,056424,075211
0000000220,0000219000,095955,083796,080292,023138,045492,081290
0000000221,0000220000,094513,086669,078861,030787,034884,084249
0000000222,0000221000,092366,089409,078268,040492,025622,083807
0000000223,0000222000,089733,091736,078573,051293,018620,080008
0000000224,0000223000,086877,093420,079746,062124,014574,073222
0000000225,0000224000,084061,094304,081678,071942,013870,064108
0000000226,0000225000,081566,094300,084177,079788,016573,053559
0000000227,0000226000,079647,093407,086989,084879,022421,042621
0000000228,0000227000,078482,091712,089849,086721,030846,032354
0000000229,0000228000,078185,089376,092481,085142,041026,023753
0000000230,0000229000,078788,086637,094618,080295,051952,017673
0000000231,0000230000,080229,083763,096051,072652,062556,014712
0000000232,0000231000,082375,081025,096644,062955,071815,015150
0000000233,0000232000,085009,078695,096340,052161,078816,018943
0000000234,0000233000,087867,077008,095167,041334,082865,025721
0000000235,0000234000,090682,076125,093236,031519,083573,034829
0000000236,0000235000,093178,076128,090736,023675,080874,045371
0000000237,0000236000,095101,077018,087923,018583,075034,056304
0000000238,0000237000,096266,078715,085063,016737,066617,066566
0000000239,0000238000,096563,081052,082429,018311,056444,075165
0000000240,0000239000,095963,083789,080291,023151,045524,081245
0000000241,0000240000,094522,086664,078857,030786,034926,084209
0000000242,0000241000,092374,089406,078262,040476,025668,083776
0000000243,0000242000,089741,091736,078565,051264,018667,079990
0000000244,0000243000,086882,093423,079737,062084,014617,073219
0000000245,0000244000,084064,094310,081669,071896,013905,064119
0000000246,0000245000,081568,094306,084169,079740,016596,053584
0000000247,0000246000,079645,093416,086983,084833,022430,042658
0000000248,0000247000,078477,091721,089844,086682,030839,032399
0000000249,0000248000,078179,089385,092479,085114,041004,023802
0000000250,0000249000,078779,086644,094619,080281,051917,017722
0000000251,0000250000,080219,083769,096054,072654,062512,014755
0000000252,0000251000,082365,081027,096650,062972,071765,015182
0000000253,0000252000,085001,078694,096348,052192,078766,018962
0000000254,0000253000,087860,077005,095177,041377,082819,025725
0000000255,0000254000,090678,076119,093245,031569,083536,034816
0000000256,0000255000,093178,076120,090745,023728,080850,045343
0000000257,0000256000,095103,077009,087931,018632,075025,056263
0000000258,0000257000,096271,078705,085068,016779,066624,066517
0000000259,0000258000,096571,081042,082431,018341,056467,075112
0000000260,0000259000,095973,083781,080290,023166,045561,081193
0000000261,0000260000,094532,086658,078853,030784,034973,084163
0000000262,0000261000,092385,089402,078255,040458,025722,083741
0000000263,0000262000,089751,091736,078556,051230,018722,079969
0000000264,0000263000,086889,093427,079727,062038,014667,073215
0000000265,0000264000,084069,094316,081658,071843,013945,064133
0000000266,0000265000,081569,094315,084159,079683,016623,053614
0000000267,0000266000,079642,093426,086975,084779,022440,042701
0000000268,0000267000,078471,091732,089839,086637,030831,032452
0000000269,0000268000,078171,089395,092477,085082,040979,023860
0000000270,0000269000,078769,086654,094620,080265,051877,017778
0000000271,0000270000,080208,083776,096059,072656,062460,014804
0000000272,0000271000,082355,081031,096658,062993,071707,015220
0000000273,0000272000,084991,078694,096358,052229,078708,018984
0000000274,0000273000,087852,077002,095188,041426,082766,025729
0000000275,0000274000,090674,076112,093257,031627,083492,034801
0000000276,0000275000,093177,076110,090756,023788,080822,045311
0000000277,0000276000,095105,076998,087939,018689,075015,056217
0000000278,0000277000,096276,078693,085074,016827,066633,066460
0000000279,0000278000,096580,081030,082434,018375,056494,075050
0000000280,0000279000,095983,083771,080288,023182,045605,081133
0000000281,0000280000,094543,086651,078848,030782,035028,084111
0000000282,0000281000,092397,089398,078247,040436,025784,083701
0000000283,0000282000,089761,091736,078546,051191,018784,079946
0000000284,0000283000,086897,093431,079715,061986,014724,073211
0000000285,0000284000,084074,094323,081646,071781,013990,064149
0000000286,0000285000,081571,094325,084148,079619,016653,053648
0000000287,0000286000,079639,093439,086965,084719,022451,042751
0000000288,0000287000,078466,091745,089832,086586,030821,032513
0000000289,0000288000,078162,089406,092474,085046,040950,023925
0000000290,0000289000,078757,086664,094622,080248,051831,017842
0000000291,0000290000,080195,083784,096064,072659,062401,014860
0000000292,0000291000,082342,081034,096666,063016,071641,015263
0000000293,0000292000,084979,078694,096369,052270,078641,019009
0000000294,0000293000,087843,076998,095201,041483,082705,025733
0000000295,0000294000,090668,076104,093270,031693,083444,034784
0000000296,0000295000,093175,076100,090768,023856,080790,045274
0000000297,0000296000,095108,076986,087949,018754,075003,056163
0000000298,0000297000,096283,078679,085081,016881,066643,066396
0000000299,0000298000,096590,081017,082437,018414,056526,074981
0000000300,0000299000,095995,083761,080287,023201,045654,081065
0000000301,0000300000,094557,086643,078842,030779,035091,084051
