DIgSILENT PowerFactory,21000900,2000
6,06A,00D
1,TTPP_200000_100:Secondary Voltage A,,,V,0.010000000,-67.866196,0.000000,-86352,99998,1,1,P
2,TTPP_200000_100:Secondary Voltage B,,,V,0.10000000,-8918.127930,0.000000,79307,99998,1,1,P
3,TTPP_200000_100:Secondary Voltage C,,,V,0.10000000,-8983.836914,0.000000,79594,99998,1,1,P
4,TTCC_500_5:Secondary Current A,,,A,0.0010000000,-79.089478,0.000000,45324,99998,1,1,P
5,TTCC_500_5:Secondary Current B,,,A,0.0010000000,-84.618492,0.000000,69250,99998,1,1,P
6,TTCC_500_5:Secondary Current C,,,A,0.0010000000,-84.752350,0.000000,69521,99998,1,1,P
50
1
1000.000000,1101
30/06/2023,06:01:49.000000
30/06/2023,06:01:49.000000
ASCII
1.000000
0000000001,0000000000,061914,092821,080686,085006,089297,074157
0000000002,0000001000,036426,095255,080800,081991,092013,074456
0000000003,0000002000,007923,097110,081798,078690,094009,075761
0000000004,0000003000,-20549,098173,083580,075437,095077,077947
0000000005,0000004000,-46351,098352,085982,072530,095130,080801
0000000006,0000005000,-67116,097650,088760,070271,094149,084040
0000000007,0000006000,-80568,096118,091636,068876,092238,087347
0000000008,0000007000,-85311,093888,094341,068483,089576,090402
0000000009,0000008000,-81184,091206,096610,069121,086434,092905
0000000010,0000009000,-68569,088345,098211,070740,083112,094608
0000000011,0000010000,-48357,085544,098990,073177,079938,095346
0000000012,0000011000,-22730,083095,098877,076192,077220,095047
0000000013,0000012000,005579,081261,097880,079489,075229,093742
0000000014,0000013000,034049,080197,096096,082749,074154,091557
0000000015,0000014000,060059,079997,093695,085651,074107,088703
0000000016,0000015000,080669,080714,090917,087910,075087,085463
0000000017,0000016000,094028,082255,088041,089306,076997,082157
0000000018,0000017000,098965,084466,085336,089702,079657,079102
0000000019,0000018000,094825,087149,083067,089059,082803,076598
0000000020,0000019000,082017,090031,081466,087442,086123,074895
0000000021,0000020000,061960,092816,080686,085007,089296,074158
0000000022,0000021000,036401,095258,080800,081989,092015,074456
0000000023,0000022000,007916,097110,081797,078692,094007,075761
0000000024,0000023000,-20522,098171,083580,075434,095079,077947
0000000025,0000024000,-46372,098354,085982,072531,095128,080801
0000000026,0000025000,-67142,097653,088760,070270,094150,084040
0000000027,0000026000,-80522,096115,091636,068877,092237,087347
0000000028,0000027000,-85306,093887,094341,068480,089579,090402
0000000029,0000028000,-81239,091212,096611,069122,086433,092905
0000000030,0000029000,-68543,088342,098211,070740,083112,094608
0000000031,0000030000,-48327,085541,098990,073176,079938,095346
0000000032,0000031000,-22774,083099,098877,076191,077222,095048
0000000033,0000032000,005554,081263,097880,079489,075228,093742
0000000034,0000033000,034110,080191,096096,082748,074155,091557
0000000035,0000034000,060035,079999,093695,085649,074108,088703
0000000036,0000035000,080643,080717,090917,087910,075087,085464
0000000037,0000036000,094053,082252,088041,089306,076997,082157
0000000038,0000037000,098983,084464,085336,089701,079657,079102
0000000039,0000038000,094788,087153,083067,089058,082804,076599
0000000040,0000039000,082036,090029,081466,087442,086122,074896
0000000041,0000040000,061978,092814,080686,085006,089296,074158
0000000042,0000041000,036379,095260,080800,081989,092015,074456
0000000043,0000042000,007926,097110,081796,078692,094007,075761
0000000044,0000043000,-20497,098168,083580,075435,095079,077947
0000000045,0000044000,-46399,098357,085982,072531,095129,080801
0000000046,0000045000,-67145,097654,088759,070271,094149,084040
0000000047,0000046000,-80491,096112,091635,068876,092237,087347
0000000048,0000047000,-85328,093890,094341,068480,089579,090402
0000000049,0000048000,-81266,091214,096610,069122,086434,092905
0000000050,0000049000,-68511,088339,098211,070740,083112,094608
0000000051,0000050000,-48326,085541,098991,073175,079940,095346
0000000052,0000051000,-22820,083103,098878,076190,077223,095047
0000000053,0000052000,005573,081261,097880,079489,075229,093742
0000000054,0000053000,034130,080188,096097,082747,074156,091557
0000000055,0000054000,060002,080002,093696,085648,074109,088703
0000000056,0000055000,080635,080717,090918,087909,075087,085464
0000000057,0000056000,094089,082248,088041,089305,076997,082158
0000000058,0000057000,098969,084466,085336,089700,079658,079103
0000000059,0000058000,094774,087154,083067,089058,082803,076600
0000000060,0000059000,082067,090026,081466,087442,086122,074897
0000000061,0000060000,061983,092814,080686,085006,089296,074159
0000000062,0000061000,036363,095263,080799,081989,092014,074457
0000000063,0000062000,007951,097108,081796,078692,094006,075762
0000000064,0000063000,-20486,098168,083579,075435,095079,077947
0000000065,0000064000,-46420,098359,085981,072531,095129,080800
0000000066,0000065000,-67131,097653,088758,070272,094149,084040
0000000067,0000066000,-80474,096111,091635,068877,092238,087346
0000000068,0000067000,-85359,093893,094341,068480,089580,090401
0000000069,0000068000,-81272,091215,096610,069123,086434,092904
0000000070,0000069000,-68490,088337,098211,070740,083114,094607
0000000071,0000070000,-48354,085543,098991,073174,079941,095345
0000000072,0000071000,-22846,083105,098878,076190,077223,095047
0000000073,0000072000,005592,081258,097881,079488,075230,093742
0000000074,0000073000,034123,080188,096098,082745,074158,091557
0000000075,0000074000,059969,080005,093697,085647,074109,088704
0000000076,0000075000,080651,080715,090918,087908,075087,085465
0000000077,0000076000,094106,082246,088042,089303,076998,082159
0000000078,0000077000,098949,084467,085337,089698,079658,079104
0000000079,0000078000,094784,087153,083067,089057,082802,076601
0000000080,0000079000,082099,090023,081466,087441,086121,074898
0000000081,0000080000,061978,092815,080686,085005,089295,074160
0000000082,0000081000,036368,095263,080798,081990,092013,074458
0000000083,0000082000,007984,097105,081795,078693,094005,075762
0000000084,0000083000,-20485,098169,083578,075435,095078,077947
0000000085,0000084000,-46429,098362,085980,072533,095127,080800
0000000086,0000085000,-67109,097652,088757,070273,094148,084039
0000000087,0000086000,-80476,096112,091634,068878,092238,087345
0000000088,0000087000,-85387,093897,094340,068481,089580,090399
0000000089,0000088000,-81268,091216,096609,069124,086434,092902
0000000090,0000089000,-68491,088337,098211,070740,083115,094605
0000000091,0000090000,-48392,085546,098992,073174,079943,095344
0000000092,0000091000,-22859,083105,098879,076190,077225,095046
0000000093,0000092000,005600,081256,097883,079487,075232,093742
0000000094,0000093000,034095,080189,096100,082743,074160,091557
0000000095,0000094000,059951,080005,093698,085645,074111,088704
0000000096,0000095000,080671,080711,090920,087906,075088,085466
0000000097,0000096000,094105,082244,088044,089301,076999,082161
0000000098,0000097000,098939,084467,085338,089697,079657,079106
0000000099,0000098000,094813,087150,083067,089056,082801,076603
0000000100,0000099000,082123,090020,081466,087440,086120,074900
0000000101,0000100000,061977,092815,080685,085005,089293,074162
0000000102,0000101000,036393,095262,080797,081991,092010,074459
0000000103,0000102000,008015,097104,081793,078694,094003,075763
0000000104,0000103000,-20487,098171,083576,075437,095076,077947
0000000105,0000104000,-46421,098363,085977,072536,095125,080800
0000000106,0000105000,-67089,097652,088755,070276,094147,084038
0000000107,0000106000,-80491,096115,091632,068880,092238,087343
0000000108,0000107000,-85407,093900,094339,068483,089580,090397
0000000109,0000108000,-81267,091216,096609,069125,086436,092899
0000000110,0000109000,-68514,088339,098211,070740,083118,094603
0000000111,0000110000,-48432,085549,098993,073174,079946,095341
0000000112,0000111000,-22869,083105,098880,076189,077228,095044
0000000113,0000112000,005586,081255,097885,079485,075235,093741
0000000114,0000113000,034060,080190,096102,082740,074163,091557
0000000115,0000114000,059945,080003,093701,085642,074112,088705
0000000116,0000115000,080683,080707,090922,087903,075090,085468
0000000117,0000116000,094095,082243,088046,089298,077000,082163
0000000118,0000117000,098946,084465,085339,089694,079657,079109
0000000119,0000118000,094850,087146,083068,089054,082800,076607
0000000120,0000119000,082142,090018,081466,087439,086118,074904
0000000121,0000120000,061994,092815,080684,085005,089290,074165
0000000122,0000121000,036436,095260,080795,081992,092007,074462
0000000123,0000122000,008042,097103,081791,078696,094000,075765
0000000124,0000123000,-20482,098173,083573,075440,095073,077948
0000000125,0000124000,-46400,098364,085974,072539,095123,080799
0000000126,0000125000,-67077,097654,088753,070279,094146,084036
0000000127,0000126000,-80511,096119,091630,068883,092237,087340
0000000128,0000127000,-85420,093903,094337,068487,089580,090393
0000000129,0000128000,-81277,091218,096608,069127,086437,092896
0000000130,0000129000,-68555,088342,098212,070741,083120,094599
0000000131,0000130000,-48471,085552,098994,073174,079949,095338
0000000132,0000131000,-22887,083105,098883,076188,077231,095041
0000000133,0000132000,005551,081255,097888,079482,075239,093739
0000000134,0000133000,034024,080190,096105,082737,074167,091557
0000000135,0000134000,059942,080000,093704,085639,074115,088706
0000000136,0000135000,080682,080704,090926,087898,075092,085470
0000000137,0000136000,094088,082241,088049,089293,077001,082166
0000000138,0000137000,098970,084461,085341,089691,079656,079113
0000000139,0000138000,094887,087141,083069,089051,082798,076611
0000000140,0000139000,082165,090016,081465,087437,086115,074908
0000000141,0000140000,062031,092813,080682,085005,089286,074169
0000000142,0000141000,036487,095257,080792,081993,092002,074465
0000000143,0000142000,008070,097104,081787,078699,093995,075767
0000000144,0000143000,-20461,098175,083569,075444,095068,077948
0000000145,0000144000,-46370,098365,085970,072544,095119,080798
0000000146,0000145000,-67074,097657,088749,070284,094143,084033
0000000147,0000146000,-80530,096125,091627,068888,092236,087336
0000000148,0000147000,-85432,093907,094335,068491,089581,090389
0000000149,0000148000,-81304,091221,096607,069130,086440,092891
0000000150,0000149000,-68608,088347,098212,070742,083124,094594
0000000151,0000150000,-48512,085554,098995,073174,079953,095333
0000000152,0000151000,-22923,083105,098886,076186,077237,095038
0000000153,0000152000,005501,081256,097892,079478,075245,093737
0000000154,0000153000,033990,080189,096110,082733,074171,091556
0000000155,0000154000,059933,079996,093709,085633,074120,088708
0000000156,0000155000,080671,080701,090930,087892,075095,085473
0000000157,0000156000,094090,082237,088052,089288,077002,082171
0000000158,0000157000,099005,084455,085343,089686,079655,079119
0000000159,0000158000,094925,087136,083070,089048,082796,076617
0000000160,0000159000,082200,090013,081465,087435,086111,074914
0000000161,0000160000,062089,092809,080680,085006,089281,074174
0000000162,0000161000,036544,095255,080789,081995,091996,074469
0000000163,0000162000,008106,097105,081783,078702,093989,075769
0000000164,0000163000,-20423,098177,083564,075449,095063,077949
0000000165,0000164000,-46338,098368,085965,072550,095114,080796
0000000166,0000165000,-67075,097662,088744,070290,094141,084030
0000000167,0000166000,-80545,096130,091622,068894,092235,087331
0000000168,0000167000,-85450,093911,094332,068496,089582,090383
0000000169,0000168000,-81350,091227,096606,069133,086443,092884
0000000170,0000169000,-68668,088353,098213,070744,083129,094587
0000000171,0000170000,-48561,085557,098998,073174,079959,095328
0000000172,0000171000,-22979,083107,098890,076183,077244,095034
0000000173,0000172000,005439,081257,097897,079474,075252,093734
0000000174,0000173000,033953,080187,096116,082727,074178,091556
0000000175,0000174000,059914,079992,093715,085626,074125,088709
0000000176,0000175000,080655,080697,090936,087885,075098,085477
0000000177,0000176000,094102,082231,088057,089281,077003,082176
0000000178,0000177000,099045,084448,085347,089680,079654,079126
0000000179,0000178000,094966,087130,083071,089043,082793,076625
0000000180,0000179000,082255,090009,081464,087433,086106,074921
0000000181,0000180000,062163,092804,080677,085006,089274,074180
0000000182,0000181000,036608,095252,080785,081997,091989,074474
0000000183,0000182000,008156,097106,081777,078707,093981,075772
0000000184,0000183000,-20371,098178,083557,075456,095055,077949
0000000185,0000184000,-46306,098371,085958,072557,095109,080794
0000000186,0000185000,-67076,097668,088738,070298,094137,084026
0000000187,0000186000,-80556,096137,091617,068902,092233,087325
0000000188,0000187000,-85478,093918,094328,068502,089583,090375
0000000189,0000188000,-81409,091234,096605,069138,086447,092876
0000000190,0000189000,-68735,088359,098213,070747,083134,094579
0000000191,0000190000,-48626,085561,099001,073173,079967,095320
0000000192,0000191000,-23055,083109,098895,076180,077252,095028
0000000193,0000192000,005369,081258,097903,079469,075260,093731
0000000194,0000193000,033910,080184,096123,082720,074185,091555
0000000195,0000194000,059882,079987,093723,085617,074131,088711
0000000196,0000195000,080639,080691,090943,087876,075103,085482
0000000197,0000196000,094123,082224,088063,089273,077004,082183
0000000198,0000197000,099087,084439,085351,089673,079653,079134
0000000199,0000198000,095017,087124,083073,089038,082789,076634
0000000200,0000199000,082330,090002,081463,087431,086099,074930
0000000201,0000200000,062250,092799,080674,085006,089266,074189
0000000202,0000201000,036682,095250,080779,082001,091980,074480
0000000203,0000202000,008226,097106,081770,078713,093972,075776
0000000204,0000203000,-20307,098180,083549,075464,095047,077950
0000000205,0000204000,-46274,098376,085950,072566,095102,080792
0000000206,0000205000,-67072,097676,088730,070308,094132,084020
0000000207,0000206000,-80568,096144,091611,068911,092232,087317
0000000208,0000207000,-85520,093926,094324,068510,089584,090366
0000000209,0000208000,-81481,091243,096603,069144,086451,092866
0000000210,0000209000,-68813,088366,098214,070750,083141,094569
0000000211,0000210000,-48712,085565,099004,073173,079976,095312
0000000212,0000211000,-23150,083113,098901,076176,077263,095021
0000000213,0000212000,005290,081258,097911,079463,075271,093727
0000000214,0000213000,033853,080181,096132,082711,074195,091554
0000000215,0000214000,059838,079982,093732,085607,074139,088714
0000000216,0000215000,080626,080684,090952,087865,075108,085487
0000000217,0000216000,094149,082214,088070,089263,077006,082192
0000000218,0000217000,099133,084430,085356,089664,079652,079144
0000000219,0000218000,095083,087115,083075,089032,082784,076645
0000000220,0000219000,082424,089994,081462,087428,086091,074941
0000000221,0000220000,062351,092793,080670,085006,089256,074198
0000000222,0000221000,036774,095248,080773,082004,091969,074487
0000000223,0000222000,008315,097106,081761,078720,093960,075780
0000000224,0000223000,-20234,098183,083539,075474,095036,077951
0000000225,0000224000,-46236,098383,085940,072578,095094,080789
0000000226,0000225000,-67061,097684,088720,070320,094126,084014
0000000227,0000226000,-80584,096154,091603,068922,092230,087308
0000000228,0000227000,-85574,093937,094318,068520,089586,090354
0000000229,0000228000,-81562,091254,096600,069150,086456,092853
0000000230,0000229000,-68905,088374,098215,070753,083150,094557
0000000231,0000230000,-48820,085572,099009,073172,079987,095301
0000000232,0000231000,-23261,083117,098908,076172,077275,095013
0000000233,0000232000,005199,081258,097921,079455,075283,093722
0000000234,0000233000,033780,080177,096143,082700,074207,091554
0000000235,0000234000,059787,079976,093743,085595,074148,088717
0000000236,0000235000,080614,080675,090962,087853,075114,085494
0000000237,0000236000,094176,082203,088078,089250,077008,082202
0000000238,0000237000,099185,084419,085362,089654,079650,079157
0000000239,0000238000,095167,087104,083078,089025,082778,076658
0000000240,0000239000,082535,089984,081461,087424,086082,074954
0000000241,0000240000,062466,092786,080666,085007,089244,074209
0000000242,0000241000,036886,095244,080765,082009,091955,074496
0000000243,0000242000,008423,097105,081751,078729,093947,075785
0000000244,0000243000,-20152,098186,083528,075485,095024,077952
0000000245,0000244000,-46190,098390,085927,072591,095084,080786
0000000246,0000245000,-67045,097694,088709,070334,094120,084007
0000000247,0000246000,-80606,096165,091594,068936,092227,087298
0000000248,0000247000,-85640,093950,094312,068531,089588,090341
0000000249,0000248000,-81653,091266,096598,069158,086463,092839
0000000250,0000249000,-69017,088384,098216,070757,083160,094543
0000000251,0000250000,-48949,085580,099014,073172,080000,095289
0000000252,0000251000,-23389,083121,098916,076167,077289,095004
0000000253,0000252000,005091,081257,097932,079446,075298,093717
0000000254,0000253000,033690,080173,096156,082688,074220,091553
0000000255,0000254000,059728,079969,093756,085580,074159,088721
0000000256,0000255000,080603,080664,090974,087838,075121,085502
0000000257,0000256000,094204,082190,088088,089236,077011,082213
0000000258,0000257000,099246,084406,085368,089642,079648,079171
0000000259,0000258000,095268,087091,083081,089016,082771,076673
0000000260,0000259000,082662,089972,081460,087420,086071,074969
0000000261,0000260000,062599,092778,080660,085008,089230,074223
0000000262,0000261000,037022,095240,080756,082015,091940,074506
0000000263,0000262000,008548,097105,081739,078738,093931,075791
0000000264,0000263000,-20058,098191,083514,075498,095010,077953
0000000265,0000264000,-46132,098398,085913,072607,095072,080782
0000000266,0000265000,-67025,097705,088696,070350,094112,083998
0000000267,0000266000,-80635,096179,091583,068951,092225,087285
0000000268,0000267000,-85713,093965,094305,068543,089591,090326
0000000269,0000268000,-81758,091280,096594,069168,086470,092823
0000000270,0000269000,-69149,088396,098218,070761,083172,094527
0000000271,0000270000,-49101,085589,099020,073171,080015,095275
0000000272,0000271000,-23534,083126,098926,076161,077306,094993
0000000273,0000272000,004962,081257,097945,079435,075314,093711
0000000274,0000273000,033584,080169,096171,082673,074235,091552
0000000275,0000274000,059663,079960,093771,085564,074171,088725
0000000276,0000275000,080588,080651,090988,087820,075129,085512
0000000277,0000276000,094233,082175,088100,089220,077014,082227
0000000278,0000277000,099319,084390,085376,089628,079645,079187
0000000279,0000278000,095385,087076,083084,089006,082763,076691
0000000280,0000279000,082806,089959,081458,087415,086059,074986
0000000281,0000280000,062754,092769,080654,085008,089214,074238
0000000282,0000281000,037181,095235,080745,082021,091922,074517
0000000283,0000282000,008691,097105,081725,078750,093913,075797
0000000284,0000283000,-19950,098196,083498,075513,094993,077954
0000000285,0000284000,-46062,098408,085897,072624,095059,080777
0000000286,0000285000,-67002,097718,088681,070368,094104,083988
0000000287,0000286000,-80669,096195,091570,068968,092222,087271
0000000288,0000287000,-85795,093982,094296,068558,089594,090308
0000000289,0000288000,-81877,091295,096591,069178,086478,092804
0000000290,0000289000,-69304,088409,098219,070766,083185,094509
0000000291,0000290000,-49272,085600,099026,073170,080032,095259
0000000292,0000291000,-23700,083131,098937,076154,077325,094981
0000000293,0000292000,004812,081257,097960,079423,075334,093704
0000000294,0000293000,033463,080164,096188,082657,074253,091551
0000000295,0000294000,059589,079950,093789,085545,074185,088730
0000000296,0000295000,080569,080637,091004,087800,075138,085522
0000000297,0000296000,094264,082159,088113,089201,077017,082242
0000000298,0000297000,099405,084372,085386,089613,079642,079206
0000000299,0000298000,095519,087058,083088,088995,082754,076711
0000000300,0000299000,082969,089945,081457,087410,086045,075006
0000000301,0000300000,062934,092758,080647,085010,089196,074255
