DIgSILENT PowerFactory,21000900,2000
6,06A,00D
1,TTPP_200000_100:Secondary Voltage A,,,V,0.10000000,-8470.252930,0.000000,68524,99998,1,1,P
2,TTPP_200000_100:Secondary Voltage B,,,V,0.10000000,-8393.562500,0.000000,68427,99998,1,1,P
3,TTPP_200000_100:Secondary Voltage C,,,V,0.10000000,-8436.541016,0.000000,67489,99998,1,1,P
4,TTCC_500_5:Secondary Current A,,,A,0.0010000000,-86.432320,0.000000,66897,99998,1,1,P
5,TTCC_500_5:Secondary Current B,,,A,0.0010000000,-85.063713,0.000000,70138,99998,1,1,P
6,TTCC_500_5:Secondary Current C,,,A,0.0010000000,-84.702759,0.000000,69351,99998,1,1,P
50
1
1000.000000,1101
30/06/2023,06:08:49.000000
30/06/2023,06:08:49.000000
ASCII
1.000000
0000000001,0000000000,090215,087576,075213,092348,089743,074108
0000000002,0000001000,087666,090010,075327,089333,092459,074406
0000000003,0000002000,084815,091865,076325,086033,094454,075712
0000000004,0000003000,081970,092926,078108,082778,095523,077897
0000000005,0000004000,079385,093109,080510,079874,095574,080752
0000000006,0000005000,077313,092402,083288,077613,094595,083991
0000000007,0000006000,075967,090872,086163,076219,092682,087298
0000000008,0000007000,075494,088641,088869,075824,090022,090353
0000000009,0000008000,075902,085963,091138,076465,086878,092856
0000000010,0000009000,077170,083096,092739,078083,083557,094559
0000000011,0000010000,079189,080297,093517,080521,080382,095296
0000000012,0000011000,081751,077849,093404,083534,077667,094998
0000000013,0000012000,084579,076018,092407,086834,075673,093692
0000000014,0000013000,087433,074947,090622,090092,074600,091507
0000000015,0000014000,090031,074752,088221,092994,074552,088653
0000000016,0000015000,092090,075471,085443,095252,075533,085413
0000000017,0000016000,093425,077011,082567,096650,077442,082107
0000000018,0000017000,093924,079218,079862,097045,080103,079052
0000000019,0000018000,093505,081905,077593,096401,083249,076549
0000000020,0000019000,092223,084788,075993,094784,086569,074846
0000000021,0000020000,090220,087570,075213,092350,089741,074108
0000000022,0000021000,087665,090011,075327,089331,092461,074406
0000000023,0000022000,084814,091866,076324,086034,094453,075712
0000000024,0000023000,081969,092926,078108,082777,095524,077898
0000000025,0000024000,079388,093106,080510,079874,095573,080752
0000000026,0000025000,077310,092406,083287,077612,094596,083991
0000000027,0000026000,075970,090870,086163,076219,092682,087298
0000000028,0000027000,075492,088642,088869,075823,090023,090353
0000000029,0000028000,075902,085964,091138,076465,086878,092856
0000000030,0000029000,077171,083096,092738,078083,083557,094559
0000000031,0000030000,079191,080295,093518,080519,080383,095297
0000000032,0000031000,081746,077853,093404,083535,077666,094998
0000000033,0000032000,084582,076015,092407,086833,075673,093693
0000000034,0000033000,087435,074945,090623,090091,074600,091507
0000000035,0000034000,090027,074755,088222,092993,074553,088653
0000000036,0000035000,092088,075472,085443,095253,075532,085413
0000000037,0000036000,093431,077006,082567,096649,077443,082107
0000000038,0000037000,093921,079220,079862,097044,080103,079052
0000000039,0000038000,093501,081909,077593,096401,083249,076549
0000000040,0000039000,092228,084783,075992,094785,086568,074846
0000000041,0000040000,090222,087568,075213,092348,089742,074108
0000000042,0000041000,087660,090016,075327,089331,092461,074407
0000000043,0000042000,084816,091864,076324,086034,094453,075712
0000000044,0000043000,081974,092922,078108,082777,095524,077898
0000000045,0000044000,079383,093112,080510,079873,095574,080752
0000000046,0000045000,077309,092408,083287,077614,094594,083991
0000000047,0000046000,075975,090865,086163,076219,092682,087298
0000000048,0000047000,075491,088644,088869,075822,090024,090352
0000000049,0000048000,075897,085969,091138,076465,086878,092855
0000000050,0000049000,077174,083092,092738,078083,083557,094558
0000000051,0000050000,079192,080294,093518,080518,080385,095296
0000000052,0000051000,081742,077858,093405,083534,077667,094998
0000000053,0000052000,084582,076014,092407,086833,075673,093693
0000000054,0000053000,087438,074942,090623,090090,074602,091507
0000000055,0000054000,090023,074758,088222,092991,074554,088653
0000000056,0000055000,092088,075472,085444,095253,075532,085414
0000000057,0000056000,093434,077002,082568,096648,077443,082108
0000000058,0000057000,093920,079221,079863,097042,080104,079053
0000000059,0000058000,093500,081910,077593,096400,083249,076550
0000000060,0000059000,092231,084780,075993,094784,086568,074847
0000000061,0000060000,090222,087568,075213,092348,089742,074109
0000000062,0000061000,087659,090018,075326,089331,092460,074407
0000000063,0000062000,084818,091862,076323,086035,094452,075712
0000000064,0000063000,081975,092922,078107,082777,095524,077898
0000000065,0000064000,079381,093114,080509,079874,095574,080751
0000000066,0000065000,077310,092407,083286,077614,094594,083991
0000000067,0000066000,075976,090864,086163,076219,092683,087297
0000000068,0000067000,075488,088647,088868,075823,090024,090352
0000000069,0000068000,075897,085969,091137,076466,086878,092855
0000000070,0000069000,077176,083090,092738,078083,083558,094558
0000000071,0000070000,079188,080297,093518,080517,080386,095295
0000000072,0000071000,081740,077859,093405,083534,077668,094997
0000000073,0000072000,084585,076011,092408,086832,075675,093692
0000000074,0000073000,087436,074943,090625,090088,074603,091507
0000000075,0000074000,090021,074760,088223,092990,074554,088654
0000000076,0000075000,092090,075468,085445,095251,075532,085415
0000000077,0000076000,093435,077000,082569,096646,077444,082109
0000000078,0000077000,093918,079223,079863,097041,080103,079054
0000000079,0000078000,093503,081908,077593,096400,083248,076551
0000000080,0000079000,092234,084777,075993,094783,086567,074848
0000000081,0000080000,090220,087571,075213,092347,089741,074110
0000000082,0000081000,087660,090018,075325,089332,092458,074408
0000000083,0000082000,084823,091859,076322,086035,094450,075713
0000000084,0000083000,081974,092924,078106,082777,095523,077898
0000000085,0000084000,079380,093117,080507,079875,095572,080751
0000000086,0000085000,077313,092405,083285,077616,094593,083990
0000000087,0000086000,075976,090866,086162,076220,092683,087296
0000000088,0000087000,075484,088651,088868,075824,090024,090350
0000000089,0000088000,075898,085969,091137,076467,086879,092853
0000000090,0000089000,077176,083090,092738,078083,083560,094556
0000000091,0000090000,079184,080301,093519,080517,080388,095294
0000000092,0000091000,081739,077859,093406,083533,077670,094996
0000000093,0000092000,084585,076009,092409,086830,075677,093692
0000000094,0000093000,087433,074944,090626,090086,074605,091507
0000000095,0000094000,090019,074760,088224,092989,074556,088654
0000000096,0000095000,092092,075465,085446,095249,075533,085416
0000000097,0000096000,093434,076999,082570,096644,077445,082110
0000000098,0000097000,093917,079223,079864,097040,080103,079056
0000000099,0000098000,093506,081904,077594,096399,083247,076554
0000000100,0000099000,092236,084775,075993,094782,086566,074850
0000000101,0000100000,090220,087571,075212,092347,089739,074112
0000000102,0000101000,087663,090016,075324,089333,092456,074410
0000000103,0000102000,084825,091858,076320,086036,094448,075714
0000000104,0000103000,081974,092926,078104,082779,095521,077898
0000000105,0000104000,079381,093118,080505,079878,095570,080751
0000000106,0000105000,077315,092405,083283,077618,094592,083989
0000000107,0000106000,075974,090869,086160,076222,092683,087294
0000000108,0000107000,075483,088654,088866,075826,090025,090348
0000000109,0000108000,075898,085969,091136,076468,086880,092850
0000000110,0000109000,077172,083093,092739,078083,083562,094553
0000000111,0000110000,079181,080303,093520,080517,080390,095292
0000000112,0000111000,081738,077858,093407,083532,077672,094994
0000000113,0000112000,084583,076009,092412,086828,075680,093691
0000000114,0000113000,087430,074945,090629,090084,074608,091507
0000000115,0000114000,090019,074757,088227,092986,074558,088655
0000000116,0000115000,092093,075462,085449,095246,075535,085418
0000000117,0000116000,093433,076999,082572,096641,077445,082113
0000000118,0000117000,093919,079220,079865,097037,080102,079059
0000000119,0000118000,093510,081900,077594,096397,083245,076557
0000000120,0000119000,092237,084774,075992,094781,086564,074854
0000000121,0000120000,090222,087570,075211,092348,089736,074115
0000000122,0000121000,087668,090013,075322,089334,092452,074412
0000000123,0000122000,084827,091858,076318,086038,094445,075715
0000000124,0000123000,081974,092929,078101,082782,095518,077898
0000000125,0000124000,079384,093118,080502,079882,095568,080750
0000000126,0000125000,077316,092407,083280,077621,094591,083987
0000000127,0000126000,075972,090874,086158,076226,092682,087291
0000000128,0000127000,075482,088657,088864,075830,090025,090344
0000000129,0000128000,075897,085971,091136,076470,086882,092847
0000000130,0000129000,077168,083097,092739,078084,083565,094550
0000000131,0000130000,079177,080306,093521,080517,080393,095288
0000000132,0000131000,081737,077858,093410,083531,077676,094992
0000000133,0000132000,084579,076010,092415,086825,075684,093689
0000000134,0000133000,087426,074945,090632,090080,074612,091507
0000000135,0000134000,090019,074753,088230,092982,074561,088656
0000000136,0000135000,092092,075459,085452,095241,075538,085420
0000000137,0000136000,093432,076997,082575,096637,077446,082116
0000000138,0000137000,093921,079215,079867,097034,080102,079063
0000000139,0000138000,093513,081896,077595,096394,083244,076561
0000000140,0000139000,092239,084772,075992,094780,086561,074858
0000000141,0000140000,090227,087568,075209,092348,089732,074119
0000000142,0000141000,087673,090011,075320,089335,092448,074415
0000000143,0000142000,084829,091859,076315,086041,094441,075717
0000000144,0000143000,081977,092930,078097,082786,095514,077899
0000000145,0000144000,079387,093119,080498,079886,095564,080749
0000000146,0000145000,077316,092411,083277,077626,094589,083984
0000000147,0000146000,075970,090879,086154,076231,092681,087287
0000000148,0000147000,075481,088660,088862,075834,090025,090340
0000000149,0000148000,075894,085975,091135,076473,086885,092841
0000000150,0000149000,077163,083102,092739,078086,083569,094545
0000000151,0000150000,079174,080308,093522,080517,080398,095284
0000000152,0000151000,081733,077858,093413,083529,077682,094988
0000000153,0000152000,084574,076011,092419,086822,075690,093687
0000000154,0000153000,087424,074943,090636,090076,074616,091506
0000000155,0000154000,090018,074750,088235,092976,074565,088657
0000000156,0000155000,092091,075456,085457,095235,075540,085423
0000000157,0000156000,093433,076993,082578,096631,077447,082121
0000000158,0000157000,093925,079209,079870,097029,080101,079069
0000000159,0000158000,093516,081891,077597,096390,083242,076567
0000000160,0000159000,092243,084769,075991,094778,086557,074864
0000000161,0000160000,090233,087563,075207,092348,089726,074124
0000000162,0000161000,087678,090009,075316,089337,092442,074419
0000000163,0000162000,084833,091861,076310,086045,094435,075720
0000000164,0000163000,081981,092931,078092,082792,095508,077899
0000000165,0000164000,079390,093121,080493,079892,095560,080747
0000000166,0000165000,077315,092417,083272,077632,094586,083981
0000000167,0000166000,075969,090884,086150,076237,092680,087282
0000000168,0000167000,075480,088664,088859,075839,090026,090334
0000000169,0000168000,075889,085981,091134,076476,086888,092835
0000000170,0000169000,077157,083107,092740,078088,083573,094538
0000000171,0000170000,079169,080310,093525,080517,080404,095278
0000000172,0000171000,081727,077861,093417,083526,077689,094984
0000000173,0000172000,084568,076012,092424,086818,075697,093684
0000000174,0000173000,087420,074941,090642,090070,074623,091506
0000000175,0000174000,090016,074746,088241,092969,074570,088659
0000000176,0000175000,092089,075452,085462,095228,075544,085427
0000000177,0000176000,093435,076986,082583,096625,077448,082126
0000000178,0000177000,093929,079202,079873,097023,080100,079076
0000000179,0000178000,093520,081886,077598,096386,083238,076575
0000000180,0000179000,092249,084764,075991,094776,086551,074871
0000000181,0000180000,090240,087559,075204,092348,089719,074131
0000000182,0000181000,087684,090008,075312,089340,092435,074424
0000000183,0000182000,084838,091861,076304,086049,094427,075723
0000000184,0000183000,081987,092932,078085,082798,095501,077900
0000000185,0000184000,079393,093125,080486,079899,095554,080745
0000000186,0000185000,077315,092423,083265,077641,094582,083977
0000000187,0000186000,075969,090890,086145,076245,092678,087276
0000000188,0000187000,075476,088671,088856,075845,090028,090326
0000000189,0000188000,075883,085989,091132,076481,086891,092826
0000000190,0000189000,077151,083112,092740,078090,083579,094530
0000000191,0000190000,079162,080314,093528,080517,080412,095271
0000000192,0000191000,081718,077864,093422,083523,077697,094978
0000000193,0000192000,084561,076012,092430,086812,075705,093681
0000000194,0000193000,087416,074938,090650,090063,074631,091505
0000000195,0000194000,090012,074742,088249,092961,074577,088661
0000000196,0000195000,092088,075446,085469,095219,075548,085431
0000000197,0000196000,093437,076978,082589,096616,077450,082133
0000000198,0000197000,093933,079194,079877,097016,080099,079084
0000000199,0000198000,093525,081879,077600,096381,083234,076584
0000000200,0000199000,092257,084757,075990,094774,086545,074880
0000000201,0000200000,090249,087553,075201,092348,089711,074139
0000000202,0000201000,087691,090006,075307,089343,092425,074430
0000000203,0000202000,084846,091861,076297,086055,094417,075726
0000000204,0000203000,081993,092934,078077,082806,095492,077901
0000000205,0000204000,079395,093131,080477,079909,095547,080743
0000000206,0000205000,077316,092430,083257,077651,094577,083971
0000000207,0000206000,075968,090898,086138,076254,092676,087268
0000000208,0000207000,075472,088680,088852,075853,090029,090317
0000000209,0000208000,075876,085998,091130,076487,086896,092816
0000000210,0000209000,077144,083119,092741,078093,083586,094520
0000000211,0000210000,079153,080319,093532,080516,080421,095262
0000000212,0000211000,081709,077867,093428,083520,077708,094972
0000000213,0000212000,084554,076012,092438,086806,075716,093677
0000000214,0000213000,087410,074934,090659,090054,074640,091504
0000000215,0000214000,090008,074737,088258,092950,074585,088664
0000000216,0000215000,092087,075439,085478,095209,075553,085437
0000000217,0000216000,093439,076968,082596,096606,077452,082141
0000000218,0000217000,093937,079185,079882,097007,080098,079094
0000000219,0000218000,093532,081870,077602,096375,083229,076595
0000000220,0000219000,092266,084748,075989,094770,086537,074891
0000000221,0000220000,090258,087548,075197,092349,089701,074148
0000000222,0000221000,087700,090003,075300,089347,092414,074438
0000000223,0000222000,084855,091860,076288,086063,094406,075731
0000000224,0000223000,082000,092937,078067,082816,095482,077901
0000000225,0000224000,079399,093137,080467,079920,095539,080740
0000000226,0000225000,077318,092438,083248,077662,094571,083965
0000000227,0000226000,075966,090907,086131,076265,092674,087259
0000000228,0000227000,075466,088691,088846,075862,090031,090305
0000000229,0000228000,075868,086008,091128,076494,086901,092804
0000000230,0000229000,077134,083127,092742,078096,083595,094508
0000000231,0000230000,079142,080326,093536,080515,080432,095252
0000000232,0000231000,081698,077871,093435,083516,077720,094964
0000000233,0000232000,084545,076011,092447,086798,075728,093673
0000000234,0000233000,087403,074931,090670,090043,074652,091504
0000000235,0000234000,090003,074731,088270,092938,074594,088667
0000000236,0000235000,092086,075429,085488,095196,075559,085444
0000000237,0000236000,093442,076957,082605,096593,077454,082151
0000000238,0000237000,093942,079174,079888,096997,080096,079106
0000000239,0000238000,093540,081859,077604,096367,083223,076608
0000000240,0000239000,092277,084738,075988,094767,086528,074904
0000000241,0000240000,090269,087541,075193,092349,089690,074160
0000000242,0000241000,087712,090000,075292,089352,092401,074446
0000000243,0000242000,084866,091860,076278,086071,094392,075736
0000000244,0000243000,082008,092941,078055,082827,095469,077902
0000000245,0000244000,079404,093145,080455,079933,095529,080737
0000000246,0000245000,077319,092448,083237,077676,094565,083958
0000000247,0000246000,075963,090919,086121,076278,092672,087248
0000000248,0000247000,075459,088704,088840,075873,090033,090292
0000000249,0000248000,075859,086019,091125,076502,086907,092790
0000000250,0000249000,077123,083137,092744,078100,083605,094494
0000000251,0000250000,079129,080334,093541,080515,080445,095239
0000000252,0000251000,081686,077875,093443,083511,077734,094954
0000000253,0000252000,084534,076011,092458,086789,075743,093667
0000000254,0000253000,087393,074928,090682,090031,074665,091503
0000000255,0000254000,089997,074724,088283,092924,074604,088671
0000000256,0000255000,092085,075418,085500,095181,075566,085452
0000000257,0000256000,093444,076945,082615,096579,077457,082163
0000000258,0000257000,093948,079161,079895,096985,080093,079121
0000000259,0000258000,093551,081846,077607,096359,083217,076623
0000000260,0000259000,092290,084727,075987,094763,086517,074919
0000000261,0000260000,090283,087533,075187,092350,089676,074173
0000000262,0000261000,087726,089995,075283,089357,092385,074456
0000000263,0000262000,084878,091859,076266,086081,094377,075741
0000000264,0000263000,082017,092945,078041,082840,095455,077903
0000000265,0000264000,079410,093153,080441,079949,095517,080733
0000000266,0000265000,077321,092459,083224,077692,094557,083949
0000000267,0000266000,075960,090933,086111,076293,092670,087236
0000000268,0000267000,075452,088719,088832,075886,090035,090277
0000000269,0000268000,075849,086033,091122,076511,086914,092774
0000000270,0000269000,077109,083149,092745,078104,083616,094478
0000000271,0000270000,079114,080343,093547,080514,080460,095225
0000000272,0000271000,081671,077880,093453,083505,077751,094944
0000000273,0000272000,084521,076011,092471,086778,075759,093661
0000000274,0000273000,087383,074924,090697,090017,074680,091502
0000000275,0000274000,089991,074715,088298,092907,074616,088675
0000000276,0000275000,092083,075406,085514,095163,075574,085461
0000000277,0000276000,093447,076930,082626,096563,077459,082177
0000000278,0000277000,093956,079145,079903,096971,080091,079137
0000000279,0000278000,093563,081830,077611,096349,083209,076641
0000000280,0000279000,092304,084715,075985,094758,086505,074936
0000000281,0000280000,090298,087524,075181,092351,089660,074188
0000000282,0000281000,087742,089989,075272,089363,092367,074468
0000000283,0000282000,084892,091859,076252,086092,094359,075748
0000000284,0000283000,082028,092951,078025,082856,095439,077904
0000000285,0000284000,079417,093162,080425,079967,095504,080728
0000000286,0000285000,077323,092472,083209,077711,094549,083939
0000000287,0000286000,075956,090949,086098,076311,092667,087221
0000000288,0000287000,075444,088735,088823,075901,090038,090259
0000000289,0000288000,075837,086049,091118,076521,086923,092755
0000000290,0000289000,077094,083163,092747,078109,083630,094460
0000000291,0000290000,079097,080353,093553,080513,080476,095209
0000000292,0000291000,081655,077885,093464,083498,077770,094931
0000000293,0000292000,084506,076012,092486,086766,075779,093654
0000000294,0000293000,087371,074919,090714,090000,074698,091501
0000000295,0000294000,089984,074704,088315,092888,074630,088680
0000000296,0000295000,092081,075392,085531,095144,075583,085472
0000000297,0000296000,093450,076914,082640,096544,077463,082192
0000000298,0000297000,093965,079127,079912,096956,080088,079156
0000000299,0000298000,093576,081813,077615,096338,083200,076661
0000000300,0000299000,092320,084700,075983,094753,086490,074956
0000000301,0000300000,090317,087513,075174,092352,089642,074205
