DIgSILENT PowerFactory,21000900,2000
6,06A,00D
1,TTPP_200000_100:Secondary Voltage A,,,V,0.10000000,-8345.357422,0.000000,67204,99998,1,1,P
2,TTPP_200000_100:Secondary Voltage B,,,V,0.10000000,-7957.410156,0.000000,61797,99998,1,1,P
3,TTPP_200000_100:Secondary Voltage C,,,V,0.10000000,-8231.059570,0.000000,63574,99998,1,1,P
4,TTCC_500_5:Secondary Current A,,,A,0.0010000000,-87.681740,0.000000,69966,99998,1,1,P
5,TTCC_500_5:Secondary Current B,,,A,0.0010000000,-85.177132,0.000000,70215,99998,1,1,P
6,TTCC_500_5:Secondary Current C,,,A,0.0010000000,-84.491989,0.000000,69102,99998,1,1,P
50
1
1000.000000,1101
30/06/2023,06:06:33.000000
30/06/2023,06:06:33.000000
ASCII
1.000000
0000000001,0000000000,088966,083215,073158,093597,089857,073897
0000000002,0000001000,086417,085648,073272,090582,092573,074196
0000000003,0000002000,083566,087503,074271,087282,094567,075501
0000000004,0000003000,080720,088565,076053,084027,095637,077687
0000000005,0000004000,078137,088747,078455,081123,095687,080541
0000000006,0000005000,076064,088041,081233,078863,094708,083781
0000000007,0000006000,074718,086510,084108,077469,092795,087087
0000000008,0000007000,074245,084280,086814,077073,090135,090142
0000000009,0000008000,074654,081601,089083,077714,086991,092645
0000000010,0000009000,075921,078735,090684,079333,083670,094348
0000000011,0000010000,077941,075936,091462,081770,080496,095086
0000000012,0000011000,080502,073487,091349,084784,077780,094787
0000000013,0000012000,083330,071656,090352,088083,075787,093482
0000000014,0000013000,086184,070586,088567,091342,074713,091296
0000000015,0000014000,088782,070390,086166,094243,074666,088442
0000000016,0000015000,090841,071109,083388,096502,075646,085202
0000000017,0000016000,092176,072650,080512,097899,077556,081896
0000000018,0000017000,092675,074856,077807,098294,080216,078841
0000000019,0000018000,092256,077544,075538,097650,083363,076338
0000000020,0000019000,090974,080426,073938,096034,086682,074635
0000000021,0000020000,088970,083209,073158,093599,089854,073897
0000000022,0000021000,086417,085649,073272,090580,092575,074196
0000000023,0000022000,083564,087505,074269,087283,094567,075501
0000000024,0000023000,080721,088564,076053,084026,095638,077687
0000000025,0000024000,078138,088745,078455,081123,095687,080541
0000000026,0000025000,076061,088044,081233,078862,094709,083780
0000000027,0000026000,074721,086508,084108,077469,092795,087087
0000000028,0000027000,074243,084280,086814,077072,090136,090142
0000000029,0000028000,074652,081602,089083,077714,086991,092645
0000000030,0000029000,075922,078734,090683,079332,083671,094348
0000000031,0000030000,077942,075934,091463,081769,080496,095086
0000000032,0000031000,080497,073492,091350,084784,077780,094787
0000000033,0000032000,083333,071654,090352,088083,075787,093482
0000000034,0000033000,086187,070583,088568,091340,074714,091296
0000000035,0000034000,088778,070394,086167,094242,074666,088442
0000000036,0000035000,090839,071110,083388,096503,075646,085203
0000000037,0000036000,092182,072644,080512,097899,077556,081896
0000000038,0000037000,092672,074859,077807,098293,080217,078841
0000000039,0000038000,092252,077548,075538,097650,083363,076338
0000000040,0000039000,090979,080422,073938,096034,086682,074635
0000000041,0000040000,088973,083207,073158,093598,089856,073898
0000000042,0000041000,086411,085655,073272,090580,092574,074196
0000000043,0000042000,083567,087502,074269,087284,094566,075501
0000000044,0000043000,080725,088560,076053,084026,095638,077687
0000000045,0000044000,078134,088750,078455,081122,095688,080541
0000000046,0000045000,076059,088046,081232,078863,094708,083780
0000000047,0000046000,074727,086503,084108,077468,092795,087087
0000000048,0000047000,074242,084282,086814,077072,090137,090142
0000000049,0000048000,074648,081607,089083,077714,086992,092645
0000000050,0000049000,075925,078730,090683,079333,083670,094348
0000000051,0000050000,077943,075933,091463,081767,080498,095086
0000000052,0000051000,080493,073496,091350,084783,077781,094787
0000000053,0000052000,083334,071652,090352,088082,075787,093482
0000000054,0000053000,086189,070580,088568,091339,074715,091296
0000000055,0000054000,088775,070396,086167,094241,074667,088443
0000000056,0000055000,090839,071110,083389,096502,075645,085203
0000000057,0000056000,092185,072640,080513,097898,077557,081897
0000000058,0000057000,092671,074860,077808,098292,080217,078842
0000000059,0000058000,092251,077549,075538,097650,083362,076339
0000000060,0000059000,090982,080419,073938,096034,086681,074636
0000000061,0000060000,088973,083207,073158,093597,089855,073898
0000000062,0000061000,086410,085657,073271,090581,092574,074197
0000000063,0000062000,083569,087500,074268,087284,094565,075502
0000000064,0000063000,080726,088560,076052,084026,095638,077687
0000000065,0000064000,078132,088753,078454,081123,095687,080541
0000000066,0000065000,076062,088045,081231,078864,094707,083780
0000000067,0000066000,074727,086503,084108,077469,092796,087086
0000000068,0000067000,074238,084286,086814,077072,090138,090141
0000000069,0000068000,074648,081607,089083,077715,086992,092644
0000000070,0000069000,075927,078728,090683,079332,083672,094347
0000000071,0000070000,077939,075936,091464,081767,080499,095085
0000000072,0000071000,080491,073497,091350,084783,077781,094786
0000000073,0000072000,083336,071649,090353,088081,075788,093482
0000000074,0000073000,086187,070581,088570,091338,074717,091296
0000000075,0000074000,088772,070398,086168,094240,074668,088443
0000000076,0000075000,090842,071107,083390,096501,075646,085204
0000000077,0000076000,092186,072639,080514,097896,077557,081898
0000000078,0000077000,092668,074862,077808,098291,080217,078843
0000000079,0000078000,092254,077546,075538,097649,083361,076340
0000000080,0000079000,090985,080415,073938,096033,086681,074637
0000000081,0000080000,088971,083209,073158,093597,089855,073900
0000000082,0000081000,086411,085657,073271,090581,092572,074198
0000000083,0000082000,083574,087497,074267,087285,094564,075502
0000000084,0000083000,080725,088562,076051,084027,095637,077687
0000000085,0000084000,078131,088755,078453,081125,095686,080540
0000000086,0000085000,076064,088044,081230,078865,094706,083779
0000000087,0000086000,074727,086504,084107,077470,092796,087085
0000000088,0000087000,074235,084290,086813,077074,090138,090139
0000000089,0000088000,074649,081607,089082,077716,086992,092642
0000000090,0000089000,075927,078728,090684,079332,083673,094345
0000000091,0000090000,077935,075939,091464,081767,080501,095083
0000000092,0000091000,080490,073497,091351,084783,077783,094785
0000000093,0000092000,083336,071647,090354,088080,075790,093481
0000000094,0000093000,086184,070582,088571,091336,074719,091296
0000000095,0000094000,088770,070398,086170,094238,074669,088443
0000000096,0000095000,090843,071103,083391,096499,075647,085205
0000000097,0000096000,092185,072638,080515,097893,077558,081900
0000000098,0000097000,092668,074861,077809,098289,080217,078845
0000000099,0000098000,092257,077543,075539,097648,083360,076343
0000000100,0000099000,090987,080414,073938,096032,086680,074640
0000000101,0000100000,088971,083210,073157,093597,089852,073901
0000000102,0000101000,086414,085655,073269,090582,092569,074199
0000000103,0000102000,083576,087496,074266,087286,094562,075503
0000000104,0000103000,080725,088565,076049,084029,095635,077687
0000000105,0000104000,078132,088756,078450,081127,095684,080540
0000000106,0000105000,076066,088044,081228,078867,094705,083778
0000000107,0000106000,074725,086508,084105,077472,092796,087083
0000000108,0000107000,074234,084293,086811,077076,090138,090137
0000000109,0000108000,074649,081607,089082,077718,086994,092640
0000000110,0000109000,075924,078731,090684,079333,083676,094343
0000000111,0000110000,077932,075942,091465,081767,080503,095081
0000000112,0000111000,080490,073496,091352,084782,077786,094783
0000000113,0000112000,083334,071647,090357,088077,075794,093480
0000000114,0000113000,086181,070584,088574,091333,074721,091296
0000000115,0000114000,088771,070395,086172,094235,074671,088444
0000000116,0000115000,090844,071100,083394,096495,075649,085207
0000000117,0000116000,092184,072638,080517,097890,077559,081902
0000000118,0000117000,092670,074859,077810,098287,080216,078848
0000000119,0000118000,092261,077538,075540,097646,083359,076346
0000000120,0000119000,090988,080413,073938,096030,086678,074643
0000000121,0000120000,088973,083209,073156,093597,089849,073904
0000000122,0000121000,086419,085652,073267,090583,092566,074202
0000000123,0000122000,083578,087497,074263,087287,094559,075505
0000000124,0000123000,080725,088567,076046,084032,095632,077688
0000000125,0000124000,078135,088756,078447,081131,095681,080539
0000000126,0000125000,076067,088046,081226,078871,094704,083776
0000000127,0000126000,074723,086512,084103,077475,092795,087080
0000000128,0000127000,074233,084295,086810,077079,090138,090134
0000000129,0000128000,074648,081609,089081,077719,086995,092636
0000000130,0000129000,075919,078735,090684,079334,083678,094339
0000000131,0000130000,077928,075944,091466,081767,080507,095078
0000000132,0000131000,080488,073496,091355,084780,077790,094781
0000000133,0000132000,083330,071648,090360,088075,075798,093478
0000000134,0000133000,086178,070584,088577,091330,074725,091296
0000000135,0000134000,088771,070392,086176,094231,074674,088445
0000000136,0000135000,090843,071097,083397,096491,075651,085209
0000000137,0000136000,092183,072635,080520,097886,077560,081905
0000000138,0000137000,092673,074854,077812,098283,080215,078852
0000000139,0000138000,092264,077534,075541,097643,083357,076350
0000000140,0000139000,090990,080411,073937,096029,086675,074647
0000000141,0000140000,088978,083206,073154,093597,089845,073908
0000000142,0000141000,086424,085650,073265,090585,092561,074205
0000000143,0000142000,083580,087498,074260,087290,094554,075507
0000000144,0000143000,080728,088569,076042,084036,095627,077688
0000000145,0000144000,078138,088757,078443,081135,095678,080538
0000000146,0000145000,076067,088050,081222,078875,094702,083773
0000000147,0000146000,074721,086517,084100,077480,092794,087076
0000000148,0000147000,074232,084298,086807,077083,090139,090129
0000000149,0000148000,074645,081613,089080,077722,086998,092631
0000000150,0000149000,075914,078740,090684,079335,083682,094334
0000000151,0000150000,077925,075946,091468,081767,080511,095073
0000000152,0000151000,080484,073497,091358,084778,077795,094777
0000000153,0000152000,083325,071650,090364,088071,075803,093476
0000000154,0000153000,086175,070582,088581,091326,074730,091295
0000000155,0000154000,088770,070388,086180,094226,074678,088447
0000000156,0000155000,090842,071095,083402,096485,075654,085212
0000000157,0000156000,092184,072631,080524,097881,077560,081910
0000000158,0000157000,092676,074847,077815,098279,080214,078858
0000000159,0000158000,092267,077530,075542,097640,083355,076356
0000000160,0000159000,090994,080408,073937,096027,086670,074653
0000000161,0000160000,088984,083202,073152,093598,089840,073914
0000000162,0000161000,086429,085648,073262,090586,092556,074209
0000000163,0000162000,083584,087499,074255,087294,094548,075509
0000000164,0000163000,080732,088569,076037,084041,095621,077689
0000000165,0000164000,078141,088760,078438,081141,095673,080537
0000000166,0000165000,076066,088055,081217,078882,094699,083770
0000000167,0000166000,074720,086523,084095,077486,092793,087072
0000000168,0000167000,074231,084303,086805,077088,090140,090123
0000000169,0000168000,074640,081619,089079,077726,087001,092624
0000000170,0000169000,075908,078745,090685,079337,083687,094327
0000000171,0000170000,077920,075948,091470,081766,080517,095067
0000000172,0000171000,080478,073499,091362,084776,077802,094773
0000000173,0000172000,083319,071651,090369,088067,075810,093474
0000000174,0000173000,086172,070579,088587,091320,074736,091295
0000000175,0000174000,088767,070384,086187,094219,074684,088448
0000000176,0000175000,090840,071091,083408,096478,075657,085216
0000000177,0000176000,092186,072625,080528,097874,077562,081915
0000000178,0000177000,092680,074840,077818,098273,080214,078865
0000000179,0000178000,092271,077525,075543,097635,083352,076364
0000000180,0000179000,091000,080403,073936,096025,086665,074660
0000000181,0000180000,088991,083197,073150,093598,089833,073920
0000000182,0000181000,086434,085646,073257,090589,092548,074214
0000000183,0000182000,083589,087500,074249,087299,094540,075512
0000000184,0000183000,080738,088571,076030,084048,095614,077689
0000000185,0000184000,078144,088764,078431,081149,095668,080535
0000000186,0000185000,076066,088062,081210,078890,094695,083766
0000000187,0000186000,074720,086529,084090,077494,092791,087065
0000000188,0000187000,074227,084309,086801,077094,090141,090115
0000000189,0000188000,074634,081627,089077,077730,087005,092616
0000000190,0000189000,075902,078751,090686,079340,083692,094319
0000000191,0000190000,077914,075952,091473,081766,080525,095060
0000000192,0000191000,080470,073502,091367,084773,077811,094767
0000000193,0000192000,083312,071651,090375,088062,075819,093470
0000000194,0000193000,086167,070576,088595,091312,074744,091294
0000000195,0000194000,088763,070380,086194,094210,074690,088450
0000000196,0000195000,090839,071085,083414,096469,075662,085220
0000000197,0000196000,092188,072616,080534,097865,077563,081922
0000000198,0000197000,092684,074833,077822,098265,080212,078873
0000000199,0000198000,092276,077518,075545,097630,083348,076373
0000000200,0000199000,091008,080395,073935,096023,086658,074670
0000000201,0000200000,089000,083192,073146,093598,089825,073928
0000000202,0000201000,086442,085644,073252,090592,092539,074220
0000000203,0000202000,083597,087499,074242,087305,094531,075515
0000000204,0000203000,080744,088572,076022,084056,095605,077690
0000000205,0000204000,078146,088769,078423,081158,095661,080532
0000000206,0000205000,076067,088069,081203,078900,094690,083761
0000000207,0000206000,074719,086536,084084,077503,092790,087058
0000000208,0000207000,074223,084319,086797,077102,090143,090106
0000000209,0000208000,074627,081636,089075,077736,087009,092606
0000000210,0000209000,075895,078757,090686,079342,083699,094309
0000000211,0000210000,077905,075957,091477,081766,080534,095051
0000000212,0000211000,080460,073506,091373,084769,077821,094761
0000000213,0000212000,083305,071650,090383,088056,075829,093466
0000000214,0000213000,086161,070573,088604,091304,074754,091294
0000000215,0000214000,088759,070376,086204,094200,074698,088453
0000000216,0000215000,090838,071077,083423,096458,075666,085226
0000000217,0000216000,092191,072607,080541,097855,077565,081931
0000000218,0000217000,092688,074824,077827,098257,080211,078883
0000000219,0000218000,092283,077509,075547,097624,083343,076384
0000000220,0000219000,091017,080387,073934,096020,086651,074680
0000000221,0000220000,089009,083186,073143,093598,089815,073938
0000000222,0000221000,086451,085642,073245,090596,092528,074227
0000000223,0000222000,083606,087499,074234,087312,094519,075520
0000000224,0000223000,080751,088575,076012,084065,095595,077691
0000000225,0000224000,078150,088776,078413,081169,095652,080529
0000000226,0000225000,076069,088077,081193,078912,094685,083754
0000000227,0000226000,074717,086545,084076,077514,092788,087049
0000000228,0000227000,074217,084330,086791,077112,090144,090095
0000000229,0000228000,074619,081646,089073,077743,087014,092594
0000000230,0000229000,075885,078765,090688,079346,083708,094297
0000000231,0000230000,077893,075964,091481,081765,080545,095041
0000000232,0000231000,080449,073510,091380,084765,077833,094753
0000000233,0000232000,083296,071650,090392,088048,075841,093462
0000000234,0000233000,086154,070570,088615,091293,074765,091293
0000000235,0000234000,088754,070370,086215,094188,074707,088456
0000000236,0000235000,090837,071068,083433,096445,075672,085233
0000000237,0000236000,092193,072596,080550,097843,077568,081941
0000000238,0000237000,092693,074813,077833,098246,080209,078896
0000000239,0000238000,092291,077498,075549,097617,083337,076397
0000000240,0000239000,091028,080377,073933,096016,086641,074693
0000000241,0000240000,089020,083180,073138,093599,089803,073949
0000000242,0000241000,086463,085638,073237,090601,092514,074236
0000000243,0000242000,083617,087498,074223,087320,094506,075525
0000000244,0000243000,080759,088579,076000,084076,095583,077692
0000000245,0000244000,078155,088783,078400,081183,095642,080526
0000000246,0000245000,076070,088086,081182,078926,094678,083747
0000000247,0000246000,074714,086557,084067,077527,092786,087038
0000000248,0000247000,074210,084343,086785,077123,090146,090082
0000000249,0000248000,074610,081658,089070,077751,087020,092579
0000000250,0000249000,075874,078775,090689,079349,083718,094283
0000000251,0000250000,077880,075972,091486,081764,080558,095029
0000000252,0000251000,080437,073513,091388,084760,077847,094743
0000000253,0000252000,083285,071649,090404,088039,075856,093456
0000000254,0000253000,086144,070566,088628,091281,074778,091292
0000000255,0000254000,088748,070362,086228,094173,074718,088460
0000000256,0000255000,090836,071057,083445,096430,075679,085241
0000000257,0000256000,092195,072583,080560,097829,077570,081952
0000000258,0000257000,092699,074800,077840,098234,080207,078910
0000000259,0000258000,092302,077484,075552,097608,083330,076413
0000000260,0000259000,091041,080366,073932,096012,086631,074708
0000000261,0000260000,089034,083172,073132,093599,089789,073962
0000000262,0000261000,086477,085633,073228,090606,092499,074246
0000000263,0000262000,083629,087498,074211,087330,094490,075531
0000000264,0000263000,080768,088584,075987,084090,095569,077693
0000000265,0000264000,078161,088791,078386,081198,095631,080522
0000000266,0000265000,076072,088097,081169,078942,094671,083738
0000000267,0000266000,074711,086571,084056,077543,092783,087025
0000000268,0000267000,074203,084357,086777,077136,090149,090066
0000000269,0000268000,074600,081671,089067,077760,087028,092563
0000000270,0000269000,075860,078788,090690,079354,083730,094267
0000000271,0000270000,077865,075982,091492,081764,080573,095014
0000000272,0000271000,080423,073518,091398,084754,077864,094733
0000000273,0000272000,083272,071650,090417,088028,075873,093450
0000000274,0000273000,086134,070562,088642,091266,074794,091291
0000000275,0000274000,088742,070353,086243,094157,074730,088464
0000000276,0000275000,090835,071044,083460,096413,075687,085250
0000000277,0000276000,092198,072569,080571,097812,077573,081966
0000000278,0000277000,092707,074784,077848,098221,080204,078926
0000000279,0000278000,092314,077469,075556,097599,083322,076430
0000000280,0000279000,091055,080353,073930,096007,086618,074726
0000000281,0000280000,089049,083162,073126,093600,089773,073977
0000000282,0000281000,086493,085628,073218,090613,092481,074257
0000000283,0000282000,083643,087498,074198,087341,094472,075537
0000000284,0000283000,080779,088589,075971,084105,095552,077694
0000000285,0000284000,078168,088800,078370,081216,095618,080517
0000000286,0000285000,076074,088110,081154,078960,094662,083728
0000000287,0000286000,074707,086587,084043,077560,092780,087011
0000000288,0000287000,074195,084374,086769,077150,090152,090049
0000000289,0000288000,074588,081687,089063,077770,087036,092544
0000000290,0000289000,075845,078802,090692,079359,083743,094249
0000000291,0000290000,077848,075992,091498,081763,080590,094998
0000000292,0000291000,080406,073523,091409,084747,077883,094721
0000000293,0000292000,083257,071650,090431,088016,075892,093443
0000000294,0000293000,086122,070557,088659,091250,074811,091290
0000000295,0000294000,088735,070343,086260,094138,074744,088469
0000000296,0000295000,090832,071030,083476,096393,075697,085261
0000000297,0000296000,092201,072552,080585,097794,077576,081981
0000000298,0000297000,092716,074766,077857,098205,080201,078945
0000000299,0000298000,092327,077452,075560,097587,083313,076450
0000000300,0000299000,091071,080339,073929,096002,086604,074745
0000000301,0000300000,089068,083151,073119,093601,089755,073994
