DIgSILENT PowerFactory,21000900,2000
6,06A,00D
1,TTPP_200000_100:Secondary Voltage A,,,V,0.10000000,-8232.973633,0.000000,61667,99998,1,1,P
2,TTPP_200000_100:Secondary Voltage B,,,V,0.10000000,-7818.479004,0.000000,59706,99998,1,1,P
3,TTPP_200000_100:Secondary Voltage C,,,V,0.10000000,-8180.321289,0.000000,62674,99998,1,1,P
4,TTCC_300_1:Secondary Current A,,,A,0.00010000000,-4.050239,0.000000,-1912,99998,1,1,P
5,TTCC_300_1:Secondary Current B,,,A,0.00010000000,-5.024285,0.000000,684,99998,1,1,P
6,TTCC_300_1:Secondary Current C,,,A,0.00010000000,-4.887504,0.000000,-1622,99998,1,1,P
50
1
1000.000000,1101
30/06/2023,06:07:28.000000
30/06/2023,06:07:28.000000
ASCII
1.000000
0000000001,0000000000,089436,079660,073222,019572,036253,083794
0000000002,0000001000,087302,082377,072637,029325,026975,083320
0000000003,0000002000,084661,084708,072949,040164,019978,079479
0000000004,0000003000,081805,086387,074125,051044,015934,072642
0000000005,0000004000,079012,087248,076059,060886,015259,063474
0000000006,0000005000,076524,087240,078555,068735,018012,052875
0000000007,0000006000,074603,086354,081362,073821,023906,041893
0000000008,0000007000,073458,084646,084214,075644,032382,031596
0000000009,0000008000,073173,082307,086836,074020,042622,022979
0000000010,0000009000,073770,079585,088962,069122,053597,016901
0000000011,0000010000,075218,076715,090384,061428,064231,013961
0000000012,0000011000,077371,073977,090969,051669,073516,014433
0000000013,0000012000,079993,071668,090658,040821,080524,018276
0000000014,0000013000,082844,069993,089481,029955,084553,025112
0000000015,0000014000,085659,069111,087549,020112,085229,034280
0000000016,0000015000,088138,069128,085052,012253,082489,044880
0000000017,0000016000,090045,070028,082244,007174,076585,055861
0000000018,0000017000,091207,071718,079393,005355,068106,066159
0000000019,0000018000,091492,074055,076770,006971,057874,074775
0000000020,0000019000,090880,076794,074644,011870,046898,080852
0000000021,0000020000,089442,079654,073222,019572,036255,083794
0000000022,0000021000,087296,082384,072638,029322,026978,083320
0000000023,0000022000,084659,084709,072949,040172,019970,079478
0000000024,0000023000,081813,086379,074125,051043,015935,072642
0000000025,0000024000,079010,087250,076058,060884,015262,063474
0000000026,0000025000,076517,087246,078555,068738,018008,052874
0000000027,0000026000,074609,086348,081362,073826,023901,041893
0000000028,0000027000,073461,084643,084214,075641,032385,031595
0000000029,0000028000,073166,082315,086837,074021,042621,022979
0000000030,0000029000,073771,079584,088962,069129,053590,016901
0000000031,0000030000,075224,076709,090385,061429,064232,013960
0000000032,0000031000,077367,073982,090969,051668,073518,014433
0000000033,0000032000,079990,071670,090658,040826,080519,018275
0000000034,0000033000,082850,069987,089481,029959,084550,025111
0000000035,0000034000,085658,069111,087549,020110,085232,034279
0000000036,0000035000,088133,069132,085052,012257,082486,044878
0000000037,0000036000,090049,070024,082245,007178,076583,055860
0000000038,0000037000,091209,071716,079393,005356,068107,066157
0000000039,0000038000,091489,074059,076770,006972,057875,074773
0000000040,0000039000,090881,076793,074644,011874,046895,080851
0000000041,0000040000,089445,079651,073222,019572,036256,083793
0000000042,0000041000,087294,082386,072637,029323,026979,083319
0000000043,0000042000,084659,084710,072949,040173,019970,079477
0000000044,0000043000,081815,086377,074125,051044,015934,072642
0000000045,0000044000,079008,087252,076058,060883,015263,063474
0000000046,0000045000,076516,087247,078554,068739,018006,052875
0000000047,0000046000,074611,086346,081361,073825,023901,041894
0000000048,0000047000,073459,084645,084214,075641,032384,031596
0000000049,0000048000,073164,082317,086836,074022,042618,022980
0000000050,0000049000,073774,079582,088962,069129,053588,016903
0000000051,0000050000,075223,076709,090385,061428,064231,013961
0000000052,0000051000,077364,073984,090970,051672,073514,014434
0000000053,0000052000,079993,071668,090658,040829,080516,018275
0000000054,0000053000,082850,069986,089481,029960,084550,025111
0000000055,0000054000,085654,069114,087549,020114,085229,034278
0000000056,0000055000,088135,069130,085052,012262,082482,044877
0000000057,0000056000,090052,070021,082245,007179,076584,055857
0000000058,0000057000,091206,071719,079393,005358,068108,066155
0000000059,0000058000,091489,074059,076770,006976,057873,074770
0000000060,0000059000,090886,076789,074644,011875,046897,080848
0000000061,0000060000,089443,079653,073222,019570,036260,083790
0000000062,0000061000,087292,082389,072637,029325,026979,083317
0000000063,0000062000,084664,084706,072948,040173,019971,079476
0000000064,0000063000,081816,086377,074125,051040,015939,072641
0000000065,0000064000,079004,087256,076057,060881,015264,063474
0000000066,0000065000,076518,087246,078554,068739,018005,052876
0000000067,0000066000,074613,086343,081361,073822,023902,041896
0000000068,0000067000,073455,084649,084214,075638,032384,031599
0000000069,0000068000,073164,082318,086836,074024,042614,022983
0000000070,0000069000,073776,079579,088962,069129,053586,016906
0000000071,0000070000,075221,076712,090385,061428,064229,013964
0000000072,0000071000,077361,073987,090970,051676,073508,014436
0000000073,0000072000,079995,071665,090658,040833,080511,018277
0000000074,0000073000,082850,069986,089482,029962,084548,025111
0000000075,0000074000,085651,069117,087550,020119,085225,034276
0000000076,0000075000,088137,069128,085053,012268,082479,044874
0000000077,0000076000,090053,070019,082246,007183,076584,055854
0000000078,0000077000,091204,071721,079393,005362,068108,066150
0000000079,0000078000,091490,074058,076770,006981,057873,074766
0000000080,0000079000,090888,076786,074644,011876,046901,080843
0000000081,0000080000,089442,079654,073221,019570,036265,083786
0000000082,0000081000,087292,082389,072636,029325,026983,083313
0000000083,0000082000,084666,084704,072947,040171,019976,079474
0000000084,0000083000,081816,086378,074124,051035,015944,072641
0000000085,0000084000,079004,087258,076056,060878,015267,063475
0000000086,0000085000,076521,087244,078553,068734,018007,052879
0000000087,0000086000,074613,086345,081361,073816,023904,041900
0000000088,0000087000,073453,084652,084213,075634,032382,031604
0000000089,0000088000,073165,082317,086836,074021,042610,022989
0000000090,0000089000,073776,079579,088963,069127,053582,016911
0000000091,0000090000,075217,076715,090386,061429,064223,013969
0000000092,0000091000,077361,073986,090971,051679,073500,014440
0000000093,0000092000,079996,071663,090659,040836,080505,018279
0000000094,0000093000,082846,069988,089484,029968,084542,025111
0000000095,0000094000,085650,069116,087551,020128,085219,034275
0000000096,0000095000,088139,069125,085054,012275,082475,044870
0000000097,0000096000,090052,070019,082247,007189,076583,055848
0000000098,0000097000,091203,071721,079394,005369,068108,066143
0000000099,0000098000,091493,074054,076770,006986,057876,074758
0000000100,0000099000,090889,076785,074644,011877,046907,080836
0000000101,0000100000,089441,079656,073221,019571,036271,083779
0000000102,0000101000,087295,082387,072635,029323,026989,083308
0000000103,0000102000,084669,084703,072946,040165,019985,079471
0000000104,0000103000,081814,086381,074122,051028,015952,072640
0000000105,0000104000,079005,087259,076054,060871,015271,063477
0000000106,0000105000,076523,087243,078552,068725,018011,052883
0000000107,0000106000,074611,086348,081359,073807,023907,041907
0000000108,0000107000,073451,084654,084212,075629,032380,031612
0000000109,0000108000,073166,082316,086835,074016,042606,022998
0000000110,0000109000,073774,079581,088963,069123,053577,016920
0000000111,0000110000,075214,076717,090386,061430,064213,013977
0000000112,0000111000,077361,073985,090972,051684,073490,014446
0000000113,0000112000,079994,071662,090661,040842,080496,018283
0000000114,0000113000,082843,069989,089485,029977,084532,025112
0000000115,0000114000,085651,069114,087553,020139,085210,034272
0000000116,0000115000,088140,069122,085056,012285,082471,044865
0000000117,0000116000,090050,070019,082248,007199,076581,055840
0000000118,0000117000,091204,071719,079395,005379,068108,066133
0000000119,0000118000,091496,074051,076771,006992,057881,074747
0000000120,0000119000,090890,076784,074644,011880,046916,080824
0000000121,0000120000,089443,079655,073220,019572,036280,083768
0000000122,0000121000,087299,082385,072634,029320,027001,083300
0000000123,0000122000,084670,084703,072944,040157,019998,079466
0000000124,0000123000,081815,086383,074120,051019,015962,072638
0000000125,0000124000,079007,087259,076052,060860,015280,063480
0000000126,0000125000,076523,087245,078550,068712,018018,052890
0000000127,0000126000,074609,086352,081358,073795,023909,041916
0000000128,0000127000,073451,084656,084211,075619,032377,031624
0000000129,0000128000,073165,082318,086835,074008,042601,023011
0000000130,0000129000,073770,079584,088963,069119,053568,016933
0000000131,0000130000,075212,076719,090387,061431,064200,013988
0000000132,0000131000,077360,073984,090973,051688,073476,014455
0000000133,0000132000,079991,071663,090664,040850,080482,018288
0000000134,0000133000,082841,069989,089488,029990,084518,025113
0000000135,0000134000,085651,069111,087555,020153,085199,034269
0000000136,0000135000,088139,069120,085058,012299,082464,044857
0000000137,0000136000,090050,070018,082250,007214,076578,055828
0000000138,0000137000,091207,071715,079396,005392,068109,066119
0000000139,0000138000,091499,074047,076772,007001,057888,074731
0000000140,0000139000,090891,076784,074643,011885,046926,080809
0000000141,0000140000,089446,079653,073218,019573,036293,083755
0000000142,0000141000,087303,082383,072632,029314,027017,083290
0000000143,0000142000,084671,084704,072942,040147,020014,079459
0000000144,0000143000,081816,086384,074117,051007,015976,072637
0000000145,0000144000,079010,087259,076049,060844,015292,063484
0000000146,0000145000,076523,087248,078547,068694,018027,052898
0000000147,0000146000,074607,086356,081355,073780,023911,041929
0000000148,0000147000,073451,084658,084209,075606,032374,031641
0000000149,0000148000,073162,082321,086835,073998,042594,023029
0000000150,0000149000,073766,079588,088964,069114,053555,016951
0000000151,0000150000,075209,076720,090389,061433,064183,014004
0000000152,0000151000,077357,073985,090976,051694,073459,014467
0000000153,0000152000,079987,071665,090667,040861,080464,018295
0000000154,0000153000,082839,069988,089491,030006,084500,025114
0000000155,0000154000,085651,069108,087559,020171,085185,034264
0000000156,0000155000,088138,069118,085062,012319,082455,044847
0000000157,0000156000,090050,070015,082253,007234,076573,055813
0000000158,0000157000,091210,071710,079398,005408,068111,066100
0000000159,0000158000,091501,074044,076773,007012,057897,074711
0000000160,0000159000,090894,076781,074643,011892,046940,080789
0000000161,0000160000,089451,079650,073217,019573,036311,083737
0000000162,0000161000,087307,082382,072629,029307,027038,083276
0000000163,0000162000,084674,084705,072938,040134,020035,079451
0000000164,0000163000,081820,086385,074113,050989,015995,072635
0000000165,0000164000,079012,087261,076045,060822,015309,063489
0000000166,0000165000,076522,087253,078543,068672,018038,052910
0000000167,0000166000,074606,086360,081352,073759,023915,041946
0000000168,0000167000,073450,084661,084207,075587,032372,031662
0000000169,0000168000,073158,082325,086834,073984,042585,023052
0000000170,0000169000,073761,079592,088964,069108,053538,016974
0000000171,0000170000,075206,076722,090390,061433,064163,014024
0000000172,0000171000,077353,073986,090979,051701,073436,014483
0000000173,0000172000,079982,071665,090670,040877,080439,018304
0000000174,0000173000,082837,069985,089495,030027,084478,025116
0000000175,0000174000,085649,069105,087564,020195,085167,034259
0000000176,0000175000,088137,069115,085066,012344,082443,044834
0000000177,0000176000,090052,070010,082256,007258,076568,055794
0000000178,0000177000,091213,071705,079401,005428,068115,066076
0000000179,0000178000,091504,074041,076774,007027,057908,074685
0000000180,0000179000,090898,076778,074642,011900,046957,080763
0000000181,0000180000,089457,079646,073215,019572,036334,083714
0000000182,0000181000,087311,082381,072626,029298,027065,083258
0000000183,0000182000,084678,084706,072934,040119,020062,079440
0000000184,0000183000,081824,086386,074108,050967,016020,072633
0000000185,0000184000,079014,087264,076040,060795,015329,063495
0000000186,0000185000,076522,087258,078538,068644,018051,052924
0000000187,0000186000,074606,086364,081348,073733,023920,041968
0000000188,0000187000,073447,084666,084204,075564,032368,031688
0000000189,0000188000,073153,082331,086833,073968,042572,023081
0000000190,0000189000,073757,079596,088965,069101,053518,017002
0000000191,0000190000,075201,076724,090393,061434,064137,014049
0000000192,0000191000,077347,073989,090983,051711,073406,014502
0000000193,0000192000,079977,071665,090675,040895,080409,018316
0000000194,0000193000,082834,069983,089501,030052,084450,025119
0000000195,0000194000,085646,069102,087569,020224,085146,034251
0000000196,0000195000,088136,069111,085071,012376,082428,044817
0000000197,0000196000,090054,070003,082260,007288,076562,055770
0000000198,0000197000,091216,071699,079404,005453,068120,066047
0000000199,0000198000,091507,074036,076775,007045,057922,074653
0000000200,0000199000,090904,076772,074641,011909,046979,080732
0000000201,0000200000,089463,079642,073212,019571,036364,083686
0000000202,0000201000,087316,082380,072622,029287,027097,083237
0000000203,0000202000,084683,084706,072928,040099,020094,079427
0000000204,0000203000,081829,086387,074102,050939,016051,072630
0000000205,0000204000,079016,087268,076034,060763,015354,063503
0000000206,0000205000,076522,087263,078532,068611,018067,052942
0000000207,0000206000,074605,086369,081343,073700,023926,041994
0000000208,0000207000,073444,084673,084201,075536,032364,031720
0000000209,0000208000,073148,082338,086831,073948,042557,023116
0000000210,0000209000,073751,079601,088965,069091,053493,017037
0000000211,0000210000,075194,076728,090396,061434,064106,014080
0000000212,0000211000,077339,073992,090987,051723,073371,014526
0000000213,0000212000,079972,071665,090681,040918,080372,018330
0000000214,0000213000,082830,069980,089508,030082,084417,025121
0000000215,0000214000,085643,069099,087576,020260,085119,034242
0000000216,0000215000,088135,069105,085077,012414,082409,044798
0000000217,0000216000,090056,069996,082266,007324,076555,055741
0000000218,0000217000,091219,071692,079407,005483,068125,066011
0000000219,0000218000,091513,074029,076776,007067,057938,074614
0000000220,0000219000,090912,076766,074640,011921,047006,080694
0000000221,0000220000,089470,079638,073209,019569,036399,083653
0000000222,0000221000,087323,082378,072617,029274,027136,083211
0000000223,0000222000,084690,084706,072922,040075,020134,079412
0000000224,0000223000,081834,086389,074095,050905,016087,072627
0000000225,0000224000,079018,087274,076026,060724,015383,063513
0000000226,0000225000,076524,087269,078525,068570,018086,052964
0000000227,0000226000,074604,086376,081338,073661,023934,042026
0000000228,0000227000,073439,084681,084197,075503,032359,031759
0000000229,0000228000,073142,082346,086830,073925,042538,023158
0000000230,0000229000,073744,079607,088966,069079,053464,017078
0000000231,0000230000,075186,076733,090399,061435,064068,014116
0000000232,0000231000,077331,073994,090993,051738,073328,014554
0000000233,0000232000,079965,071664,090688,040945,080329,018347
0000000234,0000233000,082824,069978,089516,030118,084378,025125
0000000235,0000234000,085639,069094,087585,020303,085086,034232
0000000236,0000235000,088135,069098,085085,012459,082388,044774
0000000237,0000236000,090058,069988,082272,007366,076548,055707
0000000238,0000237000,091223,071684,079411,005519,068131,065969
0000000239,0000238000,091519,074021,076778,007093,057958,074568
0000000240,0000239000,090920,076758,074639,011933,047038,080649
0000000241,0000240000,089479,079633,073206,019568,036440,083613
0000000242,0000241000,087332,082375,072611,029258,027182,083181
0000000243,0000242000,084698,084705,072914,040045,020181,079394
0000000244,0000243000,081840,086392,074086,050866,016130,072624
0000000245,0000244000,079022,087279,076017,060678,015418,063524
0000000246,0000245000,076525,087276,078517,068522,018109,052989
0000000247,0000246000,074602,086385,081331,073615,023942,042063
0000000248,0000247000,073434,084691,084193,075464,032352,031804
0000000249,0000248000,073136,082354,086828,073897,042516,023207
0000000250,0000249000,073736,079614,088967,069065,053430,017126
0000000251,0000250000,075176,076739,090403,061437,064024,014159
0000000252,0000251000,077322,073997,090999,051756,073278,014586
0000000253,0000252000,079957,071664,090697,040976,080278,018366
0000000254,0000253000,082817,069975,089526,030160,084332,025128
0000000255,0000254000,085635,069089,087594,020353,085049,034219
0000000256,0000255000,088134,069089,085094,012511,082363,044746
0000000257,0000256000,090060,069978,082280,007415,076539,055666
0000000258,0000257000,091227,071674,079417,005561,068138,065920
0000000259,0000258000,091527,074011,076780,007123,057981,074515
0000000260,0000259000,090930,076750,074638,011948,047076,080597
0000000261,0000260000,089489,079627,073201,019566,036487,083567
0000000262,0000261000,087342,082372,072604,029239,027236,083146
0000000263,0000262000,084708,084705,072905,040011,020235,079374
0000000264,0000263000,081846,086396,074075,050820,016180,072620
0000000265,0000264000,079026,087285,076006,060624,015458,063538
0000000266,0000265000,076526,087284,078507,068465,018135,053019
0000000267,0000266000,074599,086396,081323,073562,023952,042106
0000000268,0000267000,073428,084702,084187,075420,032343,031857
0000000269,0000268000,073128,082364,086825,073865,042491,023265
0000000270,0000269000,073726,079623,088969,069049,053390,017182
0000000271,0000270000,075164,076746,090407,061440,063972,014208
0000000272,0000271000,077311,074000,091006,051776,073220,014624
0000000273,0000272000,079948,071664,090707,041012,080220,018388
0000000274,0000273000,082809,069972,089537,030210,084279,025132
0000000275,0000274000,085630,069082,087606,020410,085006,034205
0000000276,0000275000,088133,069080,085105,012571,082335,044714
0000000277,0000276000,090062,069967,082288,007472,076529,055620
0000000278,0000277000,091233,071662,079422,005610,068147,065863
0000000279,0000278000,091536,073999,076782,007158,058008,074454
0000000280,0000279000,090940,076740,074637,011965,047119,080537
0000000281,0000280000,089501,079620,073197,019564,036542,083515
0000000282,0000281000,087354,082367,072596,029218,027298,083105
0000000283,0000282000,084718,084705,072894,039972,020298,079350
0000000284,0000283000,081854,086400,074063,050767,016237,072616
0000000285,0000284000,079032,087292,075994,060563,015503,063554
0000000286,0000285000,076528,087294,078496,068401,018166,053054
0000000287,0000286000,074596,086408,081313,073501,023963,042156
0000000288,0000287000,073422,084715,084181,075369,032334,031918
0000000289,0000288000,073119,082376,086823,073829,042462,023330
0000000290,0000289000,073714,079634,088970,069031,053343,017246
0000000291,0000290000,075152,076754,090412,061443,063913,014264
0000000292,0000291000,077299,074004,091015,051799,073154,014667
0000000293,0000292000,079936,071664,090718,041054,080154,018413
0000000294,0000293000,082800,069968,089550,030266,084218,025136
0000000295,0000294000,085625,069074,087619,020476,084957,034188
0000000296,0000295000,088131,069069,085117,012639,082304,044678
0000000297,0000296000,090064,069955,082298,007537,076517,055566
0000000298,0000297000,091240,071649,079429,005664,068157,065799
0000000299,0000298000,091546,073986,076786,007196,058040,074384
0000000300,0000299000,090952,076730,074636,011983,047168,080469
0000000301,0000300000,089514,079612,073191,019561,036605,083455
