DIgSILENT PowerFactory,21000900,2000
6,06A,00D
1,TTPP_200000_100:Secondary Voltage A,,,V,0.10000000,-8366.004883,0.000000,67066,99998,1,1,P
2,TTPP_200000_100:Secondary Voltage B,,,V,0.10000000,-8023.307617,0.000000,63262,99998,1,1,P
3,TTPP_200000_100:Secondary Voltage C,,,V,0.10000000,-8332.355469,0.000000,65942,99998,1,1,P
4,TTCC_500_5:Secondary Current A,,,A,0.0010000000,-87.496361,0.000000,69513,99998,1,1,P
5,TTCC_500_5:Secondary Current B,,,A,0.0010000000,-85.166588,0.000000,70247,99998,1,1,P
6,TTCC_500_5:Secondary Current C,,,A,0.0010000000,-84.759964,0.000000,69385,99998,1,1,P
50
1
1000.000000,1101
30/06/2023,06:06:19.000000
30/06/2023,06:06:19.000000
ASCII
1.000000
0000000001,0000000000,089172,083873,074171,093412,089846,074165
0000000002,0000001000,086624,086307,074285,090397,092562,074464
0000000003,0000002000,083773,088162,075283,087097,094557,075769
0000000004,0000003000,080927,089224,077066,083842,095626,077955
0000000005,0000004000,078343,089406,079468,080938,095677,080809
0000000006,0000005000,076271,088700,082246,078677,094697,084048
0000000007,0000006000,074925,087169,085121,077283,092785,087355
0000000008,0000007000,074452,084938,087827,076888,090125,090410
0000000009,0000008000,074860,082260,090096,077529,086981,092913
0000000010,0000009000,076128,079393,091697,079147,083660,094616
0000000011,0000010000,078147,076595,092476,081585,080485,095354
0000000012,0000011000,080709,074146,092362,084599,077769,095055
0000000013,0000012000,083537,072315,091365,087897,075776,093750
0000000014,0000013000,086391,071244,089580,091156,074703,091564
0000000015,0000014000,088988,071050,087179,094058,074655,088710
0000000016,0000015000,091047,071768,084402,096316,075636,085470
0000000017,0000016000,092383,073309,081526,097714,077545,082164
0000000018,0000017000,092882,075516,078820,098109,080206,079109
0000000019,0000018000,092462,078203,076551,097465,083352,076606
0000000020,0000019000,091180,081085,074951,095848,086672,074903
0000000021,0000020000,089177,083867,074171,093414,089843,074165
0000000022,0000021000,086623,086308,074285,090395,092564,074464
0000000023,0000022000,083771,088164,075282,087098,094556,075769
0000000024,0000023000,080927,089224,077066,083841,095627,077955
0000000025,0000024000,078345,089404,079468,080938,095676,080809
0000000026,0000025000,076268,088704,082245,078676,094698,084048
0000000027,0000026000,074928,087167,085121,077283,092785,087355
0000000028,0000027000,074450,084940,087827,076887,090126,090410
0000000029,0000028000,074859,082261,090096,077529,086981,092913
0000000030,0000029000,076128,079393,091696,079147,083660,094616
0000000031,0000030000,078148,076593,092476,081583,080486,095354
0000000032,0000031000,080704,074151,092363,084598,077769,095055
0000000033,0000032000,083539,072313,091365,087897,075776,093750
0000000034,0000033000,086393,071243,089581,091155,074703,091564
0000000035,0000034000,088984,071052,087180,094057,074656,088710
0000000036,0000035000,091046,071769,084402,096317,075635,085471
0000000037,0000036000,092389,073303,081525,097713,077546,082164
0000000038,0000037000,092879,075518,078820,098108,080206,079109
0000000039,0000038000,092459,078206,076551,097465,083352,076606
0000000040,0000039000,091185,081081,074951,095849,086671,074903
0000000041,0000040000,089179,083866,074171,093412,089845,074166
0000000042,0000041000,086617,086314,074285,090395,092564,074464
0000000043,0000042000,083774,088161,075282,087098,094555,075769
0000000044,0000043000,080932,089219,077066,083841,095627,077955
0000000045,0000044000,078340,089409,079468,080937,095677,080809
0000000046,0000045000,076266,088705,082245,078678,094697,084048
0000000047,0000046000,074933,087162,085121,077283,092785,087355
0000000048,0000047000,074448,084941,087827,076886,090127,090410
0000000049,0000048000,074855,082266,090096,077529,086981,092913
0000000050,0000049000,076132,079389,091696,079147,083660,094616
0000000051,0000050000,078149,076592,092476,081582,080488,095354
0000000052,0000051000,080699,074155,092363,084598,077770,095055
0000000053,0000052000,083540,072311,091365,087897,075776,093750
0000000054,0000053000,086396,071239,089581,091154,074704,091564
0000000055,0000054000,088981,071055,087180,094055,074657,088711
0000000056,0000055000,091045,071769,084402,096317,075635,085471
0000000057,0000056000,092392,073299,081526,097712,077546,082165
0000000058,0000057000,092878,075518,078821,098106,080207,079110
0000000059,0000058000,092458,078208,076551,097464,083352,076607
0000000060,0000059000,091189,081077,074951,095848,086670,074904
0000000061,0000060000,089179,083866,074171,093412,089845,074166
0000000062,0000061000,086616,086316,074284,090395,092563,074465
0000000063,0000062000,083776,088160,075281,087099,094554,075770
0000000064,0000063000,080933,089219,077065,083841,095627,077955
0000000065,0000064000,078338,089412,079467,080938,095677,080809
0000000066,0000065000,076268,088704,082244,078678,094697,084048
0000000067,0000066000,074934,087162,085121,077283,092785,087354
0000000068,0000067000,074445,084945,087827,076887,090127,090409
0000000069,0000068000,074855,082266,090095,077530,086981,092912
0000000070,0000069000,076133,079387,091696,079147,083661,094615
0000000071,0000070000,078146,076595,092476,081581,080489,095353
0000000072,0000071000,080698,074156,092363,084598,077771,095054
0000000073,0000072000,083542,072309,091366,087896,075778,093750
0000000074,0000073000,086394,071240,089583,091152,074706,091565
0000000075,0000074000,088978,071057,087181,094054,074657,088711
0000000076,0000075000,091048,071766,084403,096315,075635,085472
0000000077,0000076000,092392,073298,081527,097710,077547,082166
0000000078,0000077000,092875,075521,078821,098105,080206,079111
0000000079,0000078000,092460,078205,076551,097464,083351,076608
0000000080,0000079000,091192,081074,074951,095847,086670,074905
0000000081,0000080000,089178,083868,074171,093411,089844,074167
0000000082,0000081000,086617,086316,074284,090396,092561,074466
0000000083,0000082000,083780,088156,075280,087099,094553,075770
0000000084,0000083000,080932,089221,077064,083842,095626,077955
0000000085,0000084000,078337,089414,079465,080940,095675,080808
0000000086,0000085000,076271,088703,082243,078680,094696,084047
0000000087,0000086000,074934,087163,085120,077284,092786,087353
0000000088,0000087000,074442,084949,087826,076888,090127,090407
0000000089,0000088000,074855,082266,090095,077531,086982,092910
0000000090,0000089000,076133,079387,091696,079147,083663,094613
0000000091,0000090000,078142,076598,092477,081581,080491,095351
0000000092,0000091000,080696,074157,092364,084597,077772,095053
0000000093,0000092000,083543,072306,091367,087894,075780,093749
0000000094,0000093000,086391,071241,089584,091150,074708,091564
0000000095,0000094000,088977,071057,087183,094053,074659,088712
0000000096,0000095000,091050,071762,084405,096313,075636,085473
0000000097,0000096000,092392,073297,081528,097708,077548,082168
0000000098,0000097000,092875,075520,078822,098104,080206,079113
0000000099,0000098000,092463,078202,076552,097463,083350,076611
0000000100,0000099000,091193,081072,074951,095846,086669,074908
0000000101,0000100000,089178,083869,074170,093411,089842,074169
0000000102,0000101000,086621,086314,074282,090397,092559,074467
0000000103,0000102000,083783,088155,075279,087100,094551,075771
0000000104,0000103000,080931,089224,077062,083843,095624,077955
0000000105,0000104000,078339,089415,079463,080942,095673,080808
0000000106,0000105000,076273,088703,082241,078682,094695,084046
0000000107,0000106000,074932,087167,085118,077286,092786,087351
0000000108,0000107000,074440,084952,087824,076890,090127,090405
0000000109,0000108000,074856,082266,090095,077532,086983,092907
0000000110,0000109000,076130,079390,091697,079147,083665,094611
0000000111,0000110000,078138,076601,092478,081581,080493,095349
0000000112,0000111000,080696,074155,092365,084596,077775,095051
0000000113,0000112000,083541,072306,091370,087892,075783,093748
0000000114,0000113000,086387,071243,089587,091148,074711,091564
0000000115,0000114000,088977,071054,087185,094050,074660,088712
0000000116,0000115000,091051,071759,084407,096310,075638,085475
0000000117,0000116000,092390,073296,081530,097705,077548,082170
0000000118,0000117000,092876,075517,078823,098101,080205,079116
0000000119,0000118000,092467,078197,076553,097461,083348,076614
0000000120,0000119000,091194,081072,074951,095845,086667,074911
0000000121,0000120000,089180,083868,074169,093412,089839,074172
0000000122,0000121000,086625,086311,074280,090398,092555,074469
0000000123,0000122000,083785,088156,075276,087102,094548,075773
0000000124,0000123000,080932,089226,077059,083846,095621,077956
0000000125,0000124000,078342,089415,079460,080946,095670,080807
0000000126,0000125000,076274,088705,082239,078685,094694,084044
0000000127,0000126000,074929,087172,085116,077290,092785,087348
0000000128,0000127000,074440,084954,087823,076894,090128,090401
0000000129,0000128000,074855,082268,090094,077534,086985,092904
0000000130,0000129000,076126,079394,091697,079148,083668,094607
0000000131,0000130000,078135,076603,092479,081581,080496,095346
0000000132,0000131000,080694,074155,092368,084595,077779,095049
0000000133,0000132000,083537,072307,091373,087889,075787,093746
0000000134,0000133000,086384,071243,089590,091145,074714,091564
0000000135,0000134000,088977,071051,087189,094046,074664,088713
0000000136,0000135000,091050,071756,084411,096305,075641,085477
0000000137,0000136000,092390,073294,081533,097701,077549,082173
0000000138,0000137000,092879,075513,078825,098098,080204,079121
0000000139,0000138000,092470,078193,076554,097458,083347,076619
0000000140,0000139000,091197,081070,074950,095844,086664,074915
0000000141,0000140000,089184,083865,074167,093412,089834,074176
0000000142,0000141000,086630,086308,074278,090399,092551,074473
0000000143,0000142000,083787,088157,075273,087105,094544,075774
0000000144,0000143000,080934,089227,077055,083851,095616,077956
0000000145,0000144000,078345,089416,079456,080950,095667,080806
0000000146,0000145000,076273,088709,082235,078690,094691,084041
0000000147,0000146000,074928,087176,085112,077295,092784,087344
0000000148,0000147000,074439,084957,087820,076898,090128,090397
0000000149,0000148000,074851,082272,090093,077537,086987,092899
0000000150,0000149000,076120,079399,091697,079150,083672,094602
0000000151,0000150000,078131,076605,092481,081581,080501,095341
0000000152,0000151000,080690,074156,092371,084593,077785,095045
0000000153,0000152000,083531,072309,091377,087886,075793,093744
0000000154,0000153000,086381,071241,089594,091140,074719,091564
0000000155,0000154000,088976,071047,087193,094040,074668,088715
0000000156,0000155000,091048,071753,084415,096299,075643,085480
0000000157,0000156000,092390,073290,081537,097695,077550,082178
0000000158,0000157000,092883,075506,078828,098093,080204,079126
0000000159,0000158000,092473,078189,076555,097454,083344,076624
0000000160,0000159000,091200,081067,074950,095842,086660,074921
0000000161,0000160000,089190,083861,074165,093412,089829,074182
0000000162,0000161000,086635,086307,074275,090401,092545,074477
0000000163,0000162000,083790,088158,075268,087109,094537,075777
0000000164,0000163000,080939,089228,077050,083856,095611,077957
0000000165,0000164000,078348,089419,079451,080956,095663,080804
0000000166,0000165000,076273,088714,082230,078696,094689,084038
0000000167,0000166000,074927,087182,085108,077301,092783,087339
0000000168,0000167000,074437,084962,087818,076903,090129,090391
0000000169,0000168000,074846,082278,090092,077540,086991,092892
0000000170,0000169000,076115,079404,091698,079152,083676,094595
0000000171,0000170000,078127,076607,092483,081581,080507,095335
0000000172,0000171000,080684,074158,092375,084590,077792,095041
0000000173,0000172000,083525,072310,091382,087882,075800,093742
0000000174,0000173000,086378,071238,089600,091134,074725,091563
0000000175,0000174000,088974,071043,087200,094033,074673,088716
0000000176,0000175000,091047,071749,084421,096292,075647,085484
0000000177,0000176000,092392,073284,081541,097689,077551,082183
0000000178,0000177000,092886,075499,078831,098087,080203,079133
0000000179,0000178000,092477,078184,076556,097450,083341,076632
0000000180,0000179000,091206,081061,074949,095840,086654,074928
0000000181,0000180000,089198,083856,074163,093412,089822,074188
0000000182,0000181000,086641,086305,074270,090404,092538,074482
0000000183,0000182000,083796,088158,075262,087114,094530,075780
0000000184,0000183000,080944,089230,077043,083862,095603,077957
0000000185,0000184000,078350,089423,079444,080964,095657,080802
0000000186,0000185000,076273,088721,082223,078705,094685,084034
0000000187,0000186000,074926,087188,085103,077309,092781,087333
0000000188,0000187000,074434,084969,087814,076909,090131,090383
0000000189,0000188000,074840,082286,090090,077545,086994,092884
0000000190,0000189000,076108,079410,091698,079154,083682,094587
0000000191,0000190000,078120,076611,092486,081581,080514,095328
0000000192,0000191000,080676,074161,092380,084587,077800,095035
0000000193,0000192000,083519,072310,091388,087877,075808,093738
0000000194,0000193000,086374,071235,089608,091127,074733,091562
0000000195,0000194000,088970,071039,087207,094025,074680,088719
0000000196,0000195000,091045,071744,084428,096283,075651,085489
0000000197,0000196000,092394,073275,081547,097680,077553,082190
0000000198,0000197000,092890,075492,078835,098080,080202,079141
0000000199,0000198000,092482,078177,076558,097445,083337,076641
0000000200,0000199000,091214,081054,074948,095838,086648,074938
0000000201,0000200000,089206,083851,074159,093413,089814,074196
0000000202,0000201000,086648,086303,074265,090407,092528,074488
0000000203,0000202000,083803,088158,075255,087119,094520,075783
0000000204,0000203000,080951,089231,077035,083870,095595,077958
0000000205,0000204000,078353,089428,079436,080973,095650,080800
0000000206,0000205000,076274,088728,082215,078715,094680,084029
0000000207,0000206000,074925,087195,085096,077318,092779,087326
0000000208,0000207000,074429,084978,087810,076917,090132,090374
0000000209,0000208000,074833,082295,090088,077551,086999,092874
0000000210,0000209000,076101,079416,091699,079157,083689,094577
0000000211,0000210000,078111,076616,092490,081580,080524,095319
0000000212,0000211000,080666,074165,092386,084584,077810,095029
0000000213,0000212000,083511,072309,091396,087870,075818,093734
0000000214,0000213000,086368,071232,089617,091118,074743,091562
0000000215,0000214000,088965,071035,087217,094014,074687,088721
0000000216,0000215000,091044,071736,084436,096273,075656,085494
0000000217,0000216000,092397,073266,081554,097670,077555,082199
0000000218,0000217000,092894,075482,078840,098071,080200,079152
0000000219,0000218000,092489,078168,076560,097439,083332,076652
0000000220,0000219000,091224,081046,074947,095835,086640,074948
0000000221,0000220000,089216,083845,074156,093413,089804,074206
0000000222,0000221000,086658,086301,074258,090411,092517,074495
0000000223,0000222000,083813,088158,075246,087127,094509,075788
0000000224,0000223000,080958,089234,077025,083880,095585,077959
0000000225,0000224000,078357,089435,079425,080984,095642,080797
0000000226,0000225000,076275,088736,082206,078726,094674,084022
0000000227,0000226000,074923,087205,085089,077329,092777,087316
0000000228,0000227000,074423,084989,087804,076926,090134,090363
0000000229,0000228000,074825,082305,090086,077558,087004,092861
0000000230,0000229000,076092,079424,091700,079160,083697,094565
0000000231,0000230000,078100,076623,092494,081580,080535,095309
0000000232,0000231000,080656,074169,092393,084580,077823,095021
0000000233,0000232000,083502,072309,091405,087862,075831,093730
0000000234,0000233000,086360,071229,089628,091107,074755,091561
0000000235,0000234000,088960,071029,087228,094002,074696,088724
0000000236,0000235000,091044,071727,084446,096260,075662,085501
0000000237,0000236000,092399,073255,081563,097657,077557,082209
0000000238,0000237000,092899,075472,078846,098061,080199,079164
0000000239,0000238000,092498,078157,076562,097431,083326,076665
0000000240,0000239000,091235,081036,074946,095831,086631,074961
0000000241,0000240000,089227,083839,074151,093413,089792,074217
0000000242,0000241000,086669,086297,074250,090416,092504,074504
0000000243,0000242000,083824,088157,075236,087135,094495,075793
0000000244,0000243000,080965,089238,077013,083891,095572,077960
0000000245,0000244000,078361,089442,079413,080998,095632,080794
0000000246,0000245000,076277,088745,082195,078740,094668,084015
0000000247,0000246000,074921,087216,085080,077342,092775,087306
0000000248,0000247000,074417,085002,087798,076937,090136,090349
0000000249,0000248000,074817,082317,090083,077566,087010,092847
0000000250,0000249000,076080,079435,091702,079164,083708,094551
0000000251,0000250000,078087,076631,092499,081579,080548,095297
0000000252,0000251000,080643,074173,092401,084575,077837,095011
0000000253,0000252000,083492,072309,091417,087853,075845,093724
0000000254,0000253000,086351,071225,089641,091095,074768,091560
0000000255,0000254000,088955,071021,087241,093988,074707,088728
0000000256,0000255000,091043,071716,084458,096245,075669,085509
0000000257,0000256000,092402,073242,081573,097643,077559,082220
0000000258,0000257000,092906,075458,078853,098049,080196,079178
0000000259,0000258000,092508,078143,076565,097423,083319,076681
0000000260,0000259000,091247,081025,074945,095827,086620,074976
0000000261,0000260000,089240,083831,074145,093414,089779,074230
0000000262,0000261000,086683,086292,074241,090421,092488,074514
0000000263,0000262000,083836,088157,075224,087145,094479,075799
0000000264,0000263000,080974,089243,077000,083904,095558,077961
0000000265,0000264000,078368,089450,079399,081013,095620,080790
0000000266,0000265000,076279,088756,082182,078756,094660,084006
0000000267,0000266000,074917,087230,085069,077357,092772,087293
0000000268,0000267000,074410,085016,087790,076950,090138,090334
0000000269,0000268000,074806,082330,090080,077575,087017,092831
0000000270,0000269000,076067,079447,091703,079168,083719,094535
0000000271,0000270000,078072,076641,092505,081578,080562,095282
0000000272,0000271000,080629,074177,092411,084569,077854,095001
0000000273,0000272000,083478,072309,091430,087843,075862,093718
0000000274,0000273000,086340,071221,089655,091081,074783,091559
0000000275,0000274000,088948,071012,087256,093971,074719,088732
0000000276,0000275000,091041,071703,084473,096227,075677,085519
0000000277,0000276000,092404,073228,081585,097627,077562,082234
0000000278,0000277000,092913,075443,078861,098035,080194,079194
0000000279,0000278000,092520,078128,076569,097413,083312,076698
0000000280,0000279000,091261,081012,074943,095822,086607,074994
0000000281,0000280000,089256,083821,074139,093415,089763,074245
0000000282,0000281000,086699,086287,074231,090427,092470,074525
0000000283,0000282000,083850,088157,075210,087156,094462,075805
0000000284,0000283000,080985,089248,076984,083920,095542,077962
0000000285,0000284000,078375,089459,079383,081031,095607,080785
0000000286,0000285000,076281,088769,082167,078775,094652,083996
0000000287,0000286000,074914,087246,085056,077375,092769,087279
0000000288,0000287000,074402,085033,087782,076965,090141,090317
0000000289,0000288000,074794,082346,090076,077585,087026,092812
0000000290,0000289000,076051,079461,091705,079173,083733,094517
0000000291,0000290000,078055,076651,092511,081577,080579,095266
0000000292,0000291000,080612,074182,092422,084562,077873,094989
0000000293,0000292000,083463,072309,091444,087830,075881,093711
0000000294,0000293000,086328,071216,089672,091064,074801,091558
0000000295,0000294000,088941,071002,087273,093952,074733,088737
0000000296,0000295000,091039,071689,084489,096208,075686,085529
0000000297,0000296000,092408,073211,081598,097608,077565,082249
0000000298,0000297000,092922,075425,078870,098020,080190,079213
0000000299,0000298000,092533,078111,076573,097402,083302,076718
0000000300,0000299000,091277,080998,074942,095817,086593,075013
0000000301,0000300000,089274,083810,074132,093416,089744,074262
