DIgSILENT PowerFactory,21000900,2000
6,06A,00D
1,TTPP_200000_100:Secondary Voltage A,,,V,0.010000000,-71.423172,0.000000,-85629,99998,1,1,P
2,TTPP_200000_100:Secondary Voltage B,,,V,0.010000000,-63.424473,0.000000,-89305,99998,1,1,P
3,TTPP_200000_100:Secondary Voltage C,,,V,0.10000000,-8970.697266,0.000000,79719,99998,1,1,P
4,TTCC_300_1:Secondary Current A,,,A,0.00010000000,-4.796524,0.000000,-27856,99998,1,1,P
5,TTCC_300_1:Secondary Current B,,,A,0.00010000000,-4.902464,0.000000,-1998,99998,1,1,P
6,TTCC_300_1:Secondary Current C,,,A,0.00010000000,-4.904185,0.000000,-1956,99998,1,1,P
50
1
1000.000000,1101
30/06/2023,06:02:06.000000
30/06/2023,06:02:06.000000
ASCII
1.000000
0000000001,0000000000,078207,021095,081125,027030,035042,083960
0000000002,0000001000,056859,048278,080541,036784,025760,083489
0000000003,0000002000,030479,071554,080852,047620,018764,079648
0000000004,0000003000,001898,088359,082028,058497,014720,072815
0000000005,0000004000,-26071,097005,083962,068343,014040,063648
0000000006,0000005000,-50948,096902,086459,076195,016790,053048
0000000007,0000006000,-70101,087996,089266,081284,022680,042066
0000000008,0000007000,-81558,070934,092117,083103,031161,031769
0000000009,0000008000,-84457,047599,094741,081482,041399,023151
0000000010,0000009000,-78477,020363,096867,076592,052368,017072
0000000011,0000010000,-63952,-08383,098289,068897,063006,014128
0000000012,0000011000,-42415,-35753,098873,059139,072293,014600
0000000013,0000012000,-16232,-58825,098561,048288,079304,018440
0000000014,0000013000,012275,-75562,097385,037425,083332,025274
0000000015,0000014000,040440,-84408,095452,027582,084010,034441
0000000016,0000015000,065238,-84240,092956,019720,081273,045039
0000000017,0000016000,084307,-75226,090148,014639,075372,056021
0000000018,0000017000,095920,-58323,087296,012818,066893,066319
0000000019,0000018000,098771,-34950,084674,014431,056664,074937
0000000020,0000019000,092631,-07553,082547,019331,045685,081016
0000000021,0000020000,078270,021035,081125,027030,035043,083959
0000000022,0000021000,056829,048314,080540,036779,025765,083488
0000000023,0000022000,030424,071603,080852,047625,018759,079648
0000000024,0000023000,001941,088323,082029,058501,014717,072814
0000000025,0000024000,-26049,096983,083962,068343,014041,063647
0000000026,0000025000,-50960,096931,086459,076195,016789,053048
0000000027,0000026000,-70095,087994,089265,081285,022680,042067
0000000028,0000027000,-81565,070941,092118,083105,031159,031769
0000000029,0000028000,-84479,047621,094741,081486,041396,023151
0000000030,0000029000,-78447,020334,096867,076595,052366,017071
0000000031,0000030000,-63921,-08408,098289,068897,063007,014128
0000000032,0000031000,-42471,-35707,098873,059138,072294,014599
0000000033,0000032000,-16251,-58809,098562,048295,079298,018439
0000000034,0000033000,012321,-75617,097385,037429,083330,025273
0000000035,0000034000,040442,-84412,095452,027581,084012,034440
0000000036,0000035000,065207,-84209,092955,019722,081272,045038
0000000037,0000036000,084314,-75240,090148,014642,075370,056019
0000000038,0000037000,095927,-58333,087296,012821,066893,066318
0000000039,0000038000,098758,-34939,084674,014433,056663,074935
0000000040,0000039000,092660,-07573,082547,019332,045685,081014
0000000041,0000040000,078278,021027,081125,027029,035045,083958
0000000042,0000041000,056791,048354,080541,036779,025766,083487
0000000043,0000042000,030435,071596,080852,047629,018756,079647
0000000044,0000043000,001986,088283,082029,058500,014718,072813
0000000045,0000044000,-26065,097006,083962,068340,014044,063647
0000000046,0000045000,-50990,096962,086459,076196,016787,053048
0000000047,0000046000,-70072,087973,089266,081286,022678,042068
0000000048,0000047000,-81563,070935,092118,083104,031158,031769
0000000049,0000048000,-84496,047641,094741,081486,041394,023152
0000000050,0000049000,-78434,020322,096866,076595,052364,017072
0000000051,0000050000,-63927,-08407,098289,068897,063005,014129
0000000052,0000051000,-42502,-35681,098874,059141,072290,014600
0000000053,0000052000,-16236,-58828,098562,048299,079294,018439
0000000054,0000053000,012346,-75642,097385,037430,083329,025272
0000000055,0000054000,040408,-84384,095453,027582,084011,034438
0000000056,0000055000,065193,-84198,092956,019728,081268,045037
0000000057,0000056000,084346,-75275,090148,014646,075369,056017
0000000058,0000057000,095927,-58334,087296,012822,066894,066315
0000000059,0000058000,098744,-34923,084674,014436,056663,074932
0000000060,0000059000,092679,-07591,082547,019334,045686,081012
0000000061,0000060000,078282,021024,081125,027029,035047,083956
0000000062,0000061000,056778,048369,080540,036780,025767,083485
0000000063,0000062000,030461,071578,080851,047629,018758,079646
0000000064,0000063000,002000,088273,082028,058497,014721,072813
0000000065,0000064000,-26094,097038,083961,068338,014046,063648
0000000066,0000065000,-50987,096964,086458,076196,016785,053050
0000000067,0000066000,-70045,087950,089265,081283,022679,042070
0000000068,0000067000,-81579,070954,092118,083101,031159,031772
0000000069,0000068000,-84517,047664,094740,081486,041391,023155
0000000070,0000069000,-78422,020309,096867,076596,052360,017076
0000000071,0000070000,-63936,-08403,098289,068898,063002,014132
0000000072,0000071000,-42521,-35663,098874,059144,072286,014602
0000000073,0000072000,-16225,-58844,098562,048302,079289,018440
0000000074,0000073000,012342,-75647,097386,037433,083326,025273
0000000075,0000074000,040381,-84365,095454,027587,084008,034437
0000000076,0000075000,065204,-84215,092956,019734,081264,045034
0000000077,0000076000,084368,-75302,090149,014649,075369,056014
0000000078,0000077000,095910,-58322,087297,012825,066896,066311
0000000079,0000078000,098743,-34922,084674,014441,056663,074927
0000000080,0000079000,092707,-07620,082547,019336,045689,081007
0000000081,0000080000,078285,021023,081125,027029,035052,083951
0000000082,0000081000,056775,048380,080540,036780,025771,083481
0000000083,0000082000,030484,071563,080851,047626,018762,079644
0000000084,0000083000,002004,088277,082027,058492,014727,072813
0000000085,0000084000,-26107,097060,083960,068334,014049,063649
0000000086,0000085000,-50970,096958,086457,076192,016787,053052
0000000087,0000086000,-70037,087949,089264,081277,022681,042074
0000000088,0000087000,-81606,070987,092117,083096,031158,031777
0000000089,0000088000,-84524,047674,094740,081485,041387,023161
0000000090,0000089000,-78413,020298,096867,076594,052356,017081
0000000091,0000090000,-63959,-08386,098290,068897,062997,014137
0000000092,0000091000,-42542,-35649,098875,059147,072278,014606
0000000093,0000092000,-16220,-58859,098563,048307,079282,018443
0000000094,0000093000,012329,-75648,097387,037438,083321,025273
0000000095,0000094000,040364,-84360,095455,027595,084002,034435
0000000096,0000095000,065218,-84239,092957,019742,081260,045030
0000000097,0000096000,084373,-75318,090150,014656,075368,056008
0000000098,0000097000,095897,-58317,087298,012832,066896,066304
0000000099,0000098000,098761,-34942,084674,014447,056665,074920
0000000100,0000099000,092734,-07646,082547,019338,045695,080999
0000000101,0000100000,078284,021029,081124,027028,035059,083944
0000000102,0000101000,056785,048380,080539,036778,025778,083476
0000000103,0000102000,030512,071547,080849,047622,018770,079640
0000000104,0000103000,002007,088287,082026,058485,014735,072812
0000000105,0000104000,-26108,097079,083959,068327,014054,063650
0000000106,0000105000,-50955,096958,086455,076184,016791,053057
0000000107,0000106000,-70042,087965,089263,081268,022683,042081
0000000108,0000107000,-81628,071018,092116,083090,031157,031786
0000000109,0000108000,-84524,047679,094740,081481,041382,023170
0000000110,0000109000,-78420,020303,096867,076591,052350,017091
0000000111,0000110000,-63992,-08359,098291,068898,062989,014145
0000000112,0000111000,-42558,-35644,098876,059152,072267,014612
0000000113,0000112000,-16222,-58873,098565,048313,079272,018446
0000000114,0000113000,012307,-75644,097389,037447,083312,025273
0000000115,0000114000,040351,-84364,095456,027606,083993,034433
0000000116,0000115000,065229,-84268,092959,019753,081254,045024
0000000117,0000116000,084372,-75334,090152,014666,075367,056000
0000000118,0000117000,095897,-58326,087299,012841,066897,066293
0000000119,0000118000,098788,-34973,084674,014454,056669,074908
0000000120,0000119000,092755,-07666,082547,019340,045703,080988
0000000121,0000120000,078290,021032,081123,027028,035069,083934
0000000122,0000121000,056812,048368,080537,036776,025789,083468
0000000123,0000122000,030541,071536,080848,047614,018782,079636
0000000124,0000123000,002010,088306,082024,058475,014746,072810
0000000125,0000124000,-26101,097095,083956,068316,014063,063653
0000000126,0000125000,-50941,096964,086453,076171,016797,053063
0000000127,0000126000,-70054,087993,089262,081256,022686,042090
0000000128,0000127000,-81646,071049,092115,083080,031154,031797
0000000129,0000128000,-84530,047691,094739,081473,041376,023183
0000000130,0000129000,-78444,020323,096867,076587,052342,017104
0000000131,0000130000,-64028,-08333,098292,068899,062976,014156
0000000132,0000131000,-42573,-35645,098877,059157,072253,014621
0000000133,0000132000,-16238,-58880,098567,048321,079259,018452
0000000134,0000133000,012277,-75641,097392,037458,083299,025275
0000000135,0000134000,040343,-84381,095459,027621,083982,034429
0000000136,0000135000,065236,-84300,092962,019768,081247,045017
0000000137,0000136000,084369,-75352,090154,014680,075364,055988
0000000138,0000137000,095908,-58350,087300,012854,066898,066279
0000000139,0000138000,098820,-35010,084675,014463,056676,074893
0000000140,0000139000,092777,-07686,082546,019345,045714,080973
0000000141,0000140000,078311,021023,081122,027029,035083,083920
0000000142,0000141000,056851,048350,080535,036771,025804,083457
0000000143,0000142000,030568,071534,080845,047604,018799,079629
0000000144,0000143000,002019,088326,082021,058462,014761,072809
0000000145,0000144000,-26083,097108,083953,068300,014074,063657
0000000146,0000145000,-50930,096981,086451,076154,016805,053072
0000000147,0000146000,-70071,088032,089259,081240,022689,042103
0000000148,0000147000,-81663,071082,092113,083067,031151,031814
0000000149,0000148000,-84545,047712,094739,081463,041368,023201
0000000150,0000149000,-78481,020355,096868,076581,052330,017121
0000000151,0000150000,-64067,-08308,098293,068900,062960,014172
0000000152,0000151000,-42596,-35644,098880,059164,072234,014633
0000000153,0000152000,-16269,-58880,098571,048332,079241,018459
0000000154,0000153000,012245,-75643,097395,037475,083281,025276
0000000155,0000154000,040335,-84408,095462,027640,083967,034425
0000000156,0000155000,065237,-84334,092965,019787,081238,045007
0000000157,0000156000,084368,-75377,090156,014698,075360,055973
0000000158,0000157000,095929,-58388,087302,012871,066900,066260
0000000159,0000158000,098855,-35054,084676,014474,056685,074872
0000000160,0000159000,092805,-07709,082546,019351,045729,080952
0000000161,0000160000,078347,021004,081120,027029,035101,083902
0000000162,0000161000,056898,048329,080533,036764,025825,083443
0000000163,0000162000,030598,071537,080842,047591,018821,079621
0000000164,0000163000,002039,088346,082017,058444,014780,072807
0000000165,0000164000,-26059,097125,083949,068280,014090,063662
0000000166,0000165000,-50926,097013,086447,076131,016816,053084
0000000167,0000166000,-70088,088080,089256,081219,022693,042120
0000000168,0000167000,-81680,071121,092111,083050,031148,031835
0000000169,0000168000,-84572,047746,094738,081450,041359,023224
0000000170,0000169000,-78528,020397,096868,076574,052314,017144
0000000171,0000170000,-64110,-08282,098295,068901,062939,014192
0000000172,0000171000,-42632,-35638,098883,059172,072211,014649
0000000173,0000172000,-16313,-58876,098574,048346,079217,018468
0000000174,0000173000,012212,-75653,097400,037495,083259,025278
0000000175,0000174000,040325,-84443,095467,027664,083949,034419
0000000176,0000175000,065231,-84371,092969,019812,081227,044994
0000000177,0000176000,084372,-75415,090160,014723,075355,055954
0000000178,0000177000,095959,-58440,087304,012892,066903,066237
0000000179,0000178000,098894,-35103,084677,014489,056696,074847
0000000180,0000179000,092842,-07741,082545,019358,045747,080927
0000000181,0000180000,078399,020974,081118,027029,035123,083880
0000000182,0000181000,056952,048308,080529,036755,025851,083426
0000000183,0000182000,030635,071544,080837,047574,018848,079610
0000000184,0000183000,002072,088365,082012,058422,014804,072805
0000000185,0000184000,-26031,097148,083944,068253,014110,063668
0000000186,0000185000,-50924,097057,086442,076103,016830,053098
0000000187,0000186000,-70105,088136,089252,081192,022698,042141
0000000188,0000187000,-81700,071168,092108,083027,031144,031861
0000000189,0000188000,-84611,047795,094737,081433,041347,023253
0000000190,0000189000,-78584,020447,096869,076566,052294,017172
0000000191,0000190000,-64161,-08253,098297,068902,062912,014217
0000000192,0000191000,-42683,-35626,098887,059181,072182,014668
0000000193,0000192000,-16367,-58871,098579,048365,079187,018480
0000000194,0000193000,012175,-75671,097405,037521,083231,025280
0000000195,0000194000,040308,-84482,095473,027694,083927,034412
0000000196,0000195000,065221,-84414,092975,019843,081212,044977
0000000197,0000196000,084382,-75467,090164,014753,075349,055930
0000000198,0000197000,095995,-58506,087307,012917,066907,066207
0000000199,0000198000,098937,-35159,084678,014507,056710,074815
0000000200,0000199000,092892,-07783,082545,019368,045769,080895
0000000201,0000200000,078464,020934,081116,027028,035152,083852
0000000202,0000201000,057013,048287,080525,036744,025884,083405
0000000203,0000202000,030683,071550,080832,047554,018881,079597
0000000204,0000203000,002115,088383,082006,058395,014834,072802
0000000205,0000204000,-26002,097181,083938,068220,014135,063676
0000000206,0000205000,-50923,097114,086437,076069,016847,053116
0000000207,0000206000,-70120,088200,089248,081160,022704,042168
0000000208,0000207000,-81728,071228,092105,082999,031139,031893
0000000209,0000208000,-84663,047860,094736,081413,041332,023288
0000000210,0000209000,-78649,020504,096870,076556,052269,017207
0000000211,0000210000,-64223,-08218,098300,068903,062880,014248
0000000212,0000211000,-42749,-35606,098891,059193,072146,014692
0000000213,0000212000,-16431,-58866,098585,048387,079151,018494
0000000214,0000213000,012132,-75695,097412,037552,083197,025283
0000000215,0000214000,040282,-84527,095480,027729,083900,034403
0000000216,0000215000,065210,-84467,092981,019880,081194,044958
0000000217,0000216000,084398,-75536,090169,014789,075342,055901
0000000218,0000217000,096035,-58583,087310,012947,066912,066172
0000000219,0000218000,098987,-35224,084679,014528,056727,074776
0000000220,0000219000,092958,-07840,082544,019379,045795,080857
0000000221,0000220000,078543,020886,081112,027027,035186,083818
0000000222,0000221000,057085,048265,080520,036730,025923,083379
0000000223,0000222000,030743,071555,080825,047530,018920,079582
0000000224,0000223000,002170,088404,081998,058362,014871,072799
0000000225,0000224000,-25969,097224,083930,068181,014164,063686
0000000226,0000225000,-50920,097181,086430,076028,016866,053137
0000000227,0000226000,-70135,088273,089242,081121,022711,042199
0000000228,0000227000,-81764,071303,092101,082966,031134,031932
0000000229,0000228000,-84727,047939,094734,081389,041313,023330
0000000230,0000229000,-78723,020570,096871,076545,052239,017248
0000000231,0000230000,-64299,-08175,098303,068904,062843,014284
0000000232,0000231000,-42831,-35579,098897,059208,072104,014720
0000000233,0000232000,-16504,-58864,098592,048414,079107,018510
0000000234,0000233000,012081,-75726,097420,037588,083158,025286
0000000235,0000234000,040248,-84577,095488,027772,083868,034393
0000000236,0000235000,065198,-84531,092989,019925,081173,044934
0000000237,0000236000,084420,-75619,090175,014831,075334,055866
0000000238,0000237000,096080,-58671,087315,012983,066918,066130
0000000239,0000238000,099048,-35303,084681,014554,056747,074730
0000000240,0000239000,093039,-07910,082543,019392,045827,080813
0000000241,0000240000,078634,020831,081109,027026,035227,083779
0000000242,0000241000,057169,048240,080514,036714,025970,083348
0000000243,0000242000,030819,071558,080818,047501,018967,079564
0000000244,0000243000,002234,088429,081989,058322,014913,072796
0000000245,0000244000,-25933,097279,083921,068135,014199,063697
0000000246,0000245000,-50914,097259,086421,075979,016889,053163
0000000247,0000246000,-70152,088359,089235,081076,022720,042237
0000000248,0000247000,-81810,071395,092097,082927,031127,031978
0000000249,0000248000,-84800,048032,094732,081361,041292,023379
0000000250,0000249000,-78809,020645,096872,076531,052204,017296
0000000251,0000250000,-64393,-08122,098307,068906,062798,014327
0000000252,0000251000,-42929,-35546,098903,059225,072054,014752
0000000253,0000252000,-16588,-58864,098601,048446,079056,018529
0000000254,0000253000,012019,-75760,097430,037631,083111,025290
0000000255,0000254000,040205,-84633,095498,027821,083831,034380
0000000256,0000255000,065186,-84610,092998,019978,081148,044906
0000000257,0000256000,084444,-75719,090183,014881,075325,055826
0000000258,0000257000,096130,-58773,087320,013025,066926,066081
0000000259,0000258000,099120,-35396,084683,014584,056770,074677
0000000260,0000259000,093135,-07995,082542,019407,045864,080760
0000000261,0000260000,078739,020767,081105,027024,035275,083733
0000000262,0000261000,057268,048210,080507,036695,026024,083313
0000000263,0000262000,030911,071558,080808,047467,019021,079544
0000000264,0000263000,002308,088459,081979,058276,014963,072792
0000000265,0000264000,-25891,097343,083911,068081,014239,063711
0000000266,0000265000,-50904,097348,086411,075923,016915,053193
0000000267,0000266000,-70171,088459,089227,081023,022729,042280
0000000268,0000267000,-81865,071506,092091,082882,031119,032031
0000000269,0000268000,-84884,048140,094730,081329,041266,023436
0000000270,0000269000,-78908,020733,096873,076515,052164,017352
0000000271,0000270000,-64504,-08056,098312,068908,062747,014376
0000000272,0000271000,-43042,-35507,098911,059245,071996,014790
0000000273,0000272000,-16685,-58865,098611,048482,078998,018551
0000000274,0000273000,011943,-75797,097441,037680,083058,025294
0000000275,0000274000,040154,-84697,095510,027879,083788,034365
0000000276,0000275000,065173,-84702,093008,020038,081120,044874
0000000277,0000276000,084471,-75833,090192,014938,075314,055780
0000000278,0000277000,096187,-58890,087326,013073,066935,066024
0000000279,0000278000,099206,-35507,084686,014619,056797,074616
0000000280,0000279000,093247,-08094,082540,019424,045907,080700
0000000281,0000280000,078859,020695,081100,027021,035331,083680
0000000282,0000281000,057384,048174,080499,036674,026085,083273
0000000283,0000282000,031019,071556,080798,047428,019083,079520
0000000284,0000283000,002392,088495,081967,058224,015020,072788
0000000285,0000284000,-25842,097417,083898,068019,014285,063727
0000000286,0000285000,-50889,097447,086400,075859,016945,053227
0000000287,0000286000,-70195,088576,089217,080962,022740,042330
0000000288,0000287000,-81929,071634,092085,082831,031110,032091
0000000289,0000288000,-84977,048262,094727,081293,041237,023502
0000000290,0000289000,-79022,020834,096874,076498,052118,017416
0000000291,0000290000,-64633,-07978,098317,068911,062688,014432
0000000292,0000291000,-43171,-35463,098919,059269,071930,014833
0000000293,0000292000,-16796,-58865,098622,048524,078931,018576
0000000294,0000293000,011854,-75837,097454,037736,082998,025298
0000000295,0000294000,040096,-84771,095523,027945,083739,034348
0000000296,0000295000,065159,-84810,093020,020107,081088,044838
0000000297,0000296000,084499,-75962,090202,015002,075303,055726
0000000298,0000297000,096250,-59023,087333,013127,066945,065959
0000000299,0000298000,099306,-35637,084689,014657,056828,074546
0000000300,0000299000,093373,-08208,082539,019443,045956,080632
0000000301,0000300000,078994,020613,081095,027018,035394,083621
