DIgSILENT PowerFactory,21000900,2000
6,06A,00D
1,TTPP_200000_100:Secondary Voltage A,,,V,0.10000000,-8206.914063,0.000000,61299,99998,1,1,P
2,TTPP_200000_100:Secondary Voltage B,,,V,0.10000000,-7761.057617,0.000000,58675,99998,1,1,P
3,TTPP_200000_100:Secondary Voltage C,,,V,0.10000000,-8070.016113,0.000000,61275,99998,1,1,P
4,TTCC_300_1:Secondary Current A,,,A,0.00010000000,-3.844904,0.000000,-3682,99998,1,1,P
5,TTCC_300_1:Secondary Current B,,,A,0.00010000000,-5.018541,0.000000,658,99998,1,1,P
6,TTCC_300_1:Secondary Current C,,,A,0.00010000000,-4.886096,0.000000,-1868,99998,1,1,P
50
1
1000.000000,1101
30/06/2023,06:06:19.000000
30/06/2023,06:06:19.000000
ASCII
1.000000
0000000001,0000000000,089176,079085,072119,017519,036196,083780
0000000002,0000001000,087041,081803,071534,027272,026917,083306
0000000003,0000002000,084401,084134,071846,038110,019920,079464
0000000004,0000003000,081544,085812,073022,048991,015876,072628
0000000005,0000004000,078751,086674,074956,058832,015202,063460
0000000006,0000005000,076264,086665,077452,066682,017954,052860
0000000007,0000006000,074342,085780,080259,071767,023849,041879
0000000008,0000007000,073198,084071,083111,073591,032324,031582
0000000009,0000008000,072912,081733,085733,071967,042565,022965
0000000010,0000009000,073510,079011,087859,067068,053540,016888
0000000011,0000010000,074958,076140,089281,059376,064174,013947
0000000012,0000011000,077111,073403,089866,049615,073459,014420
0000000013,0000012000,079733,071094,089554,038767,080466,018262
0000000014,0000013000,082584,069419,088377,027901,084496,025098
0000000015,0000014000,085398,068536,086446,018058,085171,034266
0000000016,0000015000,087877,068553,083949,010200,082431,044865
0000000017,0000016000,089785,069454,081141,005120,076528,055847
0000000018,0000017000,090947,071144,078290,003302,068048,066145
0000000019,0000018000,091231,073481,075667,004918,057816,074761
0000000020,0000019000,090620,076220,073541,009816,046840,080838
0000000021,0000020000,089182,079080,072118,017519,036197,083780
0000000022,0000021000,087035,081810,071535,027269,026921,083306
0000000023,0000022000,084399,084135,071846,038120,019913,079464
0000000024,0000023000,081552,085805,073022,048990,015877,072628
0000000025,0000024000,078749,086676,074955,058830,015204,063460
0000000026,0000025000,076256,086672,077452,066685,017950,052860
0000000027,0000026000,074348,085773,080259,071773,023844,041879
0000000028,0000027000,073200,084069,083111,073587,032327,031581
0000000029,0000028000,072905,081741,085734,071967,042564,022965
0000000030,0000029000,073510,079010,087859,067075,053533,016887
0000000031,0000030000,074964,076134,089281,059375,064174,013946
0000000032,0000031000,077106,073407,089866,049615,073461,014419
0000000033,0000032000,079730,071096,089555,038773,080462,018261
0000000034,0000033000,082589,069413,088378,027905,084493,025097
0000000035,0000034000,085398,068537,086446,018057,085174,034265
0000000036,0000035000,087873,068558,083949,010203,082428,044865
0000000037,0000036000,089788,069450,081142,005125,076525,055846
0000000038,0000037000,090949,071142,078290,003303,068049,066143
0000000039,0000038000,091228,073485,075667,004918,057817,074759
0000000040,0000039000,090620,076219,073541,009821,046838,080837
0000000041,0000040000,089184,079077,072119,017519,036199,083779
0000000042,0000041000,087033,081812,071534,027270,026921,083305
0000000043,0000042000,084399,084136,071845,038120,019913,079463
0000000044,0000043000,081555,085803,073022,048991,015877,072628
0000000045,0000044000,078747,086678,074955,058830,015206,063460
0000000046,0000045000,076256,086673,077451,066686,017949,052860
0000000047,0000046000,074350,085771,080258,071772,023844,041880
0000000048,0000047000,073198,084070,083111,073587,032327,031582
0000000049,0000048000,072904,081742,085733,071969,042561,022966
0000000050,0000049000,073513,079008,087859,067076,053531,016888
0000000051,0000050000,074963,076135,089282,059375,064173,013947
0000000052,0000051000,077103,073410,089867,049619,073457,014420
0000000053,0000052000,079732,071093,089555,038775,080459,018261
0000000054,0000053000,082590,069412,088378,027906,084493,025097
0000000055,0000054000,085393,068540,086446,018060,085172,034264
0000000056,0000055000,087875,068556,083949,010208,082425,044863
0000000057,0000056000,089791,069447,081142,005126,076526,055843
0000000058,0000057000,090945,071145,078290,003304,068050,066141
0000000059,0000058000,091228,073485,075667,004923,057815,074756
0000000060,0000059000,090625,076214,073541,009821,046840,080834
0000000061,0000060000,089183,079079,072118,017517,036203,083776
0000000062,0000061000,087031,081815,071534,027271,026922,083303
0000000063,0000062000,084403,084132,071845,038120,019914,079462
0000000064,0000063000,081556,085802,073022,048986,015882,072627
0000000065,0000064000,078744,086682,074954,058828,015207,063460
0000000066,0000065000,076258,086671,077451,066686,017947,052862
0000000067,0000066000,074353,085769,080258,071768,023845,041882
0000000068,0000067000,073195,084074,083111,073584,032327,031585
0000000069,0000068000,072903,081743,085733,071970,042557,022969
0000000070,0000069000,073516,079005,087859,067076,053528,016891
0000000071,0000070000,074960,076137,089282,059374,064171,013949
0000000072,0000071000,077101,073413,089867,049622,073451,014422
0000000073,0000072000,079734,071090,089555,038779,080453,018263
0000000074,0000073000,082589,069412,088379,027909,084490,025097
0000000075,0000074000,085390,068542,086447,018065,085168,034262
0000000076,0000075000,087876,068554,083950,010214,082421,044860
0000000077,0000076000,089792,069445,081143,005130,076526,055840
0000000078,0000077000,090943,071146,078290,003308,068051,066136
0000000079,0000078000,091229,073484,075667,004928,057816,074752
0000000080,0000079000,090628,076212,073541,009823,046843,080829
0000000081,0000080000,089182,079080,072118,017517,036207,083771
0000000082,0000081000,087032,081815,071533,027271,026925,083299
0000000083,0000082000,084406,084130,071844,038117,019918,079460
0000000084,0000083000,081555,085804,073021,048982,015887,072626
0000000085,0000084000,078743,086684,074953,058824,015209,063461
0000000086,0000085000,076260,086670,077450,066681,017950,052865
0000000087,0000086000,074352,085770,080258,071763,023847,041886
0000000088,0000087000,073192,084077,083110,073581,032325,031590
0000000089,0000088000,072904,081743,085733,071968,042553,022975
0000000090,0000089000,073515,079005,087860,067073,053525,016897
0000000091,0000090000,074957,076140,089283,059375,064165,013955
0000000092,0000091000,077101,073412,089868,049626,073443,014426
0000000093,0000092000,079735,071089,089556,038783,080447,018265
0000000094,0000093000,082586,069413,088381,027914,084484,025097
0000000095,0000094000,085390,068542,086448,018074,085161,034261
0000000096,0000095000,087879,068550,083951,010222,082418,044856
0000000097,0000096000,089791,069445,081144,005136,076526,055834
0000000098,0000097000,090942,071147,078291,003316,068050,066129
0000000099,0000098000,091233,073480,075667,004933,057818,074744
0000000100,0000099000,090629,076211,073541,009824,046850,080822
0000000101,0000100000,089181,079082,072118,017518,036213,083764
0000000102,0000101000,087035,081813,071532,027270,026932,083294
0000000103,0000102000,084408,084128,071843,038112,019928,079456
0000000104,0000103000,081554,085807,073019,048975,015895,072625
0000000105,0000104000,078744,086685,074951,058818,015214,063463
0000000106,0000105000,076262,086669,077449,066672,017954,052869
0000000107,0000106000,074350,085774,080256,071754,023849,041893
0000000108,0000107000,073191,084080,083109,073575,032322,031598
0000000109,0000108000,072905,081742,085732,071963,042549,022984
0000000110,0000109000,073513,079007,087860,067070,053520,016906
0000000111,0000110000,074953,076143,089283,059376,064156,013963
0000000112,0000111000,077101,073411,089869,049630,073433,014432
0000000113,0000112000,079734,071088,089558,038788,080438,018269
0000000114,0000113000,082583,069415,088382,027923,084475,025098
0000000115,0000114000,085390,068540,086450,018085,085152,034258
0000000116,0000115000,087879,068548,083953,010232,082413,044851
0000000117,0000116000,089790,069445,081145,005146,076524,055826
0000000118,0000117000,090944,071145,078292,003326,068050,066119
0000000119,0000118000,091236,073477,075668,004939,057823,074733
0000000120,0000119000,090629,076210,073541,009827,046858,080810
0000000121,0000120000,089182,079081,072117,017519,036223,083754
0000000122,0000121000,087038,081811,071531,027267,026943,083286
0000000123,0000122000,084410,084129,071841,038104,019940,079452
0000000124,0000123000,081554,085809,073017,048966,015905,072624
0000000125,0000124000,078746,086685,074949,058807,015222,063466
0000000126,0000125000,076263,086671,077447,066659,017961,052876
0000000127,0000126000,074348,085777,080255,071742,023851,041902
0000000128,0000127000,073191,084082,083108,073566,032320,031610
0000000129,0000128000,072904,081743,085732,071955,042544,022997
0000000130,0000129000,073509,079010,087860,067066,053511,016919
0000000131,0000130000,074951,076145,089284,059378,064143,013974
0000000132,0000131000,077100,073410,089870,049635,073419,014441
0000000133,0000132000,079730,071089,089560,038796,080425,018274
0000000134,0000133000,082580,069415,088385,027936,084461,025099
0000000135,0000134000,085391,068537,086452,018100,085141,034255
0000000136,0000135000,087879,068546,083955,010246,082407,044843
0000000137,0000136000,089789,069444,081147,005161,076520,055814
0000000138,0000137000,090946,071141,078293,003339,068051,066105
0000000139,0000138000,091238,073473,075669,004947,057830,074717
0000000140,0000139000,090630,076209,073540,009832,046869,080795
0000000141,0000140000,089186,079079,072115,017519,036236,083741
0000000142,0000141000,087042,081809,071529,027261,026959,083276
0000000143,0000142000,084411,084130,071839,038094,019957,079445
0000000144,0000143000,081556,085810,073014,048953,015919,072623
0000000145,0000144000,078749,086685,074946,058791,015235,063470
0000000146,0000145000,076262,086674,077444,066641,017970,052884
0000000147,0000146000,074346,085782,080252,071726,023854,041915
0000000148,0000147000,073190,084083,083106,073552,032317,031626
0000000149,0000148000,072902,081746,085732,071944,042537,023015
0000000150,0000149000,073505,079014,087861,067061,053498,016937
0000000151,0000150000,074949,076146,089286,059379,064126,013990
0000000152,0000151000,077097,073410,089873,049640,073401,014453
0000000153,0000152000,079726,071090,089563,038808,080406,018281
0000000154,0000153000,082578,069414,088388,027953,084443,025100
0000000155,0000154000,085390,068534,086456,018118,085128,034250
0000000156,0000155000,087877,068544,083958,010265,082398,044833
0000000157,0000156000,089790,069441,081150,005180,076516,055799
0000000158,0000157000,090949,071136,078295,003355,068054,066086
0000000159,0000158000,091240,073470,075669,004959,057840,074697
0000000160,0000159000,090633,076207,073540,009838,046882,080775
0000000161,0000160000,089191,079076,072114,017519,036254,083723
0000000162,0000161000,087046,081807,071526,027254,026981,083262
0000000163,0000162000,084413,084131,071835,038081,019978,079436
0000000164,0000163000,081559,085811,073010,048936,015938,072621
0000000165,0000164000,078751,086687,074942,058769,015251,063475
0000000166,0000165000,076262,086678,077440,066619,017981,052896
0000000167,0000166000,074346,085785,080249,071706,023858,041932
0000000168,0000167000,073189,084087,083104,073534,032314,031647
0000000169,0000168000,072898,081751,085731,071931,042527,023038
0000000170,0000169000,073501,079018,087861,067055,053481,016959
0000000171,0000170000,074945,076147,089287,059380,064105,014010
0000000172,0000171000,077092,073412,089876,049648,073378,014469
0000000173,0000172000,079722,071091,089567,038823,080382,018290
0000000174,0000173000,082576,069411,088392,027973,084420,025102
0000000175,0000174000,085388,068531,086460,018141,085110,034245
0000000176,0000175000,087876,068541,083963,010291,082385,044820
0000000177,0000176000,089791,069436,081153,005205,076511,055780
0000000178,0000177000,090952,071130,078297,003375,068058,066062
0000000179,0000178000,091243,073467,075670,004973,057851,074671
0000000180,0000179000,090638,076203,073539,009847,046900,080749
0000000181,0000180000,089196,079072,072112,017519,036277,083700
0000000182,0000181000,087050,081806,071523,027244,027007,083244
0000000183,0000182000,084417,084132,071831,038065,020004,079426
0000000184,0000183000,081564,085811,073005,048914,015963,072619
0000000185,0000184000,078753,086690,074937,058742,015272,063481
0000000186,0000185000,076261,086683,077435,066591,017994,052910
0000000187,0000186000,074345,085790,080245,071680,023862,041954
0000000188,0000187000,073187,084092,083101,073511,032311,031674
0000000189,0000188000,072893,081757,085730,071914,042515,023066
0000000190,0000189000,073496,079022,087862,067047,053461,016988
0000000191,0000190000,074941,076150,089290,059380,064080,014035
0000000192,0000191000,077086,073414,089880,049657,073349,014488
0000000193,0000192000,079717,071091,089572,038842,080351,018302
0000000194,0000193000,082573,069408,088398,027998,084393,025105
0000000195,0000194000,085386,068528,086466,018170,085088,034237
0000000196,0000195000,087875,068537,083968,010322,082370,044803
0000000197,0000196000,089793,069429,081157,005235,076505,055756
0000000198,0000197000,090955,071124,078300,003400,068062,066033
0000000199,0000198000,091247,073462,075672,004992,057864,074639
0000000200,0000199000,090644,076198,073538,009856,046921,080718
0000000201,0000200000,089203,079068,072109,017517,036306,083672
0000000202,0000201000,087055,081805,071519,027233,027040,083222
0000000203,0000202000,084423,084132,071825,038046,020037,079413
0000000204,0000203000,081568,085813,072999,048886,015993,072616
0000000205,0000204000,078755,086694,074931,058709,015297,063489
0000000206,0000205000,076262,086689,077429,066557,018010,052928
0000000207,0000206000,074345,085795,080240,071647,023869,041980
0000000208,0000207000,073183,084098,083098,073483,032307,031706
0000000209,0000208000,072887,081764,085728,071895,042499,023102
0000000210,0000209000,073491,079027,087862,067037,053436,017022
0000000211,0000210000,074934,076154,089293,059381,064048,014066
0000000212,0000211000,077079,073417,089884,049670,073313,014512
0000000213,0000212000,079711,071091,089578,038865,080315,018316
0000000214,0000213000,082569,069406,088405,028028,084360,025108
0000000215,0000214000,085382,068524,086473,018206,085061,034229
0000000216,0000215000,087875,068531,083974,010360,082352,044784
0000000217,0000216000,089796,069422,081163,005270,076498,055727
0000000218,0000217000,090958,071118,078304,003430,068067,065998
0000000219,0000218000,091252,073455,075673,005014,057881,074600
0000000220,0000219000,090651,076191,073537,009867,046948,080680
0000000221,0000220000,089210,079064,072106,017516,036341,083639
0000000222,0000221000,087062,081804,071514,027220,027079,083197
0000000223,0000222000,084430,084131,071819,038021,020076,079398
0000000224,0000223000,081573,085815,072992,048852,016030,072613
0000000225,0000224000,078757,086699,074923,058670,015326,063498
0000000226,0000225000,076263,086695,077422,066517,018029,052950
0000000227,0000226000,074343,085802,080235,071608,023876,042011
0000000228,0000227000,073178,084107,083094,073450,032301,031745
0000000229,0000228000,072882,081771,085727,071872,042481,023144
0000000230,0000229000,073484,079033,087863,067025,053407,017064
0000000231,0000230000,074925,076159,089296,059382,064011,014102
0000000232,0000231000,077071,073420,089890,049685,073270,014540
0000000233,0000232000,079705,071090,089585,038891,080271,018333
0000000234,0000233000,082563,069403,088413,028064,084321,025111
0000000235,0000234000,085378,068520,086481,018249,085029,034218
0000000236,0000235000,087874,068524,083982,010405,082330,044760
0000000237,0000236000,089797,069413,081169,005312,076490,055693
0000000238,0000237000,090962,071110,078308,003466,068074,065955
0000000239,0000238000,091259,073447,075675,005040,057900,074555
0000000240,0000239000,090660,076184,073536,009880,046980,080635
0000000241,0000240000,089218,079059,072103,017514,036382,083599
0000000242,0000241000,087071,081801,071508,027205,027125,083166
0000000243,0000242000,084438,084131,071811,037992,020123,079380
0000000244,0000243000,081579,085818,072983,048813,016073,072610
0000000245,0000244000,078761,086705,074914,058625,015360,063510
0000000246,0000245000,076264,086702,077414,066468,018052,052975
0000000247,0000246000,074341,085811,080228,071562,023885,042049
0000000248,0000247000,073173,084117,083090,073411,032294,031790
0000000249,0000248000,072875,081780,085725,071844,042459,023193
0000000250,0000249000,073475,079040,087864,067011,053372,017112
0000000251,0000250000,074915,076165,089300,059384,063966,014145
0000000252,0000251000,077061,073423,089896,049702,073220,014572
0000000253,0000252000,079697,071090,089594,038922,080221,018352
0000000254,0000253000,082556,069401,088423,028107,084275,025114
0000000255,0000254000,085374,068514,086491,018299,084991,034205
0000000256,0000255000,087874,068515,083991,010457,082306,044733
0000000257,0000256000,089799,069404,081176,005362,076481,055652
0000000258,0000257000,090967,071100,078313,003508,068081,065906
0000000259,0000258000,091267,073437,075677,005070,057924,074501
0000000260,0000259000,090669,076176,073535,009895,047018,080583
0000000261,0000260000,089228,079053,072098,017513,036430,083553
0000000262,0000261000,087082,081797,071501,027186,027178,083131
0000000263,0000262000,084447,084131,071802,037958,020178,079360
0000000264,0000263000,081586,085822,072972,048767,016123,072606
0000000265,0000264000,078765,086711,074903,058571,015400,063524
0000000266,0000265000,076266,086710,077404,066412,018078,053005
0000000267,0000266000,074338,085822,080220,071508,023895,042092
0000000268,0000267000,073168,084128,083084,073367,032286,031843
0000000269,0000268000,072867,081790,085722,071812,042434,023250
0000000270,0000269000,073465,079049,087866,066995,053332,017168
0000000271,0000270000,074904,076172,089304,059386,063915,014194
0000000272,0000271000,077051,073426,089903,049723,073162,014610
0000000273,0000272000,079687,071090,089603,038959,080163,018374
0000000274,0000273000,082548,069398,088434,028156,084221,025118
0000000275,0000274000,085370,068507,086503,018357,084948,034191
0000000276,0000275000,087873,068506,084001,010517,082278,044701
0000000277,0000276000,089801,069393,081185,005418,076471,055606
0000000278,0000277000,090973,071088,078319,003556,068089,065849
0000000279,0000278000,091276,073425,075679,005104,057951,074440
0000000280,0000279000,090680,076166,073534,009911,047061,080523
0000000281,0000280000,089240,079046,072094,017510,036485,083501
0000000282,0000281000,087094,081793,071493,027165,027240,083091
0000000283,0000282000,084458,084131,071791,037919,020240,079336
0000000284,0000283000,081594,085826,072960,048714,016179,072602
0000000285,0000284000,078771,086718,074891,058510,015446,063539
0000000286,0000285000,076267,086720,077393,066348,018108,053039
0000000287,0000286000,074336,085834,080210,071448,023906,042142
0000000288,0000287000,073162,084140,083077,073316,032276,031904
0000000289,0000288000,072858,081802,085720,071775,042405,023316
0000000290,0000289000,073453,079060,087867,066977,053286,017232
0000000291,0000290000,074891,076180,089309,059389,063856,014250
0000000292,0000291000,077038,073430,089912,049746,073096,014653
0000000293,0000292000,079675,071090,089615,039000,080096,018399
0000000294,0000293000,082539,069394,088447,028213,084160,025122
0000000295,0000294000,085364,068499,086516,018423,084899,034174
0000000296,0000295000,087871,068495,084014,010586,082246,044664
0000000297,0000296000,089804,069381,081195,005483,076460,055553
0000000298,0000297000,090979,071074,078326,003611,068099,065785
0000000299,0000298000,091286,073412,075682,005143,057982,074370
0000000300,0000299000,090692,076155,073533,009930,047110,080455
0000000301,0000300000,089254,079038,072088,017507,036547,083441
