DIgSILENT PowerFactory,21000900,2000
6,06A,00D
1,TTPP_200000_100:Secondary Voltage A,,,V,0.10000000,-8308.133789,0.000000,67140,99998,1,1,P
2,TTPP_200000_100:Secondary Voltage B,,,V,0.10000000,-7939.430176,0.000000,61203,99998,1,1,P
3,TTPP_200000_100:Secondary Voltage C,,,V,0.10000000,-8214.283203,0.000000,62819,99998,1,1,P
4,TTCC_500_5:Secondary Current A,,,A,0.0010000000,-87.769142,0.000000,69956,99998,1,1,P
5,TTCC_500_5:Secondary Current B,,,A,0.0010000000,-85.172806,0.000000,70194,99998,1,1,P
6,TTCC_500_5:Secondary Current C,,,A,0.0010000000,-84.194992,0.000000,68818,99998,1,1,P
50
1
1000.000000,1101
30/06/2023,06:05:41.000000
30/06/2023,06:05:41.000000
ASCII
1.000000
0000000001,0000000000,088593,083035,072990,093685,089852,073600
0000000002,0000001000,086045,085468,073105,090670,092568,073899
0000000003,0000002000,083194,087324,074103,087370,094563,075204
0000000004,0000003000,080348,088385,075885,084115,095632,077390
0000000005,0000004000,077764,088568,078287,081210,095683,080244
0000000006,0000005000,075692,087861,081065,078950,094704,083484
0000000007,0000006000,074346,086331,083941,077556,092791,086790
0000000008,0000007000,073873,084100,086646,077161,090131,089845
0000000009,0000008000,074282,081421,088915,077802,086987,092348
0000000010,0000009000,075548,078555,090516,079420,083666,094051
0000000011,0000010000,077569,075756,091295,081857,080491,094789
0000000012,0000011000,080130,073308,091181,084872,077775,094490
0000000013,0000012000,082958,071476,090184,088170,075782,093185
0000000014,0000013000,085811,070406,088400,091429,074709,090999
0000000015,0000014000,088410,070210,085998,094331,074661,088145
0000000016,0000015000,090469,070929,083221,096590,075642,084905
0000000017,0000016000,091804,072470,080345,097987,077551,081599
0000000018,0000017000,092303,074677,077639,098382,080211,078544
0000000019,0000018000,091884,077364,075370,097737,083359,076041
0000000020,0000019000,090602,080246,073770,096121,086678,074338
0000000021,0000020000,088598,083029,072991,093687,089850,073600
0000000022,0000021000,086045,085469,073104,090668,092570,073899
0000000023,0000022000,083192,087325,074102,087370,094563,075204
0000000024,0000023000,080348,088385,075886,084114,095633,077390
0000000025,0000024000,077766,088566,078288,081211,095683,080244
0000000026,0000025000,075689,087864,081065,078949,094705,083484
0000000027,0000026000,074349,086329,083941,077556,092791,086790
0000000028,0000027000,073871,084100,086647,077160,090132,089845
0000000029,0000028000,074280,081423,088915,077802,086987,092348
0000000030,0000029000,075550,078554,090515,079420,083666,094051
0000000031,0000030000,077569,075754,091295,081856,080492,094789
0000000032,0000031000,080125,073312,091182,084871,077776,094490
0000000033,0000032000,082961,071474,090184,088170,075782,093185
0000000034,0000033000,085815,070403,088400,091428,074710,090999
0000000035,0000034000,088405,070214,085999,094330,074662,088145
0000000036,0000035000,090467,070930,083221,096590,075641,084906
0000000037,0000036000,091810,072464,080344,097986,077552,081599
0000000038,0000037000,092300,074679,077640,098380,080213,078544
0000000039,0000038000,091880,077368,075371,097738,083358,076041
0000000040,0000039000,090607,080242,073770,096121,086677,074338
0000000041,0000040000,088601,083027,072990,093685,089851,073601
0000000042,0000041000,086038,085475,073104,090668,092570,073899
0000000043,0000042000,083194,087323,074101,087371,094561,075204
0000000044,0000043000,080353,088380,075885,084113,095634,077390
0000000045,0000044000,077762,088570,078287,081210,095683,080244
0000000046,0000045000,075687,087867,081065,078950,094703,083483
0000000047,0000046000,074354,086323,083941,077556,092791,086790
0000000048,0000047000,073869,084102,086646,077159,090133,089845
0000000049,0000048000,074276,081427,088915,077802,086987,092348
0000000050,0000049000,075553,078550,090515,079420,083666,094051
0000000051,0000050000,077571,075753,091295,081855,080494,094789
0000000052,0000051000,080121,073316,091182,084871,077776,094490
0000000053,0000052000,082961,071473,090184,088170,075782,093185
0000000054,0000053000,085817,070401,088401,091427,074711,090999
0000000055,0000054000,088403,070216,085999,094328,074663,088145
0000000056,0000055000,090467,070931,083221,096590,075641,084906
0000000057,0000056000,091813,072461,080345,097985,077552,081600
0000000058,0000057000,092299,074680,077640,098379,080213,078545
0000000059,0000058000,091879,077369,075370,097737,083358,076042
0000000060,0000059000,090610,080239,073770,096121,086677,074339
0000000061,0000060000,088600,083027,072991,093684,089851,073601
0000000062,0000061000,086038,085477,073104,090668,092569,073900
0000000063,0000062000,083197,087321,074101,087371,094561,075205
0000000064,0000063000,080354,088381,075885,084114,095633,077390
0000000065,0000064000,077760,088573,078286,081210,095683,080244
0000000066,0000065000,075689,087865,081064,078951,094703,083483
0000000067,0000066000,074355,086323,083940,077556,092792,086789
0000000068,0000067000,073866,084106,086646,077160,090133,089844
0000000069,0000068000,074276,081427,088915,077803,086987,092347
0000000070,0000069000,075555,078548,090515,079420,083667,094050
0000000071,0000070000,077567,075756,091296,081854,080495,094788
0000000072,0000071000,080119,073317,091182,084871,077777,094489
0000000073,0000072000,082964,071469,090185,088169,075784,093184
0000000074,0000073000,085815,070401,088402,091425,074712,090999
0000000075,0000074000,088399,070218,086000,094327,074664,088146
0000000076,0000075000,090470,070927,083222,096588,075642,084907
0000000077,0000076000,091814,072459,080346,097983,077553,081601
0000000078,0000077000,092296,074682,077640,098378,080213,078546
0000000079,0000078000,091881,077367,075371,097737,083357,076043
0000000080,0000079000,090613,080235,073770,096120,086676,074340
0000000081,0000080000,088599,083029,072990,093684,089850,073603
0000000082,0000081000,086038,085477,073103,090669,092567,073901
0000000083,0000082000,083201,087318,074100,087372,094559,075205
0000000084,0000083000,080353,088382,075883,084114,095633,077390
0000000085,0000084000,077758,088576,078285,081212,095681,080243
0000000086,0000085000,075692,087864,081063,078953,094702,083482
0000000087,0000086000,074355,086324,083939,077557,092792,086788
0000000088,0000087000,073863,084110,086645,077161,090133,089842
0000000089,0000088000,074277,081427,088914,077804,086988,092345
0000000090,0000089000,075554,078548,090516,079420,083669,094048
0000000091,0000090000,077563,075759,091296,081854,080497,094786
0000000092,0000091000,080118,073318,091183,084870,077778,094488
0000000093,0000092000,082964,071468,090187,088167,075786,093184
0000000094,0000093000,085812,070403,088403,091423,074714,090999
0000000095,0000094000,088398,070218,086002,094326,074665,088146
0000000096,0000095000,090471,070923,083224,096586,075643,084908
0000000097,0000096000,091813,072458,080348,097981,077554,081603
0000000098,0000097000,092296,074682,077641,098376,080212,078548
0000000099,0000098000,091885,077363,075371,097735,083356,076046
0000000100,0000099000,090614,080234,073770,096119,086675,074343
0000000101,0000100000,088599,083030,072989,093684,089848,073604
0000000102,0000101000,086042,085475,073101,090670,092565,073902
0000000103,0000102000,083204,087317,074098,087373,094558,075206
0000000104,0000103000,080352,088385,075882,084116,095631,077390
0000000105,0000104000,077760,088576,078283,081215,095679,080243
0000000106,0000105000,075694,087864,081061,078955,094701,083481
0000000107,0000106000,074353,086328,083938,077559,092792,086786
0000000108,0000107000,073862,084113,086644,077163,090134,089840
0000000109,0000108000,074277,081427,088914,077805,086989,092343
0000000110,0000109000,075551,078551,090516,079420,083671,094046
0000000111,0000110000,077560,075762,091297,081854,080499,094784
0000000112,0000111000,080118,073316,091185,084869,077781,094486
0000000113,0000112000,082962,071467,090189,088165,075789,093183
0000000114,0000113000,085808,070404,088406,091421,074717,090999
0000000115,0000114000,088398,070216,086004,094323,074667,088147
0000000116,0000115000,090472,070920,083226,096583,075644,084910
0000000117,0000116000,091811,072458,080350,097977,077555,081605
0000000118,0000117000,092297,074679,077643,098374,080212,078551
0000000119,0000118000,091888,077358,075372,097733,083355,076049
0000000120,0000119000,090616,080233,073770,096118,086673,074346
0000000121,0000120000,088601,083029,072988,093684,089845,073607
0000000122,0000121000,086046,085472,073100,090671,092562,073905
0000000123,0000122000,083206,087317,074096,087375,094554,075208
0000000124,0000123000,080353,088387,075878,084119,095627,077391
0000000125,0000124000,077763,088577,078280,081218,095677,080242
0000000126,0000125000,075695,087866,081058,078958,094700,083479
0000000127,0000126000,074350,086333,083935,077562,092791,086783
0000000128,0000127000,073861,084115,086642,077166,090134,089837
0000000129,0000128000,074276,081429,088913,077807,086991,092339
0000000130,0000129000,075547,078555,090516,079421,083674,094042
0000000131,0000130000,077556,075764,091298,081854,080502,094781
0000000132,0000131000,080116,073316,091187,084868,077785,094484
0000000133,0000132000,082958,071468,090192,088162,075793,093181
0000000134,0000133000,085805,070404,088409,091417,074721,090999
0000000135,0000134000,088398,070212,086008,094319,074670,088148
0000000136,0000135000,090471,070918,083230,096578,075647,084912
0000000137,0000136000,091811,072456,080352,097973,077555,081608
0000000138,0000137000,092300,074674,077644,098371,080211,078555
0000000139,0000138000,091891,077354,075373,097731,083353,076053
0000000140,0000139000,090618,080231,073769,096116,086670,074350
0000000141,0000140000,088605,083026,072986,093685,089841,073611
0000000142,0000141000,086051,085470,073097,090672,092557,073908
0000000143,0000142000,083208,087318,074092,087377,094550,075210
0000000144,0000143000,080356,088389,075874,084123,095623,077391
0000000145,0000144000,077766,088577,078275,081223,095673,080241
0000000146,0000145000,075694,087870,081054,078963,094698,083477
0000000147,0000146000,074349,086338,083932,077567,092790,086780
0000000148,0000147000,073860,084118,086640,077170,090134,089832
0000000149,0000148000,074273,081433,088913,077810,086994,092334
0000000150,0000149000,075542,078560,090517,079422,083678,094037
0000000151,0000150000,077553,075766,091300,081854,080507,094776
0000000152,0000151000,080112,073317,091190,084866,077791,094480
0000000153,0000152000,082953,071470,090196,088159,075799,093179
0000000154,0000153000,085803,070402,088414,091413,074725,090998
0000000155,0000154000,088397,070208,086013,094313,074674,088150
0000000156,0000155000,090470,070915,083234,096572,075650,084915
0000000157,0000156000,091812,072451,080356,097968,077556,081613
0000000158,0000157000,092304,074668,077647,098366,080210,078561
0000000159,0000158000,091895,077350,075374,097727,083351,076059
0000000160,0000159000,090621,080228,073769,096115,086666,074356
0000000161,0000160000,088612,083022,072984,093685,089835,073617
0000000162,0000161000,086056,085468,073094,090674,092551,073912
0000000163,0000162000,083212,087319,074088,087381,094544,075212
0000000164,0000163000,080360,088390,075869,084128,095617,077392
0000000165,0000164000,077769,088580,078270,081229,095669,080240
0000000166,0000165000,075694,087875,081049,078969,094695,083473
0000000167,0000166000,074348,086343,083928,077574,092789,086775
0000000168,0000167000,073858,084123,086637,077176,090135,089826
0000000169,0000168000,074267,081439,088911,077813,086997,092327
0000000170,0000169000,075536,078565,090517,079425,083682,094030
0000000171,0000170000,077548,075768,091302,081854,080513,094770
0000000172,0000171000,080105,073319,091194,084863,077798,094476
0000000173,0000172000,082947,071471,090201,088155,075806,093177
0000000174,0000173000,085799,070399,088419,091407,074732,090998
0000000175,0000174000,088395,070204,086019,094306,074679,088151
0000000176,0000175000,090468,070911,083240,096565,075653,084919
0000000177,0000176000,091813,072445,080360,097961,077557,081618
0000000178,0000177000,092308,074661,077650,098360,080209,078568
0000000179,0000178000,091898,077345,075375,097723,083348,076067
0000000180,0000179000,090628,080223,073768,096113,086661,074363
0000000181,0000180000,088619,083017,072982,093685,089829,073623
0000000182,0000181000,086062,085467,073090,090676,092544,073917
0000000183,0000182000,083217,087320,074082,087386,094536,075215
0000000184,0000183000,080366,088391,075862,084135,095610,077392
0000000185,0000184000,077771,088584,078263,081236,095663,080238
0000000186,0000185000,075694,087882,081043,078977,094691,083469
0000000187,0000186000,074347,086349,083922,077581,092787,086768
0000000188,0000187000,073855,084130,086633,077182,090137,089818
0000000189,0000188000,074261,081447,088910,077818,087000,092319
0000000190,0000189000,075530,078571,090518,079427,083688,094022
0000000191,0000190000,077541,075772,091305,081853,080520,094763
0000000192,0000191000,080097,073322,091199,084860,077806,094470
0000000193,0000192000,082940,071471,090207,088149,075814,093173
0000000194,0000193000,085795,070396,088427,091400,074740,090997
0000000195,0000194000,088391,070201,086026,094298,074686,088153
0000000196,0000195000,090467,070905,083247,096556,075657,084923
0000000197,0000196000,091816,072437,080366,097953,077559,081625
0000000198,0000197000,092311,074653,077654,098353,080208,078576
0000000199,0000198000,091903,077338,075377,097718,083344,076076
0000000200,0000199000,090636,080216,073767,096110,086654,074373
0000000201,0000200000,088627,083012,072979,093685,089821,073631
0000000202,0000201000,086069,085465,073084,090679,092535,073923
0000000203,0000202000,083224,087320,074074,087392,094526,075219
0000000204,0000203000,080372,088393,075854,084143,095601,077393
0000000205,0000204000,077774,088590,078255,081245,095656,080235
0000000206,0000205000,075695,087889,081035,078987,094686,083464
0000000207,0000206000,074346,086356,083916,077591,092785,086761
0000000208,0000207000,073850,084139,086629,077190,090138,089809
0000000209,0000208000,074254,081456,088908,077824,087005,092309
0000000210,0000209000,075522,078577,090519,079430,083695,094012
0000000211,0000210000,077532,075777,091309,081853,080530,094754
0000000212,0000211000,080088,073326,091205,084857,077817,094464
0000000213,0000212000,082933,071470,090215,088143,075825,093169
0000000214,0000213000,085789,070393,088436,091391,074749,090997
0000000215,0000214000,088387,070196,086036,094287,074694,088156
0000000216,0000215000,090466,070897,083255,096546,075662,084929
0000000217,0000216000,091818,072427,080373,097943,077561,081634
0000000218,0000217000,092316,074644,077659,098344,080207,078586
0000000219,0000218000,091910,077329,075379,097711,083339,076087
0000000220,0000219000,090645,080207,073766,096107,086646,074383
0000000221,0000220000,088637,083007,072975,093685,089811,073641
0000000222,0000221000,086079,085462,073077,090683,092523,073930
0000000223,0000222000,083234,087319,074066,087399,094515,075223
0000000224,0000223000,080379,088396,075844,084152,095591,077394
0000000225,0000224000,077778,088596,078245,081257,095648,080232
0000000226,0000225000,075696,087897,081025,078999,094680,083457
0000000227,0000226000,074345,086366,083908,077602,092783,086752
0000000228,0000227000,073845,084150,086624,077199,090140,089798
0000000229,0000228000,074247,081466,088905,077830,087010,092297
0000000230,0000229000,075513,078586,090520,079433,083703,094000
0000000231,0000230000,077521,075784,091313,081852,080541,094744
0000000232,0000231000,080077,073330,091212,084853,077829,094456
0000000233,0000232000,082924,071470,090225,088135,075837,093165
0000000234,0000233000,085781,070390,088447,091380,074761,090996
0000000235,0000234000,088382,070190,086047,094275,074703,088159
0000000236,0000235000,090465,070888,083265,096533,075668,084936
0000000237,0000236000,091821,072416,080382,097930,077563,081644
0000000238,0000237000,092321,074633,077665,098334,080205,078599
0000000239,0000238000,091919,077318,075381,097704,083333,076100
0000000240,0000239000,090656,080197,073765,096103,086637,074396
0000000241,0000240000,088648,083000,072970,093686,089799,073652
0000000242,0000241000,086090,085458,073070,090688,092510,073939
0000000243,0000242000,083245,087318,074056,087408,094501,075228
0000000244,0000243000,080386,088400,075833,084164,095579,077395
0000000245,0000244000,077783,088603,078233,081270,095638,080229
0000000246,0000245000,075698,087906,081014,079013,094674,083450
0000000247,0000246000,074342,086377,083899,077615,092781,086741
0000000248,0000247000,073838,084163,086617,077210,090142,089785
0000000249,0000248000,074238,081478,088903,077838,087016,092282
0000000250,0000249000,075502,078596,090521,079437,083714,093986
0000000251,0000250000,077508,075792,091318,081852,080554,094732
0000000252,0000251000,080065,073334,091220,084848,077843,094446
0000000253,0000252000,082913,071470,090236,088126,075852,093159
0000000254,0000253000,085772,070386,088460,091368,074774,090995
0000000255,0000254000,088376,070182,086060,094261,074713,088163
0000000256,0000255000,090464,070877,083278,096518,075675,084944
0000000257,0000256000,091823,072404,080392,097916,077566,081655
0000000258,0000257000,092327,074620,077672,098322,080203,078613
0000000259,0000258000,091930,077305,075384,097696,083326,076116
0000000260,0000259000,090668,080186,073764,096099,086626,074411
0000000261,0000260000,088661,082992,072965,093687,089785,073665
0000000262,0000261000,086104,085454,073060,090694,092494,073949
0000000263,0000262000,083257,087318,074044,087417,094486,075234
0000000264,0000263000,080396,088404,075819,084177,095564,077396
0000000265,0000264000,077789,088611,078218,081286,095626,080225
0000000266,0000265000,075700,087917,081001,079029,094666,083441
0000000267,0000266000,074339,086391,083888,077630,092779,086728
0000000268,0000267000,073831,084177,086610,077223,090144,089769
0000000269,0000268000,074228,081491,088899,077848,087023,092266
0000000270,0000269000,075488,078608,090523,079441,083725,093970
0000000271,0000270000,077493,075802,091324,081851,080568,094717
0000000272,0000271000,080050,073338,091230,084842,077860,094436
0000000273,0000272000,082900,071470,090249,088115,075868,093153
0000000274,0000273000,085761,070382,088475,091354,074789,090994
0000000275,0000274000,088370,070173,086075,094244,074726,088167
0000000276,0000275000,090462,070864,083292,096500,075683,084953
0000000277,0000276000,091826,072389,080404,097900,077569,081669
0000000278,0000277000,092335,074604,077680,098308,080200,078629
0000000279,0000278000,091941,077289,075388,097686,083318,076133
0000000280,0000279000,090682,080173,073762,096095,086614,074429
0000000281,0000280000,088677,082983,072958,093688,089769,073680
0000000282,0000281000,086120,085448,073050,090700,092477,073960
0000000283,0000282000,083271,087318,074030,087429,094468,075240
0000000284,0000283000,080406,088409,075803,084192,095548,077397
0000000285,0000284000,077796,088621,078202,081304,095613,080220
0000000286,0000285000,075702,087930,080986,079048,094658,083431
0000000287,0000286000,074335,086408,083876,077648,092776,086714
0000000288,0000287000,073823,084194,086601,077238,090147,089752
0000000289,0000288000,074216,081507,088896,077858,087032,092247
0000000290,0000289000,075472,078622,090524,079446,083739,093952
0000000291,0000290000,077476,075812,091331,081850,080585,094701
0000000292,0000291000,080034,073343,091241,084835,077879,094424
0000000293,0000292000,082885,071470,090264,088103,075888,093146
0000000294,0000293000,085749,070377,088491,091337,074807,090993
0000000295,0000294000,088363,070163,086092,094225,074739,088172
0000000296,0000295000,090460,070850,083308,096481,075692,084964
0000000297,0000296000,091829,072373,080417,097881,077572,081684
0000000298,0000297000,092343,074586,077689,098292,080197,078648
0000000299,0000298000,091954,077272,075392,097675,083309,076153
0000000300,0000299000,090699,080159,073761,096089,086600,074448
0000000301,0000300000,088695,082972,072951,093689,089751,073697
