DIgSILENT PowerFactory,21000900,2000
6,06A,00D
1,TTPP_200000_100:Secondary Voltage A,,,V,0.010000000,-67.874474,0.000000,-86353,99998,1,1,P
2,TTPP_200000_100:Secondary Voltage B,,,V,0.010000000,-36.106495,0.000000,-94417,99998,1,1,P
3,TTPP_200000_100:Secondary Voltage C,,,V,0.010000000,-12.576049,0.000000,-98137,99998,1,1,P
4,TTCC_500_5:Secondary Current A,,,A,0.0010000000,-85.175026,0.000000,63364,99998,1,1,P
5,TTCC_500_5:Secondary Current B,,,A,0.0010000000,-84.912827,0.000000,69851,99998,1,1,P
6,TTCC_500_5:Secondary Current C,,,A,0.0010000000,-84.623466,0.000000,69243,99998,1,1,P
50
1
1000.000000,1101
30/06/2023,06:04:17.000000
30/06/2023,06:04:17.000000
ASCII
1.000000
0000000001,0000000000,061924,039997,-90266,091092,089591,074029
0000000002,0000001000,036447,064334,-89132,088077,092308,074327
0000000003,0000002000,007911,082911,-79155,084778,094302,075632
0000000004,0000003000,-20531,093516,-61329,081522,095372,077817
0000000005,0000004000,-46336,095321,-37316,078619,095422,080671
0000000006,0000005000,-67086,088283,-09541,076355,094446,083910
0000000007,0000006000,-80583,073016,019223,074963,092531,087217
0000000008,0000007000,-85332,050706,046278,074567,089872,090272
0000000009,0000008000,-81161,023841,068966,075208,086728,092775
0000000010,0000009000,-68558,-04759,084975,076824,083409,094479
0000000011,0000010000,-48386,-32737,092772,079262,080233,095217
0000000012,0000011000,-22773,-57217,091651,082277,077515,094919
0000000013,0000012000,005588,-75616,081680,085574,075524,093614
0000000014,0000013000,034069,-86254,063841,088833,074449,091429
0000000015,0000014000,060034,-88209,039831,091734,074402,088575
0000000016,0000015000,080645,-81050,012059,093996,075380,085335
0000000017,0000016000,094025,-65658,-16703,095392,077291,082029
0000000018,0000017000,099002,-43581,-43765,095788,079950,078974
0000000019,0000018000,094819,-16706,-66452,095143,083098,076470
0000000020,0000019000,082005,012109,-82463,093528,086416,074767
0000000021,0000020000,061958,039956,-90262,091094,089588,074029
0000000022,0000021000,036446,064336,-89131,088075,092309,074327
0000000023,0000022000,007930,082890,-79168,084778,094302,075632
0000000024,0000023000,-20535,093527,-61332,081521,095373,077817
0000000025,0000024000,-46365,095336,-37316,078618,095423,080671
0000000026,0000025000,-67115,088312,-09537,076356,094445,083910
0000000027,0000026000,-80517,072953,019217,074962,092532,087217
0000000028,0000027000,-85323,050703,046275,074566,089873,090272
0000000029,0000028000,-81234,023917,068972,075207,086729,092775
0000000030,0000029000,-68549,-04773,084978,076825,083407,094479
0000000031,0000030000,-48333,-32783,092777,079261,080234,095217
0000000032,0000031000,-22783,-57209,091647,082275,077517,094919
0000000033,0000032000,005545,-75571,081682,085574,075524,093614
0000000034,0000033000,034089,-86283,063845,088833,074449,091429
0000000035,0000034000,060031,-88213,039835,091734,074402,088575
0000000036,0000035000,080646,-81049,012057,093994,075381,085336
0000000037,0000036000,094044,-65680,-16708,095391,077291,082029
0000000038,0000037000,098980,-43562,-43758,095787,079951,078974
0000000039,0000038000,094795,-16688,-66451,095144,083097,076471
0000000040,0000039000,082046,012075,-82464,093528,086416,074767
0000000041,0000040000,061990,039928,-90266,091093,089589,074029
0000000042,0000041000,036393,064392,-89131,088075,092309,074327
0000000043,0000042000,007930,082894,-79168,084779,094301,075632
0000000044,0000043000,-20490,093483,-61336,081521,095373,077817
0000000045,0000044000,-46370,095348,-37319,078617,095424,080671
0000000046,0000045000,-67141,088340,-09544,076357,094445,083910
0000000047,0000046000,-80506,072944,019216,074962,092532,087217
0000000048,0000047000,-85323,050699,046275,074566,089874,090272
0000000049,0000048000,-81249,023934,068969,075207,086729,092775
0000000050,0000049000,-68528,-04791,084976,076825,083408,094479
0000000051,0000050000,-48348,-32774,092780,079260,080235,095217
0000000052,0000051000,-22817,-57178,091654,082275,077517,094919
0000000053,0000052000,005565,-75594,081684,085574,075524,093614
0000000054,0000053000,034115,-86309,063850,088831,074451,091429
0000000055,0000054000,059993,-88182,039841,091733,074403,088576
0000000056,0000055000,080630,-81038,012063,093994,075381,085336
0000000057,0000056000,094082,-65724,-16702,095390,077291,082030
0000000058,0000057000,098978,-43564,-43756,095785,079951,078975
0000000059,0000058000,094779,-16671,-66451,095143,083096,076472
0000000060,0000059000,082063,012057,-82466,093528,086415,074768
0000000061,0000060000,061998,039920,-90265,091092,089589,074030
0000000062,0000061000,036386,064403,-89136,088075,092308,074328
0000000063,0000062000,007954,082878,-79176,084779,094300,075632
0000000064,0000063000,-20480,093480,-61341,081521,095373,077817
0000000065,0000064000,-46397,095381,-37325,078618,095423,080671
0000000066,0000065000,-67127,088335,-09552,076358,094444,083910
0000000067,0000066000,-80479,072924,019209,074963,092533,087216
0000000068,0000067000,-85349,050730,046272,074566,089875,090271
0000000069,0000068000,-81273,023960,068967,075208,086729,092774
0000000070,0000069000,-68509,-04812,084977,076825,083409,094478
0000000071,0000070000,-48356,-32770,092783,079259,080236,095216
0000000072,0000071000,-22846,-57154,091658,082275,077519,094918
0000000073,0000072000,005569,-75605,081692,085573,075525,093614
0000000074,0000073000,034110,-86318,063861,088830,074452,091429
0000000075,0000074000,059974,-88171,039851,091732,074404,088576
0000000076,0000075000,080642,-81057,012070,093993,075381,085337
0000000077,0000076000,094095,-65745,-16693,095389,077292,082031
0000000078,0000077000,098958,-43551,-43749,095784,079951,078976
0000000079,0000078000,094789,-16683,-66449,095143,083096,076473
0000000080,0000079000,082100,012021,-82467,093527,086414,074770
0000000081,0000080000,061995,039926,-90269,091092,089588,074031
0000000082,0000081000,036380,064418,-89144,088076,092306,074329
0000000083,0000082000,007985,082857,-79187,084780,094299,075633
0000000084,0000083000,-20467,093478,-61353,081522,095372,077817
0000000085,0000084000,-46409,095407,-37340,078619,095422,080670
0000000086,0000085000,-67115,088337,-09566,076359,094443,083909
0000000087,0000086000,-80475,072929,019200,074964,092533,087215
0000000088,0000087000,-85372,050760,046264,074567,089875,090269
0000000089,0000088000,-81275,023968,068961,075209,086730,092772
0000000090,0000089000,-68508,-04813,084978,076825,083411,094476
0000000091,0000090000,-48390,-32742,092791,079259,080238,095215
0000000092,0000091000,-22866,-57143,091667,082274,077520,094917
0000000093,0000092000,005578,-75627,081705,085571,075527,093613
0000000094,0000093000,034091,-86316,063878,088828,074455,091429
0000000095,0000094000,059949,-88163,039867,091730,074405,088577
0000000096,0000095000,080654,-81085,012086,093991,075382,085338
0000000097,0000096000,094104,-65768,-16678,095386,077292,082033
0000000098,0000097000,098951,-43553,-43740,095782,079951,078978
0000000099,0000098000,094809,-16706,-66446,095142,083094,076475
0000000100,0000099000,082126,011995,-82467,093526,086413,074772
0000000101,0000100000,062000,039929,-90275,091091,089587,074033
0000000102,0000101000,036403,064409,-89159,088077,092304,074330
0000000103,0000102000,008018,082841,-79203,084781,094296,075634
0000000104,0000103000,-20467,093496,-61372,081524,095370,077818
0000000105,0000104000,-46408,095428,-37361,078622,095420,080670
0000000106,0000105000,-67094,088336,-09586,076362,094442,083908
0000000107,0000106000,-80481,072951,019185,074966,092533,087213
0000000108,0000107000,-85399,050799,046252,074569,089875,090267
0000000109,0000108000,-81281,023980,068955,075210,086731,092770
0000000110,0000109000,-68522,-04803,084981,076825,083413,094473
0000000111,0000110000,-48427,-32714,092799,079258,080241,095212
0000000112,0000111000,-22886,-57137,091681,082273,077523,094915
0000000113,0000112000,005567,-75638,081727,085569,075530,093612
0000000114,0000113000,034062,-86311,063903,088825,074457,091429
0000000115,0000114000,059936,-88174,039891,091727,074407,088577
0000000116,0000115000,080666,-81121,012110,093988,075384,085340
0000000117,0000116000,094100,-65786,-16657,095383,077293,082035
0000000118,0000117000,098953,-43568,-43726,095780,079950,078981
0000000119,0000118000,094843,-16746,-66440,095140,083093,076479
0000000120,0000119000,082153,011970,-82468,093525,086411,074775
0000000121,0000120000,062013,039927,-90286,091091,089584,074036
0000000122,0000121000,036438,064394,-89178,088078,092300,074333
0000000123,0000122000,008052,082831,-79227,084783,094293,075635
0000000124,0000123000,-20458,093516,-61400,081526,095367,077818
0000000125,0000124000,-46394,095445,-37393,078625,095417,080669
0000000126,0000125000,-67079,088349,-09613,076365,094440,083906
0000000127,0000126000,-80497,072989,019162,074969,092532,087210
0000000128,0000127000,-85418,050837,046234,074572,089876,090263
0000000129,0000128000,-81291,023997,068948,075212,086733,092766
0000000130,0000129000,-68556,-04773,084985,076826,083416,094470
0000000131,0000130000,-48472,-32682,092812,079258,080244,095209
0000000132,0000131000,-22908,-57136,091703,082272,077527,094913
0000000133,0000132000,005541,-75642,081757,085567,075534,093611
0000000134,0000133000,034025,-86309,063937,088821,074461,091429
0000000135,0000134000,059925,-88197,039925,091723,074410,088578
0000000136,0000135000,080671,-81159,012144,093983,075386,085342
0000000137,0000136000,094097,-65811,-16629,095379,077294,082038
0000000138,0000137000,098969,-43603,-43708,095776,079950,078985
0000000139,0000138000,094881,-16793,-66431,095137,083091,076483
0000000140,0000139000,082181,011944,-82470,093523,086408,074780
0000000141,0000140000,062045,039911,-90303,091092,089579,074040
0000000142,0000141000,036488,064370,-89204,088080,092296,074336
0000000143,0000142000,008086,082830,-79261,084785,094289,075637
0000000144,0000143000,-20441,093540,-61441,081530,095363,077818
0000000145,0000144000,-46369,095462,-37435,078630,095414,080668
0000000146,0000145000,-67068,088375,-09651,076370,094438,083903
0000000147,0000146000,-80516,073040,019130,074974,092531,087206
0000000148,0000147000,-85438,050880,046211,074576,089876,090259
0000000149,0000148000,-81314,024029,068939,075215,086735,092761
0000000150,0000149000,-68604,-04730,084990,076827,083419,094465
0000000151,0000150000,-48520,-32650,092828,079258,080249,095204
0000000152,0000151000,-22943,-57131,091732,082270,077532,094909
0000000153,0000152000,005497,-75639,081798,085563,075540,093609
0000000154,0000153000,033985,-86314,063983,088817,074466,091428
0000000155,0000154000,059914,-88233,039972,091718,074414,088580
0000000156,0000155000,080667,-81201,012189,093977,075389,085345
0000000157,0000156000,094097,-65847,-16592,095373,077295,082043
0000000158,0000157000,098998,-43656,-43684,095772,079949,078991
0000000159,0000158000,094925,-16848,-66419,095134,083089,076489
0000000160,0000159000,082219,011911,-82475,093522,086404,074785
0000000161,0000160000,062096,039881,-90324,091092,089574,074045
0000000162,0000161000,036548,064344,-89238,088082,092290,074340
0000000163,0000162000,008127,082834,-79305,084789,094283,075640
0000000164,0000163000,-20410,093561,-61494,081536,095357,077819
0000000165,0000164000,-46338,095485,-37489,078636,095409,080666
0000000166,0000165000,-67063,088420,-09700,076376,094435,083900
0000000167,0000166000,-80535,073101,019088,074980,092530,087201
0000000168,0000167000,-85459,050930,046181,074581,089877,090253
0000000169,0000168000,-81352,024079,068927,075219,086738,092754
0000000170,0000169000,-68665,-04674,084996,076829,083424,094458
0000000171,0000170000,-48576,-32616,092851,079258,080255,095199
0000000172,0000171000,-22994,-57120,091772,082268,077539,094905
0000000173,0000172000,005438,-75633,081850,085559,075547,093606
0000000174,0000173000,033942,-86329,064041,088811,074472,091428
0000000175,0000174000,059896,-88276,040033,091711,074419,088581
0000000176,0000175000,080656,-81248,012247,093970,075392,085349
0000000177,0000176000,094104,-65901,-16546,095366,077296,082048
0000000178,0000177000,099036,-43726,-43652,095766,079948,078998
0000000179,0000178000,094973,-16911,-66404,095129,083086,076496
0000000180,0000179000,082270,011866,-82481,093520,086399,074793
0000000181,0000180000,062165,039839,-90351,091092,089567,074052
0000000182,0000181000,036617,064317,-89281,088084,092282,074345
0000000183,0000182000,008178,082841,-79363,084794,094275,075642
0000000184,0000183000,-20363,093582,-61561,081542,095350,077819
0000000185,0000184000,-46302,095517,-37557,078644,095403,080664
0000000186,0000185000,-67060,088479,-09763,076384,094431,083896
0000000187,0000186000,-80552,073172,019035,074988,092529,087195
0000000188,0000187000,-85486,050994,046145,074588,089878,090245
0000000189,0000188000,-81406,024148,068912,075223,086742,092746
0000000190,0000189000,-68737,-04609,085003,076832,083430,094450
0000000191,0000190000,-48644,-32577,092879,079258,080262,095191
0000000192,0000191000,-23064,-57099,091821,082265,077547,094899
0000000193,0000192000,005366,-75625,081915,085553,075555,093603
0000000194,0000193000,033893,-86354,064114,088804,074480,091427
0000000195,0000194000,059869,-88326,040110,091702,074425,088584
0000000196,0000195000,080642,-81305,012318,093961,075397,085354
0000000197,0000196000,094119,-65973,-16488,095358,077298,082055
0000000198,0000197000,099081,-43812,-43611,095759,079947,079006
0000000199,0000198000,095028,-16984,-66386,095124,083082,076506
0000000200,0000199000,082340,011805,-82490,093517,086393,074802
0000000201,0000200000,062252,039784,-90383,091093,089559,074060
0000000202,0000201000,036698,064290,-89335,088087,092273,074351
0000000203,0000202000,008244,082847,-79435,084800,094266,075646
0000000204,0000203000,-20303,093605,-61644,081550,095341,077820
0000000205,0000204000,-46264,095562,-37640,078653,095396,080662
0000000206,0000205000,-67056,088554,-09841,076394,094427,083890
0000000207,0000206000,-80569,073254,018969,074997,092527,087188
0000000208,0000207000,-85524,051076,046101,074596,089880,090236
0000000209,0000208000,-81475,024235,068894,075229,086746,092736
0000000210,0000209000,-68820,-04534,085011,076834,083437,094440
0000000211,0000210000,-48727,-32530,092915,079258,080271,095183
0000000212,0000211000,-23154,-57070,091882,082261,077558,094893
0000000213,0000212000,005282,-75620,081993,085547,075566,093599
0000000214,0000213000,033835,-86386,064204,088795,074490,091426
0000000215,0000214000,059832,-88382,040203,091692,074433,088586
0000000216,0000215000,080626,-81375,012404,093950,075402,085359
0000000217,0000216000,094140,-66065,-16418,095348,077300,082064
0000000218,0000217000,099132,-43912,-43561,095750,079945,079016
0000000219,0000218000,095095,-17072,-66365,095118,083077,076517
0000000220,0000219000,082428,011727,-82501,093514,086385,074813
0000000221,0000220000,062355,039720,-90423,091093,089549,074069
0000000222,0000221000,036792,064261,-89400,088091,092262,074358
0000000223,0000222000,008328,082850,-79522,084807,094254,075650
0000000224,0000223000,-20230,093631,-61743,081560,095330,077821
0000000225,0000224000,-46221,095621,-37741,078664,095388,080659
0000000226,0000225000,-67049,088641,-09935,076406,094421,083884
0000000227,0000226000,-80587,073350,018891,075008,092525,087178
0000000228,0000227000,-85573,051179,046048,074605,089881,090225
0000000229,0000228000,-81558,024341,068871,075236,086752,092724
0000000230,0000229000,-68917,-04447,085021,076838,083445,094428
0000000231,0000230000,-48831,-32469,092958,079257,080282,095172
0000000232,0000231000,-23265,-57032,091954,082257,077570,094885
0000000233,0000232000,005186,-75617,082087,085539,075578,093594
0000000234,0000233000,033765,-86424,064313,088785,074501,091425
0000000235,0000234000,059783,-88446,040315,091679,074443,088589
0000000236,0000235000,080611,-81462,012506,093937,075408,085366
0000000237,0000236000,094167,-66177,-16333,095336,077302,082074
0000000238,0000237000,099189,-44028,-43502,095740,079943,079029
0000000239,0000238000,095175,-17178,-66340,095110,083071,076530
0000000240,0000239000,082537,011631,-82513,093510,086375,074825
0000000241,0000240000,062475,039647,-90469,091093,089537,074081
0000000242,0000241000,036904,064226,-89477,088096,092249,074367
0000000243,0000242000,008432,082850,-79625,084815,094241,075655
0000000244,0000243000,-20144,093663,-61861,081571,095318,077822
0000000245,0000244000,-46173,095693,-37862,078677,095378,080656
0000000246,0000245000,-67038,088742,-10048,076420,094415,083877
0000000247,0000246000,-80608,073464,018798,075021,092522,087168
0000000248,0000247000,-85635,051303,045985,074616,089883,090212
0000000249,0000248000,-81653,024464,068843,075244,086758,092710
0000000250,0000249000,-69029,-04347,085033,076842,083455,094414
0000000251,0000250000,-48956,-32395,093009,079256,080295,095160
0000000252,0000251000,-23394,-56987,092039,082252,077585,094875
0000000253,0000252000,005075,-75617,082198,085530,075593,093589
0000000254,0000253000,033679,-86466,064441,088772,074514,091425
0000000255,0000254000,059725,-88519,040446,091665,074453,088593
0000000256,0000255000,080595,-81566,012627,093922,075415,085374
0000000257,0000256000,094197,-66307,-16233,095321,077305,082085
0000000258,0000257000,099253,-44162,-43433,095728,079941,079043
0000000259,0000258000,095272,-17304,-66311,095102,083064,076545
0000000260,0000259000,082664,011517,-82526,093506,086365,074841
0000000261,0000260000,062612,039564,-90522,091094,089523,074094
0000000262,0000261000,037037,064185,-89569,088101,092233,074377
0000000263,0000262000,008555,082847,-79746,084825,094225,075661
0000000264,0000263000,-20046,093703,-61998,081585,095304,077823
0000000265,0000264000,-46117,095778,-38003,078693,095367,080652
0000000266,0000265000,-67021,088857,-10179,076436,094407,083868
0000000267,0000266000,-80633,073597,018690,075037,092520,087155
0000000268,0000267000,-85708,051450,045910,074629,089886,090196
0000000269,0000268000,-81761,024605,068810,075253,086765,092693
0000000270,0000269000,-69160,-04230,085047,076846,083467,094398
0000000271,0000270000,-49104,-32306,093068,079256,080310,095146
0000000272,0000271000,-23543,-56935,092136,082246,077601,094865
0000000273,0000272000,004946,-75618,082327,085520,075609,093582
0000000274,0000273000,033577,-86513,064589,088758,074530,091424
0000000275,0000274000,059658,-88603,040598,091648,074466,088597
0000000276,0000275000,080578,-81690,012767,093905,075422,085384
0000000277,0000276000,094230,-66456,-16116,095305,077307,082099
0000000278,0000277000,099326,-44315,-43352,095714,079938,079059
0000000279,0000278000,095386,-17453,-66276,095092,083056,076563
0000000280,0000279000,082811,011385,-82541,093502,086352,074858
0000000281,0000280000,062769,039469,-90584,091095,089507,074109
0000000282,0000281000,037193,064135,-89674,088108,092215,074388
0000000283,0000282000,008698,082842,-79885,084836,094207,075668
0000000284,0000283000,-19936,093750,-62157,081600,095287,077824
0000000285,0000284000,-46049,095874,-38166,078711,095354,080647
0000000286,0000285000,-66999,088987,-10331,076455,094399,083858
0000000287,0000286000,-80664,073753,018565,075054,092517,087141
0000000288,0000287000,-85791,051620,045824,074644,089889,090179
0000000289,0000288000,-81883,024765,068772,075263,086774,092674
0000000290,0000289000,-69312,-04094,085062,076851,083480,094380
0000000291,0000290000,-49276,-32201,093135,079255,080327,095130
0000000292,0000291000,-23712,-56878,092248,082239,077620,094852
0000000293,0000292000,004798,-75618,082475,085507,075628,093575
0000000294,0000293000,033457,-86563,064760,088742,074547,091422
0000000295,0000294000,059581,-88701,040772,091629,074479,088602
0000000296,0000295000,080558,-81832,012929,093885,075431,085394
0000000297,0000296000,094264,-66625,-15982,095286,077311,082114
0000000298,0000297000,099409,-44492,-43259,095698,079935,079078
0000000299,0000298000,095518,-17625,-66236,095081,083047,076583
0000000300,0000299000,082977,011235,-82556,093496,086338,074877
0000000301,0000300000,062948,039360,-90655,091096,089489,074126
