DIgSILENT PowerFactory,21000900,2000
6,06A,00D
1,TTPP_200000_100:Secondary Voltage A,,,V,0.10000000,-8118.238281,0.000000,61738,99998,1,1,P
2,TTPP_200000_100:Secondary Voltage B,,,V,0.10000000,-7633.579102,0.000000,55798,99998,1,1,P
3,TTPP_200000_100:Secondary Voltage C,,,V,0.10000000,-7953.575684,0.000000,58641,99998,1,1,P
4,TTCC_300_1:Secondary Current A,,,A,0.00010000000,-4.085019,0.000000,-330,99998,1,1,P
5,TTCC_300_1:Secondary Current B,,,A,0.00010000000,-4.999187,0.000000,489,99998,1,1,P
6,TTCC_300_1:Secondary Current C,,,A,0.00010000000,-4.884532,0.000000,-3416,99998,1,1,P
50
1
1000.000000,1101
30/06/2023,06:06:13.000000
30/06/2023,06:06:13.000000
ASCII
1.000000
0000000001,0000000000,088289,077811,070954,019921,036002,083765
0000000002,0000001000,086154,080528,070370,029674,026723,083291
0000000003,0000002000,083514,082859,070681,040513,019727,079449
0000000004,0000003000,080657,084538,071858,051393,015682,072613
0000000005,0000004000,077865,085399,073791,061233,015009,063444
0000000006,0000005000,075376,085390,076288,069085,017759,052844
0000000007,0000006000,073455,084504,079094,074167,023658,041863
0000000008,0000007000,072311,082796,081947,075994,032129,031565
0000000009,0000008000,072025,080459,084569,074366,042374,022949
0000000010,0000009000,072624,077735,086695,069471,053345,016871
0000000011,0000010000,074071,074866,088117,061774,063982,013931
0000000012,0000011000,076225,072127,088702,052018,073265,014404
0000000013,0000012000,078845,069819,088390,041167,080274,018247
0000000014,0000013000,081698,068143,087213,030303,084302,025083
0000000015,0000014000,084511,067262,085281,020458,084978,034251
0000000016,0000015000,086991,067278,082784,012600,082237,044851
0000000017,0000016000,088898,068179,079976,007522,076333,055832
0000000018,0000017000,090061,069869,077125,005702,067855,066130
0000000019,0000018000,090344,072207,074503,007320,057622,074746
0000000020,0000019000,089733,074945,072377,012218,046646,080823
0000000021,0000020000,088295,077805,070954,019921,036003,083764
0000000022,0000021000,086148,080535,070370,029670,026727,083290
0000000023,0000022000,083511,082861,070682,040521,019719,079448
0000000024,0000023000,080666,084530,071858,051392,015683,072612
0000000025,0000024000,077862,085401,073791,061232,015011,063444
0000000026,0000025000,075369,085397,076288,069086,017757,052844
0000000027,0000026000,073461,084499,079094,074175,023650,041862
0000000028,0000027000,072314,082793,081947,075989,032134,031565
0000000029,0000028000,072018,080466,084569,074368,042371,022949
0000000030,0000029000,072624,077735,086695,069476,053340,016871
0000000031,0000030000,074077,074859,088117,061776,063981,013930
0000000032,0000031000,076220,072132,088702,052015,073268,014404
0000000033,0000032000,078843,069821,088390,041173,080268,018246
0000000034,0000033000,081702,068138,087213,030306,084300,025082
0000000035,0000034000,084511,067262,085281,020458,084980,034250
0000000036,0000035000,086986,067283,082784,012603,082235,044849
0000000037,0000036000,088901,068176,079977,007526,076331,055831
0000000038,0000037000,090062,069867,077125,005704,067855,066128
0000000039,0000038000,090342,072210,074502,007320,057623,074744
0000000040,0000039000,089734,074944,072376,012221,046644,080822
0000000041,0000040000,088297,077803,070954,019921,036004,083763
0000000042,0000041000,086147,080538,070370,029671,026728,083289
0000000043,0000042000,083512,082861,070681,040522,019718,079447
0000000044,0000043000,080668,084529,071858,051392,015684,072612
0000000045,0000044000,077860,085403,073791,061232,015012,063444
0000000046,0000045000,075369,085398,076287,069087,017756,052844
0000000047,0000046000,073464,084496,079094,074173,023650,041864
0000000048,0000047000,072311,082796,081947,075988,032134,031566
0000000049,0000048000,072017,080467,084569,074370,042368,022950
0000000050,0000049000,072627,077732,086695,069477,053338,016872
0000000051,0000050000,074076,074860,088118,061775,063980,013931
0000000052,0000051000,076217,072135,088702,052019,073263,014404
0000000053,0000052000,078846,069818,088390,041176,080265,018246
0000000054,0000053000,081703,068137,087214,030306,084299,025082
0000000055,0000054000,084506,067266,085282,020461,084978,034249
0000000056,0000055000,086988,067281,082784,012609,082231,044848
0000000057,0000056000,088905,068172,079977,007527,076332,055828
0000000058,0000057000,090058,069870,077125,005705,067856,066126
0000000059,0000058000,090341,072211,074503,007325,057621,074741
0000000060,0000059000,089738,074940,072376,012223,046645,080819
0000000061,0000060000,088296,077804,070954,019919,036009,083760
0000000062,0000061000,086144,080541,070369,029673,026728,083287
0000000063,0000062000,083516,082857,070681,040522,019719,079446
0000000064,0000063000,080669,084528,071857,051388,015688,072611
0000000065,0000064000,077857,085408,073790,061229,015013,063444
0000000066,0000065000,075371,085397,076287,069087,017754,052846
0000000067,0000066000,073466,084494,079094,074170,023652,041866
0000000068,0000067000,072308,082799,081946,075985,032134,031569
0000000069,0000068000,072016,080469,084569,074371,042364,022953
0000000070,0000069000,072629,077730,086695,069477,053335,016875
0000000071,0000070000,074074,074862,088118,061775,063978,013934
0000000072,0000071000,076214,072138,088702,052023,073258,014406
0000000073,0000072000,078848,069816,088391,041180,080260,018247
0000000074,0000073000,081702,068137,087215,030309,084297,025081
0000000075,0000074000,084504,067268,085282,020466,084974,034247
0000000076,0000075000,086990,067279,082785,012615,082227,044845
0000000077,0000076000,088905,068170,079978,007530,076332,055825
0000000078,0000077000,090057,069872,077126,005710,067856,066121
0000000079,0000078000,090343,072209,074503,007329,057622,074736
0000000080,0000079000,089741,074937,072376,012224,046649,080814
0000000081,0000080000,088295,077805,070954,019919,036013,083756
0000000082,0000081000,086145,080540,070369,029673,026731,083284
0000000083,0000082000,083519,082855,070680,040519,019725,079444
0000000084,0000083000,080668,084529,071857,051384,015693,072610
0000000085,0000084000,077856,085409,073789,061226,015016,063445
0000000086,0000085000,075373,085395,076286,069082,017756,052848
0000000087,0000086000,073465,084496,079093,074164,023654,041870
0000000088,0000087000,072306,082803,081946,075982,032132,031574
0000000089,0000088000,072018,080468,084568,074369,042360,022959
0000000090,0000089000,072629,077730,086695,069474,053332,016881
0000000091,0000090000,074070,074866,088118,061776,063972,013939
0000000092,0000091000,076214,072137,088703,052027,073250,014410
0000000093,0000092000,078849,069814,088392,041183,080254,018250
0000000094,0000093000,081699,068139,087216,030315,084291,025082
0000000095,0000094000,084503,067267,085283,020475,084967,034246
0000000096,0000095000,086992,067275,082786,012622,082224,044841
0000000097,0000096000,088904,068170,079979,007536,076332,055819
0000000098,0000097000,090056,069872,077126,005717,067856,066114
0000000099,0000098000,090346,072205,074503,007334,057624,074729
0000000100,0000099000,089742,074936,072376,012225,046656,080806
0000000101,0000100000,088294,077807,070953,019919,036019,083749
0000000102,0000101000,086148,080539,070368,029672,026738,083278
0000000103,0000102000,083521,082854,070679,040513,019734,079440
0000000104,0000103000,080667,084532,071855,051377,015701,072609
0000000105,0000104000,077857,085410,073787,061220,015021,063447
0000000106,0000105000,075375,085394,076284,069074,017761,052853
0000000107,0000106000,073463,084499,079092,074155,023656,041876
0000000108,0000107000,072304,082805,081945,075976,032129,031582
0000000109,0000108000,072018,080467,084568,074364,042356,022968
0000000110,0000109000,072626,077732,086696,069471,053327,016890
0000000111,0000110000,074067,074868,088119,061777,063963,013947
0000000112,0000111000,076214,072136,088704,052031,073240,014417
0000000113,0000112000,078847,069813,088394,041189,080245,018253
0000000114,0000113000,081696,068140,087218,030324,084282,025082
0000000115,0000114000,084503,067265,085285,020486,084959,034243
0000000116,0000115000,086993,067273,082788,012632,082220,044836
0000000117,0000116000,088903,068170,079981,007547,076330,055811
0000000118,0000117000,090057,069870,077127,005727,067856,066104
0000000119,0000118000,090349,072202,074503,007340,057629,074718
0000000120,0000119000,089742,074936,072376,012228,046664,080795
0000000121,0000120000,088295,077806,070952,019921,036028,083739
0000000122,0000121000,086151,080536,070366,029668,026749,083271
0000000123,0000122000,083523,082854,070677,040506,019746,079436
0000000124,0000123000,080667,084534,071853,051368,015711,072608
0000000125,0000124000,077860,085410,073785,061208,015029,063450
0000000126,0000125000,075376,085396,076282,069060,017768,052859
0000000127,0000126000,073461,084503,079090,074143,023658,041886
0000000128,0000127000,072304,082807,081943,075967,032127,031594
0000000129,0000128000,072018,080468,084568,074356,042351,022981
0000000130,0000129000,072623,077735,086696,069467,053318,016903
0000000131,0000130000,074064,074870,088120,061779,063950,013959
0000000132,0000131000,076213,072135,088706,052035,073226,014426
0000000133,0000132000,078844,069814,088396,041197,080232,018259
0000000134,0000133000,081694,068140,087220,030337,084268,025083
0000000135,0000134000,084504,067262,085288,020500,084948,034240
0000000136,0000135000,086992,067271,082791,012647,082213,044828
0000000137,0000136000,088902,068169,079982,007562,076326,055799
0000000138,0000137000,090059,069866,077129,005740,067857,066090
0000000139,0000138000,090352,072199,074504,007349,057636,074702
0000000140,0000139000,089743,074935,072376,012233,046675,080780
0000000141,0000140000,088299,077804,070951,019921,036041,083725
0000000142,0000141000,086155,080534,070364,029663,026765,083260
0000000143,0000142000,083524,082855,070674,040496,019763,079429
0000000144,0000143000,080669,084535,071850,051355,015725,072607
0000000145,0000144000,077862,085410,073782,061192,015041,063453
0000000146,0000145000,075375,085399,076280,069043,017776,052868
0000000147,0000146000,073459,084507,079088,074128,023661,041899
0000000148,0000147000,072304,082808,081942,075954,032124,031610
0000000149,0000148000,072015,080471,084567,074345,042344,022999
0000000150,0000149000,072618,077739,086696,069462,053305,016921
0000000151,0000150000,074062,074871,088121,061780,063933,013974
0000000152,0000151000,076210,072135,088708,052041,073208,014438
0000000153,0000152000,078840,069816,088399,041208,080213,018266
0000000154,0000153000,081692,068139,087223,030353,084249,025085
0000000155,0000154000,084504,067259,085291,020519,084934,034235
0000000156,0000155000,086991,067269,082794,012666,082204,044818
0000000157,0000156000,088903,068166,079985,007581,076322,055784
0000000158,0000157000,090063,069861,077130,005756,067860,066071
0000000159,0000158000,090354,072196,074505,007360,057646,074682
0000000160,0000159000,089746,074933,072375,012240,046688,080759
0000000161,0000160000,088304,077801,070949,019921,036059,083707
0000000162,0000161000,086159,080533,070362,029655,026787,083246
0000000163,0000162000,083526,082857,070671,040483,019784,079421
0000000164,0000163000,080672,084536,071846,051338,015744,072605
0000000165,0000164000,077864,085412,073778,061171,015058,063458
0000000166,0000165000,075375,085404,076276,069020,017787,052879
0000000167,0000166000,073459,084510,079085,074107,023664,041916
0000000168,0000167000,072302,082812,081940,075935,032121,031631
0000000169,0000168000,072011,080476,084566,074332,042334,023022
0000000170,0000169000,072614,077743,086697,069456,053288,016943
0000000171,0000170000,074059,074872,088123,061780,063912,013994
0000000172,0000171000,076206,072137,088712,052048,073185,014453
0000000173,0000172000,078835,069816,088403,041224,080188,018275
0000000174,0000173000,081690,068136,087228,030374,084227,025087
0000000175,0000174000,084502,067256,085296,020542,084916,034230
0000000176,0000175000,086989,067266,082798,012691,082192,044805
0000000177,0000176000,088905,068161,079988,007606,076317,055765
0000000178,0000177000,090066,069856,077133,005776,067864,066047
0000000179,0000178000,090356,072192,074506,007375,057657,074656
0000000180,0000179000,089751,074929,072374,012248,046705,080734
0000000181,0000180000,088310,077797,070947,019920,036083,083685
0000000182,0000181000,086163,080532,070359,029646,026813,083228
0000000183,0000182000,083530,082857,070666,040467,019810,079410
0000000184,0000183000,080677,084537,071841,051316,015769,072603
0000000185,0000184000,077866,085415,073773,061144,015078,063465
0000000186,0000185000,075374,085409,076271,068993,017800,052894
0000000187,0000186000,073458,084515,079081,074081,023669,041937
0000000188,0000187000,072300,082817,081937,075912,032118,031658
0000000189,0000188000,072006,080482,084565,074315,042322,023050
0000000190,0000189000,072610,077747,086697,069448,053268,016972
0000000191,0000190000,074054,074875,088125,061781,063887,014020
0000000192,0000191000,076199,072140,088715,052058,073156,014473
0000000193,0000192000,078830,069816,088408,041242,080158,018287
0000000194,0000193000,081687,068134,087233,030399,084200,025089
0000000195,0000194000,084499,067253,085302,020571,084894,034222
0000000196,0000195000,086988,067262,082803,012723,082176,044788
0000000197,0000196000,088907,068154,079993,007636,076311,055741
0000000198,0000197000,090068,069850,077136,005801,067868,066018
0000000199,0000198000,090360,072187,074507,007393,057670,074624
0000000200,0000199000,089757,074923,072374,012258,046727,080702
0000000201,0000200000,088316,077793,070945,019919,036112,083657
0000000202,0000201000,086168,080531,070354,029635,026846,083207
0000000203,0000202000,083536,082857,070661,040447,019843,079397
0000000204,0000203000,080681,084538,071835,051288,015799,072600
0000000205,0000204000,077868,085419,073767,061111,015103,063473
0000000206,0000205000,075375,085414,076265,068959,017816,052912
0000000207,0000206000,073458,084520,079076,074048,023676,041964
0000000208,0000207000,072296,082824,081934,075884,032114,031690
0000000209,0000208000,072001,080489,084564,074296,042306,023086
0000000210,0000209000,072604,077752,086698,069438,053243,017006
0000000211,0000210000,074047,074879,088128,061781,063855,014050
0000000212,0000211000,076192,072142,088720,052071,073120,014496
0000000213,0000212000,078825,069816,088413,041265,080121,018301
0000000214,0000213000,081683,068131,087240,030429,084167,025092
0000000215,0000214000,084495,067250,085309,020607,084867,034213
0000000216,0000215000,086988,067256,082809,012761,082158,044769
0000000217,0000216000,088909,068147,079998,007671,076304,055712
0000000218,0000217000,090071,069843,077140,005831,067873,065982
0000000219,0000218000,090365,072181,074508,007415,057687,074585
0000000220,0000219000,089764,074917,072373,012269,046754,080665
0000000221,0000220000,088323,077789,070942,019918,036147,083623
0000000222,0000221000,086175,080529,070349,029622,026885,083181
0000000223,0000222000,083543,082857,070654,040423,019882,079382
0000000224,0000223000,080686,084540,071827,051254,015836,072597
0000000225,0000224000,077870,085425,073759,061072,015133,063482
0000000226,0000225000,075376,085420,076258,068918,017835,052933
0000000227,0000226000,073456,084527,079070,074009,023683,041995
0000000228,0000227000,072292,082832,081930,075851,032108,031728
0000000229,0000228000,071995,080497,084562,074272,042288,023128
0000000230,0000229000,072597,077757,086699,069426,053214,017048
0000000231,0000230000,074039,074884,088132,061783,063818,014087
0000000232,0000231000,076184,072145,088725,052085,073077,014524
0000000233,0000232000,078818,069815,088421,041292,080078,018317
0000000234,0000233000,081677,068128,087249,030465,084127,025095
0000000235,0000234000,084492,067245,085317,020650,084835,034203
0000000236,0000235000,086988,067249,082817,012806,082137,044745
0000000237,0000236000,088911,068139,080004,007713,076296,055678
0000000238,0000237000,090075,069835,077144,005867,067880,065940
0000000239,0000238000,090372,072172,074510,007442,057706,074539
0000000240,0000239000,089773,074909,072372,012281,046786,080620
0000000241,0000240000,088331,077784,070938,019916,036188,083584
0000000242,0000241000,086184,080526,070343,029606,026931,083151
0000000243,0000242000,083551,082856,070647,040394,019929,079364
0000000244,0000243000,080692,084543,071818,051214,015879,072594
0000000245,0000244000,077874,085430,073750,061026,015167,063494
0000000246,0000245000,075377,085427,076250,068870,017858,052959
0000000247,0000246000,073454,084536,079064,073963,023692,042032
0000000248,0000247000,072286,082842,081925,075812,032101,031774
0000000249,0000248000,071988,080505,084560,074245,042266,023177
0000000250,0000249000,072589,077765,086700,069412,053179,017096
0000000251,0000250000,074029,074890,088136,061784,063773,014129
0000000252,0000251000,076175,072148,088732,052103,073027,014557
0000000253,0000252000,078810,069815,088429,041323,080028,018337
0000000254,0000253000,081670,068126,087258,030507,084081,025099
0000000255,0000254000,084487,067239,085327,020700,084798,034190
0000000256,0000255000,086987,067240,082826,012858,082112,044718
0000000257,0000256000,088913,068129,080012,007763,076287,055637
0000000258,0000257000,090080,069825,077149,005909,067887,065891
0000000259,0000258000,090380,072162,074512,007472,057729,074486
0000000260,0000259000,089782,074901,072371,012296,046824,080568
0000000261,0000260000,088341,077779,070934,019914,036236,083538
0000000262,0000261000,086195,080523,070336,029588,026984,083116
0000000263,0000262000,083560,082856,070638,040360,019984,079344
0000000264,0000263000,080699,084547,071808,051168,015929,072590
0000000265,0000264000,077879,085436,073739,060973,015207,063507
0000000266,0000265000,075379,085435,076240,068814,017885,052989
0000000267,0000266000,073452,084547,079056,073910,023702,042076
0000000268,0000267000,072281,082853,081920,075768,032093,031827
0000000269,0000268000,071981,080515,084558,074213,042241,023234
0000000270,0000269000,072578,077774,086701,069396,053139,017152
0000000271,0000270000,074017,074897,088140,061787,063722,014178
0000000272,0000271000,076164,072151,088739,052123,072969,014594
0000000273,0000272000,078800,069815,088439,041359,079970,018358
0000000274,0000273000,081662,068123,087269,030557,084028,025103
0000000275,0000274000,084483,067233,085338,020758,084755,034176
0000000276,0000275000,086986,067231,082837,012918,082084,044685
0000000277,0000276000,088915,068119,080021,007819,076277,055591
0000000278,0000277000,090086,069813,077155,005957,067895,065834
0000000279,0000278000,090389,072150,074515,007506,057757,074425
0000000280,0000279000,089793,074892,072370,012313,046867,080508
0000000281,0000280000,088353,077772,070929,019912,036291,083485
0000000282,0000281000,086207,080519,070328,029566,027046,083076
0000000283,0000282000,083571,082856,070627,040321,020047,079320
0000000284,0000283000,080707,084551,071796,051116,015986,072586
0000000285,0000284000,077884,085443,073727,060911,015252,063523
0000000286,0000285000,075380,085445,076229,068749,017915,053023
0000000287,0000286000,073449,084559,079046,073849,023713,042126
0000000288,0000287000,072275,082865,081913,075717,032083,031888
0000000289,0000288000,071971,080527,084555,074176,042212,023300
0000000290,0000289000,072566,077785,086703,069378,053093,017216
0000000291,0000290000,074004,074905,088145,061790,063663,014235
0000000292,0000291000,076152,072155,088748,052147,072903,014637
0000000293,0000292000,078789,069815,088450,041401,079903,018383
0000000294,0000293000,081653,068119,087282,030613,083967,025107
0000000295,0000294000,084478,067225,085351,020823,084706,034159
0000000296,0000295000,086984,067220,082849,012986,082053,044649
0000000297,0000296000,088917,068106,080031,007884,076266,055538
0000000298,0000297000,090093,069800,077162,006012,067905,065770
0000000299,0000298000,090399,072137,074518,007544,057788,074355
0000000300,0000299000,089805,074881,072368,012332,046916,080439
0000000301,0000300000,088367,077763,070924,019909,036353,083425
