DIgSILENT PowerFactory,21000900,2000
6,06A,00D
1,TTPP_200000_100:Secondary Voltage A,,,V,0.010000000,-67.876244,0.000000,-86353,99998,1,1,P
2,TTPP_200000_100:Secondary Voltage B,,,V,0.010000000,-35.626766,0.000000,-95321,99998,1,1,P
3,TTPP_200000_100:Secondary Voltage C,,,V,0.010000000,-12.469528,0.000000,-98209,99998,1,1,P
4,TTCC_500_5:Secondary Current A,,,A,0.0010000000,-85.115570,0.000000,63232,99998,1,1,P
5,TTCC_500_5:Secondary Current B,,,A,0.0010000000,-84.908112,0.000000,69840,99998,1,1,P
6,TTCC_500_5:Secondary Current C,,,A,0.0010000000,-84.621086,0.000000,69242,99998,1,1,P
50
1
1000.000000,1101
30/06/2023,06:05:09.000000
30/06/2023,06:05:09.000000
ASCII
1.000000
0000000001,0000000000,061925,039948,-90276,091033,089586,074026
0000000002,0000001000,036448,064285,-89143,088017,092303,074324
0000000003,0000002000,007911,082864,-79166,084719,094297,075629
0000000004,0000003000,-20532,093469,-61340,081463,095368,077814
0000000005,0000004000,-46334,095272,-37327,078560,095417,080668
0000000006,0000005000,-67084,088235,-09552,076295,094442,083908
0000000007,0000006000,-80582,072968,019211,074904,092526,087214
0000000008,0000007000,-85335,050663,046267,074508,089868,090269
0000000009,0000008000,-81160,023793,068956,075149,086723,092773
0000000010,0000009000,-68556,-04808,084964,076764,083404,094476
0000000011,0000010000,-48385,-32785,092760,079202,080228,095215
0000000012,0000011000,-22777,-57262,091640,082218,077511,094916
0000000013,0000012000,005584,-75662,081670,085514,075519,093612
0000000014,0000013000,034071,-86305,063830,088774,074444,091426
0000000015,0000014000,060036,-88259,039821,091675,074397,088573
0000000016,0000015000,080645,-81098,012049,093936,075376,085333
0000000017,0000016000,094019,-65701,-16713,095332,077286,082027
0000000018,0000017000,099003,-43631,-43774,095728,079945,078971
0000000019,0000018000,094824,-16758,-66462,095084,083093,076468
0000000020,0000019000,082008,012060,-82474,093468,086412,074765
0000000021,0000020000,061955,039913,-90272,091035,089584,074026
0000000022,0000021000,036444,064290,-89141,088016,092304,074324
0000000023,0000022000,007936,082836,-79179,084718,094297,075629
0000000024,0000023000,-20532,093477,-61345,081462,095369,077815
0000000025,0000024000,-46366,095289,-37328,078559,095418,080668
0000000026,0000025000,-67120,088268,-09548,076297,094440,083908
0000000027,0000026000,-80515,072903,019206,074903,092528,087214
0000000028,0000027000,-85318,050651,046264,074506,089869,090270
0000000029,0000028000,-81234,023870,068960,075147,086724,092773
0000000030,0000029000,-68553,-04816,084968,076766,083403,094476
0000000031,0000030000,-48337,-32827,092767,079201,080229,095215
0000000032,0000031000,-22777,-57262,091637,082216,077512,094917
0000000033,0000032000,005547,-75620,081671,085514,075519,093612
0000000034,0000033000,034085,-86327,063835,088773,074445,091427
0000000035,0000034000,060026,-88257,039826,091675,074397,088573
0000000036,0000035000,080649,-81101,012048,093935,075376,085333
0000000037,0000036000,094049,-65733,-16718,095332,077286,082027
0000000038,0000037000,098979,-43609,-43769,095727,079946,078972
0000000039,0000038000,094791,-16733,-66461,095085,083092,076468
0000000040,0000039000,082045,012028,-82474,093469,086411,074765
0000000041,0000040000,061996,039875,-90276,091033,089585,074027
0000000042,0000041000,036397,064342,-89142,088015,092304,074325
0000000043,0000042000,007927,082849,-79179,084719,094296,075630
0000000044,0000043000,-20493,093438,-61346,081462,095368,077815
0000000045,0000044000,-46365,095297,-37330,078558,095419,080668
0000000046,0000045000,-67135,088288,-09556,076297,094440,083908
0000000047,0000046000,-80508,072900,019205,074903,092528,087214
0000000048,0000047000,-85326,050655,046264,074506,089869,090269
0000000049,0000048000,-81249,023886,068959,075147,086725,092773
0000000050,0000049000,-68524,-04843,084964,076765,083404,094476
0000000051,0000050000,-48348,-32821,092768,079200,080230,095214
0000000052,0000051000,-22820,-57223,091643,082216,077513,094916
0000000053,0000052000,005562,-75639,081674,085514,075519,093612
0000000054,0000053000,034116,-86360,063840,088772,074446,091427
0000000055,0000054000,059997,-88233,039830,091673,074398,088573
0000000056,0000055000,080628,-81084,012053,093935,075376,085334
0000000057,0000056000,094079,-65768,-16712,095331,077286,082028
0000000058,0000057000,098979,-43614,-43766,095726,079946,078973
0000000059,0000058000,094784,-16724,-66461,095084,083092,076469
0000000060,0000059000,082063,012009,-82476,093468,086410,074766
0000000061,0000060000,061996,039875,-90275,091033,089584,074028
0000000062,0000061000,036386,064355,-89147,088016,092303,074325
0000000063,0000062000,007958,082827,-79187,084719,094295,075630
0000000064,0000063000,-20478,093430,-61353,081462,095368,077815
0000000065,0000064000,-46398,095335,-37337,078558,095418,080668
0000000066,0000065000,-67129,088290,-09563,076298,094439,083907
0000000067,0000066000,-80479,072876,019198,074903,092528,087214
0000000068,0000067000,-85345,050680,046260,074506,089870,090268
0000000069,0000068000,-81273,023913,068955,075148,086725,092772
0000000070,0000069000,-68513,-04855,084966,076765,083404,094475
0000000071,0000070000,-48357,-32817,092773,079200,080232,095214
0000000072,0000071000,-22843,-57205,091647,082215,077514,094916
0000000073,0000072000,005569,-75653,081681,085513,075520,093612
0000000074,0000073000,034107,-86363,063851,088770,074448,091427
0000000075,0000074000,059972,-88219,039842,091672,074399,088574
0000000076,0000075000,080642,-81107,012060,093934,075376,085335
0000000077,0000076000,094097,-65795,-16703,095329,077287,082029
0000000078,0000077000,098958,-43599,-43759,095724,079946,078974
0000000079,0000078000,094787,-16729,-66459,095083,083091,076471
0000000080,0000079000,082100,011973,-82477,093468,086410,074767
0000000081,0000080000,061999,039875,-90280,091032,089584,074029
0000000082,0000081000,036383,064368,-89155,088016,092302,074326
0000000083,0000082000,007983,082812,-79198,084720,094294,075631
0000000084,0000083000,-20467,093431,-61364,081463,095367,077815
0000000085,0000084000,-46406,095356,-37351,078560,095417,080668
0000000086,0000085000,-67113,088289,-09577,076300,094438,083906
0000000087,0000086000,-80477,072883,019189,074904,092528,087212
0000000088,0000087000,-85373,050714,046253,074507,089870,090267
0000000089,0000088000,-81275,023921,068950,075149,086725,092770
0000000090,0000089000,-68508,-04862,084967,076765,083406,094474
0000000091,0000090000,-48389,-32790,092780,079199,080234,095212
0000000092,0000091000,-22868,-57189,091657,082215,077516,094915
0000000093,0000092000,005576,-75673,081695,085512,075522,093611
0000000094,0000093000,034093,-86365,063868,088768,074450,091427
0000000095,0000094000,059950,-88212,039857,091670,074400,088574
0000000096,0000095000,080652,-81132,012076,093931,075377,085336
0000000097,0000096000,094102,-65816,-16688,095327,077288,082030
0000000098,0000097000,098952,-43603,-43749,095723,079946,078976
0000000099,0000098000,094810,-16755,-66456,095082,083090,076473
0000000100,0000099000,082126,011948,-82477,093467,086408,074770
0000000101,0000100000,062000,039881,-90286,091032,089582,074031
0000000102,0000101000,036403,064361,-89169,088018,092299,074328
0000000103,0000102000,008020,082793,-79215,084722,094292,075632
0000000104,0000103000,-20465,093447,-61383,081464,095365,077815
0000000105,0000104000,-46408,095380,-37372,078562,095415,080667
0000000106,0000105000,-67095,088290,-09597,076302,094437,083905
0000000107,0000106000,-80480,072902,019173,074906,092528,087210
0000000108,0000107000,-85397,050750,046241,074509,089871,090265
0000000109,0000108000,-81282,023933,068944,075151,086726,092767
0000000110,0000109000,-68524,-04849,084971,076766,083408,094471
0000000111,0000110000,-48427,-32762,092789,079199,080236,095210
0000000112,0000111000,-22886,-57185,091671,082214,077518,094913
0000000113,0000112000,005566,-75685,081716,085510,075525,093610
0000000114,0000113000,034061,-86359,063893,088765,074453,091427
0000000115,0000114000,059935,-88222,039881,091667,074402,088575
0000000116,0000115000,080666,-81169,012100,093928,075379,085338
0000000117,0000116000,094101,-65835,-16667,095323,077288,082033
0000000118,0000117000,098953,-43617,-43736,095720,079946,078979
0000000119,0000118000,094842,-16793,-66450,095080,083088,076476
0000000120,0000119000,082154,011921,-82478,093466,086406,074773
0000000121,0000120000,062015,039877,-90297,091032,089579,074034
0000000122,0000121000,036438,064345,-89189,088019,092296,074330
0000000123,0000122000,008052,082784,-79238,084723,094288,075633
0000000124,0000123000,-20457,093468,-61411,081467,095362,077816
0000000125,0000124000,-46393,095397,-37404,078566,095413,080666
0000000126,0000125000,-67078,088301,-09625,076306,094436,083903
0000000127,0000126000,-80496,072941,019151,074910,092527,087208
0000000128,0000127000,-85418,050790,046223,074513,089871,090261
0000000129,0000128000,-81292,023951,068937,075153,086728,092764
0000000130,0000129000,-68555,-04821,084974,076767,083411,094467
0000000131,0000130000,-48472,-32730,092801,079199,080240,095206
0000000132,0000131000,-22910,-57183,091692,082213,077522,094910
0000000133,0000132000,005540,-75690,081747,085507,075529,093608
0000000134,0000133000,034026,-86358,063927,088762,074456,091426
0000000135,0000134000,059925,-88245,039916,091664,074405,088576
0000000136,0000135000,080669,-81207,012134,093924,075381,085340
0000000137,0000136000,094098,-65860,-16639,095319,077289,082036
0000000138,0000137000,098970,-43652,-43718,095717,079945,078983
0000000139,0000138000,094882,-16841,-66441,095078,083086,076481
0000000140,0000139000,082182,011895,-82481,093464,086404,074777
0000000141,0000140000,062046,039862,-90313,091032,089575,074038
0000000142,0000141000,036488,064322,-89215,088020,092291,074333
0000000143,0000142000,008088,082782,-79272,084726,094284,075635
0000000144,0000143000,-20440,093491,-61452,081471,095358,077816
0000000145,0000144000,-46369,095415,-37446,078571,095409,080665
0000000146,0000145000,-67068,088328,-09662,076311,094433,083901
0000000147,0000146000,-80514,072991,019119,074914,092527,087204
0000000148,0000147000,-85437,050832,046200,074517,089872,090256
0000000149,0000148000,-81315,023983,068927,075156,086730,092759
0000000150,0000149000,-68604,-04777,084979,076768,083415,094462
0000000151,0000150000,-48520,-32698,092818,079199,080244,095202
0000000152,0000151000,-22944,-57178,091722,082211,077527,094907
0000000153,0000152000,005496,-75687,081788,085504,075535,093606
0000000154,0000153000,033985,-86363,063973,088757,074461,091426
0000000155,0000154000,059913,-88280,039962,091658,074409,088577
0000000156,0000155000,080666,-81249,012179,093918,075384,085343
0000000157,0000156000,094098,-65897,-16602,095314,077290,082041
0000000158,0000157000,098998,-43704,-43693,095712,079944,078988
0000000159,0000158000,094925,-16896,-66429,095074,083084,076487
0000000160,0000159000,082220,011861,-82485,093462,086400,074783
0000000161,0000160000,062097,039832,-90334,091033,089569,074043
0000000162,0000161000,036548,064296,-89249,088022,092285,074337
0000000163,0000162000,008128,082786,-79317,084730,094278,075637
0000000164,0000163000,-20409,093513,-61505,081476,095352,077816
0000000165,0000164000,-46337,095437,-37500,078577,095404,080664
0000000166,0000165000,-67062,088372,-09712,076317,094430,083897
0000000167,0000166000,-80534,073053,019077,074920,092525,087199
0000000168,0000167000,-85459,050883,046170,074522,089872,090250
0000000169,0000168000,-81352,024032,068916,075159,086733,092752
0000000170,0000169000,-68665,-04722,084985,076770,083419,094456
0000000171,0000170000,-48577,-32664,092840,079199,080250,095196
0000000172,0000171000,-22995,-57167,091761,082208,077534,094902
0000000173,0000172000,005438,-75681,081840,085499,075542,093604
0000000174,0000173000,033942,-86378,064031,088752,074468,091425
0000000175,0000174000,059895,-88324,040023,091651,074414,088579
0000000176,0000175000,080656,-81296,012237,093911,075387,085347
0000000177,0000176000,094104,-65950,-16556,095307,077292,082046
0000000178,0000177000,099036,-43774,-43661,095707,079943,078995
0000000179,0000178000,094973,-16960,-66415,095070,083081,076494
0000000180,0000179000,082272,011816,-82492,093460,086394,074790
0000000181,0000180000,062166,039790,-90361,091033,089562,074049
0000000182,0000181000,036618,064269,-89292,088025,092278,074342
0000000183,0000182000,008180,082792,-79374,084734,094270,075640
0000000184,0000183000,-20363,093534,-61572,081483,095345,077817
0000000185,0000184000,-46302,095470,-37568,078584,095398,080662
0000000186,0000185000,-67059,088431,-09774,076325,094427,083893
0000000187,0000186000,-80552,073124,019023,074928,092524,087193
0000000188,0000187000,-85487,050948,046134,074528,089873,090243
0000000189,0000188000,-81406,024101,068901,075164,086737,092744
0000000190,0000189000,-68737,-04657,084992,076772,083425,094447
0000000191,0000190000,-48644,-32624,092869,079198,080257,095189
0000000192,0000191000,-23065,-57146,091811,082205,077543,094897
0000000193,0000192000,005366,-75674,081904,085494,075551,093600
0000000194,0000193000,033893,-86401,064104,088745,074475,091425
0000000195,0000194000,059868,-88374,040100,091643,074421,088581
0000000196,0000195000,080642,-81354,012308,093902,075392,085351
0000000197,0000196000,094119,-66022,-16498,095299,077293,082053
0000000198,0000197000,099081,-43860,-43621,095699,079942,079004
0000000199,0000198000,095029,-17033,-66397,095065,083077,076503
0000000200,0000199000,082341,011756,-82500,093458,086388,074799
0000000201,0000200000,062253,039736,-90394,091033,089554,074057
0000000202,0000201000,036699,064242,-89345,088028,092268,074348
0000000203,0000202000,008246,082798,-79446,084740,094261,075644
0000000204,0000203000,-20302,093557,-61655,081491,095336,077818
0000000205,0000204000,-46263,095515,-37652,078594,095392,080660
0000000206,0000205000,-67055,088506,-09852,076335,094422,083888
0000000207,0000206000,-80569,073207,018958,074938,092522,087185
0000000208,0000207000,-85524,051029,046089,074536,089875,090233
0000000209,0000208000,-81475,024188,068883,075169,086742,092734
0000000210,0000209000,-68820,-04581,085000,076775,083432,094438
0000000211,0000210000,-48728,-32576,092904,079198,080267,095180
0000000212,0000211000,-23155,-57117,091871,082202,077553,094890
0000000213,0000212000,005282,-75668,081983,085487,075561,093596
0000000214,0000213000,033834,-86433,064194,088736,074485,091424
0000000215,0000214000,059831,-88430,040194,091632,074429,088584
0000000216,0000215000,080627,-81424,012394,093891,075397,085357
0000000217,0000216000,094140,-66113,-16428,095288,077295,082061
0000000218,0000217000,099132,-43960,-43572,095691,079940,079014
0000000219,0000218000,095096,-17121,-66375,095058,083072,076514
0000000220,0000219000,082429,011678,-82511,093455,086380,074810
0000000221,0000220000,062356,039672,-90433,091034,089544,074067
0000000222,0000221000,036794,064212,-89410,088032,092257,074356
0000000223,0000222000,008330,082801,-79533,084747,094249,075648
0000000224,0000223000,-20229,093583,-61755,081501,095326,077819
0000000225,0000224000,-46221,095573,-37753,078605,095383,080657
0000000226,0000225000,-67048,088593,-09947,076346,094417,083882
0000000227,0000226000,-80587,073303,018879,074949,092520,087176
0000000228,0000227000,-85573,051132,046036,074546,089877,090222
0000000229,0000228000,-81557,024293,068860,075176,086747,092721
0000000230,0000229000,-68917,-04495,085010,076778,083441,094426
0000000231,0000230000,-48832,-32516,092948,079198,080278,095170
0000000232,0000231000,-23265,-57079,091944,082197,077565,094882
0000000233,0000232000,005185,-75665,082077,085480,075573,093592
0000000234,0000233000,033764,-86471,064302,088725,074496,091423
0000000235,0000234000,059783,-88494,040305,091620,074438,088587
0000000236,0000235000,080611,-81510,012496,093878,075403,085364
0000000237,0000236000,094167,-66225,-16343,095276,077297,082071
0000000238,0000237000,099189,-44076,-43512,095680,079938,079026
0000000239,0000238000,095176,-17227,-66350,095051,083066,076528
0000000240,0000239000,082537,011582,-82523,093451,086371,074823
0000000241,0000240000,062475,039599,-90479,091034,089532,074078
0000000242,0000241000,036906,064177,-89488,088036,092244,074364
0000000243,0000242000,008433,082801,-79636,084756,094236,075653
0000000244,0000243000,-20143,093615,-61872,081512,095313,077819
0000000245,0000244000,-46172,095645,-37873,078618,095373,080653
0000000246,0000245000,-67037,088694,-10059,076360,094410,083874
0000000247,0000246000,-80608,073417,018787,074962,092518,087165
0000000248,0000247000,-85634,051256,045973,074557,089879,090209
0000000249,0000248000,-81653,024416,068832,075184,086753,092707
0000000250,0000249000,-69030,-04394,085022,076782,083451,094412
0000000251,0000250000,-48957,-32442,092999,079197,080290,095157
0000000252,0000251000,-23394,-57034,092028,082192,077580,094873
0000000253,0000252000,005074,-75665,082188,085471,075588,093586
0000000254,0000253000,033678,-86514,064431,088713,074510,091422
0000000255,0000254000,059725,-88567,040436,091605,074449,088591
0000000256,0000255000,080594,-81615,012617,093863,075410,085372
0000000257,0000256000,094197,-66355,-16243,095262,077300,082083
0000000258,0000257000,099253,-44210,-43443,095668,079936,079040
0000000259,0000258000,095273,-17353,-66321,095043,083059,076543
0000000260,0000259000,082665,011468,-82536,093447,086360,074838
0000000261,0000260000,062613,039515,-90533,091035,089518,074092
0000000262,0000261000,037038,064136,-89579,088042,092228,074374
0000000263,0000262000,008556,082799,-79757,084766,094220,075659
0000000264,0000263000,-20046,093655,-62010,081525,095299,077820
0000000265,0000264000,-46115,095729,-38014,078634,095362,080649
0000000266,0000265000,-67020,088809,-10191,076377,094403,083866
0000000267,0000266000,-80633,073550,018679,074977,092515,087153
0000000268,0000267000,-85707,051403,045899,074570,089881,090194
0000000269,0000268000,-81761,024557,068799,075193,086761,092691
0000000270,0000269000,-69161,-04277,085036,076787,083462,094396
0000000271,0000270000,-49105,-32353,093057,079196,080305,095143
0000000272,0000271000,-23543,-56983,092126,082186,077597,094862
0000000273,0000272000,004946,-75665,082317,085460,075605,093580
0000000274,0000273000,033576,-86560,064579,088698,074525,091421
0000000275,0000274000,059658,-88651,040588,091589,074461,088595
0000000276,0000275000,080577,-81738,012757,093846,075418,085381
0000000277,0000276000,094230,-66505,-16126,095246,077303,082097
0000000278,0000277000,099326,-44364,-43362,095654,079934,079057
0000000279,0000278000,095387,-17502,-66286,095033,083051,076561
0000000280,0000279000,082811,011336,-82551,093442,086347,074855
0000000281,0000280000,062770,039420,-90595,091035,089503,074107
0000000282,0000281000,037194,064086,-89685,088048,092211,074386
0000000283,0000282000,008699,082794,-79896,084777,094202,075665
0000000284,0000283000,-19935,093702,-62168,081541,095283,077821
0000000285,0000284000,-46048,095825,-38177,078651,095349,080645
0000000286,0000285000,-66999,088939,-10342,076395,094394,083856
0000000287,0000286000,-80664,073706,018554,074995,092512,087138
0000000288,0000287000,-85790,051572,045813,074584,089884,090176
0000000289,0000288000,-81883,024718,068761,075204,086769,092672
0000000290,0000289000,-69312,-04141,085051,076792,083476,094377
0000000291,0000290000,-49276,-32248,093124,079195,080323,095127
0000000292,0000291000,-23712,-56925,092237,082179,077615,094850
0000000293,0000292000,004797,-75665,082465,085448,075624,093573
0000000294,0000293000,033456,-86611,064750,088682,074542,091420
0000000295,0000294000,059581,-88749,040763,091570,074475,088600
0000000296,0000295000,080558,-81880,012919,093826,075427,085392
0000000297,0000296000,094264,-66674,-15992,095227,077306,082112
0000000298,0000297000,099410,-44541,-43269,095639,079931,079076
0000000299,0000298000,095519,-17674,-66246,095022,083042,076581
0000000300,0000299000,082977,011186,-82567,093437,086333,074875
0000000301,0000300000,062949,039311,-90665,091036,089484,074124
