DIgSILENT PowerFactory,21000900,2000
6,06A,00D
1,TTPP_200000_100:Secondary Voltage A,,,V,0.10000000,-8430.510742,0.000000,67991,99998,1,1,P
2,TTPP_200000_100:Secondary Voltage B,,,V,0.10000000,-8396.613281,0.000000,68819,99998,1,1,P
3,TTPP_200000_100:Secondary Voltage C,,,V,0.10000000,-8433.287109,0.000000,66797,99998,1,1,P
4,TTCC_500_5:Secondary Current A,,,A,0.0010000000,-86.290779,0.000000,66604,99998,1,1,P
5,TTCC_500_5:Secondary Current B,,,A,0.0010000000,-85.045288,0.000000,70105,99998,1,1,P
6,TTCC_500_5:Secondary Current C,,,A,0.0010000000,-84.677544,0.000000,69327,99998,1,1,P
50
1
1000.000000,1101
30/06/2023,06:06:01.000000
30/06/2023,06:06:01.000000
ASCII
1.000000
0000000001,0000000000,089817,087607,075180,092206,089725,074082
0000000002,0000001000,087269,090040,075295,089191,092441,074381
0000000003,0000002000,084418,091895,076293,085892,094436,075686
0000000004,0000003000,081572,092957,078075,082637,095505,077872
0000000005,0000004000,078988,093140,080477,079732,095555,080726
0000000006,0000005000,076916,092433,083255,077472,094576,083966
0000000007,0000006000,075570,090903,086131,076078,092663,087272
0000000008,0000007000,075097,088671,088836,075682,090004,090327
0000000009,0000008000,075505,085993,091105,076324,086859,092831
0000000010,0000009000,076773,083127,092706,077942,083538,094533
0000000011,0000010000,078792,080328,093485,080379,080363,095271
0000000012,0000011000,081354,077879,093371,083393,077648,094973
0000000013,0000012000,084182,076048,092374,086692,075654,093667
0000000014,0000013000,087035,074978,090590,089950,074582,091481
0000000015,0000014000,089633,074782,088189,092853,074533,088627
0000000016,0000015000,091692,075501,085411,095111,075515,085388
0000000017,0000016000,093028,077042,082535,096509,077423,082081
0000000018,0000017000,093526,079249,079830,096903,080084,079026
0000000019,0000018000,093108,081936,077560,096259,083231,076523
0000000020,0000019000,091825,084819,075960,094642,086551,074820
0000000021,0000020000,089822,087600,075181,092209,089722,074083
0000000022,0000021000,087268,090042,075294,089189,092443,074381
0000000023,0000022000,084417,091896,076292,085892,094435,075687
0000000024,0000023000,081572,092957,078075,082635,095506,077872
0000000025,0000024000,078990,093137,080478,079732,095555,080726
0000000026,0000025000,076913,092436,083255,077471,094577,083966
0000000027,0000026000,075573,090900,086131,076078,092663,087273
0000000028,0000027000,075094,088673,088837,075682,090004,090328
0000000029,0000028000,075504,085994,091105,076323,086860,092831
0000000030,0000029000,076773,083126,092705,077941,083539,094534
0000000031,0000030000,078793,080326,093485,080378,080365,095271
0000000032,0000031000,081349,077884,093372,083393,077648,094973
0000000033,0000032000,084185,076045,092374,086691,075655,093667
0000000034,0000033000,087038,074976,090590,089950,074582,091482
0000000035,0000034000,089629,074785,088189,092851,074535,088628
0000000036,0000035000,091691,075502,085411,095112,075514,085388
0000000037,0000036000,093034,077036,082535,096507,077425,082082
0000000038,0000037000,093524,079251,079830,096902,080085,079027
0000000039,0000038000,093104,081940,077561,096259,083231,076524
0000000040,0000039000,091830,084814,075960,094643,086550,074821
0000000041,0000040000,089824,087599,075180,092207,089724,074083
0000000042,0000041000,087262,090047,075294,089189,092442,074382
0000000043,0000042000,084418,091895,076291,085893,094434,075687
0000000044,0000043000,081577,092952,078075,082635,095506,077872
0000000045,0000044000,078985,093142,080477,079731,095556,080726
0000000046,0000045000,076911,092438,083255,077472,094576,083966
0000000047,0000046000,075578,090896,086131,076077,092664,087272
0000000048,0000047000,075093,088674,088836,075681,090005,090327
0000000049,0000048000,075500,085999,091105,076323,086860,092830
0000000050,0000049000,076777,083122,092705,077942,083539,094533
0000000051,0000050000,078794,080325,093485,080376,080366,095271
0000000052,0000051000,081344,077888,093372,083392,077649,094973
0000000053,0000052000,084185,076045,092374,086691,075655,093667
0000000054,0000053000,087041,074972,090591,089948,074583,091482
0000000055,0000054000,089626,074788,088189,092850,074535,088628
0000000056,0000055000,091690,075502,085411,095111,075514,085389
0000000057,0000056000,093037,077033,082535,096507,077425,082082
0000000058,0000057000,093523,079251,079830,096901,080085,079028
0000000059,0000058000,093103,081941,077561,096259,083230,076525
0000000060,0000059000,091833,084811,075960,094643,086549,074822
0000000061,0000060000,089824,087599,075181,092206,089724,074084
0000000062,0000061000,087261,090049,075294,089190,092442,074382
0000000063,0000062000,084421,091893,076291,085893,094433,075687
0000000064,0000063000,081577,092952,078075,082635,095506,077873
0000000065,0000064000,078983,093145,080476,079732,095555,080726
0000000066,0000065000,076913,092437,083254,077473,094575,083965
0000000067,0000066000,075579,090895,086130,076078,092664,087272
0000000068,0000067000,075090,088678,088836,075681,090006,090326
0000000069,0000068000,075500,085999,091105,076324,086860,092829
0000000070,0000069000,076778,083120,092705,077941,083540,094532
0000000071,0000070000,078791,080328,093486,080376,080367,095270
0000000072,0000071000,081343,077889,093372,083392,077650,094972
0000000073,0000072000,084187,076041,092375,086690,075656,093667
0000000074,0000073000,087039,074973,090592,089947,074585,091482
0000000075,0000074000,089623,074790,088190,092849,074536,088628
0000000076,0000075000,091693,075499,085412,095110,075514,085389
0000000077,0000076000,093037,077031,082536,096505,077426,082083
0000000078,0000077000,093520,079254,079831,096900,080085,079029
0000000079,0000078000,093105,081938,077561,096258,083229,076526
0000000080,0000079000,091837,084807,075960,094642,086549,074823
0000000081,0000080000,089823,087601,075180,092206,089723,074085
0000000082,0000081000,087262,090049,075293,089190,092440,074383
0000000083,0000082000,084425,091889,076290,085894,094432,075688
0000000084,0000083000,081577,092954,078073,082636,095505,077873
0000000085,0000084000,078982,093147,080475,079734,095554,080726
0000000086,0000085000,076916,092436,083252,077474,094575,083965
0000000087,0000086000,075579,090896,086129,076079,092664,087271
0000000088,0000087000,075087,088682,088835,075683,090006,090325
0000000089,0000088000,075500,085999,091104,076325,086860,092828
0000000090,0000089000,076778,083120,092706,077941,083542,094531
0000000091,0000090000,078787,080331,093486,080376,080369,095269
0000000092,0000091000,081342,077890,093373,083392,077651,094971
0000000093,0000092000,084188,076039,092377,086689,075658,093666
0000000094,0000093000,087036,074974,090594,089945,074587,091482
0000000095,0000094000,089622,074790,088192,092847,074537,088629
0000000096,0000095000,091695,075495,085414,095108,075515,085391
0000000097,0000096000,093037,077030,082538,096502,077426,082085
0000000098,0000097000,093520,079253,079831,096898,080085,079031
0000000099,0000098000,093108,081935,077561,096257,083228,076528
0000000100,0000099000,091838,084806,075960,094641,086548,074825
0000000101,0000100000,089823,087602,075179,092206,089721,074087
0000000102,0000101000,087266,090047,075291,089191,092437,074385
0000000103,0000102000,084428,091888,076288,085895,094430,075689
0000000104,0000103000,081576,092957,078072,082638,095503,077873
0000000105,0000104000,078984,093148,080473,079736,095552,080725
0000000106,0000105000,076918,092436,083251,077477,094574,083963
0000000107,0000106000,075577,090900,086128,076081,092664,087269
0000000108,0000107000,075086,088685,088834,075685,090006,090322
0000000109,0000108000,075501,085999,091104,076327,086862,092825
0000000110,0000109000,076775,083123,092706,077942,083544,094528
0000000111,0000110000,078783,080334,093487,080376,080372,095266
0000000112,0000111000,081341,077888,093375,083391,077654,094969
0000000113,0000112000,084186,076039,092379,086687,075662,093665
0000000114,0000113000,087032,074976,090596,089942,074590,091482
0000000115,0000114000,089622,074787,088194,092844,074539,088630
0000000116,0000115000,091696,075492,085416,095104,075517,085392
0000000117,0000116000,093035,077029,082540,096499,077427,082088
0000000118,0000117000,093521,079251,079833,096896,080084,079034
0000000119,0000118000,093112,081930,077562,096255,083227,076532
0000000120,0000119000,091839,084805,075960,094639,086546,074828
0000000121,0000120000,089825,087601,075178,092206,089717,074090
0000000122,0000121000,087270,090044,075290,089192,092434,074387
0000000123,0000122000,084430,091889,076286,085896,094427,075690
0000000124,0000123000,081577,092959,078068,082641,095500,077873
0000000125,0000124000,078987,093148,080469,079740,095549,080725
0000000126,0000125000,076919,092438,083248,077480,094572,083962
0000000127,0000126000,075574,090905,086125,076084,092664,087266
0000000128,0000127000,075085,088687,088832,075688,090006,090319
0000000129,0000128000,075500,086001,091103,076329,086864,092821
0000000130,0000129000,076771,083127,092706,077943,083547,094524
0000000131,0000130000,078780,080336,093488,080376,080375,095263
0000000132,0000131000,081339,077888,093377,083389,077658,094966
0000000133,0000132000,084182,076040,092382,086684,075666,093664
0000000134,0000133000,087029,074976,090599,089939,074593,091481
0000000135,0000134000,089622,074784,088198,092840,074542,088631
0000000136,0000135000,091695,075489,085420,095100,075519,085395
0000000137,0000136000,093035,077027,082542,096495,077428,082091
0000000138,0000137000,093524,079246,079834,096892,080083,079038
0000000139,0000138000,093115,081926,077563,096252,083225,076536
0000000140,0000139000,091842,084803,075959,094638,086543,074833
0000000141,0000140000,089829,087598,075176,092206,089713,074094
0000000142,0000141000,087275,090042,075287,089194,092430,074390
0000000143,0000142000,084432,091890,076282,085899,094422,075692
0000000144,0000143000,081579,092961,078064,082645,095495,077874
0000000145,0000144000,078990,093149,080465,079745,095546,080724
0000000146,0000145000,076918,092442,083244,077485,094570,083959
0000000147,0000146000,075573,090909,086122,076089,092663,087262
0000000148,0000147000,075084,088690,088830,075692,090007,090314
0000000149,0000148000,075496,086005,091102,076331,086866,092816
0000000150,0000149000,076765,083132,092707,077944,083550,094519
0000000151,0000150000,078776,080338,093490,080376,080379,095259
0000000152,0000151000,081335,077889,093380,083387,077663,094963
0000000153,0000152000,084176,076042,092386,086680,075671,093662
0000000154,0000153000,087026,074974,090604,089935,074598,091481
0000000155,0000154000,089621,074780,088203,092835,074546,088632
0000000156,0000155000,091693,075486,085424,095094,075522,085398
0000000157,0000156000,093035,077023,082546,096490,077429,082095
0000000158,0000157000,093528,079240,079837,096888,080083,079043
0000000159,0000158000,093118,081922,077564,096249,083223,076542
0000000160,0000159000,091845,084800,075959,094637,086538,074839
0000000161,0000160000,089835,087594,075174,092207,089708,074099
0000000162,0000161000,087280,090040,075284,089196,092424,074394
0000000163,0000162000,084435,091891,076278,085903,094416,075694
0000000164,0000163000,081584,092961,078059,082650,095489,077874
0000000165,0000164000,078992,093152,080460,079750,095541,080722
0000000166,0000165000,076918,092447,083239,077491,094567,083956
0000000167,0000166000,075572,090915,086118,076095,092661,087257
0000000168,0000167000,075082,088695,088827,075697,090008,090308
0000000169,0000168000,075491,086011,091101,076335,086869,092810
0000000170,0000169000,076760,083137,092707,077946,083555,094513
0000000171,0000170000,078772,080340,093492,080375,080385,095253
0000000172,0000171000,081329,077891,093384,083385,077670,094959
0000000173,0000172000,084171,076043,092391,086676,075678,093659
0000000174,0000173000,087023,074971,090610,089929,074604,091481
0000000175,0000174000,089619,074776,088209,092828,074552,088634
0000000176,0000175000,091692,075483,085430,095087,075526,085401
0000000177,0000176000,093037,077017,082550,096483,077430,082101
0000000178,0000177000,093531,079233,079840,096882,080082,079050
0000000179,0000178000,093122,081917,077565,096244,083220,076549
0000000180,0000179000,091851,084795,075958,094635,086533,074846
0000000181,0000180000,089843,087589,075172,092207,089701,074106
0000000182,0000181000,087286,090038,075280,089198,092416,074399
0000000183,0000182000,084441,091892,076272,085908,094408,075697
0000000184,0000183000,081589,092963,078052,082657,095482,077875
0000000185,0000184000,078995,093156,080453,079758,095536,080720
0000000186,0000185000,076918,092454,083233,077499,094563,083951
0000000187,0000186000,075571,090921,086112,076103,092660,087251
0000000188,0000187000,075079,088701,088823,075703,090009,090301
0000000189,0000188000,075485,086019,091100,076339,086873,092801
0000000190,0000189000,076754,083143,092708,077949,083560,094505
0000000191,0000190000,078765,080344,093495,080375,080393,095246
0000000192,0000191000,081321,077894,093389,083382,077679,094953
0000000193,0000192000,084164,076043,092397,086671,075687,093656
0000000194,0000193000,087019,074968,090617,089922,074612,091480
0000000195,0000194000,089615,074772,088217,092819,074558,088636
0000000196,0000195000,091690,075477,085437,095078,075530,085406
0000000197,0000196000,093040,077008,082556,096475,077431,082108
0000000198,0000197000,093535,079225,079845,096874,080081,079059
0000000199,0000198000,093127,081910,077567,096239,083216,076559
0000000200,0000199000,091859,084787,075957,094632,086527,074855
0000000201,0000200000,089851,087584,075169,092207,089693,074114
0000000202,0000201000,087293,090036,075274,089201,092407,074405
0000000203,0000202000,084448,091891,076264,085914,094399,075701
0000000204,0000203000,081596,092964,078044,082665,095474,077876
0000000205,0000204000,078998,093161,080445,079767,095529,080718
0000000206,0000205000,076919,092461,083225,077509,094559,083946
0000000207,0000206000,075570,090928,086106,076112,092658,087243
0000000208,0000207000,075074,088711,088819,075711,090011,090291
0000000209,0000208000,075478,086028,091098,076345,086877,092791
0000000210,0000209000,076746,083149,092709,077951,083567,094495
0000000211,0000210000,078756,080349,093499,080375,080402,095237
0000000212,0000211000,081312,077898,093395,083378,077689,094946
0000000213,0000212000,084157,076042,092405,086665,075697,093652
0000000214,0000213000,087013,074965,090626,089913,074622,091479
0000000215,0000214000,089610,074768,088226,092809,074566,088639
0000000216,0000215000,091689,075469,085445,095067,075535,085412
0000000217,0000216000,093042,076999,082563,096464,077433,082116
0000000218,0000217000,093539,079216,079849,096866,080079,079069
0000000219,0000218000,093134,081901,077569,096233,083211,076570
0000000220,0000219000,091869,084779,075956,094629,086519,074866
0000000221,0000220000,089861,087578,075165,092207,089683,074123
0000000222,0000221000,087303,090034,075267,089205,092396,074413
0000000223,0000222000,084458,091891,076256,085921,094387,075705
0000000224,0000223000,081603,092967,078034,082674,095463,077876
0000000225,0000224000,079002,093168,080435,079778,095520,080715
0000000226,0000225000,076920,092469,083215,077521,094553,083940
0000000227,0000226000,075568,090938,086098,076123,092656,087234
0000000228,0000227000,075068,088722,088814,075721,090012,090280
0000000229,0000228000,075470,086038,091095,076352,086882,092779
0000000230,0000229000,076737,083157,092710,077955,083576,094483
0000000231,0000230000,078745,080356,093503,080374,080413,095226
0000000232,0000231000,081301,077902,093402,083374,077701,094938
0000000233,0000232000,084148,076042,092415,086657,075710,093647
0000000234,0000233000,087005,074962,090637,089902,074633,091478
0000000235,0000234000,089605,074762,088237,092797,074575,088642
0000000236,0000235000,091689,075460,085456,095054,075541,085419
0000000237,0000236000,093044,076988,082572,096452,077436,082126
0000000238,0000237000,093544,079205,079855,096855,080077,079081
0000000239,0000238000,093143,081890,077572,096226,083205,076583
0000000240,0000239000,091880,084769,075955,094625,086510,074879
0000000241,0000240000,089872,087572,075160,092208,089671,074135
0000000242,0000241000,087314,090030,075260,089210,092382,074421
0000000243,0000242000,084468,091890,076246,085929,094374,075710
0000000244,0000243000,081610,092971,078023,082685,095451,077877
0000000245,0000244000,079006,093175,080423,079792,095510,080712
0000000246,0000245000,076922,092478,083204,077535,094546,083933
0000000247,0000246000,075566,090949,086089,076137,092654,087223
0000000248,0000247000,075062,088735,088807,075732,090015,090267
0000000249,0000248000,075462,086050,091093,076360,086889,092765
0000000250,0000249000,076726,083168,092711,077958,083586,094469
0000000251,0000250000,078732,080364,093508,080373,080426,095214
0000000252,0000251000,081288,077906,093410,083369,077716,094929
0000000253,0000252000,084137,076042,092426,086648,075724,093642
0000000254,0000253000,086996,074958,090650,089890,074647,091477
0000000255,0000254000,089600,074754,088250,092782,074586,088645
0000000256,0000255000,091688,075449,085468,095039,075548,085427
0000000257,0000256000,093047,076975,082582,096438,077438,082138
0000000258,0000257000,093551,079192,079862,096843,080075,079095
0000000259,0000258000,093153,081876,077575,096217,083198,076598
0000000260,0000259000,091892,084758,075954,094621,086499,074894
0000000261,0000260000,089885,087564,075155,092208,089657,074148
0000000262,0000261000,087328,090025,075250,089215,092367,074431
0000000263,0000262000,084481,091890,076234,085939,094358,075716
0000000264,0000263000,081619,092976,078009,082699,095437,077878
0000000265,0000264000,079013,093183,080408,079807,095499,080708
0000000266,0000265000,076924,092489,083191,077551,094539,083924
0000000267,0000266000,075563,090963,086078,076152,092651,087211
0000000268,0000267000,075055,088749,088800,075745,090017,090252
0000000269,0000268000,075451,086063,091089,076369,086896,092748
0000000270,0000269000,076712,083180,092713,077963,083598,094453
0000000271,0000270000,078717,080374,093514,080373,080441,095200
0000000272,0000271000,081274,077910,093420,083363,077732,094918
0000000273,0000272000,084124,076042,092439,086637,075741,093636
0000000274,0000273000,086985,074954,090665,089875,074662,091476
0000000275,0000274000,089594,074745,088265,092766,074598,088650
0000000276,0000275000,091686,075436,085482,095022,075556,085436
0000000277,0000276000,093050,076961,082594,096421,077441,082151
0000000278,0000277000,093558,079176,079870,096830,080072,079112
0000000279,0000278000,093165,081861,077578,096208,083190,076616
0000000280,0000279000,091906,084745,075953,094616,086486,074911
0000000281,0000280000,089901,087554,075148,092209,089641,074163
0000000282,0000281000,087344,090020,075240,089222,092349,074443
0000000283,0000282000,084495,091890,076220,085950,094340,075723
0000000284,0000283000,081630,092981,077993,082714,095420,077879
0000000285,0000284000,079020,093192,080392,079825,095486,080703
0000000286,0000285000,076926,092502,083176,077569,094531,083914
0000000287,0000286000,075559,090979,086066,076169,092648,087196
0000000288,0000287000,075047,088766,088791,075760,090020,090234
0000000289,0000288000,075439,086079,091086,076379,086905,092730
0000000290,0000289000,076696,083194,092714,077968,083611,094434
0000000291,0000290000,078700,080384,093521,080372,080458,095184
0000000292,0000291000,081258,077915,093431,083356,077751,094906
0000000293,0000292000,084108,076042,092454,086625,075760,093629
0000000294,0000293000,086973,074949,090682,089859,074679,091475
0000000295,0000294000,089586,074735,088282,092747,074612,088655
0000000296,0000295000,091684,075422,085498,095002,075565,085447
0000000297,0000296000,093053,076944,082607,096403,077444,082167
0000000298,0000297000,093567,079158,079879,096814,080069,079130
0000000299,0000298000,093178,081844,077582,096197,083181,076636
0000000300,0000299000,091922,084731,075951,094611,086472,074931
0000000301,0000300000,089919,087543,075141,092210,089623,074180
