DIgSILENT PowerFactory,21000900,2000
6,06A,00D
1,TTPP_200000_100:Secondary Voltage A,,,V,0.10000000,-8358.449219,0.000000,67077,99998,1,1,P
2,TTPP_200000_100:Secondary Voltage B,,,V,0.10000000,-7985.109863,0.000000,62696,99998,1,1,P
3,TTPP_200000_100:Secondary Voltage C,,,V,0.10000000,-8290.942383,0.000000,64888,99998,1,1,P
4,TTCC_500_5:Secondary Current A,,,A,0.0010000000,-87.571922,0.000000,69891,99998,1,1,P
5,TTCC_500_5:Secondary Current B,,,A,0.0010000000,-85.172867,0.000000,70236,99998,1,1,P
6,TTCC_500_5:Secondary Current C,,,A,0.0010000000,-84.663582,0.000000,69276,99998,1,1,P
50
1
1000.000000,1101
30/06/2023,06:07:46.000000
30/06/2023,06:07:46.000000
ASCII
1.000000
0000000001,0000000000,089097,083491,073757,093488,089852,074068
0000000002,0000001000,086548,085925,073871,090473,092568,074367
0000000003,0000002000,083697,087780,074869,087173,094563,075672
0000000004,0000003000,080851,088842,076652,083918,095633,077858
0000000005,0000004000,078267,089024,079054,081013,095683,080712
0000000006,0000005000,076195,088318,081832,078753,094704,083952
0000000007,0000006000,074849,086787,084707,077359,092791,087258
0000000008,0000007000,074376,084557,087413,076964,090131,090313
0000000009,0000008000,074784,081878,089682,077604,086987,092817
0000000010,0000009000,076052,079012,091283,079223,083666,094519
0000000011,0000010000,078071,076213,092061,081660,080491,095257
0000000012,0000011000,080633,073764,091948,084674,077776,094959
0000000013,0000012000,083461,071933,090951,087973,075782,093653
0000000014,0000013000,086315,070862,089166,091232,074709,091468
0000000015,0000014000,088912,070668,086765,094134,074661,088613
0000000016,0000015000,090972,071386,083987,096392,075642,085374
0000000017,0000016000,092307,072927,081111,097790,077551,082067
0000000018,0000017000,092806,075133,078406,098184,080212,079012
0000000019,0000018000,092387,077821,076137,097540,083359,076509
0000000020,0000019000,091105,080703,074537,095924,086678,074806
0000000021,0000020000,089102,083485,073757,093490,089850,074069
0000000022,0000021000,086547,085926,073871,090470,092571,074367
0000000023,0000022000,083696,087782,074868,087173,094562,075673
0000000024,0000023000,080851,088842,076652,083917,095633,077858
0000000025,0000024000,078270,089022,079054,081014,095683,080712
0000000026,0000025000,076192,088321,081831,078752,094705,083952
0000000027,0000026000,074852,086785,084707,077359,092791,087259
0000000028,0000027000,074374,084557,087413,076963,090132,090314
0000000029,0000028000,074783,081879,089682,077604,086987,092817
0000000030,0000029000,076053,079011,091282,079222,083666,094520
0000000031,0000030000,078073,076211,092062,081659,080492,095257
0000000032,0000031000,080628,073769,091948,084674,077776,094959
0000000033,0000032000,083464,071931,090951,087973,075782,093653
0000000034,0000033000,086317,070861,089167,091231,074710,091468
0000000035,0000034000,088909,070670,086766,094132,074662,088614
0000000036,0000035000,090970,071387,083987,096393,075641,085374
0000000037,0000036000,092313,072921,081111,097789,077552,082068
0000000038,0000037000,092803,075136,078406,098183,080212,079013
0000000039,0000038000,092383,077824,076137,097540,083358,076510
0000000040,0000039000,091110,080699,074536,095924,086677,074807
0000000041,0000040000,089104,083484,073757,093488,089851,074069
0000000042,0000041000,086542,085932,073871,090471,092570,074368
0000000043,0000042000,083698,087779,074868,087174,094562,075673
0000000044,0000043000,080856,088837,076652,083916,095634,077858
0000000045,0000044000,078265,089027,079054,081013,095684,080712
0000000046,0000045000,076191,088323,081831,078753,094703,083952
0000000047,0000046000,074858,086780,084707,077359,092791,087258
0000000048,0000047000,074372,084559,087413,076962,090133,090313
0000000049,0000048000,074779,081884,089682,077605,086987,092816
0000000050,0000049000,076056,079007,091282,079223,083666,094519
0000000051,0000050000,078074,076210,092062,081657,080494,095257
0000000052,0000051000,080624,073773,091949,084674,077776,094959
0000000053,0000052000,083465,071929,090951,087972,075783,093653
0000000054,0000053000,086320,070857,089167,091230,074711,091468
0000000055,0000054000,088905,070673,086766,094131,074663,088614
0000000056,0000055000,090970,071387,083988,096392,075641,085375
0000000057,0000056000,092316,072917,081112,097788,077552,082068
0000000058,0000057000,092802,075136,078407,098182,080213,079014
0000000059,0000058000,092382,077826,076137,097540,083358,076511
0000000060,0000059000,091113,080695,074537,095924,086677,074808
0000000061,0000060000,089104,083484,073757,093487,089851,074070
0000000062,0000061000,086541,085934,073870,090471,092569,074368
0000000063,0000062000,083700,087778,074867,087174,094561,075673
0000000064,0000063000,080857,088837,076651,083916,095633,077859
0000000065,0000064000,078263,089030,079053,081013,095683,080712
0000000066,0000065000,076192,088322,081830,078754,094703,083951
0000000067,0000066000,074858,086780,084707,077359,092792,087258
0000000068,0000067000,074370,084563,087412,076962,090133,090312
0000000069,0000068000,074779,081884,089681,077605,086988,092815
0000000070,0000069000,076058,079005,091282,079222,083667,094518
0000000071,0000070000,078070,076213,092062,081657,080495,095256
0000000072,0000071000,080622,073774,091949,084673,077777,094958
0000000073,0000072000,083467,071926,090952,087971,075784,093653
0000000074,0000073000,086318,070858,089168,091228,074712,091468
0000000075,0000074000,088903,070675,086767,094130,074664,088615
0000000076,0000075000,090973,071384,083989,096391,075642,085376
0000000077,0000076000,092317,072916,081113,097786,077553,082070
0000000078,0000077000,092799,075139,078407,098181,080213,079015
0000000079,0000078000,092385,077823,076137,097540,083357,076512
0000000080,0000079000,091116,080692,074537,095923,086676,074809
0000000081,0000080000,089102,083486,073757,093487,089850,074071
0000000082,0000081000,086542,085934,073869,090472,092567,074369
0000000083,0000082000,083705,087774,074866,087175,094559,075674
0000000084,0000083000,080856,088839,076650,083917,095633,077859
0000000085,0000084000,078262,089032,079051,081015,095682,080712
0000000086,0000085000,076195,088321,081829,078756,094702,083951
0000000087,0000086000,074858,086781,084706,077360,092792,087257
0000000088,0000087000,074366,084567,087412,076964,090134,090311
0000000089,0000088000,074780,081884,089681,077606,086988,092814
0000000090,0000089000,076058,079005,091282,079222,083669,094517
0000000091,0000090000,078066,076216,092063,081657,080497,095255
0000000092,0000091000,080621,073775,091950,084673,077779,094957
0000000093,0000092000,083467,071924,090953,087970,075786,093653
0000000094,0000093000,086315,070859,089170,091226,074714,091468
0000000095,0000094000,088901,070675,086768,094128,074665,088615
0000000096,0000095000,090974,071380,083990,096389,075643,085377
0000000097,0000096000,092316,072915,081114,097783,077554,082071
0000000098,0000097000,092799,075138,078408,098179,080212,079017
0000000099,0000098000,092388,077820,076138,097538,083356,076514
0000000100,0000099000,091118,080691,074537,095922,086675,074811
0000000101,0000100000,089102,083487,073756,093487,089848,074073
0000000102,0000101000,086545,085932,073868,090473,092565,074371
0000000103,0000102000,083707,087773,074865,087176,094558,075675
0000000104,0000103000,080856,088842,076648,083919,095631,077859
0000000105,0000104000,078263,089033,079049,081018,095679,080711
0000000106,0000105000,076197,088321,081827,078758,094701,083949
0000000107,0000106000,074856,086785,084704,077362,092792,087255
0000000108,0000107000,074365,084570,087410,076966,090134,090308
0000000109,0000108000,074780,081884,089680,077608,086989,092811
0000000110,0000109000,076054,079008,091283,079223,083671,094514
0000000111,0000110000,078063,076219,092064,081657,080499,095252
0000000112,0000111000,080621,073773,091951,084672,077781,094955
0000000113,0000112000,083465,071924,090956,087968,075789,093651
0000000114,0000113000,086312,070861,089172,091223,074717,091468
0000000115,0000114000,088902,070672,086771,094126,074667,088616
0000000116,0000115000,090975,071377,083993,096385,075644,085378
0000000117,0000116000,092315,072914,081116,097780,077555,082074
0000000118,0000117000,092801,075136,078409,098177,080212,079020
0000000119,0000118000,092392,077815,076138,097536,083355,076518
0000000120,0000119000,091119,080690,074536,095921,086673,074815
0000000121,0000120000,089104,083486,073755,093487,089845,074076
0000000122,0000121000,086550,085929,073866,090474,092562,074373
0000000123,0000122000,083709,087774,074862,087178,094554,075676
0000000124,0000123000,080856,088844,076645,083922,095627,077859
0000000125,0000124000,078266,089033,079046,081021,095677,080711
0000000126,0000125000,076198,088323,081824,078761,094700,083948
0000000127,0000126000,074854,086790,084702,077365,092791,087252
0000000128,0000127000,074364,084572,087408,076969,090134,090305
0000000129,0000128000,074779,081886,089680,077610,086991,092807
0000000130,0000129000,076050,079012,091283,079224,083674,094510
0000000131,0000130000,078059,076221,092065,081657,080502,095249
0000000132,0000131000,080619,073773,091954,084671,077785,094953
0000000133,0000132000,083461,071925,090959,087965,075794,093650
0000000134,0000133000,086308,070861,089176,091220,074721,091467
0000000135,0000134000,088901,070669,086774,094121,074670,088617
0000000136,0000135000,090974,071374,083996,096381,075647,085381
0000000137,0000136000,092314,072912,081119,097776,077555,082077
0000000138,0000137000,092804,075131,078411,098174,080211,079024
0000000139,0000138000,092395,077811,076139,097533,083353,076522
0000000140,0000139000,091121,080688,074536,095919,086670,074819
0000000141,0000140000,089109,083483,073753,093488,089841,074080
0000000142,0000141000,086555,085927,073864,090475,092557,074376
0000000143,0000142000,083711,087775,074859,087180,094550,075678
0000000144,0000143000,080859,088845,076641,083926,095623,077860
0000000145,0000144000,078269,089034,079042,081026,095673,080710
0000000146,0000145000,076198,088327,081821,078766,094698,083945
0000000147,0000146000,074852,086794,084698,077370,092790,087248
0000000148,0000147000,074363,084575,087406,076973,090135,090300
0000000149,0000148000,074776,081890,089679,077612,086994,092802
0000000150,0000149000,076045,079017,091283,079225,083678,094505
0000000151,0000150000,078056,076223,092066,081657,080507,095245
0000000152,0000151000,080615,073774,091957,084668,077791,094949
0000000153,0000152000,083456,071927,090963,087961,075799,093648
0000000154,0000153000,086306,070859,089180,091216,074725,091467
0000000155,0000154000,088900,070665,086779,094116,074674,088618
0000000156,0000155000,090973,071371,084001,096375,075650,085384
0000000157,0000156000,092315,072908,081122,097771,077556,082081
0000000158,0000157000,092807,075124,078414,098169,080210,079030
0000000159,0000158000,092398,077807,076141,097530,083351,076528
0000000160,0000159000,091125,080685,074535,095918,086666,074825
0000000161,0000160000,089115,083479,073751,093488,089835,074085
0000000162,0000161000,086560,085925,073860,090477,092551,074380
0000000163,0000162000,083715,087776,074854,087184,094544,075680
0000000164,0000163000,080863,088846,076636,083931,095617,077860
0000000165,0000164000,078272,089037,079037,081032,095669,080708
0000000166,0000165000,076197,088332,081816,078772,094695,083942
0000000167,0000166000,074851,086800,084694,077376,092789,087243
0000000168,0000167000,074362,084580,087403,076978,090136,090294
0000000169,0000168000,074771,081896,089678,077616,086997,092796
0000000170,0000169000,076039,079022,091284,079227,083682,094499
0000000171,0000170000,078051,076225,092069,081657,080513,095239
0000000172,0000171000,080609,073776,091961,084666,077798,094945
0000000173,0000172000,083450,071928,090968,087957,075806,093645
0000000174,0000173000,086302,070856,089186,091210,074732,091467
0000000175,0000174000,088898,070661,086785,094109,074679,088620
0000000176,0000175000,090971,071368,084006,096368,075653,085387
0000000177,0000176000,092317,072902,081127,097764,077557,082087
0000000178,0000177000,092811,075117,078417,098163,080209,079036
0000000179,0000178000,092401,077802,076142,097526,083348,076535
0000000180,0000179000,091131,080679,074535,095916,086661,074832
0000000181,0000180000,089122,083474,073748,093488,089829,074092
0000000182,0000181000,086565,085923,073856,090479,092544,074385
0000000183,0000182000,083720,087777,074848,087189,094536,075683
0000000184,0000183000,080869,088848,076629,083938,095610,077861
0000000185,0000184000,078275,089041,079030,081039,095663,080706
0000000186,0000185000,076197,088339,081809,078780,094691,083937
0000000187,0000186000,074851,086806,084689,077384,092787,087237
0000000188,0000187000,074358,084587,087400,076985,090137,090287
0000000189,0000188000,074764,081904,089676,077621,087000,092787
0000000190,0000189000,076033,079028,091284,079230,083688,094491
0000000191,0000190000,078044,076229,092072,081656,080521,095232
0000000192,0000191000,080600,073779,091966,084663,077806,094939
0000000193,0000192000,083443,071928,090974,087952,075814,093642
0000000194,0000193000,086298,070853,089194,091203,074740,091466
0000000195,0000194000,088894,070657,086793,094100,074686,088622
0000000196,0000195000,090970,071362,084013,096359,075657,085392
0000000197,0000196000,092319,072893,081133,097756,077559,082094
0000000198,0000197000,092815,075110,078421,098155,080208,079045
0000000199,0000198000,092407,077795,076144,097520,083343,076545
0000000200,0000199000,091139,080672,074534,095913,086654,074841
0000000201,0000200000,089131,083469,073745,093488,089821,074100
0000000202,0000201000,086573,085921,073851,090482,092535,074391
0000000203,0000202000,083728,087776,074841,087195,094526,075687
0000000204,0000203000,080875,088849,076621,083946,095601,077862
0000000205,0000204000,078277,089046,079022,081048,095656,080704
0000000206,0000205000,076198,088346,081801,078790,094686,083932
0000000207,0000206000,074850,086813,084682,077393,092786,087229
0000000208,0000207000,074354,084596,087396,076992,090138,090277
0000000209,0000208000,074758,081913,089674,077626,087005,092777
0000000210,0000209000,076026,079034,091285,079233,083695,094481
0000000211,0000210000,078035,076234,092076,081656,080530,095223
0000000212,0000211000,080591,073783,091972,084659,077817,094932
0000000213,0000212000,083436,071927,090982,087946,075825,093638
0000000214,0000213000,086292,070850,089203,091194,074749,091465
0000000215,0000214000,088890,070653,086802,094090,074694,088625
0000000216,0000215000,090969,071354,084022,096348,075662,085398
0000000217,0000216000,092321,072884,081140,097745,077561,082102
0000000218,0000217000,092819,075100,078426,098147,080207,079055
0000000219,0000218000,092414,077786,076146,097514,083339,076556
0000000220,0000219000,091148,080664,074533,095910,086646,074852
0000000221,0000220000,089140,083463,073741,093488,089811,074109
0000000222,0000221000,086582,085919,073844,090486,092523,074399
0000000223,0000222000,083737,087776,074832,087202,094515,075691
0000000224,0000223000,080882,088852,076611,083955,095591,077862
0000000225,0000224000,078281,089053,079011,081060,095648,080701
0000000226,0000225000,076200,088354,081792,078802,094680,083926
0000000227,0000226000,074848,086823,084675,077405,092784,087220
0000000228,0000227000,074348,084607,087390,077002,090140,090266
0000000229,0000228000,074750,081923,089672,077633,087010,092765
0000000230,0000229000,076016,079042,091286,079236,083704,094469
0000000231,0000230000,078024,076241,092080,081655,080541,095212
0000000232,0000231000,080580,073787,091979,084655,077829,094924
0000000233,0000232000,083427,071927,090991,087938,075837,093633
0000000234,0000233000,086284,070847,089214,091183,074761,091464
0000000235,0000234000,088885,070647,086813,094078,074703,088628
0000000236,0000235000,090968,071345,084032,096335,075668,085405
0000000237,0000236000,092324,072873,081149,097733,077563,082112
0000000238,0000237000,092824,075090,078432,098136,080205,079067
0000000239,0000238000,092422,077775,076148,097507,083333,076569
0000000240,0000239000,091159,080654,074532,095906,086637,074865
0000000241,0000240000,089151,083457,073737,093489,089799,074121
0000000242,0000241000,086594,085915,073836,090491,092510,074407
0000000243,0000242000,083748,087775,074822,087211,094501,075696
0000000244,0000243000,080890,088856,076599,083967,095579,077863
0000000245,0000244000,078286,089060,078999,081073,095638,080698
0000000246,0000245000,076201,088363,081781,078816,094674,083919
0000000247,0000246000,074845,086834,084665,077418,092781,087209
0000000248,0000247000,074341,084620,087384,077013,090142,090253
0000000249,0000248000,074741,081935,089669,077641,087016,092751
0000000250,0000249000,076005,079053,091288,079240,083714,094455
0000000251,0000250000,078011,076249,092085,081655,080554,095200
0000000252,0000251000,080568,073791,091987,084650,077843,094915
0000000253,0000252000,083416,071926,091002,087929,075852,093628
0000000254,0000253000,086275,070843,089226,091171,074774,091463
0000000255,0000254000,088879,070639,086826,094063,074713,088632
0000000256,0000255000,090967,071334,084044,096320,075675,085413
0000000257,0000256000,092326,072860,081159,097719,077566,082124
0000000258,0000257000,092830,075076,078439,098124,080203,079081
0000000259,0000258000,092433,077761,076151,097499,083326,076584
0000000260,0000259000,091172,080643,074531,095902,086626,074880
0000000261,0000260000,089165,083449,073731,093490,089785,074134
0000000262,0000261000,086608,085910,073827,090497,092494,074417
0000000263,0000262000,083760,087775,074810,087220,094486,075702
0000000264,0000263000,080899,088861,076585,083980,095564,077864
0000000265,0000264000,078292,089068,078985,081089,095626,080694
0000000266,0000265000,076203,088374,081768,078832,094667,083910
0000000267,0000266000,074842,086848,084655,077433,092779,087197
0000000268,0000267000,074334,084634,087376,077026,090145,090238
0000000269,0000268000,074731,081948,089666,077650,087024,092734
0000000270,0000269000,075991,079065,091289,079244,083726,094439
0000000271,0000270000,077996,076259,092091,081654,080569,095186
0000000272,0000271000,080553,073795,091997,084644,077860,094904
0000000273,0000272000,083403,071927,091015,087918,075869,093622
0000000274,0000273000,086265,070839,089241,091156,074789,091462
0000000275,0000274000,088873,070630,086842,094047,074726,088636
0000000276,0000275000,090965,071321,084058,096303,075683,085422
0000000277,0000276000,092329,072846,081170,097702,077569,082137
0000000278,0000277000,092838,075061,078447,098111,080200,079098
0000000279,0000278000,092445,077746,076155,097489,083318,076602
0000000280,0000279000,091186,080630,074529,095897,086614,074897
0000000281,0000280000,089180,083439,073725,093490,089769,074149
0000000282,0000281000,086624,085905,073817,090503,092477,074429
0000000283,0000282000,083774,087775,074796,087232,094468,075709
0000000284,0000283000,080910,088866,076569,083995,095548,077865
0000000285,0000284000,078299,089077,078969,081106,095613,080689
0000000286,0000285000,076205,088387,081753,078850,094658,083900
0000000287,0000286000,074838,086864,084642,077450,092776,087182
0000000288,0000287000,074326,084651,087368,077041,090147,090220
0000000289,0000288000,074719,081964,089662,077661,087032,092716
0000000290,0000289000,075976,079079,091291,079249,083739,094420
0000000291,0000290000,077979,076269,092097,081653,080586,095170
0000000292,0000291000,080537,073800,092008,084637,077879,094892
0000000293,0000292000,083388,071927,091030,087906,075888,093615
0000000294,0000293000,086253,070834,089258,091140,074807,091461
0000000295,0000294000,088866,070620,086859,094028,074740,088641
0000000296,0000295000,090963,071307,084075,096283,075692,085433
0000000297,0000296000,092332,072829,081184,097684,077572,082153
0000000298,0000297000,092847,075043,078456,098095,080197,079117
0000000299,0000298000,092458,077729,076159,097478,083309,076622
0000000300,0000299000,091202,080616,074527,095892,086600,074917
0000000301,0000300000,089199,083428,073718,093492,089751,074166
