DIgSILENT PowerFactory,21000900,2000
6,06A,00D
1,TTPP_200000_100:Secondary Voltage A,,,V,0.10000000,-8289.544922,0.000000,64784,99998,1,1,P
2,TTPP_200000_100:Secondary Voltage B,,,V,0.10000000,-8177.073730,0.000000,64797,99998,1,1,P
3,TTPP_200000_100:Secondary Voltage C,,,V,0.10000000,-8390.745117,0.000000,65526,99998,1,1,P
4,TTCC_300_1:Secondary Current A,,,A,0.00010000000,-3.263407,0.000000,-11299,99998,1,1,P
5,TTCC_300_1:Secondary Current B,,,A,0.00010000000,-5.027402,0.000000,589,99998,1,1,P
6,TTCC_300_1:Secondary Current C,,,A,0.00010000000,-4.897627,0.000000,-1811,99998,1,1,P
50
1
1000.000000,1101
30/06/2023,06:07:02.000000
30/06/2023,06:07:02.000000
ASCII
1.000000
0000000001,0000000000,090002,083245,075326,011704,036285,083896
0000000002,0000001000,087868,085963,074741,021456,027007,083421
0000000003,0000002000,085227,088293,075053,032296,020008,079580
0000000004,0000003000,082371,089973,076229,043175,015965,072744
0000000005,0000004000,079578,090834,078163,053018,015290,063575
0000000006,0000005000,077090,090826,080659,060866,018043,052975
0000000007,0000006000,075169,089940,083466,065953,023936,041995
0000000008,0000007000,074024,088232,086319,067775,032412,031697
0000000009,0000008000,073739,085893,088941,066152,042654,023080
0000000010,0000009000,074336,083171,091066,061254,053628,017003
0000000011,0000010000,075784,080301,092489,053561,064262,014062
0000000012,0000011000,077937,077563,093074,043801,073547,014535
0000000013,0000012000,080559,075254,092762,032952,080555,018377
0000000014,0000013000,083410,073579,091585,022087,084585,025214
0000000015,0000014000,086224,072696,089653,012244,085260,034382
0000000016,0000015000,088703,072714,087156,004385,082520,044981
0000000017,0000016000,090611,073614,084348,-00695,076617,055962
0000000018,0000017000,091773,075304,081497,-02513,068137,066260
0000000019,0000018000,092058,077641,078875,-00897,057905,074876
0000000020,0000019000,091446,080380,076748,004001,046929,080953
0000000021,0000020000,090008,083240,075326,011703,036287,083895
0000000022,0000021000,087862,085970,074742,021454,027009,083422
0000000023,0000022000,085225,088295,075053,032304,020002,079579
0000000024,0000023000,082379,089965,076229,043175,015966,072743
0000000025,0000024000,079575,090836,078162,053015,015293,063576
0000000026,0000025000,077083,090832,080659,060870,018038,052976
0000000027,0000026000,075174,089934,083466,065958,023932,041994
0000000028,0000027000,074027,088229,086318,067772,032416,031697
0000000029,0000028000,073732,085901,088941,066152,042652,023080
0000000030,0000029000,074337,083170,091067,061261,053621,017003
0000000031,0000030000,075790,080295,092489,053560,064263,014061
0000000032,0000031000,077932,077568,093074,043801,073549,014535
0000000033,0000032000,080556,075256,092762,032958,080550,018376
0000000034,0000033000,083415,073573,091585,022091,084581,025212
0000000035,0000034000,086224,072697,089653,012242,085263,034380
0000000036,0000035000,088699,072718,087156,004389,082517,044979
0000000037,0000036000,090614,073610,084349,-00690,076614,055961
0000000038,0000037000,091775,075302,081497,-02512,068138,066258
0000000039,0000038000,092054,077645,078874,-00897,057906,074874
0000000040,0000039000,091447,080379,076748,004005,046927,080952
0000000041,0000040000,090011,083237,075326,011703,036288,083894
0000000042,0000041000,087860,085972,074741,021454,027010,083420
0000000043,0000042000,085225,088296,075053,032305,020001,079579
0000000044,0000043000,082381,089963,076229,043175,015966,072743
0000000045,0000044000,079574,090838,078162,053014,015294,063575
0000000046,0000045000,077082,090833,080658,060871,018037,052976
0000000047,0000046000,075176,089932,083466,065957,023932,041995
0000000048,0000047000,074025,088230,086318,067772,032415,031698
0000000049,0000048000,073730,085903,088940,066154,042649,023081
0000000050,0000049000,074339,083168,091067,061261,053619,017004
0000000051,0000050000,075789,080295,092489,053560,064262,014062
0000000052,0000051000,077930,077570,093074,043804,073545,014535
0000000053,0000052000,080558,075254,092762,032961,080547,018377
0000000054,0000053000,083416,073572,091586,022092,084581,025212
0000000055,0000054000,086220,072700,089654,012246,085260,034379
0000000056,0000055000,088701,072716,087156,004393,082514,044978
0000000057,0000056000,090617,073607,084349,-00689,076615,055958
0000000058,0000057000,091772,075305,081498,-02510,068139,066256
0000000059,0000058000,092054,077645,078874,-00892,057904,074871
0000000060,0000059000,091451,080375,076748,004006,046929,080949
0000000061,0000060000,090009,083239,075326,011702,036291,083891
0000000062,0000061000,087857,085975,074741,021456,027011,083418
0000000063,0000062000,085229,088292,075052,032305,020002,079577
0000000064,0000063000,082382,089963,076229,043171,015970,072743
0000000065,0000064000,079570,090842,078162,053013,015295,063576
0000000066,0000065000,077084,090832,080658,060871,018036,052978
0000000067,0000066000,075179,089929,083465,065953,023934,041998
0000000068,0000067000,074021,088235,086318,067769,032415,031700
0000000069,0000068000,073729,085904,088940,066155,042645,023084
0000000070,0000069000,074342,083165,091067,061261,053617,017007
0000000071,0000070000,075786,080298,092490,053560,064260,014065
0000000072,0000071000,077927,077573,093074,043807,073539,014537
0000000073,0000072000,080561,075251,092763,032965,080542,018378
0000000074,0000073000,083415,073572,091587,022094,084579,025212
0000000075,0000074000,086217,072703,089654,012251,085257,034377
0000000076,0000075000,088703,072714,087157,004400,082510,044975
0000000077,0000076000,090619,073605,084350,-00685,076615,055955
0000000078,0000077000,091770,075307,081498,-02507,068139,066251
0000000079,0000078000,092056,077644,078874,-00887,057905,074867
0000000080,0000079000,091454,080372,076748,004008,046932,080945
0000000081,0000080000,090008,083240,075326,011702,036296,083887
0000000082,0000081000,087858,085975,074740,021456,027014,083415
0000000083,0000082000,085232,088290,075051,032302,020007,079575
0000000084,0000083000,082382,089964,076228,043167,015976,072742
0000000085,0000084000,079569,090844,078160,053009,015298,063577
0000000086,0000085000,077086,090830,080657,060866,018038,052980
0000000087,0000086000,075178,089931,083465,065947,023935,042002
0000000088,0000087000,074019,088238,086317,067766,032413,031706
0000000089,0000088000,073730,085903,088940,066153,042641,023090
0000000090,0000089000,074342,083165,091067,061258,053613,017013
0000000091,0000090000,075783,080301,092490,053561,064254,014070
0000000092,0000091000,077927,077572,093075,043811,073532,014541
0000000093,0000092000,080561,075249,092764,032968,080536,018380
0000000094,0000093000,083412,073574,091588,022100,084573,025212
0000000095,0000094000,086216,072702,089655,012259,085250,034376
0000000096,0000095000,088705,072711,087158,004407,082507,044971
0000000097,0000096000,090617,073605,084351,-00679,076614,055949
0000000098,0000097000,091769,075307,081498,-02499,068139,066244
0000000099,0000098000,092059,077640,078875,-00882,057907,074859
0000000100,0000099000,091455,080371,076748,004009,046939,080937
0000000101,0000100000,090007,083241,075325,011703,036302,083880
0000000102,0000101000,087861,085973,074739,021455,027021,083409
0000000103,0000102000,085235,088289,075050,032296,020016,079572
0000000104,0000103000,082380,089967,076227,043160,015983,072741
0000000105,0000104000,079570,090845,078159,053003,015303,063579
0000000106,0000105000,077089,090830,080656,060857,018043,052985
0000000107,0000106000,075176,089934,083464,065939,023938,042008
0000000108,0000107000,074017,088240,086316,067760,032411,031714
0000000109,0000108000,073731,085902,088940,066148,042637,023100
0000000110,0000109000,074339,083167,091067,061255,053608,017022
0000000111,0000110000,075780,080303,092491,053562,064244,014078
0000000112,0000111000,077927,077571,093076,043816,073521,014547
0000000113,0000112000,080560,075248,092765,032974,080527,018384
0000000114,0000113000,083409,073575,091590,022109,084563,025213
0000000115,0000114000,086216,072700,089657,012271,085241,034373
0000000116,0000115000,088706,072708,087160,004417,082502,044966
0000000117,0000116000,090616,073605,084353,-00669,076613,055941
0000000118,0000117000,091770,075305,081499,-02489,068139,066234
0000000119,0000118000,092062,077637,078875,-00876,057912,074848
0000000120,0000119000,091456,080370,076748,004012,046947,080926
0000000121,0000120000,090009,083241,075324,011703,036312,083870
0000000122,0000121000,087865,085971,074738,021451,027032,083402
0000000123,0000122000,085236,088289,075049,032289,020029,079567
0000000124,0000123000,082380,089969,076224,043151,015994,072740
0000000125,0000124000,079573,090845,078156,052991,015311,063582
0000000126,0000125000,077089,090831,080654,060844,018049,052991
0000000127,0000126000,075174,089938,083462,065927,023940,042018
0000000128,0000127000,074017,088242,086315,067751,032408,031726
0000000129,0000128000,073731,085904,088939,066140,042632,023113
0000000130,0000129000,074336,083170,091067,061251,053599,017035
0000000131,0000130000,075777,080305,092491,053563,064231,014090
0000000132,0000131000,077926,077570,093078,043820,073507,014557
0000000133,0000132000,080557,075249,092768,032982,080513,018389
0000000134,0000133000,083407,073575,091592,022121,084549,025214
0000000135,0000134000,086217,072697,089660,012285,085230,034370
0000000136,0000135000,088705,072706,087163,004431,082496,044958
0000000137,0000136000,090615,073604,084354,-00654,076609,055929
0000000138,0000137000,091772,075301,081501,-02476,068140,066220
0000000139,0000138000,092065,077633,078876,-00868,057919,074832
0000000140,0000139000,091457,080369,076748,004017,046958,080910
0000000141,0000140000,090012,083239,075323,011704,036325,083856
0000000142,0000141000,087869,085969,074736,021446,027048,083391
0000000143,0000142000,085237,088290,075046,032278,020046,079560
0000000144,0000143000,082382,089970,076221,043138,016008,072738
0000000145,0000144000,079575,090845,078153,052975,015323,063585
0000000146,0000145000,077089,090834,080651,060826,018058,053000
0000000147,0000146000,075173,089942,083459,065911,023942,042031
0000000148,0000147000,074017,088244,086313,067737,032405,031742
0000000149,0000148000,073728,085907,088939,066129,042625,023130
0000000150,0000149000,074331,083174,091068,061246,053586,017052
0000000151,0000150000,075775,080306,092493,053564,064214,014105
0000000152,0000151000,077923,077571,093080,043826,073490,014569
0000000153,0000152000,080553,075251,092771,032993,080495,018396
0000000154,0000153000,083405,073574,091595,022138,084531,025215
0000000155,0000154000,086216,072694,089663,012303,085216,034365
0000000156,0000155000,088704,072704,087166,004451,082486,044948
0000000157,0000156000,090616,073601,084357,-00634,076605,055914
0000000158,0000157000,091775,075296,081502,-02460,068143,066201
0000000159,0000158000,092067,077630,078877,-00856,057929,074812
0000000160,0000159000,091459,080367,076747,004023,046971,080890
0000000161,0000160000,090017,083236,075321,011704,036342,083838
0000000162,0000161000,087872,085967,074733,021438,027070,083377
0000000163,0000162000,085240,088291,075043,032266,020067,079552
0000000164,0000163000,082386,089971,076217,043121,016027,072737
0000000165,0000164000,079578,090847,078149,052954,015340,063590
0000000166,0000165000,077088,090838,080647,060804,018069,053011
0000000167,0000166000,075172,089946,083456,065891,023946,042048
0000000168,0000167000,074015,088247,086311,067719,032403,031763
0000000169,0000168000,073724,085911,088938,066116,042616,023153
0000000170,0000169000,074327,083178,091068,061240,053569,017075
0000000171,0000170000,075772,080308,092495,053565,064194,014125
0000000172,0000171000,077918,077572,093083,043833,073467,014584
0000000173,0000172000,080548,075251,092775,033008,080470,018406
0000000174,0000173000,083403,073571,091600,022158,084509,025217
0000000175,0000174000,086215,072691,089668,012327,085199,034360
0000000176,0000175000,088702,072701,087170,004476,082474,044935
0000000177,0000176000,090617,073596,084360,-00610,076599,055895
0000000178,0000177000,091779,075290,081505,-02440,068146,066177
0000000179,0000178000,092069,077627,078878,-00842,057940,074786
0000000180,0000179000,091464,080363,076746,004031,046989,080864
0000000181,0000180000,090023,083232,075319,011703,036366,083815
0000000182,0000181000,087877,085967,074730,021429,027096,083359
0000000183,0000182000,085243,088292,075038,032250,020093,079541
0000000184,0000183000,082390,089972,076212,043099,016051,072734
0000000185,0000184000,079579,090850,078144,052927,015360,063597
0000000186,0000185000,077088,090844,080643,060776,018082,053026
0000000187,0000186000,075172,089950,083452,065865,023951,042069
0000000188,0000187000,074013,088252,086309,067696,032399,031789
0000000189,0000188000,073719,085917,088937,066100,042603,023182
0000000190,0000189000,074322,083182,091069,061232,053549,017103
0000000191,0000190000,075767,080310,092497,053566,064168,014151
0000000192,0000191000,077912,077575,093087,043843,073438,014604
0000000193,0000192000,080543,075251,092779,033027,080440,018417
0000000194,0000193000,083400,073569,091605,022183,084481,025220
0000000195,0000194000,086212,072688,089674,012356,085177,034352
0000000196,0000195000,088701,072697,087175,004507,082459,044918
0000000197,0000196000,090620,073589,084365,-00580,076594,055871
0000000198,0000197000,091781,075285,081508,-02415,068151,066148
0000000199,0000198000,092073,077622,078879,-00823,057953,074754
0000000200,0000199000,091470,080358,076746,004041,047010,080833
0000000201,0000200000,090029,083228,075317,011702,036395,083788
0000000202,0000201000,087882,085965,074726,021418,027129,083338
0000000203,0000202000,085249,088292,075033,032230,020126,079529
0000000204,0000203000,082395,089973,076206,043071,016082,072732
0000000205,0000204000,079581,090854,078138,052894,015385,063605
0000000206,0000205000,077088,090849,080637,060742,018098,053044
0000000207,0000206000,075171,089955,083447,065832,023957,042096
0000000208,0000207000,074009,088259,086306,067668,032395,031822
0000000209,0000208000,073714,085924,088935,066080,042588,023217
0000000210,0000209000,074317,083187,091070,061222,053524,017138
0000000211,0000210000,075760,080314,092500,053566,064137,014181
0000000212,0000211000,077905,077577,093091,043855,073402,014627
0000000213,0000212000,080538,075251,092785,033050,080403,018431
0000000214,0000213000,083395,073566,091612,022214,084448,025223
0000000215,0000214000,086208,072685,089681,012392,085150,034344
0000000216,0000215000,088701,072691,087181,004545,082441,044899
0000000217,0000216000,090622,073582,084370,-00545,076587,055842
0000000218,0000217000,091784,075278,081511,-02385,068156,066113
0000000219,0000218000,092078,077615,078880,-00801,057970,074715
0000000220,0000219000,091478,080352,076745,004052,047037,080795
0000000221,0000220000,090036,083224,075314,011701,036430,083754
0000000222,0000221000,087889,085964,074721,021405,027168,083312
0000000223,0000222000,085256,088291,075026,032206,020165,079513
0000000224,0000223000,082400,089975,076199,043037,016119,072729
0000000225,0000224000,079584,090859,078131,052855,015415,063614
0000000226,0000225000,077089,090855,080630,060702,018117,053065
0000000227,0000226000,075169,089962,083442,065793,023965,042127
0000000228,0000227000,074005,088267,086302,067635,032390,031860
0000000229,0000228000,073708,085932,088934,066057,042569,023259
0000000230,0000229000,074310,083193,091070,061210,053495,017179
0000000231,0000230000,075752,080319,092503,053567,064099,014218
0000000232,0000231000,077897,077580,093097,043870,073359,014655
0000000233,0000232000,080531,075250,092792,033077,080360,018448
0000000234,0000233000,083390,073564,091620,022250,084409,025226
0000000235,0000234000,086204,072680,089689,012434,085118,034333
0000000236,0000235000,088700,072684,087189,004590,082419,044875
0000000237,0000236000,090624,073574,084376,-00503,076579,055808
0000000238,0000237000,091788,075270,081516,-02349,068162,066070
0000000239,0000238000,092085,077607,078882,-00775,057989,074670
0000000240,0000239000,091486,080344,076744,004065,047069,080750
0000000241,0000240000,090045,083219,075310,011699,036471,083715
0000000242,0000241000,087897,085961,074715,021389,027214,083282
0000000243,0000242000,085264,088291,075018,032177,020212,079496
0000000244,0000243000,082405,089978,076190,042997,016162,072725
0000000245,0000244000,079587,090865,078121,052809,015449,063626
0000000246,0000245000,077091,090862,080621,060653,018140,053091
0000000247,0000246000,075167,089971,083435,065747,023973,042164
0000000248,0000247000,074000,088277,086297,067596,032383,031906
0000000249,0000248000,073701,085940,088932,066029,042547,023309
0000000250,0000249000,074302,083200,091072,061196,053460,017228
0000000251,0000250000,075741,080325,092507,053569,064055,014260
0000000252,0000251000,077887,077583,093103,043888,073309,014688
0000000253,0000252000,080523,075250,092801,033108,080309,018467
0000000254,0000253000,083383,073561,091630,022292,084363,025229
0000000255,0000254000,086200,072674,089699,012485,085080,034320
0000000256,0000255000,088700,072675,087198,004643,082395,044847
0000000257,0000256000,090626,073564,084384,-00453,076570,055767
0000000258,0000257000,091793,075260,081521,-02307,068170,066021
0000000259,0000258000,092093,077597,078884,-00745,058013,074616
0000000260,0000259000,091495,080336,076743,004079,047107,080698
0000000261,0000260000,090054,083213,075306,011697,036519,083669
0000000262,0000261000,087908,085958,074708,021371,027267,083247
0000000263,0000262000,085273,088291,075009,032143,020267,079475
0000000264,0000263000,082412,089982,076179,042951,016211,072721
0000000265,0000264000,079592,090871,078111,052756,015489,063639
0000000266,0000265000,077092,090870,080611,060597,018166,053121
0000000267,0000266000,075165,089982,083427,065693,023983,042208
0000000268,0000267000,073994,088288,086291,067552,032374,031959
0000000269,0000268000,073694,085950,088929,065997,042522,023366
0000000270,0000269000,074291,083209,091073,061180,053420,017284
0000000271,0000270000,075730,080332,092512,053571,064003,014309
0000000272,0000271000,077877,077586,093111,043908,073251,014725
0000000273,0000272000,080513,075250,092811,033144,080251,018489
0000000274,0000273000,083375,073558,091641,022342,084310,025233
0000000275,0000274000,086196,072668,089710,012542,085037,034306
0000000276,0000275000,088699,072666,087209,004703,082367,044815
0000000277,0000276000,090628,073553,084393,-00396,076560,055721
0000000278,0000277000,091799,075248,081527,-02259,068178,065964
0000000279,0000278000,092102,077585,078887,-00711,058040,074555
0000000280,0000279000,091506,080326,076742,004096,047150,080638
0000000281,0000280000,090066,083206,075301,011695,036574,083616
0000000282,0000281000,087920,085953,074700,021349,027329,083207
0000000283,0000282000,085284,088291,074999,032104,020329,079452
0000000284,0000283000,082420,089986,076167,042899,016268,072717
0000000285,0000284000,079597,090878,078098,052694,015535,063655
0000000286,0000285000,077094,090880,080600,060532,018197,053155
0000000287,0000286000,075162,089994,083418,065633,023994,042258
0000000288,0000287000,073988,088301,086285,067501,032365,032019
0000000289,0000288000,073684,085962,088927,065960,042493,023432
0000000290,0000289000,074279,083220,091074,061162,053374,017348
0000000291,0000290000,075717,080340,092517,053574,063944,014366
0000000292,0000291000,077864,077590,093119,043931,073185,014768
0000000293,0000292000,080502,075250,092822,033186,080185,018514
0000000294,0000293000,083366,073554,091654,022398,084249,025237
0000000295,0000294000,086190,072660,089723,012608,084988,034289
0000000296,0000295000,088697,072655,087221,004771,082335,044779
0000000297,0000296000,090630,073541,084403,-00332,076548,055668
0000000298,0000297000,091806,075234,081534,-02204,068188,065900
0000000299,0000298000,092112,077572,078890,-00672,058071,074485
0000000300,0000299000,091518,080315,076740,004115,047199,080570
0000000301,0000300000,090080,083198,075295,011692,036636,083556
