DIgSILENT PowerFactory,21000900,2000
6,06A,00D
1,TTPP_200000_100:Secondary Voltage A,,,V,0.10000000,-8482.311523,0.000000,68662,99998,1,1,P
2,TTPP_200000_100:Secondary Voltage B,,,V,0.10000000,-8390.494141,0.000000,68222,99998,1,1,P
3,TTPP_200000_100:Secondary Voltage C,,,V,0.10000000,-8435.168945,0.000000,67760,99998,1,1,P
4,TTCC_500_5:Secondary Current A,,,A,0.0010000000,-86.488579,0.000000,66842,99998,1,1,P
5,TTCC_500_5:Secondary Current B,,,A,0.0010000000,-85.070877,0.000000,70151,99998,1,1,P
6,TTCC_500_5:Secondary Current C,,,A,0.0010000000,-84.714691,0.000000,69364,99998,1,1,P
50
1
1000.000000,1101
30/06/2023,06:06:47.000000
30/06/2023,06:06:47.000000
ASCII
1.000000
0000000001,0000000000,090335,087545,075199,092404,089750,074120
0000000002,0000001000,087787,089979,075313,089389,092466,074418
0000000003,0000002000,084936,091834,076311,086089,094461,075724
0000000004,0000003000,082090,092895,078094,082834,095531,077909
0000000005,0000004000,079506,093078,080496,079930,095581,080763
0000000006,0000005000,077434,092371,083274,077669,094602,084003
0000000007,0000006000,076088,090841,086149,076276,092689,087309
0000000008,0000007000,075615,088610,088855,075880,090029,090365
0000000009,0000008000,076023,085932,091124,076521,086885,092868
0000000010,0000009000,077291,083065,092725,078139,083564,094571
0000000011,0000010000,079310,080267,093504,080577,080389,095308
0000000012,0000011000,081871,077818,093390,083591,077674,095010
0000000013,0000012000,084700,075987,092393,086890,075680,093704
0000000014,0000013000,087553,074916,090609,090148,074607,091519
0000000015,0000014000,090151,074721,088207,093050,074559,088665
0000000016,0000015000,092210,075440,085430,095308,075540,085425
0000000017,0000016000,093546,076980,082554,096707,077449,082119
0000000018,0000017000,094045,079188,079848,097101,080110,079064
0000000019,0000018000,093626,081875,077579,096457,083256,076561
0000000020,0000019000,092343,084757,075979,094840,086576,074858
0000000021,0000020000,090341,087539,075200,092406,089748,074120
0000000022,0000021000,087786,089980,075313,089387,092469,074418
0000000023,0000022000,084935,091835,076310,086090,094460,075724
0000000024,0000023000,082090,092896,078094,082833,095531,077909
0000000025,0000024000,079509,093076,080496,079930,095581,080763
0000000026,0000025000,077431,092375,083273,077669,094603,084003
0000000027,0000026000,076091,090839,086149,076275,092689,087310
0000000028,0000027000,075613,088612,088855,075880,090030,090365
0000000029,0000028000,076022,085933,091124,076521,086885,092868
0000000030,0000029000,077291,083065,092724,078139,083564,094571
0000000031,0000030000,079311,080265,093504,080575,080390,095309
0000000032,0000031000,081867,077823,093391,083591,077674,095010
0000000033,0000032000,084702,075984,092393,086889,075681,093705
0000000034,0000033000,087556,074915,090609,090147,074608,091519
0000000035,0000034000,090148,074724,088208,093049,074560,088665
0000000036,0000035000,092209,075441,085430,095309,075539,085425
0000000037,0000036000,093552,076975,082553,096705,077450,082119
0000000038,0000037000,094042,079190,079849,097100,080110,079064
0000000039,0000038000,093622,081878,077580,096457,083256,076561
0000000040,0000039000,092349,084752,075979,094841,086575,074858
0000000041,0000040000,090342,087538,075199,092404,089749,074120
0000000042,0000041000,087781,089986,075313,089387,092468,074419
0000000043,0000042000,084937,091833,076310,086090,094460,075724
0000000044,0000043000,082095,092891,078094,082833,095532,077910
0000000045,0000044000,079503,093081,080496,079929,095582,080763
0000000046,0000045000,077429,092377,083273,077670,094601,084003
0000000047,0000046000,076096,090834,086149,076275,092689,087309
0000000048,0000047000,075611,088613,088855,075879,090031,090364
0000000049,0000048000,076018,085938,091124,076521,086885,092867
0000000050,0000049000,077295,083061,092724,078139,083564,094570
0000000051,0000050000,079312,080264,093504,080574,080392,095308
0000000052,0000051000,081862,077827,093391,083590,077674,095010
0000000053,0000052000,084703,075983,092393,086889,075681,093705
0000000054,0000053000,087559,074911,090610,090146,074609,091519
0000000055,0000054000,090144,074727,088208,093048,074561,088665
0000000056,0000055000,092208,075441,085430,095309,075539,085426
0000000057,0000056000,093555,076971,082554,096704,077450,082120
0000000058,0000057000,094041,079190,079849,097099,080111,079065
0000000059,0000058000,093621,081880,077579,096457,083256,076562
0000000060,0000059000,092352,084749,075979,094841,086575,074859
0000000061,0000060000,090342,087538,075199,092404,089749,074121
0000000062,0000061000,087779,089988,075313,089387,092467,074419
0000000063,0000062000,084939,091831,076309,086091,094459,075724
0000000064,0000063000,082096,092891,078093,082833,095531,077910
0000000065,0000064000,079502,093083,080495,079930,095581,080763
0000000066,0000065000,077431,092376,083272,077671,094601,084003
0000000067,0000066000,076097,090834,086149,076276,092690,087309
0000000068,0000067000,075608,088617,088855,075879,090031,090363
0000000069,0000068000,076018,085938,091124,076522,086886,092866
0000000070,0000069000,077296,083059,092724,078139,083566,094570
0000000071,0000070000,079309,080266,093505,080574,080393,095307
0000000072,0000071000,081861,077828,093391,083590,077675,095009
0000000073,0000072000,084705,075980,092394,086888,075682,093704
0000000074,0000073000,087557,074912,090611,090144,074610,091519
0000000075,0000074000,090141,074729,088209,093047,074562,088666
0000000076,0000075000,092211,075438,085431,095308,075540,085427
0000000077,0000076000,093555,076970,082555,096702,077451,082121
0000000078,0000077000,094038,079192,079849,097098,080111,079066
0000000079,0000078000,093623,081877,077580,096456,083255,076563
0000000080,0000079000,092355,084746,075979,094840,086574,074860
0000000081,0000080000,090341,087540,075199,092404,089748,074122
0000000082,0000081000,087780,089988,075312,089388,092465,074420
0000000083,0000082000,084943,091828,076308,086092,094457,075725
0000000084,0000083000,082095,092893,078092,082834,095531,077910
0000000085,0000084000,079500,093086,080494,079932,095580,080763
0000000086,0000085000,077434,092375,083271,077672,094600,084002
0000000087,0000086000,076097,090835,086148,076276,092690,087308
0000000088,0000087000,075605,088621,088854,075880,090032,090362
0000000089,0000088000,076018,085938,091123,076523,086886,092865
0000000090,0000089000,077296,083059,092725,078139,083567,094568
0000000091,0000090000,079305,080270,093505,080573,080395,095306
0000000092,0000091000,081859,077828,093392,083590,077677,095008
0000000093,0000092000,084706,075978,092396,086886,075684,093704
0000000094,0000093000,087554,074913,090612,090142,074612,091519
0000000095,0000094000,090140,074729,088211,093045,074563,088666
0000000096,0000095000,092213,075434,085433,095305,075541,085428
0000000097,0000096000,093555,076969,082557,096700,077452,082122
0000000098,0000097000,094038,079192,079850,097096,080110,079068
0000000099,0000098000,093626,081874,077580,096455,083254,076565
0000000100,0000099000,092356,084744,075979,094839,086573,074862
0000000101,0000100000,090341,087541,075198,092404,089746,074124
0000000102,0000101000,087784,089986,075310,089389,092463,074422
0000000103,0000102000,084946,091827,076307,086093,094455,075726
0000000104,0000103000,082094,092895,078090,082836,095529,077910
0000000105,0000104000,079502,093087,080491,079934,095578,080762
0000000106,0000105000,077436,092375,083269,077674,094599,084001
0000000107,0000106000,076095,090839,086146,076279,092690,087306
0000000108,0000107000,075604,088623,088852,075883,090032,090360
0000000109,0000108000,076019,085938,091123,076524,086887,092862
0000000110,0000109000,077293,083062,092725,078139,083569,094565
0000000111,0000110000,079301,080273,093506,080573,080397,095304
0000000112,0000111000,081859,077827,093394,083589,077679,095006
0000000113,0000112000,084704,075978,092398,086884,075687,093703
0000000114,0000113000,087550,074915,090615,090140,074615,091519
0000000115,0000114000,090140,074726,088213,093042,074565,088667
0000000116,0000115000,092214,075431,085435,095302,075542,085430
0000000117,0000116000,093553,076968,082559,096697,077453,082125
0000000118,0000117000,094039,079189,079852,097094,080109,079071
0000000119,0000118000,093630,081869,077581,096453,083253,076569
0000000120,0000119000,092358,084743,075979,094837,086571,074866
0000000121,0000120000,090343,087540,075197,092404,089743,074127
0000000122,0000121000,087788,089983,075308,089390,092460,074424
0000000123,0000122000,084948,091828,076304,086094,094452,075727
0000000124,0000123000,082095,092898,078087,082839,095525,077910
0000000125,0000124000,079505,093087,080488,079938,095575,080762
0000000126,0000125000,077437,092377,083267,077678,094598,083999
0000000127,0000126000,076092,090843,086144,076282,092689,087303
0000000128,0000127000,075603,088626,088851,075886,090032,090356
0000000129,0000128000,076018,085940,091122,076526,086889,092858
0000000130,0000129000,077289,083066,092725,078140,083572,094562
0000000131,0000130000,079298,080275,093507,080573,080401,095300
0000000132,0000131000,081857,077827,093396,083587,077683,095004
0000000133,0000132000,084700,075979,092401,086881,075692,093701
0000000134,0000133000,087547,074914,090618,090137,074619,091519
0000000135,0000134000,090140,074723,088217,093038,074568,088668
0000000136,0000135000,092213,075428,085439,095297,075545,085432
0000000137,0000136000,093553,076966,082561,096693,077453,082128
0000000138,0000137000,094042,079185,079853,097090,080109,079075
0000000139,0000138000,093633,081865,077582,096450,083251,076573
0000000140,0000139000,092360,084742,075978,094836,086568,074870
0000000141,0000140000,090347,087537,075195,092404,089739,074131
0000000142,0000141000,087793,089980,075306,089392,092455,074427
0000000143,0000142000,084950,091829,076301,086097,094448,075729
0000000144,0000143000,082098,092899,078083,082843,095521,077911
0000000145,0000144000,079508,093088,080484,079942,095571,080761
0000000146,0000145000,077436,092381,083263,077682,094596,083996
0000000147,0000146000,076091,090848,086141,076287,092688,087299
0000000148,0000147000,075602,088629,088848,075890,090033,090351
0000000149,0000148000,076014,085944,091121,076529,086892,092853
0000000150,0000149000,077283,083071,092726,078142,083576,094556
0000000151,0000150000,079294,080277,093509,080573,080405,095296
0000000152,0000151000,081853,077828,093399,083585,077689,095000
0000000153,0000152000,084694,075980,092405,086878,075697,093699
0000000154,0000153000,087544,074913,090623,090132,074623,091518
0000000155,0000154000,090139,074719,088222,093033,074572,088669
0000000156,0000155000,092211,075425,085443,095292,075548,085435
0000000157,0000156000,093553,076962,082565,096688,077454,082132
0000000158,0000157000,094046,079178,079856,097086,080108,079081
0000000159,0000158000,093636,081861,077583,096446,083249,076579
0000000160,0000159000,092363,084738,075978,094834,086564,074876
0000000161,0000160000,090353,087533,075193,092404,089733,074136
0000000162,0000161000,087798,089978,075303,089393,092449,074431
0000000163,0000162000,084954,091830,076296,086101,094442,075732
0000000164,0000163000,082102,092900,078078,082848,095515,077911
0000000165,0000164000,079511,093091,080479,079948,095567,080759
0000000166,0000165000,077436,092386,083258,077689,094593,083993
0000000167,0000166000,076090,090854,086136,076293,092687,087294
0000000168,0000167000,075600,088634,088846,075895,090034,090345
0000000169,0000168000,076009,085950,091120,076533,086895,092847
0000000170,0000169000,077278,083076,092726,078144,083580,094550
0000000171,0000170000,079290,080279,093511,080573,080411,095290
0000000172,0000171000,081847,077830,093403,083583,077696,094996
0000000173,0000172000,084688,075981,092410,086874,075704,093696
0000000174,0000173000,087541,074910,090628,090127,074630,091518
0000000175,0000174000,090137,074715,088228,093025,074577,088671
0000000176,0000175000,092210,075421,085449,095284,075551,085439
0000000177,0000176000,093555,076955,082569,096681,077455,082138
0000000178,0000177000,094049,079171,079859,097080,080107,079088
0000000179,0000178000,093640,081855,077584,096442,083245,076587
0000000180,0000179000,092369,084733,075977,094832,086559,074883
0000000181,0000180000,090361,087528,075191,092405,089727,074143
0000000182,0000181000,087804,089977,075298,089396,092442,074436
0000000183,0000182000,084959,091830,076290,086106,094434,075734
0000000184,0000183000,082107,092901,078071,082855,095508,077912
0000000185,0000184000,079513,093095,080472,079956,095561,080757
0000000186,0000185000,077436,092392,083251,077697,094589,083988
0000000187,0000186000,076089,090860,086131,076301,092685,087288
0000000188,0000187000,075597,088640,088842,075901,090035,090338
0000000189,0000188000,076003,085958,091118,076537,086898,092838
0000000190,0000189000,077272,083082,092727,078146,083586,094542
0000000191,0000190000,079283,080283,093514,080573,080419,095283
0000000192,0000191000,081839,077833,093408,083580,077705,094990
0000000193,0000192000,084682,075982,092416,086869,075712,093693
0000000194,0000193000,087537,074907,090636,090119,074638,091517
0000000195,0000194000,090133,074711,088235,093017,074584,088673
0000000196,0000195000,092208,075416,085456,095276,075555,085443
0000000197,0000196000,093558,076947,082575,096672,077457,082145
0000000198,0000197000,094053,079163,079863,097072,080106,079096
0000000199,0000198000,093645,081849,077586,096437,083241,076596
0000000200,0000199000,092377,084726,075976,094830,086552,074892
0000000201,0000200000,090369,087523,075188,092405,089718,074151
0000000202,0000201000,087811,089975,075293,089399,092433,074442
0000000203,0000202000,084966,091830,076283,086112,094424,075738
0000000204,0000203000,082114,092903,078063,082862,095499,077913
0000000205,0000204000,079516,093100,080464,079965,095554,080755
0000000206,0000205000,077437,092400,083244,077707,094584,083983
0000000207,0000206000,076088,090867,086125,076310,092684,087280
0000000208,0000207000,075592,088649,088838,075909,090036,090328
0000000209,0000208000,075996,085967,091116,076543,086903,092828
0000000210,0000209000,077264,083088,092727,078149,083593,094532
0000000211,0000210000,079274,080288,093518,080572,080428,095274
0000000212,0000211000,081830,077837,093414,083576,077715,094983
0000000213,0000212000,084674,075981,092424,086862,075723,093689
0000000214,0000213000,087531,074904,090645,090110,074647,091516
0000000215,0000214000,090128,074706,088245,093006,074592,088676
0000000216,0000215000,092207,075408,085464,095265,075560,085449
0000000217,0000216000,093560,076937,082582,096662,077459,082153
0000000218,0000217000,094057,079154,079868,097063,080105,079106
0000000219,0000218000,093652,081840,077588,096431,083236,076607
0000000220,0000219000,092387,084718,075975,094827,086544,074903
0000000221,0000220000,090379,087517,075184,092405,089709,074160
0000000222,0000221000,087821,089973,075286,089403,092421,074450
0000000223,0000222000,084976,091829,076275,086119,094413,075742
0000000224,0000223000,082121,092906,078053,082872,095489,077913
0000000225,0000224000,079520,093107,080454,079976,095546,080752
0000000226,0000225000,077438,092408,083234,077719,094579,083977
0000000227,0000226000,076086,090876,086117,076321,092682,087271
0000000228,0000227000,075587,088661,088832,075919,090038,090317
0000000229,0000228000,075988,085977,091114,076550,086908,092816
0000000230,0000229000,077255,083096,092729,078152,083602,094520
0000000231,0000230000,079263,080295,093522,080572,080439,095264
0000000232,0000231000,081819,077840,093421,083572,077727,094975
0000000233,0000232000,084665,075981,092434,086855,075735,093684
0000000234,0000233000,087523,074901,090656,090100,074659,091516
0000000235,0000234000,090123,074700,088256,092994,074601,088679
0000000236,0000235000,092207,075399,085474,095252,075566,085456
0000000237,0000236000,093562,076926,082591,096650,077461,082163
0000000238,0000237000,094062,079143,079874,097053,080103,079118
0000000239,0000238000,093661,081828,077590,096424,083231,076620
0000000240,0000239000,092398,084708,075974,094823,086535,074916
0000000241,0000240000,090390,087510,075179,092406,089697,074172
0000000242,0000241000,087832,089969,075278,089408,092408,074458
0000000243,0000242000,084987,091829,076264,086127,094399,075748
0000000244,0000243000,082128,092910,078041,082883,095477,077914
0000000245,0000244000,079525,093114,080441,079990,095536,080749
0000000246,0000245000,077440,092417,083223,077733,094572,083970
0000000247,0000246000,076084,090888,086108,076334,092679,087260
0000000248,0000247000,075580,088673,088826,075930,090040,090304
0000000249,0000248000,075980,085989,091111,076558,086914,092802
0000000250,0000249000,077244,083106,092730,078156,083612,094506
0000000251,0000250000,079250,080303,093527,080571,080452,095251
0000000252,0000251000,081806,077844,093429,083567,077741,094966
0000000253,0000252000,084655,075980,092445,086845,075750,093679
0000000254,0000253000,087514,074897,090669,090087,074672,091515
0000000255,0000254000,090118,074693,088269,092980,074611,088683
0000000256,0000255000,092206,075387,085487,095237,075573,085464
0000000257,0000256000,093565,076914,082601,096635,077464,082175
0000000258,0000257000,094069,079130,079881,097041,080101,079133
0000000259,0000258000,093671,081815,077593,096415,083224,076635
0000000260,0000259000,092410,084697,075973,094819,086524,074931
0000000261,0000260000,090403,087503,075174,092406,089683,074185
0000000262,0000261000,087846,089964,075269,089413,092392,074468
0000000263,0000262000,084999,091829,076252,086137,094384,075753
0000000264,0000263000,082138,092915,078028,082897,095462,077915
0000000265,0000264000,079531,093122,080427,080005,095524,080745
0000000266,0000265000,077442,092428,083210,077749,094565,083961
0000000267,0000266000,076081,090902,086097,076350,092677,087248
0000000268,0000267000,075573,088688,088818,075943,090043,090289
0000000269,0000268000,075969,086002,091108,076567,086922,092785
0000000270,0000269000,077230,083119,092731,078161,083624,094490
0000000271,0000270000,079235,080312,093533,080570,080467,095237
0000000272,0000271000,081792,077849,093439,083561,077758,094955
0000000273,0000272000,084642,075980,092458,086835,075767,093673
0000000274,0000273000,087503,074893,090684,090073,074687,091514
0000000275,0000274000,090111,074684,088284,092963,074624,088687
0000000276,0000275000,092204,075375,085501,095220,075581,085473
0000000277,0000276000,093568,076900,082613,096619,077467,082189
0000000278,0000277000,094076,079115,079889,097027,080098,079149
0000000279,0000278000,093683,081800,077597,096405,083216,076653
0000000280,0000279000,092424,084684,075971,094814,086512,074948
0000000281,0000280000,090419,087493,075167,092407,089667,074200
0000000282,0000281000,087862,089958,075259,089420,092374,074480
0000000283,0000282000,085013,091828,076239,086148,094366,075760
0000000284,0000283000,082148,092920,078012,082912,095446,077916
0000000285,0000284000,079538,093131,080411,080023,095511,080740
0000000286,0000285000,077444,092441,083195,077767,094556,083951
0000000287,0000286000,076077,090918,086084,076367,092674,087233
0000000288,0000287000,075565,088705,088810,075957,090045,090271
0000000289,0000288000,075957,086018,091104,076577,086930,092767
0000000290,0000289000,077214,083133,092733,078166,083637,094472
0000000291,0000290000,079218,080323,093540,080570,080484,095221
0000000292,0000291000,081775,077854,093450,083554,077777,094943
0000000293,0000292000,084626,075981,092473,086823,075786,093666
0000000294,0000293000,087491,074888,090700,090057,074705,091513
0000000295,0000294000,090104,074674,088301,092944,074638,088692
0000000296,0000295000,092202,075361,085517,095200,075590,085484
0000000297,0000296000,093571,076883,082626,096600,077470,082204
0000000298,0000297000,094085,079097,079898,097012,080095,079168
0000000299,0000298000,093696,081782,077601,096394,083207,076673
0000000300,0000299000,092441,084669,075970,094809,086497,074968
0000000301,0000300000,090437,087482,075160,092408,089649,074217
