DIgSILENT PowerFactory,21000900,2000
6,06A,00D
1,TTPP_200000_100:Secondary Voltage A,,,V,0.010000000,-67.881294,0.000000,-86353,99998,1,1,P
2,TTPP_200000_100:Secondary Voltage B,,,V,0.010000000,-34.213608,0.000000,-94401,99998,1,1,P
3,TTPP_200000_100:Secondary Voltage C,,,V,0.010000000,-2.040707,0.000000,-99425,99998,1,1,P
4,TTCC_500_5:Secondary Current A,,,A,0.0010000000,-84.935074,0.000000,62622,99998,1,1,P
5,TTCC_500_5:Secondary Current B,,,A,0.0010000000,-84.894005,0.000000,69810,99998,1,1,P
6,TTCC_500_5:Secondary Current C,,,A,0.0010000000,-84.615807,0.000000,69242,99998,1,1,P
50
1
1000.000000,1101
30/06/2023,06:02:11.000000
30/06/2023,06:02:11.000000
ASCII
1.000000
0000000001,0000000000,061927,039805,-91319,090852,089572,074021
0000000002,0000001000,036452,064141,-90187,087837,092289,074319
0000000003,0000002000,007911,082724,-80210,084538,094283,075624
0000000004,0000003000,-20533,093331,-62384,081283,095353,077809
0000000005,0000004000,-46328,095127,-38371,078380,095403,080663
0000000006,0000005000,-67079,088091,-10598,076115,094428,083902
0000000007,0000006000,-80576,072827,018166,074723,092513,087209
0000000008,0000007000,-85345,050536,045224,074327,089854,090264
0000000009,0000008000,-81159,023653,067914,074968,086709,092767
0000000010,0000009000,-68550,-04954,083921,076584,083390,094471
0000000011,0000010000,-48379,-32929,091716,079021,080215,095209
0000000012,0000011000,-22783,-57396,090596,082037,077497,094911
0000000013,0000012000,005568,-75791,080629,085334,075505,093606
0000000014,0000013000,034076,-86455,062790,088594,074430,091421
0000000015,0000014000,060040,-88408,038777,091494,074383,088568
0000000016,0000015000,080651,-81246,011006,093755,075362,085328
0000000017,0000016000,094002,-65829,-17754,095152,077271,082021
0000000018,0000017000,098998,-43771,-44813,095548,079931,078966
0000000019,0000018000,094838,-16913,-67503,094904,083078,076463
0000000020,0000019000,082018,011911,-83517,093288,086398,074759
0000000021,0000020000,061954,039776,-91315,090854,089570,074021
0000000022,0000021000,036430,064164,-90182,087836,092289,074319
0000000023,0000022000,007948,082686,-80220,084538,094283,075624
0000000024,0000023000,-20520,093327,-62390,081281,095354,077809
0000000025,0000024000,-46357,095145,-38375,078378,095404,080663
0000000026,0000025000,-67131,088141,-10593,076117,094426,083902
0000000027,0000026000,-80525,072770,018162,074723,092513,087209
0000000028,0000027000,-85306,050498,045219,074326,089854,090264
0000000029,0000028000,-81225,023722,067913,074966,086711,092768
0000000030,0000029000,-68557,-04951,083922,076585,083389,094471
0000000031,0000030000,-48357,-32950,091724,079021,080215,095209
0000000032,0000031000,-22774,-57408,090596,082036,077498,094911
0000000033,0000032000,005559,-75772,080629,085333,075505,093607
0000000034,0000033000,034087,-86468,062792,088592,074431,091422
0000000035,0000034000,060014,-88386,038786,091494,074383,088568
0000000036,0000035000,080639,-81236,011009,093755,075362,085328
0000000037,0000036000,094059,-65886,-17757,095151,077272,082022
0000000038,0000037000,098988,-43759,-44812,095546,079932,078967
0000000039,0000038000,094792,-16875,-67503,094904,083078,076463
0000000040,0000039000,082031,011898,-83515,093289,086397,074760
0000000041,0000040000,061997,039730,-91318,090853,089570,074022
0000000042,0000041000,036413,064186,-90186,087835,092290,074319
0000000043,0000042000,007933,082704,-80225,084538,094282,075624
0000000044,0000043000,-20501,093308,-62391,081282,095354,077809
0000000045,0000044000,-46372,095162,-38374,078378,095404,080663
0000000046,0000045000,-67124,088138,-10600,076117,094426,083902
0000000047,0000046000,-80500,072755,018158,074722,092514,087209
0000000048,0000047000,-85327,050519,045218,074325,089855,090264
0000000049,0000048000,-81259,023757,067916,074967,086711,092767
0000000050,0000049000,-68527,-04981,083922,076585,083389,094471
0000000051,0000050000,-48339,-32969,091725,079020,080216,095209
0000000052,0000051000,-22816,-57367,090599,082035,077499,094911
0000000053,0000052000,005553,-75772,080633,085333,075505,093607
0000000054,0000053000,034105,-86492,062800,088591,074432,091422
0000000055,0000054000,060003,-88383,038790,091493,074384,088568
0000000056,0000055000,080635,-81233,011012,093754,075362,085329
0000000057,0000056000,094075,-65907,-17754,095150,077272,082023
0000000058,0000057000,098972,-43749,-44806,095545,079932,078968
0000000059,0000058000,094785,-16868,-67502,094904,083077,076464
0000000060,0000059000,082071,011860,-83518,093288,086396,074761
0000000061,0000060000,062001,039730,-91320,090852,089570,074022
0000000062,0000061000,036386,064215,-90190,087836,092289,074320
0000000063,0000062000,007953,082692,-80230,084539,094281,075625
0000000064,0000063000,-20473,093285,-62397,081282,095354,077809
0000000065,0000064000,-46387,095186,-38382,078378,095404,080663
0000000066,0000065000,-67128,088151,-10609,076118,094425,083902
0000000067,0000066000,-80486,072745,018153,074723,092514,087208
0000000068,0000067000,-85345,050540,045216,074326,089856,090263
0000000069,0000068000,-81267,023767,067911,074968,086711,092766
0000000070,0000069000,-68513,-04994,083922,076585,083390,094470
0000000071,0000070000,-48361,-32953,091730,079019,080218,095208
0000000072,0000071000,-22848,-57342,090606,082034,077500,094911
0000000073,0000072000,005567,-75794,080640,085333,075506,093606
0000000074,0000073000,034110,-86508,062809,088590,074434,091422
0000000075,0000074000,059973,-88362,038800,091491,074385,088569
0000000076,0000075000,080636,-81244,011020,093753,075362,085330
0000000077,0000076000,094093,-65935,-17744,095149,077273,082024
0000000078,0000077000,098965,-43749,-44800,095544,079932,078969
0000000079,0000078000,094791,-16875,-67500,094903,083077,076466
0000000080,0000079000,082097,011834,-83519,093287,086395,074762
0000000081,0000080000,061999,039734,-91322,090852,089569,074024
0000000082,0000081000,036388,064222,-90198,087836,092287,074321
0000000083,0000082000,007987,082668,-80242,084540,094280,075625
0000000084,0000083000,-20465,093290,-62409,081282,095353,077810
0000000085,0000084000,-46405,095216,-38396,078379,095403,080662
0000000086,0000085000,-67115,088151,-10622,076120,094424,083901
0000000087,0000086000,-80474,072742,018144,074724,092514,087207
0000000088,0000087000,-85368,050570,045208,074327,089856,090261
0000000089,0000088000,-81277,023783,067906,074969,086712,092765
0000000090,0000089000,-68513,-04997,083924,076585,083392,094468
0000000091,0000090000,-48389,-32932,091737,079018,080220,095207
0000000092,0000091000,-22866,-57332,090614,082034,077502,094909
0000000093,0000092000,005572,-75811,080653,085331,075508,093606
0000000094,0000093000,034090,-86505,062826,088587,074436,091422
0000000095,0000094000,059949,-88355,038817,091490,074386,088569
0000000096,0000095000,080651,-81274,011036,093751,075363,085331
0000000097,0000096000,094103,-65959,-17729,095146,077273,082025
0000000098,0000097000,098954,-43747,-44791,095542,079932,078971
0000000099,0000098000,094809,-16897,-67497,094902,083075,076468
0000000100,0000099000,082126,011806,-83519,093287,086394,074764
0000000101,0000100000,062006,039734,-91329,090852,089567,074026
0000000102,0000101000,036406,064217,-90212,087837,092285,074323
0000000103,0000102000,008019,082654,-80259,084541,094277,075626
0000000104,0000103000,-20461,093305,-62428,081284,095351,077810
0000000105,0000104000,-46404,095237,-38417,078382,095401,080662
0000000106,0000105000,-67094,088151,-10642,076122,094423,083900
0000000107,0000106000,-80479,072763,018128,074726,092514,087205
0000000108,0000107000,-85395,050609,045196,074329,089857,090259
0000000109,0000108000,-81284,023796,067900,074970,086713,092762
0000000110,0000109000,-68525,-04988,083927,076585,083394,094466
0000000111,0000110000,-48426,-32904,091746,079018,080222,095205
0000000112,0000111000,-22888,-57324,090628,082033,077504,094908
0000000113,0000112000,005561,-75823,080675,085329,075511,093605
0000000114,0000113000,034062,-86502,062852,088585,074439,091421
0000000115,0000114000,059935,-88365,038841,091487,074388,088570
0000000116,0000115000,080662,-81309,011059,093748,075365,085333
0000000117,0000116000,094102,-65979,-17708,095143,077274,082028
0000000118,0000117000,098955,-43762,-44777,095540,079931,078974
0000000119,0000118000,094842,-16935,-67491,094900,083074,076471
0000000120,0000119000,082155,011778,-83521,093285,086392,074768
0000000121,0000120000,062020,039731,-91340,090852,089565,074028
0000000122,0000121000,036440,064203,-90232,087838,092282,074325
0000000123,0000122000,008053,082643,-80283,084543,094274,075628
0000000124,0000123000,-20452,093324,-62456,081287,095348,077810
0000000125,0000124000,-46391,095255,-38449,078386,095398,080661
0000000126,0000125000,-67079,088163,-10670,076126,094422,083898
0000000127,0000126000,-80494,072800,018105,074729,092513,087202
0000000128,0000127000,-85416,050649,045179,074332,089857,090256
0000000129,0000128000,-81294,023814,067892,074972,086714,092758
0000000130,0000129000,-68556,-04960,083930,076586,083397,094462
0000000131,0000130000,-48471,-32871,091758,079018,080226,095201
0000000132,0000131000,-22913,-57321,090650,082032,077508,094905
0000000133,0000132000,005537,-75829,080705,085326,075515,093603
0000000134,0000133000,034026,-86501,062886,088581,074442,091421
0000000135,0000134000,059923,-88387,038875,091483,074391,088571
0000000136,0000135000,080667,-81347,011093,093743,075367,085335
0000000137,0000136000,094100,-66005,-17680,095139,077275,082031
0000000138,0000137000,098971,-43796,-44759,095536,079931,078978
0000000139,0000138000,094881,-16983,-67483,094897,083072,076476
0000000140,0000139000,082185,011751,-83523,093284,086389,074772
0000000141,0000140000,062050,039717,-91356,090852,089560,074032
0000000142,0000141000,036489,064181,-90258,087840,092277,074328
0000000143,0000142000,008090,082640,-80316,084546,094270,075629
0000000144,0000143000,-20435,093347,-62496,081291,095344,077811
0000000145,0000144000,-46368,095275,-38491,078390,095395,080660
0000000146,0000145000,-67068,088190,-10708,076130,094419,083895
0000000147,0000146000,-80512,072850,018074,074734,092513,087198
0000000148,0000147000,-85437,050693,045155,074336,089858,090251
0000000149,0000148000,-81317,023846,067883,074975,086716,092753
0000000150,0000149000,-68603,-04918,083935,076587,083401,094457
0000000151,0000150000,-48521,-32838,091775,079018,080230,095197
0000000152,0000151000,-22948,-57316,090679,082030,077513,094902
0000000153,0000152000,005495,-75828,080746,085323,075521,093601
0000000154,0000153000,033986,-86505,062931,088577,074447,091421
0000000155,0000154000,059910,-88420,038922,091478,074395,088572
0000000156,0000155000,080665,-81390,011138,093737,075370,085338
0000000157,0000156000,094100,-66042,-17643,095133,077276,082035
0000000158,0000157000,098998,-43847,-44734,095532,079930,078983
0000000159,0000158000,094924,-17038,-67471,094894,083070,076481
0000000160,0000159000,082224,011716,-83527,093282,086385,074778
0000000161,0000160000,062099,039688,-91377,090852,089555,074038
0000000162,0000161000,036549,064155,-90292,087842,092271,074332
0000000163,0000162000,008132,082643,-80361,084549,094264,075632
0000000164,0000163000,-20405,093370,-62549,081296,095338,077811
0000000165,0000164000,-46337,095298,-38545,078396,095390,080658
0000000166,0000165000,-67060,088232,-10757,076137,094416,083892
0000000167,0000166000,-80531,072911,018032,074740,092511,087193
0000000168,0000167000,-85460,050745,045126,074341,089858,090245
0000000169,0000168000,-81354,023895,067871,074979,086719,092747
0000000170,0000169000,-68663,-04863,083941,076589,083406,094450
0000000171,0000170000,-48578,-32803,091797,079018,080236,095191
0000000172,0000171000,-22998,-57304,090718,082028,077520,094897
0000000173,0000172000,005437,-75822,080798,085319,075528,093598
0000000174,0000173000,033941,-86519,062990,088571,074454,091420
0000000175,0000174000,059892,-88464,038982,091471,074400,088574
0000000176,0000175000,080656,-81439,011196,093730,075373,085342
0000000177,0000176000,094106,-66095,-17596,095126,077278,082041
0000000178,0000177000,099035,-43916,-44702,095526,079929,078990
0000000179,0000178000,094974,-17102,-67456,094890,083067,076489
0000000180,0000179000,082275,011671,-83534,093280,086380,074785
0000000181,0000180000,062167,039647,-91404,090853,089548,074044
0000000182,0000181000,036619,064128,-90335,087844,092263,074337
0000000183,0000182000,008184,082648,-80418,084554,094256,075635
0000000184,0000183000,-20360,093392,-62617,081303,095331,077812
0000000185,0000184000,-46301,095331,-38613,078404,095384,080657
0000000186,0000185000,-67056,088290,-10820,076144,094413,083888
0000000187,0000186000,-80550,072983,017978,074748,092510,087187
0000000188,0000187000,-85488,050810,045089,074348,089860,090237
0000000189,0000188000,-81406,023962,067856,074983,086723,092738
0000000190,0000189000,-68736,-04798,083948,076591,083411,094442
0000000191,0000190000,-48647,-32763,091826,079018,080244,095184
0000000192,0000191000,-23067,-57285,090768,082025,077529,094892
0000000193,0000192000,005366,-75816,080863,085313,075537,093595
0000000194,0000193000,033891,-86542,063063,088564,074461,091420
0000000195,0000194000,059866,-88514,039059,091462,074407,088576
0000000196,0000195000,080643,-81497,011267,093721,075378,085346
0000000197,0000196000,094120,-66166,-17539,095118,077279,082048
0000000198,0000197000,099080,-44001,-44662,095519,079927,078999
0000000199,0000198000,095031,-17177,-67438,094884,083063,076498
0000000200,0000199000,082344,011611,-83542,093277,086374,074794
0000000201,0000200000,062253,039594,-91437,090853,089540,074052
0000000202,0000201000,036701,064099,-90389,087848,092254,074343
0000000203,0000202000,008250,082654,-80490,084560,094247,075638
0000000204,0000203000,-20301,093416,-62699,081311,095322,077812
0000000205,0000204000,-46262,095375,-38697,078413,095377,080654
0000000206,0000205000,-67052,088364,-10897,076154,094408,083883
0000000207,0000206000,-80568,073067,017913,074757,092508,087180
0000000208,0000207000,-85525,050892,045045,074356,089861,090228
0000000209,0000208000,-81474,024048,067838,074989,086728,092728
0000000210,0000209000,-68820,-04722,083957,076594,083418,094432
0000000211,0000210000,-48731,-32714,091861,079017,080253,095175
0000000212,0000211000,-23156,-57257,090829,082021,077539,094885
0000000213,0000212000,005282,-75810,080942,085307,075547,093591
0000000214,0000213000,033832,-86573,063153,088555,074471,091419
0000000215,0000214000,059829,-88571,039152,091452,074414,088579
0000000216,0000215000,080627,-81568,011353,093710,075383,085352
0000000217,0000216000,094140,-66256,-17468,095108,077281,082056
0000000218,0000217000,099131,-44102,-44613,095510,079926,079009
0000000219,0000218000,095098,-17266,-67417,094878,083058,076509
0000000220,0000219000,082431,011534,-83553,093274,086366,074805
0000000221,0000220000,062357,039530,-91476,090853,089530,074062
0000000222,0000221000,036797,064068,-90454,087851,092243,074350
0000000223,0000222000,008333,082657,-80577,084567,094235,075643
0000000224,0000223000,-20228,093443,-62799,081320,095311,077813
0000000225,0000224000,-46218,095433,-38798,078425,095369,080651
0000000226,0000225000,-67045,088451,-10992,076166,094403,083876
0000000227,0000226000,-80587,073164,017834,074768,092506,087170
0000000228,0000227000,-85574,050993,044991,074365,089863,090217
0000000229,0000228000,-81556,024153,067815,074996,086733,092716
0000000230,0000229000,-68918,-04634,083967,076598,083427,094420
0000000231,0000230000,-48834,-32654,091904,079017,080264,095164
0000000232,0000231000,-23265,-57220,090901,082017,077551,094877
0000000233,0000232000,005184,-75806,081036,085299,075559,093587
0000000234,0000233000,033761,-86611,063261,088545,074482,091418
0000000235,0000234000,059782,-88635,039264,091439,074424,088582
0000000236,0000235000,080611,-81654,011456,093697,075389,085359
0000000237,0000236000,094166,-66367,-17384,095096,077283,082066
0000000238,0000237000,099189,-44219,-44554,095500,079924,079021
0000000239,0000238000,095179,-17372,-67392,094871,083052,076522
0000000240,0000239000,082539,011439,-83565,093271,086356,074818
0000000241,0000240000,062477,039457,-91522,090854,089518,074073
0000000242,0000241000,036909,064033,-90531,087856,092230,074359
0000000243,0000242000,008436,082658,-80680,084575,094222,075648
0000000244,0000243000,-20142,093475,-62917,081332,095299,077814
0000000245,0000244000,-46169,095503,-38918,078438,095359,080648
0000000246,0000245000,-67034,088553,-11104,076180,094396,083869
0000000247,0000246000,-80608,073278,017742,074782,092504,087160
0000000248,0000247000,-85634,051117,044928,074376,089865,090204
0000000249,0000248000,-81652,024276,067788,075004,086739,092702
0000000250,0000249000,-69031,-04533,083978,076602,083437,094406
0000000251,0000250000,-48959,-32580,091955,079016,080277,095152
0000000252,0000251000,-23395,-57175,090986,082011,077566,094868
0000000253,0000252000,005072,-75805,081146,085290,075574,093581
0000000254,0000253000,033676,-86653,063389,088532,074496,091417
0000000255,0000254000,059725,-88709,039396,091425,074434,088586
0000000256,0000255000,080594,-81758,011576,093682,075396,085367
0000000257,0000256000,094196,-66497,-17284,095081,077286,082078
0000000258,0000257000,099254,-44354,-44484,095488,079922,079035
0000000259,0000258000,095275,-17498,-67362,094862,083045,076538
0000000260,0000259000,082666,011326,-83579,093266,086345,074833
0000000261,0000260000,062615,039372,-91576,090854,089504,074086
0000000262,0000261000,037042,063992,-90623,087861,092214,074369
0000000263,0000262000,008558,082657,-80801,084585,094206,075653
0000000264,0000263000,-20044,093514,-63054,081345,095285,077815
0000000265,0000264000,-46112,095587,-39059,078453,095348,080644
0000000266,0000265000,-67018,088668,-11236,076196,094389,083860
0000000267,0000266000,-80633,073412,017634,074797,092501,087147
0000000268,0000267000,-85706,051263,044854,074389,089867,090188
0000000269,0000268000,-81761,024417,067755,075013,086747,092685
0000000270,0000269000,-69163,-04415,083992,076606,083448,094390
0000000271,0000270000,-49106,-32492,092014,079015,080291,095138
0000000272,0000271000,-23544,-57124,091083,082006,077583,094857
0000000273,0000272000,004943,-75805,081275,085279,075591,093575
0000000274,0000273000,033574,-86700,063538,088518,074511,091416
0000000275,0000274000,059657,-88794,039548,091408,074447,088590
0000000276,0000275000,080576,-81880,011717,093665,075404,085376
0000000277,0000276000,094229,-66647,-17167,095065,077288,082091
0000000278,0000277000,099328,-44508,-44403,095474,079919,079052
0000000279,0000278000,095389,-17646,-67328,094852,083037,076555
0000000280,0000279000,082812,011194,-83593,093262,086333,074850
0000000281,0000280000,062773,039276,-91638,090855,089488,074101
0000000282,0000281000,037197,063942,-90728,087868,092196,074381
0000000283,0000282000,008701,082653,-80940,084597,094188,075660
0000000284,0000283000,-19932,093561,-63213,081360,095269,077816
0000000285,0000284000,-46045,095683,-39222,078471,095335,080639
0000000286,0000285000,-66998,088799,-11387,076215,094380,083850
0000000287,0000286000,-80664,073567,017509,074814,092498,087133
0000000288,0000287000,-85789,051432,044768,074404,089870,090171
0000000289,0000288000,-81884,024579,067717,075023,086755,092666
0000000290,0000289000,-69314,-04279,084008,076611,083462,094372
0000000291,0000290000,-49277,-32388,092081,079014,080309,095122
0000000292,0000291000,-23713,-57066,091195,081999,077602,094845
0000000293,0000292000,004794,-75804,081423,085267,075610,093568
0000000294,0000293000,033455,-86752,063708,088501,074528,091415
0000000295,0000294000,059580,-88891,039722,091389,074461,088595
0000000296,0000295000,080557,-82022,011878,093645,075413,085387
0000000297,0000296000,094264,-66816,-17033,095046,077292,082107
0000000298,0000297000,099411,-44685,-44310,095458,079916,079070
0000000299,0000298000,095520,-17817,-67287,094841,083028,076575
0000000300,0000299000,082978,011044,-83609,093256,086319,074870
0000000301,0000300000,062952,039167,-91708,090856,089470,074118
