DIgSILENT PowerFactory,21000900,2000
6,06A,00D
1,TTPP_200000_100:Secondary Voltage A,,,V,0.10000000,-8193.875000,0.000000,61260,99998,1,1,P
2,TTPP_200000_100:Secondary Voltage B,,,V,0.10000000,-7722.935059,0.000000,57655,99998,1,1,P
3,TTPP_200000_100:Secondary Voltage C,,,V,0.10000000,-8007.530762,0.000000,60510,99998,1,1,P
4,TTCC_300_1:Secondary Current A,,,A,0.00010000000,-3.837452,0.000000,-3515,99998,1,1,P
5,TTCC_300_1:Secondary Current B,,,A,0.00010000000,-5.013392,0.000000,636,99998,1,1,P
6,TTCC_300_1:Secondary Current C,,,A,0.00010000000,-4.878347,0.000000,-2297,99998,1,1,P
50
1
1000.000000,1101
30/06/2023,06:07:46.000000
30/06/2023,06:07:46.000000
ASCII
1.000000
0000000001,0000000000,089045,078704,071494,017445,036144,083703
0000000002,0000001000,086911,081421,070909,027197,026865,083229
0000000003,0000002000,084270,083752,071221,038036,019869,079387
0000000004,0000003000,081414,085431,072397,048917,015824,072550
0000000005,0000004000,078621,086293,074331,058757,015151,063382
0000000006,0000005000,076133,086284,076827,066608,017901,052782
0000000007,0000006000,074211,085398,079634,071692,023798,041801
0000000008,0000007000,073068,083690,082487,073517,032272,031504
0000000009,0000008000,072781,081352,085109,071892,042514,022887
0000000010,0000009000,073380,078629,087234,066994,053488,016810
0000000011,0000010000,074827,075759,088657,059301,064122,013869
0000000012,0000011000,076981,073021,089242,049540,073408,014342
0000000013,0000012000,079602,070713,088930,038693,080414,018184
0000000014,0000013000,082454,069037,087753,027826,084445,025021
0000000015,0000014000,085268,068155,085821,017984,085119,034189
0000000016,0000015000,087747,068172,083324,010125,082380,044788
0000000017,0000016000,089655,069072,080516,005046,076476,055770
0000000018,0000017000,090817,070763,077665,003227,067996,066068
0000000019,0000018000,091101,073100,075042,004843,057765,074684
0000000020,0000019000,090489,075839,072916,009743,046788,080761
0000000021,0000020000,089051,078699,071494,017444,036146,083703
0000000022,0000021000,086905,081429,070910,027195,026869,083229
0000000023,0000022000,084268,083754,071221,038045,019861,079386
0000000024,0000023000,081422,085424,072397,048916,015826,072550
0000000025,0000024000,078619,086295,074330,058756,015153,063382
0000000026,0000025000,076126,086291,076827,066610,017899,052783
0000000027,0000026000,074218,085392,079634,071699,023792,041801
0000000028,0000027000,073070,083687,082486,073512,032277,031504
0000000029,0000028000,072775,081359,085109,071893,042512,022887
0000000030,0000029000,073380,078629,087235,067000,053482,016810
0000000031,0000030000,074834,075753,088657,059301,064123,013868
0000000032,0000031000,076976,073026,089241,049540,073409,014342
0000000033,0000032000,079599,070715,088930,038698,080410,018184
0000000034,0000033000,082459,069032,087753,027831,084441,025020
0000000035,0000034000,085267,068155,085821,017982,085123,034188
0000000036,0000035000,087743,068177,083324,010128,082377,044787
0000000037,0000036000,089658,069069,080517,005050,076473,055768
0000000038,0000037000,090818,070760,077665,003228,067998,066066
0000000039,0000038000,091098,073103,075042,004844,057766,074682
0000000040,0000039000,090490,075838,072916,009746,046786,080760
0000000041,0000040000,089054,078696,071494,017444,036147,083701
0000000042,0000041000,086903,081431,070909,027195,026870,083227
0000000043,0000042000,084268,083754,071221,038046,019861,079386
0000000044,0000043000,081424,085422,072397,048916,015825,072550
0000000045,0000044000,078617,086297,074330,058755,015154,063382
0000000046,0000045000,076125,086291,076826,066612,017897,052783
0000000047,0000046000,074220,085390,079634,071697,023792,041802
0000000048,0000047000,073068,083689,082486,073513,032275,031504
0000000049,0000048000,072774,081361,085109,071894,042510,022888
0000000050,0000049000,073383,078626,087234,067001,053480,016811
0000000051,0000050000,074832,075754,088657,059300,064122,013869
0000000052,0000051000,076973,073029,089242,049544,073405,014342
0000000053,0000052000,079602,070712,088930,038701,080407,018184
0000000054,0000053000,082459,069031,087753,027831,084441,025020
0000000055,0000054000,085263,068159,085821,017986,085120,034186
0000000056,0000055000,087744,068175,083324,010134,082373,044785
0000000057,0000056000,089661,069066,080517,005051,076475,055766
0000000058,0000057000,090815,070764,077665,003230,067998,066063
0000000059,0000058000,091097,073104,075042,004849,057764,074679
0000000060,0000059000,090495,075833,072916,009747,046788,080757
0000000061,0000060000,089052,078697,071494,017443,036151,083699
0000000062,0000061000,086900,081434,070909,027197,026870,083225
0000000063,0000062000,084272,083751,071220,038046,019862,079384
0000000064,0000063000,081425,085421,072397,048912,015830,072550
0000000065,0000064000,078613,086301,074330,058754,015155,063383
0000000066,0000065000,076127,086290,076826,066611,017896,052784
0000000067,0000066000,074222,085388,079633,071694,023794,041804
0000000068,0000067000,073064,083693,082486,073510,032275,031507
0000000069,0000068000,072773,081362,085108,071896,042505,022891
0000000070,0000069000,073386,078623,087235,067001,053477,016814
0000000071,0000070000,074830,075756,088657,059300,064120,013872
0000000072,0000071000,076970,073031,089242,049547,073400,014344
0000000073,0000072000,079604,070709,088930,038705,080402,018185
0000000074,0000073000,082459,069030,087754,027834,084439,025019
0000000075,0000074000,085260,068161,085822,017991,085116,034185
0000000076,0000075000,087746,068173,083325,010140,082370,044783
0000000077,0000076000,089662,069064,080518,005055,076474,055762
0000000078,0000077000,090813,070765,077665,003234,067999,066059
0000000079,0000078000,091099,073103,075042,004853,057764,074674
0000000080,0000079000,090497,075831,072916,009748,046792,080752
0000000081,0000080000,089051,078699,071493,017443,036156,083694
0000000082,0000081000,086901,081434,070908,027197,026874,083222
0000000083,0000082000,084275,083748,071219,038043,019867,079382
0000000084,0000083000,081425,085423,072396,048908,015835,072549
0000000085,0000084000,078613,086303,074328,058750,015158,063384
0000000086,0000085000,076130,086289,076825,066606,017898,052787
0000000087,0000086000,074222,085389,079633,071688,023796,041808
0000000088,0000087000,073062,083696,082485,073507,032274,031512
0000000089,0000088000,072774,081361,085108,071893,042502,022897
0000000090,0000089000,073385,078623,087235,066998,053474,016820
0000000091,0000090000,074826,075759,088658,059301,064114,013877
0000000092,0000091000,076970,073031,089243,049551,073392,014348
0000000093,0000092000,079605,070707,088932,038708,080396,018188
0000000094,0000093000,082455,069032,087756,027840,084433,025020
0000000095,0000094000,085259,068161,085823,018000,085110,034183
0000000096,0000095000,087748,068169,083326,010147,082366,044779
0000000097,0000096000,089661,069064,080519,005061,076474,055757
0000000098,0000097000,090812,070766,077666,003242,067998,066052
0000000099,0000098000,091102,073099,075042,004858,057767,074667
0000000100,0000099000,090498,075829,072916,009749,046798,080744
0000000101,0000100000,089050,078700,071493,017443,036162,083687
0000000102,0000101000,086904,081432,070907,027196,026880,083216
0000000103,0000102000,084278,083747,071218,038037,019876,079379
0000000104,0000103000,081423,085426,072395,048901,015843,072548
0000000105,0000104000,078614,086303,074327,058744,015162,063385
0000000106,0000105000,076132,086288,076824,066598,017903,052791
0000000107,0000106000,074220,085392,079632,071679,023798,041815
0000000108,0000107000,073060,083699,082484,073501,032271,031521
0000000109,0000108000,072775,081361,085108,071889,042497,022906
0000000110,0000109000,073383,078625,087235,066995,053468,016829
0000000111,0000110000,074823,075762,088658,059302,064105,013885
0000000112,0000111000,076970,073030,089244,049556,073381,014355
0000000113,0000112000,079603,070707,088933,038714,080387,018191
0000000114,0000113000,082452,069034,087757,027848,084423,025020
0000000115,0000114000,085260,068159,085825,018011,085101,034181
0000000116,0000115000,087749,068166,083328,010157,082362,044773
0000000117,0000116000,089659,069064,080520,005071,076472,055748
0000000118,0000117000,090813,070764,077667,003252,067999,066041
0000000119,0000118000,091105,073095,075043,004865,057772,074655
0000000120,0000119000,090499,075829,072916,009753,046806,080733
0000000121,0000120000,089052,078700,071492,017444,036171,083677
0000000122,0000121000,086908,081430,070906,027192,026891,083209
0000000123,0000122000,084279,083748,071217,038029,019889,079374
0000000124,0000123000,081424,085428,072392,048892,015853,072547
0000000125,0000124000,078616,086303,074324,058732,015171,063388
0000000126,0000125000,076132,086289,076822,066584,017910,052798
0000000127,0000126000,074217,085396,079630,071668,023800,041824
0000000128,0000127000,073060,083700,082483,073491,032268,031532
0000000129,0000128000,072774,081362,085107,071880,042492,022920
0000000130,0000129000,073379,078629,087235,066991,053459,016842
0000000131,0000130000,074821,075763,088659,059303,064092,013897
0000000132,0000131000,076969,073029,089246,049560,073368,014364
0000000133,0000132000,079600,070708,088936,038722,080373,018197
0000000134,0000133000,082450,069034,087760,027861,084409,025021
0000000135,0000134000,085260,068156,085827,018025,085090,034177
0000000136,0000135000,087748,068164,083330,010171,082355,044766
0000000137,0000136000,089659,069063,080522,005086,076469,055737
0000000138,0000137000,090816,070760,077668,003265,068000,066027
0000000139,0000138000,091108,073092,075044,004873,057779,074640
0000000140,0000139000,090500,075828,072915,009757,046817,080718
0000000141,0000140000,089055,078698,071490,017445,036184,083663
0000000142,0000141000,086912,081427,070904,027187,026908,083198
0000000143,0000142000,084280,083749,071214,038019,019905,079367
0000000144,0000143000,081425,085429,072389,048879,015867,072545
0000000145,0000144000,078619,086304,074321,058716,015183,063392
0000000146,0000145000,076132,086293,076819,066567,017918,052807
0000000147,0000146000,074216,085400,079627,071652,023803,041837
0000000148,0000147000,073060,083702,082481,073478,032266,031549
0000000149,0000148000,072771,081365,085107,071870,042485,022937
0000000150,0000149000,073375,078633,087236,066986,053447,016859
0000000151,0000150000,074818,075765,088661,059304,064075,013912
0000000152,0000151000,076967,073029,089248,049566,073350,014376
0000000153,0000152000,079596,070709,088939,038733,080355,018204
0000000154,0000153000,082448,069032,087763,027878,084391,025023
0000000155,0000154000,085260,068152,085831,018043,085076,034173
0000000156,0000155000,087747,068162,083334,010191,082346,044755
0000000157,0000156000,089659,069059,080525,005106,076464,055722
0000000158,0000157000,090819,070755,077670,003281,068002,066009
0000000159,0000158000,091110,073089,075045,004884,057788,074619
0000000160,0000159000,090503,075826,072915,009764,046831,080697
0000000161,0000160000,089060,078694,071489,017445,036202,083645
0000000162,0000161000,086916,081426,070901,027179,026929,083184
0000000163,0000162000,084283,083750,071210,038007,019926,079359
0000000164,0000163000,081429,085429,072385,048862,015886,072543
0000000165,0000164000,078621,086305,074317,058695,015200,063397
0000000166,0000165000,076131,086297,076815,066544,017929,052818
0000000167,0000166000,074215,085404,079624,071631,023806,041854
0000000168,0000167000,073059,083705,082479,073459,032263,031570
0000000169,0000168000,072767,081370,085106,071856,042476,022960
0000000170,0000169000,073370,078637,087236,066980,053430,016882
0000000171,0000170000,074815,075766,088662,059305,064054,013933
0000000172,0000171000,076962,073031,089251,049573,073327,014392
0000000173,0000172000,079591,070710,088942,038748,080330,018213
0000000174,0000173000,082446,069030,087767,027898,084369,025025
0000000175,0000174000,085258,068150,085836,018067,085059,034167
0000000176,0000175000,087746,068160,083338,010216,082334,044742
0000000177,0000176000,089661,069054,080528,005130,076459,055702
0000000178,0000177000,090822,070749,077673,003301,068006,065985
0000000179,0000178000,091113,073085,075046,004899,057799,074593
0000000180,0000179000,090507,075822,072914,009772,046848,080672
0000000181,0000180000,089066,078691,071487,017444,036225,083623
0000000182,0000181000,086920,081425,070898,027170,026956,083167
0000000183,0000182000,084287,083751,071206,037991,019953,079348
0000000184,0000183000,081433,085430,072380,048840,015911,072541
0000000185,0000184000,078623,086309,074312,058668,015220,063403
0000000186,0000185000,076131,086302,076811,066517,017942,052832
0000000187,0000186000,074215,085408,079620,071605,023811,041876
0000000188,0000187000,073056,083710,082477,073436,032260,031596
0000000189,0000188000,072762,081376,085105,071840,042464,022989
0000000190,0000189000,073366,078641,087237,066972,053409,016910
0000000191,0000190000,074810,075768,088665,059306,064028,013958
0000000192,0000191000,076956,073033,089255,049583,073298,014411
0000000193,0000192000,079586,070710,088947,038767,080300,018225
0000000194,0000193000,082443,069027,087773,027923,084341,025027
0000000195,0000194000,085255,068147,085841,018096,085037,034160
0000000196,0000195000,087745,068156,083343,010248,082319,044726
0000000197,0000196000,089663,069048,080532,005160,076453,055679
0000000198,0000197000,090825,070743,077676,003325,068010,065956
0000000199,0000198000,091116,073081,075047,004917,057813,074561
0000000200,0000199000,090513,075817,072913,009782,046870,080640
0000000201,0000200000,089072,078687,071484,017443,036254,083595
0000000202,0000201000,086925,081424,070894,027159,026988,083145
0000000203,0000202000,084292,083751,071200,037971,019985,079336
0000000204,0000203000,081438,085431,072374,048812,015942,072539
0000000205,0000204000,078624,086313,074306,058635,015245,063411
0000000206,0000205000,076131,086308,076805,066483,017958,052850
0000000207,0000206000,074214,085414,079616,071573,023817,041902
0000000208,0000207000,073053,083717,082474,073408,032256,031628
0000000209,0000208000,072757,081383,085103,071820,042448,023024
0000000210,0000209000,073360,078645,087237,066963,053385,016945
0000000211,0000210000,074803,075772,088668,059306,063997,013988
0000000212,0000211000,076948,073036,089259,049595,073262,014434
0000000213,0000212000,079581,070709,088953,038790,080263,018239
0000000214,0000213000,082439,069025,087780,027954,084308,025030
0000000215,0000214000,085252,068143,085848,018132,085010,034151
0000000216,0000215000,087744,068150,083349,010286,082300,044706
0000000217,0000216000,089665,069041,080538,005196,076446,055650
0000000218,0000217000,090828,070737,077679,003356,068016,065920
0000000219,0000218000,091122,073074,075048,004940,057829,074523
0000000220,0000219000,090521,075810,072912,009793,046897,080603
0000000221,0000220000,089079,078683,071481,017442,036289,083561
0000000222,0000221000,086932,081423,070889,027146,027027,083119
0000000223,0000222000,084299,083750,071194,037947,020025,079320
0000000224,0000223000,081443,085434,072367,048778,015978,072535
0000000225,0000224000,078627,086318,074299,058596,015275,063421
0000000226,0000225000,076132,086314,076798,066442,017977,052872
0000000227,0000226000,074213,085421,079610,071533,023825,041934
0000000228,0000227000,073048,083726,082470,073375,032250,031667
0000000229,0000228000,072751,081390,085102,071797,042429,023066
0000000230,0000229000,073354,078651,087238,066951,053355,016986
0000000231,0000230000,074795,075777,088671,059307,063960,014025
0000000232,0000231000,076940,073039,089265,049610,073219,014462
0000000233,0000232000,079575,070709,088960,038817,080220,018255
0000000234,0000233000,082433,069022,087788,027990,084269,025033
0000000235,0000234000,085248,068139,085857,018174,084977,034141
0000000236,0000235000,087744,068142,083357,010330,082279,044683
0000000237,0000236000,089667,069032,080544,005238,076439,055615
0000000238,0000237000,090832,070729,077683,003392,068022,065878
0000000239,0000238000,091128,073066,075050,004966,057849,074477
0000000240,0000239000,090529,075803,072912,009805,046929,080558
0000000241,0000240000,089088,078678,071478,017440,036330,083522
0000000242,0000241000,086941,081420,070883,027130,027073,083089
0000000243,0000242000,084307,083750,071186,037918,020072,079303
0000000244,0000243000,081449,085437,072358,048738,016021,072532
0000000245,0000244000,078630,086324,074289,058550,015309,063432
0000000246,0000245000,076134,086321,076789,066394,018000,052897
0000000247,0000246000,074211,085430,079603,071487,023834,041971
0000000248,0000247000,073043,083736,082465,073337,032243,031713
0000000249,0000248000,072745,081399,085100,071769,042407,023115
0000000250,0000249000,073345,078659,087240,066936,053321,017035
0000000251,0000250000,074785,075784,088675,059309,063915,014067
0000000252,0000251000,076931,073042,089271,049628,073169,014495
0000000253,0000252000,079567,070708,088969,038848,080170,018274
0000000254,0000253000,082426,069019,087798,028032,084223,025037
0000000255,0000254000,085244,068133,085866,018225,084940,034128
0000000256,0000255000,087743,068134,083366,010383,082254,044655
0000000257,0000256000,089669,069023,080552,005287,076430,055575
0000000258,0000257000,090836,070719,077689,003434,068029,065829
0000000259,0000258000,091136,073055,075052,004996,057872,074424
0000000260,0000259000,090539,075795,072910,009820,046966,080506
0000000261,0000260000,089098,078672,071474,017438,036378,083476
0000000262,0000261000,086951,081416,070876,027112,027127,083054
0000000263,0000262000,084317,083749,071177,037884,020126,079282
0000000264,0000263000,081455,085441,072347,048692,016071,072528
0000000265,0000264000,078635,086330,074279,058497,015349,063446
0000000266,0000265000,076135,086329,076779,066338,018027,052927
0000000267,0000266000,074208,085440,079595,071434,023844,042014
0000000268,0000267000,073037,083747,082459,073292,032235,031765
0000000269,0000268000,072737,081409,085097,071737,042382,023173
0000000270,0000269000,073335,078668,087241,066920,053281,017091
0000000271,0000270000,074773,075791,088680,059312,063863,014117
0000000272,0000271000,076920,073045,089279,049648,073111,014532
0000000273,0000272000,079557,070708,088979,038884,080111,018296
0000000274,0000273000,082418,069016,087809,028082,084170,025041
0000000275,0000274000,085239,068126,085878,018282,084897,034113
0000000276,0000275000,087742,068124,083377,010443,082226,044623
0000000277,0000276000,089671,069012,080560,005344,076420,055528
0000000278,0000277000,090842,070707,077694,003482,068038,065772
0000000279,0000278000,091145,073044,075054,005030,057899,074363
0000000280,0000279000,090549,075785,072909,009837,047010,080446
0000000281,0000280000,089109,078665,071469,017436,036433,083423
0000000282,0000281000,086963,081412,070868,027090,027188,083014
0000000283,0000282000,084327,083750,071167,037845,020189,079259
0000000284,0000283000,081463,085445,072335,048640,016128,072524
0000000285,0000284000,078641,086337,074266,058435,015394,063462
0000000286,0000285000,076137,086339,076768,066273,018057,052962
0000000287,0000286000,074205,085453,079586,071373,023854,042064
0000000288,0000287000,073031,083759,082453,073241,032225,031826
0000000289,0000288000,072728,081421,085095,071701,042353,023238
0000000290,0000289000,073323,078679,087242,066903,053235,017154
0000000291,0000290000,074761,075798,088685,059314,063804,014173
0000000292,0000291000,076908,073049,089287,049671,073045,014575
0000000293,0000292000,079545,070709,088990,038926,080045,018321
0000000294,0000293000,082409,069013,087822,028138,084109,025045
0000000295,0000294000,085234,068118,085891,018348,084848,034096
0000000296,0000295000,087741,068114,083389,010511,082195,044586
0000000297,0000296000,089673,069000,080570,005409,076408,055475
0000000298,0000297000,090849,070693,077701,003536,068048,065707
0000000299,0000298000,091155,073031,075058,005068,057931,074293
0000000300,0000299000,090561,075774,072908,009856,047059,080377
0000000301,0000300000,089123,078657,071463,017433,036496,083363
